# Hz S RI R 50.00 
100000000.0         0.0377985252042     0.00457673442675    0.962196948026      -0.00645295786679   0.962196948026      -0.00645295786679   0.0377985252042     0.00457673442675    
200000000.0         0.0381304721468     0.0091469305861     0.961857907241      -0.0128994024712    0.961857907241      -0.0128994024712    0.0381304721468     0.0091469305861     
300000000.0         0.0384590086316     0.0137118005433     0.961518708914      -0.0193405673717    0.961518708914      -0.0193405673717    0.0384590086316     0.0137118005433     
400000000.0         0.0388157496434     0.0182710986285     0.961147737121      -0.0257762259365    0.961147737121      -0.0257762259365    0.0388157496434     0.0182710986285     
500000000.0         0.0392128153415     0.0228242424441     0.960732870671      -0.0322058135668    0.960732870671      -0.0322058135668    0.0392128153415     0.0228242424441     
600000000.0         0.0396563246461     0.0273705024778     0.960267989497      -0.0386286177367    0.960267989497      -0.0386286177367    0.0396563246461     0.0273705024778     
700000000.0         0.0401498268898     0.0319090704839     0.95974954299       -0.0450438465924    0.95974954299       -0.0450438465924    0.0401498268898     0.0319090704839     
800000000.0         0.0406955546787     0.0364390914548     0.959175297135      -0.0514506610545    0.959175297135      -0.0514506610545    0.0406955546787     0.0364390914548     
900000000.0         0.0412949819094     0.0409596810223     0.958543776491      -0.057848192305     0.958543776491      -0.057848192305     0.0412949819094     0.0409596810223     
1000000000.0        0.0419491067269     0.0454699359661     0.957853981232      -0.0642355523571    0.957853981232      -0.0642355523571    0.0419491067269     0.0454699359661     
1100000000.0        0.0426586089051     0.0499689410726     0.957105229762      -0.0706118409582    0.957105229762      -0.0706118409582    0.0426586089051     0.0499689410726     
1200000000.0        0.0434239437061     0.0544557738954     0.956297064861      -0.076976150385     0.956297064861      -0.076976150385     0.0434239437061     0.0544557738954     
1300000000.0        0.0442454010112     0.0589295082307     0.955429194549      -0.0833275689458    0.955429194549      -0.0833275689458    0.0442454010112     0.0589295082307     
1400000000.0        0.0451231442669     0.0633892167645     0.954501453144      -0.0896651836494    0.954501453144      -0.0896651836494    0.0451231442669     0.0633892167645     
1500000000.0        0.0460572371036     0.0678339731635     0.953513774638      -0.0959880823141    0.953513774638      -0.0959880823141    0.0460572371036     0.0678339731635     
1600000000.0        0.0470476621118     0.0722628537792     0.952466173928      -0.102295355286     0.952466173928      -0.102295355286     0.0470476621118     0.0722628537792     
1700000000.0        0.0480943344551     0.0766749390726     0.951358733198      -0.108586096878     0.951358733198      -0.108586096878     0.0480943344551     0.0766749390726     
1800000000.0        0.0491971119815     0.081069314834      0.950191591807      -0.114859406598     0.950191591807      -0.114859406598     0.0491971119815     0.081069314834      
1900000000.0        0.050355802902      0.0854450732472     0.948964938618      -0.121114390225     0.948964938618      -0.121114390225     0.050355802902      0.0854450732472     
2000000000.0        0.0515701717386     0.0898013138319     0.947679006043      -0.127350160758     0.947679006043      -0.127350160758     0.0515701717386     0.0898013138319     
2100000000.0        0.0528399440202     0.0941371442905     0.946334065348      -0.13356583927      0.946334065348      -0.13356583927      0.0528399440202     0.0941371442905     
2200000000.0        0.0541648100555     0.0984516812772     0.944930422885      -0.139760555684     0.944930422885      -0.139760555684     0.0541648100555     0.0984516812772     
2300000000.0        0.055544428016      0.102744051102      0.943468417006      -0.145933449484     0.943468417006      -0.145933449484     0.055544428016      0.102744051102      
2400000000.0        0.056978426496      0.107013390381      0.941948415502      -0.152083670367     0.941948415502      -0.152083670367     0.056978426496      0.107013390381      
2500000000.0        0.058466406672      0.111258846638      0.940370813446      -0.158210378855     0.940370813446      -0.158210378855     0.058466406672      0.111258846638      
2600000000.0        0.0600079441511     0.115479578869      0.938736031345      -0.164312746856     0.938736031345      -0.164312746856     0.0600079441511     0.115479578869      
2700000000.0        0.0616025905764     0.119674758065      0.937044513533      -0.170389958196     0.937044513533      -0.170389958196     0.0616025905764     0.119674758065      
2800000000.0        0.0632498750403     0.123843567706      0.935296726759      -0.176441209116     0.935296726759      -0.176441209116     0.0632498750403     0.123843567706      
2900000000.0        0.0649493053458     0.12798520422       0.933493158927      -0.182465708735     0.933493158927      -0.182465708735     0.0649493053458     0.12798520422       
3000000000.0        0.0667003691441     0.132098877422      0.931634317954      -0.188462679487     0.931634317954      -0.188462679487     0.0667003691441     0.132098877422      
3100000000.0        0.0685025349744     0.136183810918      0.929720730737      -0.194431357532     0.929720730737      -0.194431357532     0.0685025349744     0.136183810918      
3200000000.0        0.0703552532227     0.14023924249       0.927752942187      -0.200370993145     0.927752942187      -0.200370993145     0.0703552532227     0.14023924249       
3300000000.0        0.0722579570152     0.144264424453      0.925731514343      -0.206280851071     0.925731514343      -0.206280851071     0.0722579570152     0.144264424453      
3400000000.0        0.0742100630574     0.148258623996      0.923657025527      -0.212160210868     0.923657025527      -0.212160210868     0.0742100630574     0.148258623996      
3500000000.0        0.0762109724282     0.15222112349       0.921530069552      -0.218008367226     0.921530069552      -0.218008367226     0.0762109724282     0.15222112349       
3600000000.0        0.0782600713371     0.156151220787      0.919351254967      -0.223824630257     0.919351254967      -0.223824630257     0.0782600713371     0.156151220787      
3700000000.0        0.0803567318491     0.160048229494      0.917121204328      -0.229608325773     0.917121204328      -0.229608325773     0.0803567318491     0.160048229494      
3800000000.0        0.0825003125841     0.163911479219      0.914840553502      -0.235358795539     0.914840553502      -0.235358795539     0.0825003125841     0.163911479219      
3900000000.0        0.0846901593919     0.167740315811      0.91250995099       -0.241075397511     0.91250995099       -0.241075397511     0.0846901593919     0.167740315811      
4000000000.0        0.0869256060097     0.17153410157       0.910130057271      -0.246757506047     0.910130057271      -0.246757506047     0.0869256060097     0.17153410157       
4100000000.0        0.0892059747004     0.175292215443      0.90770154416       -0.252404512107     0.90770154416       -0.252404512107     0.0892059747004     0.175292215443      
4200000000.0        0.0915305768774     0.179014053203      0.90522509419       -0.258015823428     0.90522509419       -0.258015823428     0.0915305768774     0.179014053203      
4300000000.0        0.0938987137152     0.182699027601      0.902701399993      -0.263590864685     0.902701399993      -0.263590864685     0.0938987137152     0.182699027601      
4400000000.0        0.0963096767478     0.186346568514      0.900131163708      -0.269129077634     0.900131163708      -0.269129077634     0.0963096767478     0.186346568514      
4500000000.0        0.0987627484567     0.189956123063      0.897515096389      -0.274629921234     0.897515096389      -0.274629921234     0.0987627484567     0.189956123063      
4600000000.0        0.101257202848      0.19352715572       0.894853917431      -0.280092871753     0.894853917431      -0.280092871753     0.101257202848      0.19352715572       
4700000000.0        0.10379230602       0.197059148397      0.892148353998      -0.285517422862     0.892148353998      -0.285517422862     0.10379230602       0.197059148397      
4800000000.0        0.106367316723      0.200551600517      0.889399140468      -0.290903085701     0.889399140468      -0.290903085701     0.106367316723      0.200551600517      
4900000000.0        0.108981486905      0.204004029071      0.886607017881      -0.296249388945     0.886607017881      -0.296249388945     0.108981486905      0.204004029071      
5000000000.0        0.111634062257      0.207415968658      0.8837727334        -0.301555878836     0.8837727334        -0.301555878836     0.111634062257      0.207415968658      
5100000000.0        0.114324282746      0.210786971509      0.880897039774      -0.306822119213     0.880897039774      -0.306822119213     0.114324282746      0.210786971509      
5200000000.0        0.117051383136      0.214116607494      0.877980694818      -0.312047691521     0.877980694818      -0.312047691521     0.117051383136      0.214116607494      
5300000000.0        0.119814593503      0.217404464119      0.875024460893      -0.317232194805     0.875024460893      -0.317232194805     0.119814593503      0.217404464119      
5400000000.0        0.12261313975       0.220650146505      0.872029104401      -0.32237524569      0.872029104401      -0.32237524569      0.12261313975       0.220650146505      
5500000000.0        0.125446244099      0.22385327735       0.868995395284      -0.32747647835      0.868995395284      -0.32747647835      0.125446244099      0.22385327735       
5600000000.0        0.128313125585      0.227013496884      0.865924106531      -0.332535544453     0.865924106531      -0.332535544453     0.128313125585      0.227013496884      
5700000000.0        0.131213000539      0.230130462804      0.862816013699      -0.337552113108     0.862816013699      -0.337552113108     0.131213000539      0.230130462804      
5800000000.0        0.134145083059      0.233203850203      0.859671894434      -0.342525870784     0.859671894434      -0.342525870784     0.134145083059      0.233203850203      
5900000000.0        0.13710858548       0.236233351474      0.85649252801       -0.347456521225     0.85649252801       -0.347456521225     0.13710858548       0.236233351474      
6000000000.0        0.140102718824      0.239218676221      0.853278694873      -0.352343785351     0.853278694873      -0.352343785351     0.140102718824      0.239218676221      
6100000000.0        0.143126693252      0.242159551134      0.850031176187      -0.357187401143     0.850031176187      -0.357187401143     0.143126693252      0.242159551134      
6200000000.0        0.146179718499      0.245055719876      0.846750753404      -0.361987123525     0.846750753404      -0.361987123525     0.146179718499      0.245055719876      
6300000000.0        0.149261004304      0.247906942942      0.843438207829      -0.366742724224     0.843438207829      -0.366742724224     0.149261004304      0.247906942942      
6400000000.0        0.152369760829      0.250712997516      0.840094320205      -0.371453991628     0.840094320205      -0.371453991628     0.152369760829      0.250712997516      
6500000000.0        0.155505199066      0.253473677312      0.836719870298      -0.376120730633     0.836719870298      -0.376120730633     0.155505199066      0.253473677312      
6600000000.0        0.158666531242      0.256188792412      0.833315636502      -0.380742762469     0.833315636502      -0.380742762469     0.158666531242      0.256188792412      
6700000000.0        0.161852971202      0.258858169091      0.829882395447      -0.385319924537     0.829882395447      -0.385319924537     0.161852971202      0.258858169091      
6800000000.0        0.165063734794      0.261481649627      0.826420921616      -0.389852070215     0.826420921616      -0.389852070215     0.165063734794      0.261481649627      
6900000000.0        0.168298040239      0.264059092114      0.822931986979      -0.394339068671     0.822931986979      -0.394339068671     0.168298040239      0.264059092114      
7000000000.0        0.171555108485      0.266590370262      0.81941636063       -0.398780804662     0.81941636063       -0.398780804662     0.171555108485      0.266590370262      
7100000000.0        0.174834163564      0.26907537318       0.815874808436      -0.403177178323     0.815874808436      -0.403177178323     0.174834163564      0.26907537318       
7200000000.0        0.178134432925      0.27151400517       0.812308092703      -0.407528104955     0.812308092703      -0.407528104955     0.178134432925      0.27151400517       
7300000000.0        0.181455147765      0.273906185497      0.808716971839      -0.411833514797     0.808716971839      -0.411833514797     0.181455147765      0.273906185497      
7400000000.0        0.18479554335       0.276251848163      0.805102200042      -0.416093352804     0.805102200042      -0.416093352804     0.18479554335       0.276251848163      
7500000000.0        0.188154859317      0.278550941668      0.801464526986      -0.420307578404     0.801464526986      -0.420307578404     0.188154859317      0.278550941668      
7600000000.0        0.191532339977      0.280803428772      0.797804697529      -0.424476165264     0.797804697529      -0.424476165264     0.191532339977      0.280803428772      
7700000000.0        0.194927234599      0.283009286249      0.794123451419      -0.428599101037     0.794123451419      -0.428599101037     0.194927234599      0.283009286249      
7800000000.0        0.198338797687      0.285168504631      0.790421523021      -0.432676387117     0.790421523021      -0.432676387117     0.198338797687      0.285168504631      
7900000000.0        0.201766289246      0.287281087956      0.78669964105       -0.436708038377     0.78669964105       -0.436708038377     0.201766289246      0.287281087956      
8000000000.0        0.205208975038      0.289347053506      0.782958528313      -0.440694082915     0.782958528313      -0.440694082915     0.205208975038      0.289347053506      
8100000000.0        0.208666126826      0.291366431544      0.779198901467      -0.444634561787     0.779198901467      -0.444634561787     0.208666126826      0.291366431544      
8200000000.0        0.212137022613      0.293339265046      0.775421470777      -0.448529528739     0.775421470777      -0.448529528739     0.212137022613      0.293339265046      
8300000000.0        0.215620946858      0.295265609432      0.771626939897      -0.452379049941     0.771626939897      -0.452379049941     0.215620946858      0.295265609432      
8400000000.0        0.219117190701      0.297145532291      0.767816005652      -0.456183203711     0.767816005652      -0.456183203711     0.219117190701      0.297145532291      
8500000000.0        0.222625052159      0.298979113107      0.763989357835      -0.459942080238     0.763989357835      -0.459942080238     0.222625052159      0.298979113107      
8600000000.0        0.226143836322      0.300766442985      0.760147679008      -0.463655781313     0.760147679008      -0.463655781313     0.226143836322      0.300766442985      
8700000000.0        0.229672855542      0.302507624365      0.756291644322      -0.467324420041     0.756291644322      -0.467324420041     0.229672855542      0.302507624365      
8800000000.0        0.2332114296        0.304202770749      0.752421921338      -0.470948120567     0.752421921338      -0.470948120567     0.2332114296        0.304202770749      
8900000000.0        0.236758885877      0.305852006416      0.748539169866      -0.474527017793     0.748539169866      -0.474527017793     0.236758885877      0.305852006416      
9000000000.0        0.240314559505      0.307455466141      0.744644041804      -0.478061257098     0.744644041804      -0.478061257098     0.240314559505      0.307455466141      
9100000000.0        0.243877793515      0.309013294915      0.740737180995      -0.481550994052     0.740737180995      -0.481550994052     0.243877793515      0.309013294915      
9200000000.0        0.247447938971      0.310525647659      0.736819223088      -0.484996394139     0.736819223088      -0.484996394139     0.247447938971      0.310525647659      
9300000000.0        0.251024355101      0.311992688946      0.732890795411      -0.488397632472     0.732890795411      -0.488397632472     0.251024355101      0.311992688946      
9400000000.0        0.25460640941       0.313414592717      0.728952516854      -0.491754893513     0.728952516854      -0.491754893513     0.25460640941       0.313414592717      
9500000000.0        0.258193477794      0.314791542001      0.725004997755      -0.49506837079      0.725004997755      -0.49506837079      0.258193477794      0.314791542001      
9600000000.0        0.261784944636      0.316123728634      0.721048839801      -0.498338266622     0.721048839801      -0.498338266622     0.261784944636      0.316123728634      
9700000000.0        0.265380202905      0.317411352983      0.717084635934      -0.501564791832     0.717084635934      -0.501564791832     0.265380202905      0.317411352983      
9800000000.0        0.26897865423       0.318654623666      0.713112970269      -0.50474816548      0.713112970269      -0.50474816548      0.26897865423       0.318654623666      
9900000000.0        0.272579708983      0.319853757279      0.709134418013      -0.50788861458      0.709134418013      -0.50788861458      0.272579708983      0.319853757279      
10000000000.0       0.276182786345      0.321008978118      0.705149545403      -0.510986373828     0.705149545403      -0.510986373828     0.276182786345      0.321008978118      
