# Hz S RI R 50.00 
100000000.0         0.00852124742819    0.00253123455416    0.991473067392      -0.00478723040868   0.991473067392      -0.00478723040868   0.00852124742819    0.00253123455416    
200000000.0         0.0086130742226     0.00506138825152    0.991371450822      -0.00957341812302   0.991371450822      -0.00957341812302   0.0086130742226     0.00506138825152    
300000000.0         0.00871442240575    0.00759053053778    0.991255207468      -0.0143586577768    0.991255207468      -0.0143586577768    0.00871442240575    0.00759053053778    
400000000.0         0.00883261972619    0.010118512802      0.991117008582      -0.019142820417     0.991117008582      -0.019142820417     0.00883261972619    0.010118512802      
500000000.0         0.00897047978639    0.0126451358481     0.990954039366      -0.0239257236883    0.990954039366      -0.0239257236883    0.00897047978639    0.0126451358481     
600000000.0         0.00912942828896    0.0151701782616     0.990764872733      -0.0287071611563    0.990764872733      -0.0287071611563    0.00912942828896    0.0151701782616     
700000000.0         0.00931029779375    0.017693406636      0.990548674558      -0.0334869130232    0.990548674558      -0.0334869130232    0.00931029779375    0.017693406636      
800000000.0         0.00951361777734    0.020214580344      0.990304913622      -0.0382647511926    0.990304913622      -0.0382647511926    0.00951361777734    0.020214580344      
900000000.0         0.00973974377845    0.0227334541224     0.990033232479      -0.0430404420494    0.990033232479      -0.0430404420494    0.00973974377845    0.0227334541224     
1000000000.0        0.00998892285663    0.0252497796217     0.989733381996      -0.0478137481464    0.989733381996      -0.0478137481464    0.00998892285663    0.0252497796217     
1100000000.0        0.0102613299795     0.0277633064082     0.989405184977      -0.0525844293077    0.989405184977      -0.0525844293077    0.0102613299795     0.0277633064082     
1200000000.0        0.0105570897055     0.0302737826496     0.989048514479      -0.0573522433927    0.989048514479      -0.0573522433927    0.0105570897055     0.0302737826496     
1300000000.0        0.0108762898277     0.0327809556089     0.988663280176      -0.0621169468511    0.988663280176      -0.0621169468511    0.0108762898277     0.0327809556089     
1400000000.0        0.0112189903442     0.0352845720131     0.988249419389      -0.0668782951416    0.988249419389      -0.0668782951416    0.0112189903442     0.0352845720131     
1500000000.0        0.011585229574      0.0377843783393     0.987806890976      -0.0716360430588    0.987806890976      -0.0716360430588    0.011585229574      0.0377843783393     
1600000000.0        0.0119750284559     0.0402801210436     0.987335671036      -0.0763899449961    0.987335671036      -0.0763899449961    0.0119750284559     0.0402801210436     
1700000000.0        0.0123883936502     0.0427715467484     0.986835749805      -0.0811397551624    0.986835749805      -0.0811397551624    0.0123883936502     0.0427715467484     
1800000000.0        0.0128253198285     0.0452584023999     0.986307129377      -0.0858852277642    0.986307129377      -0.0858852277642    0.0128253198285     0.0452584023999     
1900000000.0        0.0132857913975     0.0477404354036     0.985749821976      -0.0906261171628    0.985749821976      -0.0906261171628    0.0132857913975     0.0477404354036     
2000000000.0        0.0137697838206     0.0502173937421     0.98516384864       -0.0953621780112    0.98516384864       -0.0953621780112    0.0137697838206     0.0502173937421     
2100000000.0        0.0142772646479     0.0526890260805     0.98454923819       -0.100093165375     0.98454923819       -0.100093165375     0.0142772646479     0.0526890260805     
2200000000.0        0.0148081943296     0.0551550818605     0.983906026423      -0.104818834845     0.983906026423      -0.104818834845     0.0148081943296     0.0551550818605     
2300000000.0        0.0153625268686     0.057615311387      0.983234255457      -0.10953894263      0.983234255457      -0.10953894263      0.0153625268686     0.057615311387      
2400000000.0        0.0159402103494     0.0600694659074     0.982533973206      -0.114253245655     0.982533973206      -0.114253245655     0.0159402103494     0.0600694659074     
2500000000.0        0.0165411873729     0.0625172976858     0.981805232946      -0.118961501642     0.981805232946      -0.118961501642     0.0165411873729     0.0625172976858     
2600000000.0        0.0171653954174     0.064958560072      0.981048092956      -0.123663469193     0.981048092956      -0.123663469193     0.0171653954174     0.064958560072      
2700000000.0        0.0178127671415     0.0673930075669     0.980262616217      -0.128358907856     0.980262616217      -0.128358907856     0.0178127671415     0.0673930075669     
2800000000.0        0.0184832306409     0.0698203958848     0.979448870155      -0.133047578205     0.979448870155      -0.133047578205     0.0184832306409     0.0698203958848     
2900000000.0        0.0191767096692     0.0722404820125     0.978606926423      -0.137729241901     0.978606926423      -0.137729241901     0.0191767096692     0.0722404820125     
3000000000.0        0.0198931238278     0.0746530242659     0.977736860713      -0.142403661756     0.977736860713      -0.142403661756     0.0198931238278     0.0746530242659     
3100000000.0        0.0206323887329     0.0770577823444     0.976838752587      -0.147070601794     0.976838752587      -0.147070601794     0.0206323887329     0.0770577823444     
3200000000.0        0.0213944161619     0.0794545173832     0.975912685335      -0.151729827311     0.975912685335      -0.151729827311     0.0213944161619     0.0794545173832     
3300000000.0        0.0221791141846     0.0818429920043     0.974958745845      -0.156381104928     0.974958745845      -0.156381104928     0.0221791141846     0.0818429920043     
3400000000.0        0.0229863872798     0.0842229703651     0.973977024482      -0.161024202649     0.973977024482      -0.161024202649     0.0229863872798     0.0842229703651     
3500000000.0        0.0238161364419     0.0865942182057     0.972967614992      -0.165658889909     0.972967614992      -0.165658889909     0.0238161364419     0.0865942182057     
3600000000.0        0.0246682592779     0.0889565028956     0.971930614396      -0.170284937626     0.971930614396      -0.170284937626     0.0246682592779     0.0889565028956     
3700000000.0        0.0255426500965     0.0913095934775     0.970866122908      -0.174902118251     0.970866122908      -0.174902118251     0.0255426500965     0.0913095934775     
3800000000.0        0.0264391999907     0.0936532607113     0.969774243852      -0.179510205815     0.969774243852      -0.179510205815     0.0264391999907     0.0936532607113     
3900000000.0        0.0273577969155     0.0959872771165     0.968655083584      -0.184108975971     0.968655083584      -0.184108975971     0.0273577969155     0.0959872771165     
4000000000.0        0.02829832576       0.0983114170125     0.967508751421      -0.188698206046     0.967508751421      -0.188698206046     0.02829832576       0.0983114170125     
4100000000.0        0.0292606684166     0.100625456559      0.966335359574      -0.193277675077     0.966335359574      -0.193277675077     0.0292606684166     0.100625456559      
4200000000.0        0.0302447038465     0.102929173796      0.96513502308       -0.197847163856     0.96513502308       -0.197847163856     0.0302447038465     0.102929173796      
4300000000.0        0.0312503081418     0.10522234868       0.963907859746      -0.202406454972     0.963907859746      -0.202406454972     0.0312503081418     0.10522234868       
4400000000.0        0.0322773545863     0.107504763121      0.962653990083      -0.206955332847     0.962653990083      -0.206955332847     0.0322773545863     0.107504763121      
4500000000.0        0.0333257137135     0.10977620102       0.961373537252      -0.211493583779     0.961373537252      -0.211493583779     0.0333257137135     0.10977620102       
4600000000.0        0.0343952533628     0.112036448301      0.960066627007      -0.216020995975     0.960066627007      -0.216020995975     0.0343952533628     0.112036448301      
4700000000.0        0.0354858387349     0.11428529295       0.958733387642      -0.22053735959      0.958733387642      -0.22053735959      0.0354858387349     0.11428529295       
4800000000.0        0.0365973324451     0.116522525041      0.957373949936      -0.225042466761     0.957373949936      -0.225042466761     0.0365973324451     0.116522525041      
4900000000.0        0.0377295945763     0.118747936775      0.955988447101      -0.229536111642     0.955988447101      -0.229536111642     0.0377295945763     0.118747936775      
5000000000.0        0.0388824827301     0.120961322506      0.954577014735      -0.234018090434     0.954577014735      -0.234018090434     0.0388824827301     0.120961322506      
5100000000.0        0.0400558520782     0.123162478774      0.953139790764      -0.238488201424     0.953139790764      -0.238488201424     0.0400558520782     0.123162478774      
5200000000.0        0.0412495554126     0.125351204333      0.9516769154        -0.242946245007     0.9516769154        -0.242946245007     0.0412495554126     0.125351204333      
5300000000.0        0.0424634431946     0.12752730018       0.950188531085      -0.247392023724     0.950188531085      -0.247392023724     0.0424634431946     0.12752730018       
5400000000.0        0.0436973636047     0.129690569583      0.94867478245       -0.251825342285     0.94867478245       -0.251825342285     0.0436973636047     0.129690569583      
5500000000.0        0.0449511625905     0.131840818104      0.947135816258      -0.256246007602     0.947135816258      -0.256246007602     0.0449511625905     0.131840818104      
5600000000.0        0.0462246839158     0.133977853631      0.945571781363      -0.260653828813     0.945571781363      -0.260653828813     0.0462246839158     0.133977853631      
5700000000.0        0.0475177692078     0.136101486399      0.94398282866       -0.265048617308     0.94398282866       -0.265048617308     0.0475177692078     0.136101486399      
5800000000.0        0.0488302580054     0.138211529011      0.942369111037      -0.269430186758     0.942369111037      -0.269430186758     0.0488302580054     0.138211529011      
5900000000.0        0.0501619878063     0.140307796466      0.940730783328      -0.273798353135     0.940730783328      -0.273798353135     0.0501619878063     0.140307796466      
6000000000.0        0.0515127941144     0.142390106182      0.939068002267      -0.278152934735     0.939068002267      -0.278152934735     0.0515127941144     0.142390106182      
6100000000.0        0.0528825104868     0.14445827801       0.937380926441      -0.282493752205     0.937380926441      -0.282493752205     0.0528825104868     0.14445827801       
6200000000.0        0.0542709685806     0.146512134261      0.935669716243      -0.28682062856      0.935669716243      -0.28682062856      0.0542709685806     0.146512134261      
6300000000.0        0.0556779982        0.148551499723      0.933934533825      -0.291133389207     0.933934533825      -0.291133389207     0.0556779982        0.148551499723      
6400000000.0        0.0571034273422     0.150576201681      0.932175543053      -0.29543186196      0.932175543053      -0.29543186196      0.0571034273422     0.150576201681      
6500000000.0        0.0585470822447     0.152586069933      0.930392909461      -0.299715877064     0.930392909461      -0.299715877064     0.0585470822447     0.152586069933      
6600000000.0        0.0600087874308     0.154580936806      0.928586800204      -0.303985267209     0.928586800204      -0.303985267209     0.0600087874308     0.154580936806      
6700000000.0        0.0614883657564     0.156560637175      0.926757384009      -0.308239867547     0.926757384009      -0.308239867547     0.0614883657564     0.156560637175      
6800000000.0        0.062985638456      0.158525008477      0.924904831136      -0.31247951571      0.924904831136      -0.31247951571      0.062985638456      0.158525008477      
6900000000.0        0.0645004251884     0.160473890723      0.923029313328      -0.316704051825     0.923029313328      -0.316704051825     0.0645004251884     0.160473890723      
7000000000.0        0.0660325440826     0.162407126517      0.921131003763      -0.320913318526     0.921131003763      -0.320913318526     0.0660325440826     0.162407126517      
7100000000.0        0.0675818117838     0.164324561061      0.919210077014      -0.325107160968     0.919210077014      -0.325107160968     0.0675818117838     0.164324561061      
7200000000.0        0.0691480434988     0.166226042173      0.917266709         -0.329285426842     0.917266709         -0.329285426842     0.0691480434988     0.166226042173      
7300000000.0        0.0707310530415     0.168111420295      0.915301076941      -0.333447966382     0.915301076941      -0.333447966382     0.0707310530415     0.168111420295      
7400000000.0        0.072330652878      0.169980548503      0.913313359314      -0.337594632379     0.913313359314      -0.337594632379     0.072330652878      0.169980548503      
7500000000.0        0.0739466541722     0.171833282518      0.911303735807      -0.341725280191     0.911303735807      -0.341725280191     0.0739466541722     0.171833282518      
7600000000.0        0.0755788668305     0.173669480714      0.909272387273      -0.345839767749     0.909272387273      -0.345839767749     0.0755788668305     0.173669480714      
7700000000.0        0.0772270995469     0.175489004123      0.907219495689      -0.34993795557      0.907219495689      -0.34993795557      0.0772270995469     0.175489004123      
7800000000.0        0.0788911598472     0.177291716444      0.905145244108      -0.354019706758     0.905145244108      -0.354019706758     0.0788911598472     0.177291716444      
7900000000.0        0.0805708541342     0.179077484052      0.903049816614      -0.358084887016     0.903049816614      -0.358084887016     0.0805708541342     0.179077484052      
8000000000.0        0.0822659877316     0.180846175995      0.900933398281      -0.362133364648     0.900933398281      -0.362133364648     0.0822659877316     0.180846175995      
8100000000.0        0.0839763649282     0.182597664008      0.898796175128      -0.366165010568     0.898796175128      -0.366165010568     0.0839763649282     0.182597664008      
8200000000.0        0.0857017890219     0.18433182251       0.896638334072      -0.370179698297     0.896638334072      -0.370179698297     0.0857017890219     0.18433182251       
8300000000.0        0.0874420623631     0.186048528608      0.894460062888      -0.374177303975     0.894460062888      -0.374177303975     0.0874420623631     0.186048528608      
8400000000.0        0.0891969863987     0.187747662103      0.892261550164      -0.378157706357     0.892261550164      -0.378157706357     0.0891969863987     0.187747662103      
8500000000.0        0.0909663617149     0.189429105486      0.89004298526       -0.382120786816     0.89004298526       -0.382120786816     0.0909663617149     0.189429105486      
8600000000.0        0.0927499880804     0.191092743941      0.88780455826       -0.386066429346     0.88780455826       -0.386066429346     0.0927499880804     0.191092743941      
8700000000.0        0.094547664489      0.192738465348      0.885546459933      -0.38999452056      0.885546459933      -0.38999452056      0.094547664489      0.192738465348      
8800000000.0        0.0963591892022     0.194366160274      0.883268881693      -0.393904949691     0.883268881693      -0.393904949691     0.0963591892022     0.194366160274      
8900000000.0        0.0981843597911     0.195975721983      0.88097201555       -0.397797608589     0.88097201555       -0.397797608589     0.0981843597911     0.195975721983      
9000000000.0        0.100022973179      0.197567046421      0.878656054074      -0.40167239172      0.878656054074      -0.40167239172      0.100022973179      0.197567046421      
9100000000.0        0.101874825681      0.199140032223      0.87632119035       -0.405529196164     0.87632119035       -0.405529196164     0.101874825681      0.199140032223      
9200000000.0        0.103739713049      0.200694580705      0.873967617939      -0.409367921609     0.873967617939      -0.409367921609     0.103739713049      0.200694580705      
9300000000.0        0.10561743051       0.202230595859      0.871595530836      -0.413188470349     0.871595530836      -0.413188470349     0.10561743051       0.202230595859      
9400000000.0        0.107507772804      0.203747984351      0.869205123429      -0.416990747278     0.869205123429      -0.416990747278     0.107507772804      0.203747984351      
9500000000.0        0.109410534232      0.205246655512      0.866796590457      -0.420774659886     0.866796590457      -0.420774659886     0.109410534232      0.205246655512      
9600000000.0        0.111325508689      0.206726521335      0.864370126976      -0.424540118251     0.864370126976      -0.424540118251     0.111325508689      0.206726521335      
9700000000.0        0.113252489705      0.208187496464      0.861925928312      -0.428287035032     0.861925928312      -0.428287035032     0.113252489705      0.208187496464      
9800000000.0        0.115191270488      0.20962949819       0.859464190026      -0.432015325464     0.859464190026      -0.432015325464     0.115191270488      0.20962949819       
9900000000.0        0.117141643957      0.211052446442      0.856985107874      -0.435724907345     0.856985107874      -0.435724907345     0.117141643957      0.211052446442      
10000000000.0       0.119103402786      0.212456263776      0.85448887777       -0.439415701035     0.85448887777       -0.439415701035     0.119103402786      0.212456263776      
