# Hz S RI R 50.00 
100000000.0         0.00129184222483    0.000168194631252   0.998707116626      -0.000212301067569  0.998707116626      -0.000212301067569  0.00129184222483    0.000168194631252   
200000000.0         0.00130046460268    0.00033638344012    0.998698451152      -0.000424596789899  0.998698451152      -0.000424596789899  0.00130046460268    0.00033638344012    
300000000.0         0.00130685485386    0.000504569404301   0.998692015857      -0.000636890391645  0.998692015857      -0.000636890391645  0.00130685485386    0.000504569404301   
400000000.0         0.00131213861674    0.000672753711922   0.998686685103      -0.000849183250401  0.998686685103      -0.000849183250401  0.00131213861674    0.000672753711922   
500000000.0         0.00131675026036    0.00084093711819    0.99868202452       -0.00106147628251   0.99868202452       -0.00106147628251   0.00131675026036    0.00084093711819    
600000000.0         0.00132091173737    0.00100912018166    0.998677812155      -0.00127377018879   0.998677812155      -0.00127377018879   0.00132091173737    0.00100912018166    
700000000.0         0.00132475441261    0.00117730335104    0.998673916644      -0.00148606554609   0.998673916644      -0.00148606554609   0.00132475441261    0.00117730335104    
800000000.0         0.00132836355861    0.00134548700593    0.998670252712      -0.00169836285157   0.998670252712      -0.00169836285157   0.00132836355861    0.00134548700593    
900000000.0         0.00133179818234    0.00151367147963    0.998666761354      -0.00191066254679   0.998666761354      -0.00191066254679   0.00133179818234    0.00151367147963    
1000000000.0        0.00133510108176    0.00168185707215    0.998663399769      -0.00212296503306   0.998663399769      -0.00212296503306   0.00133510108176    0.00168185707215    
1100000000.0        0.00133830444028    0.00185004405936    0.998660135776      -0.00233527068084   0.998660135776      -0.00233527068084   0.00133830444028    0.00185004405936    
1200000000.0        0.00134143316211    0.00201823269885    0.998656944468      -0.00254757983654   0.998656944468      -0.00254757983654   0.00134143316211    0.00201823269885    
1300000000.0        0.00134450697299    0.00218642323395    0.998653806121      -0.00275989282749   0.998653806121      -0.00275989282749   0.00134450697299    0.00218642323395    
1400000000.0        0.00134754180123    0.00235461589697    0.998650704804      -0.00297220996536   0.998650704804      -0.00297220996536   0.00134754180123    0.00235461589697    
1500000000.0        0.00135055071988    0.00252281091137    0.998647627445      -0.00318453154903   0.998647627445      -0.00318453154903   0.00135055071988    0.00252281091137    
1600000000.0        0.00135354460857    0.00269100849368    0.998644563164      -0.0033968578666    0.998644563164      -0.0033968578666    0.00135354460857    0.00269100849368    
1700000000.0        0.00135653263101    0.00285920885494    0.998641502797      -0.00360918919696   0.998641502797      -0.00360918919696   0.00135653263101    0.00285920885494    
1800000000.0        0.00135952258708    0.00302741220158    0.998638438543      -0.00382152581141   0.998638438543      -0.00382152581141   0.00135952258708    0.00302741220158    
1900000000.0        0.00136252117736    0.00319561873638    0.998635363701      -0.00403386797469   0.998635363701      -0.00403386797469   0.00136252117736    0.00319561873638    
2000000000.0        0.00136553420536    0.00336382865932    0.998632272467      -0.00424621594579   0.998632272467      -0.00424621594579   0.00136553420536    0.00336382865932    
2100000000.0        0.00136856673473    0.00353204216821    0.998629159777      -0.00445856997866   0.998629159777      -0.00445856997866   0.00136856673473    0.00353204216821    
2200000000.0        0.00137162321259    0.00370025945886    0.998626021184      -0.00467093032324   0.998626021184      -0.00467093032324   0.00137162321259    0.00370025945886    
2300000000.0        0.00137470756803    0.00386848072595    0.998622852757      -0.00488329722549   0.998622852757      -0.00488329722549   0.00137470756803    0.00386848072595    
2400000000.0        0.0013778232912     0.00403670616305    0.998619651008      -0.0050956709283    0.998619651008      -0.0050956709283    0.0013778232912     0.00403670616305    
2500000000.0        0.0013809734977     0.00420493596307    0.998616412818      -0.00530805167163   0.998616412818      -0.00530805167163   0.0013809734977     0.00420493596307    
2600000000.0        0.00138416098135    0.00437317031854    0.998613135395      -0.00552043969297   0.998613135395      -0.00552043969297   0.00138416098135    0.00437317031854    
2700000000.0        0.00138738825785    0.00454140942166    0.998609816221      -0.00573283522772   0.998609816221      -0.00573283522772   0.00138738825785    0.00454140942166    
2800000000.0        0.00139065760122    0.00470965346475    0.998606453023      -0.00594523850929   0.998606453023      -0.00594523850929   0.00139065760122    0.00470965346475    
2900000000.0        0.00139397107423    0.00487790264024    0.998603043737      -0.00615764976944   0.998603043737      -0.00615764976944   0.00139397107423    0.00487790264024    
3000000000.0        0.00139733055434    0.0050461571408     0.998599586485      -0.00637006923859   0.998599586485      -0.00637006923859   0.00139733055434    0.0050461571408     
3100000000.0        0.00140073775548    0.00521441715958    0.998596079553      -0.00658249714583   0.998596079553      -0.00658249714583   0.00140073775548    0.00521441715958    
3200000000.0        0.00140419424688    0.00538268289028    0.99859252137       -0.00679493371918   0.99859252137       -0.00679493371918   0.00140419424688    0.00538268289028    
3300000000.0        0.00140770146911    0.00555095452722    0.998588910497      -0.00700737918573   0.998588910497      -0.00700737918573   0.00140770146911    0.00555095452722    
3400000000.0        0.00141126074796    0.00571923226546    0.998585245607      -0.0072198337718    0.998585245607      -0.0072198337718    0.00141126074796    0.00571923226546    
3500000000.0        0.00141487330654    0.00588751630078    0.998581525475      -0.00743229770307   0.998581525475      -0.00743229770307   0.00141487330654    0.00588751630078    
3600000000.0        0.0014185402757     0.00605580682995    0.998577748971      -0.0076447712046    0.998577748971      -0.0076447712046    0.0014185402757     0.00605580682995    
3700000000.0        0.00142226270325    0.00622410405053    0.998573915047      -0.00785725450108   0.998573915047      -0.00785725450108   0.00142226270325    0.00622410405053    
3800000000.0        0.00142604156195    0.00639240816119    0.998570022729      -0.00806974781673   0.998570022729      -0.00806974781673   0.00142604156195    0.00639240816119    
3900000000.0        0.00142987775667    0.00656071936153    0.998566071112      -0.00828225137559   0.998566071112      -0.00828225137559   0.00142987775667    0.00656071936153    
4000000000.0        0.00143377213062    0.00672903785222    0.998562059352      -0.00849476540146   0.998562059352      -0.00849476540146   0.00143377213062    0.00672903785222    
4100000000.0        0.00143772547089    0.00689736383508    0.998557986661      -0.00870729011802   0.998557986661      -0.00870729011802   0.00143772547089    0.00689736383508    
4200000000.0        0.00144173851341    0.007065697513      0.998553852303      -0.00891982574886   0.998553852303      -0.00891982574886   0.00144173851341    0.007065697513      
4300000000.0        0.00144581194738    0.00723403909007    0.998549655589      -0.00913237251756   0.998549655589      -0.00913237251756   0.00144581194738    0.00723403909007    
4400000000.0        0.00144994641914    0.00740238877154    0.998545395871      -0.00934493064778   0.998545395871      -0.00934493064778   0.00144994641914    0.00740238877154    
4500000000.0        0.00145414253578    0.00757074676391    0.998541072542      -0.00955750036319   0.998541072542      -0.00955750036319   0.00145414253578    0.00757074676391    
4600000000.0        0.0014584008683     0.00773911327485    0.998536685031      -0.00977008188765   0.998536685031      -0.00977008188765   0.0014584008683     0.00773911327485    
4700000000.0        0.00146272195444    0.00790748851329    0.998532232799      -0.0099826754452    0.998532232799      -0.0099826754452    0.00146272195444    0.00790748851329    
4800000000.0        0.0014671063013     0.0080758726894     0.998527715338      -0.0101952812601    0.998527715338      -0.0101952812601    0.0014671063013     0.0080758726894     
4900000000.0        0.00147155438767    0.00824426601463    0.99852313217       -0.0104078995568    0.99852313217       -0.0104078995568    0.00147155438767    0.00824426601463    
5000000000.0        0.00147606666614    0.00841266870174    0.998518482841      -0.01062053056      0.998518482841      -0.01062053056      0.00147606666614    0.00841266870174    
5100000000.0        0.00148064356506    0.00858108096471    0.998513766922      -0.0108331744949    0.998513766922      -0.0108331744949    0.00148064356506    0.00858108096471    
5200000000.0        0.00148528549027    0.00874950301887    0.998508984008      -0.0110458315868    0.998508984008      -0.0110458315868    0.00148528549027    0.00874950301887    
5300000000.0        0.00148999282672    0.00891793508083    0.998504133712      -0.0112585020616    0.998504133712      -0.0112585020616    0.00148999282672    0.00891793508083    
5400000000.0        0.00149476593993    0.00908637736849    0.998499215668      -0.0114711861452    0.998499215668      -0.0114711861452    0.00149476593993    0.00908637736849    
5500000000.0        0.00149960517734    0.00925483010107    0.99849422953       -0.0116838840644    0.99849422953       -0.0116838840644    0.00149960517734    0.00925483010107    
5600000000.0        0.0015045108695     0.00942329349911    0.998489174964      -0.011896596046     0.998489174964      -0.011896596046     0.0015045108695     0.00942329349911    
5700000000.0        0.00150948333125    0.00959176778446    0.998484051657      -0.0121093223175    0.998484051657      -0.0121093223175    0.00150948333125    0.00959176778446    
5800000000.0        0.00151452286275    0.00976025318026    0.998478859308      -0.0123220631067    0.998478859308      -0.0123220631067    0.00151452286275    0.00976025318026    
5900000000.0        0.00151962975041    0.009928749911      0.99847359763       -0.0125348186419    0.99847359763       -0.0125348186419    0.00151962975041    0.009928749911      
6000000000.0        0.00152480426778    0.0100972582025     0.998468266348      -0.0127475891521    0.998468266348      -0.0127475891521    0.00152480426778    0.0100972582025     
6100000000.0        0.0015300466764     0.0102657782817     0.998462865201      -0.0129603748665    0.998462865201      -0.0129603748665    0.0015300466764     0.0102657782817     
6200000000.0        0.0015353572265     0.0104343103773     0.998457393938      -0.013173176015     0.998457393938      -0.013173176015     0.0015353572265     0.0104343103773     
6300000000.0        0.00154073615775    0.0106028547188     0.998451852318      -0.0133859928279    0.998451852318      -0.0133859928279    0.00154073615775    0.0106028547188     
6400000000.0        0.00154618369987    0.0107714115372     0.998446240113      -0.0135988255361    0.998446240113      -0.0135988255361    0.00154618369987    0.0107714115372     
6500000000.0        0.00155170007325    0.0109399810651     0.9984405571        -0.013811674371     0.9984405571        -0.013811674371     0.00155170007325    0.0109399810651     
6600000000.0        0.00155728548949    0.0111085635358     0.998434803068      -0.0140245395646    0.998434803068      -0.0140245395646    0.00155728548949    0.0111085635358     
6700000000.0        0.00156294015195    0.0112771591845     0.998428977813      -0.0142374213495    0.998428977813      -0.0142374213495    0.00156294015195    0.0112771591845     
6800000000.0        0.00156866425621    0.0114457682473     0.998423081139      -0.0144503199588    0.998423081139      -0.0144503199588    0.00156866425621    0.0114457682473     
6900000000.0        0.00157445799053    0.0116143909618     0.998417112857      -0.014663235626     0.998417112857      -0.014663235626     0.00157445799053    0.0116143909618     
7000000000.0        0.00158032153627    0.0117830275667     0.998411072785      -0.0148761685856    0.998411072785      -0.0148761685856    0.00158032153627    0.0117830275667     
7100000000.0        0.00158625506828    0.0119516783021     0.998404960748      -0.0150891190723    0.998404960748      -0.0150891190723    0.00158625506828    0.0119516783021     
7200000000.0        0.00159225875527    0.0121203434094     0.998398776577      -0.0153020873215    0.998398776577      -0.0153020873215    0.00159225875527    0.0121203434094     
7300000000.0        0.00159833276017    0.0122890231313     0.998392520109      -0.0155150735692    0.998392520109      -0.0155150735692    0.00159833276017    0.0122890231313     
7400000000.0        0.00160447724041    0.0124577177116     0.998386191186      -0.0157280780521    0.998386191186      -0.0157280780521    0.00160447724041    0.0124577177116     
7500000000.0        0.00161069234828    0.0126264273954     0.998379789654      -0.0159411010074    0.998379789654      -0.0159411010074    0.00161069234828    0.0126264273954     
7600000000.0        0.00161697823117    0.0127951524292     0.998373315367      -0.0161541426727    0.998373315367      -0.0161541426727    0.00161697823117    0.0127951524292     
7700000000.0        0.00162333503186    0.0129638930606     0.99836676818       -0.0163672032867    0.99836676818       -0.0163672032867    0.00162333503186    0.0129638930606     
7800000000.0        0.00162976288876    0.0131326495386     0.998360147956      -0.0165802830882    0.998360147956      -0.0165802830882    0.00162976288876    0.0131326495386     
7900000000.0        0.00163626193615    0.0133014221133     0.998353454559      -0.0167933823168    0.998353454559      -0.0167933823168    0.00163626193615    0.0133014221133     
8000000000.0        0.00164283230439    0.013470211036      0.998346687858      -0.017006501213     0.998346687858      -0.017006501213     0.00164283230439    0.013470211036      
8100000000.0        0.00164947412017    0.0136390165593     0.998339847728      -0.0172196400174    0.998339847728      -0.0172196400174    0.00164947412016    0.0136390165593     
8200000000.0        0.00165618750663    0.013807838937      0.998332934043      -0.0174327989715    0.998332934043      -0.0174327989715    0.00165618750663    0.013807838937      
8300000000.0        0.00166297258365    0.0139766784243     0.998325946684      -0.0176459783174    0.998325946684      -0.0176459783174    0.00166297258365    0.0139766784243     
8400000000.0        0.00166982946794    0.0141455352772     0.998318885533      -0.0178591782978    0.998318885533      -0.0178591782978    0.00166982946794    0.0141455352772     
8500000000.0        0.00167675827322    0.0143144097532     0.998311750477      -0.018072399156     0.998311750477      -0.018072399156     0.00167675827322    0.0143144097532     
8600000000.0        0.00168375911043    0.014483302111      0.998304541405      -0.0182856411359    0.998304541405      -0.0182856411359    0.00168375911043    0.014483302111      
8700000000.0        0.00169083208783    0.0146522126104     0.998297258207      -0.018498904482     0.998297258207      -0.018498904482     0.00169083208783    0.0146522126104     
8800000000.0        0.00169797731114    0.0148211415123     0.998289900777      -0.0187121894396    0.998289900777      -0.0187121894396    0.00169797731114    0.0148211415123     
8900000000.0        0.0017051948837     0.014990089079      0.998282469012      -0.0189254962543    0.998282469012      -0.0189254962543    0.0017051948837     0.014990089079      
9000000000.0        0.00171248490657    0.0151590555737     0.998274962811      -0.0191388251725    0.998274962811      -0.0191388251725    0.00171248490657    0.0151590555737     
9100000000.0        0.00171984747869    0.015328041261      0.998267382074      -0.0193521764413    0.998267382074      -0.0193521764413    0.00171984747869    0.015328041261      
9200000000.0        0.00172728269694    0.0154970464065     0.998259726703      -0.0195655503083    0.998259726703      -0.0195655503083    0.00172728269694    0.0154970464065     
9300000000.0        0.00173479065627    0.0156660712771     0.998251996604      -0.0197789470217    0.998251996604      -0.0197789470217    0.00173479065627    0.0156660712771     
9400000000.0        0.00174237144985    0.0158351161407     0.998244191683      -0.0199923668303    0.998244191683      -0.0199923668303    0.00174237144985    0.0158351161407     
9500000000.0        0.00175002516908    0.0160041812664     0.998236311849      -0.0202058099837    0.998236311849      -0.0202058099837    0.00175002516908    0.0160041812664     
9600000000.0        0.00175775190374    0.0161732669244     0.998228357011      -0.0204192767318    0.998228357011      -0.0204192767318    0.00175775190374    0.0161732669244     
9700000000.0        0.00176555174209    0.0163423733861     0.99822032708       -0.0206327673253    0.99822032708       -0.0206327673253    0.00176555174209    0.0163423733861     
9800000000.0        0.0017734247709     0.016511500924      0.99821222197       -0.0208462820156    0.99821222197       -0.0208462820156    0.0017734247709     0.016511500924      
9900000000.0        0.00178137107558    0.0166806498116     0.998204041595      -0.0210598210546    0.998204041595      -0.0210598210546    0.00178137107558    0.0166806498116     
10000000000.0       0.00178939074023    0.0168498203236     0.99819578587       -0.0212733846947    0.99819578587       -0.0212733846947    0.00178939074023    0.0168498203236     
