# Hz S RI R 50.00 
100000000.0         0.000240003719691   -0.000645376755825  0.999753670651      -0.00179557536575   0.999753670651      -0.00179557536575   0.000240003719691   -0.000645376755825  
200000000.0         0.000236989125505   -0.00129079241266   0.999745400131      -0.00359121573187   0.999745400131      -0.00359121573187   0.000236989125505   -0.00129079241266   
300000000.0         0.000231231477694   -0.00193626156344   0.999733911786      -0.00538695568496   0.999733911786      -0.00538695568496   0.000231231477694   -0.00193626156344   
400000000.0         0.000222940003191   -0.00258179353604   0.999718994591      -0.00718281868232   0.999718994591      -0.00718281868232   0.00022294000319    -0.00258179353604   
500000000.0         0.000212194497961   -0.00322739462675   0.999700566637      -0.00897882276333   0.999700566637      -0.00897882276333   0.000212194497961   -0.00322739462675   
600000000.0         0.00019903502183    -0.00387306903551   0.999678585497      -0.0107749824304    0.999678585497      -0.0107749824304    0.000199035021829   -0.00387306903551   
700000000.0         0.000183484688339   -0.00451881936868   0.999653025475      -0.0125713095943    0.999653025475      -0.0125713095943    0.000183484688339   -0.00451881936868   
800000000.0         0.000165557982037   -0.00516464695069   0.999623869325      -0.0143678141379    0.999623869325      -0.0143678141379    0.000165557982037   -0.00516464695069   
900000000.0         0.000145264463696   -0.00581055203515   0.999591104571      -0.016164504287     0.999591104571      -0.016164504287     0.000145264463696   -0.00581055203515   
1000000000.0        0.000122610650719   -0.00645653395676   0.999554721646      -0.017961386872     0.999554721646      -0.017961386872     0.000122610650719   -0.00645653395676   
1100000000.0        9.76010645917e-05   -0.00710259124616   0.999514712869      -0.019758467522     0.999514712869      -0.019758467522     9.76010645914e-05   -0.00710259124616   
1200000000.0        7.0238856962e-05    -0.00774872171913   0.999471071835      -0.0215557508127    0.999471071835      -0.0215557508127    7.0238856962e-05    -0.00774872171913   
1300000000.0        4.05262051961e-05   -0.00839492254872   0.999423793031      -0.023353240385     0.999423793031      -0.023353240385     4.05262051961e-05   -0.00839492254872   
1400000000.0        8.46457382386e-06   -0.0090411903241    0.99937287159       -0.0251509390398    0.99937287159       -0.0251509390398    8.46457382386e-06   -0.0090411903241    
1500000000.0        -2.59451060469e-05  -0.00968752109996   0.999318303125      -0.0269488488173    0.999318303125      -0.0269488488173    -2.59451060468e-05  -0.00968752109996   
1600000000.0        -6.27023096398e-05  -0.0103339104385    0.999260083614      -0.0287469710624    0.999260083614      -0.0287469710624    -6.27023096396e-05  -0.0103339104385    
1700000000.0        -0.000101806825961  -0.0109803534455    0.999198209315      -0.0305453064822    0.999198209315      -0.0305453064822    -0.000101806825961  -0.0109803534455    
1800000000.0        -0.000143258688771  -0.0116268448022    0.999132676706      -0.0323438551936    0.999132676706      -0.0323438551936    -0.000143258688771  -0.0116268448022    
1900000000.0        -0.000187058123995  -0.0122733787926    0.999063482446      -0.0341426167664    0.999063482446      -0.0341426167664    -0.000187058123995  -0.0122733787926    
2000000000.0        -0.000233205508889  -0.0129199493285    0.998990623338      -0.0359415902604    0.998990623338      -0.0359415902604    -0.000233205508889  -0.0129199493285    
2100000000.0        -0.000281701339772  -0.0135665499715    0.998914096305      -0.0377407742583    0.998914096305      -0.0377407742583    -0.000281701339772  -0.0135665499715    
2200000000.0        -0.000332546206152  -0.014213173953     0.998833898375      -0.0395401668955    0.998833898375      -0.0395401668955    -0.000332546206152  -0.014213173953     
2300000000.0        -0.000385740769665  -0.0148598141922    0.998750026661      -0.0413397658867    0.998750026661      -0.0413397658867    -0.000385740769665  -0.0148598141922    
2400000000.0        -0.000441285746718  -0.0155064633127    0.998662478354      -0.0431395685497    0.998662478354      -0.0431395685497    -0.000441285746718  -0.0155064633127    
2500000000.0        -0.000499181894003  -0.0161531136575    0.998571250714      -0.0449395718274    0.998571250714      -0.0449395718274    -0.000499181894003  -0.0161531136575    
2600000000.0        -0.000559429996291  -0.0167997573034    0.998476341063      -0.046739772308     0.998476341063      -0.046739772308     -0.000559429996291  -0.0167997573034    
2700000000.0        -0.000622030856023  -0.0174463860732    0.998377746778      -0.048540166243     0.998377746778      -0.048540166243     -0.000622030856023  -0.0174463860732    
2800000000.0        -0.000686985284371  -0.0180929915485    0.998275465291      -0.0503407495643    0.998275465291      -0.0503407495643    -0.000686985284371  -0.0180929915485    
2900000000.0        -0.000754294093477  -0.01873956508      0.998169494084      -0.0521415178997    0.998169494084      -0.0521415178997    -0.000754294093477  -0.01873956508      
3000000000.0        -0.000823958089675  -0.0193860977988    0.998059830685      -0.0539424665876    0.998059830685      -0.0539424665876    -0.000823958089675  -0.0193860977988    
3100000000.0        -0.000895978067518  -0.0200325806256    0.997946472669      -0.0557435906903    0.997946472669      -0.0557435906903    -0.000895978067518  -0.0200325806256    
3200000000.0        -0.000970354804493  -0.0206790042801    0.997829417658      -0.0575448850067    0.997829417658      -0.0575448850067    -0.000970354804493  -0.0206790042801    
3300000000.0        -0.00104708905629   -0.0213253592897    0.997708663315      -0.059346344084     0.997708663315      -0.059346344084     -0.00104708905629   -0.0213253592897    
3400000000.0        -0.00112618155259   -0.0219716359974    0.997584207348      -0.061147962229     0.997584207348      -0.061147962229     -0.00112618155259   -0.0219716359974    
3500000000.0        -0.00120763299322   -0.02261782457      0.997456047509      -0.0629497335181    0.997456047509      -0.0629497335181    -0.00120763299322   -0.02261782457      
3600000000.0        -0.00129144404472   -0.0232639150051    0.997324181592      -0.0647516518075    0.997324181592      -0.0647516518075    -0.00129144404472   -0.0232639150051    
3700000000.0        -0.00137761533718   -0.023909897138     0.997188607436      -0.0665537107422    0.997188607436      -0.0665537107422    -0.00137761533718   -0.023909897138     
3800000000.0        -0.00146614746139   -0.0245557606486    0.997049322921      -0.0683559037648    0.997049322921      -0.0683559037648    -0.00146614746139   -0.0245557606486    
3900000000.0        -0.00155704096617   -0.0252014950674    0.996906325975      -0.0701582241239    0.996906325975      -0.0701582241239    -0.00155704096617   -0.0252014950674    
4000000000.0        -0.00165029635598   -0.0258470897818    0.996759614565      -0.0719606648818    0.996759614565      -0.0719606648818    -0.00165029635598   -0.0258470897818    
4100000000.0        -0.00174591408867   -0.0264925340415    0.996609186706      -0.0737632189219    0.996609186706      -0.0737632189219    -0.00174591408867   -0.0264925340415    
4200000000.0        -0.00184389457341   -0.0271378169643    0.996455040458      -0.0755658789562    0.996455040458      -0.0755658789562    -0.00184389457341   -0.0271378169643    
4300000000.0        -0.00194423816876   -0.0277829275412    0.996297173925      -0.0773686375317    0.996297173925      -0.0773686375317    -0.00194423816876   -0.0277829275412    
4400000000.0        -0.00204694518093   -0.0284278546414    0.996135585259      -0.0791714870368    0.996135585259      -0.0791714870368    -0.00204694518093   -0.0284278546414    
4500000000.0        -0.00215201586205   -0.0290725870172    0.995970272656      -0.0809744197079    0.995970272656      -0.0809744197079    -0.00215201586205   -0.0290725870172    
4600000000.0        -0.00225945040868   -0.0297171133086    0.995801234362      -0.0827774276349    0.995801234362      -0.0827774276349    -0.00225945040868   -0.0297171133086    
4700000000.0        -0.00236924896033   -0.0303614220477    0.995628468669      -0.0845805027668    0.995628468669      -0.0845805027668    -0.00236924896033   -0.0303614220477    
4800000000.0        -0.00248141159812   -0.0310055016633    0.995451973917      -0.0863836369177    0.995451973917      -0.0863836369177    -0.00248141159812   -0.0310055016633    
4900000000.0        -0.0025959383435    -0.0316493404844    0.995271748496      -0.0881868217712    0.995271748496      -0.0881868217712    -0.0025959383435    -0.0316493404844    
5000000000.0        -0.00271282915703   -0.0322929267447    0.995087790846      -0.0899900488859    0.995087790846      -0.0899900488859    -0.00271282915703   -0.0322929267447    
5100000000.0        -0.00283208393732   -0.0329362485864    0.994900099456      -0.0917933097       0.994900099456      -0.0917933097       -0.00283208393732   -0.0329362485864    
5200000000.0        -0.00295370251993   -0.0335792940635    0.994708672863      -0.0935965955357    0.994708672863      -0.0935965955357    -0.00295370251993   -0.0335792940635    
5300000000.0        -0.00307768467638   -0.0342220511459    0.99451350966       -0.0953998976041    0.99451350966       -0.0953998976041    -0.00307768467638   -0.0342220511459    
5400000000.0        -0.00320403011324   -0.0348645077224    0.994314608487      -0.097203207009     0.994314608487      -0.097203207009     -0.00320403011324   -0.0348645077224    
5500000000.0        -0.00333273847124   -0.0355066516042    0.994111968039      -0.0990065147513    0.994111968039      -0.0990065147513    -0.00333273847124   -0.0355066516042    
5600000000.0        -0.00346380932443   -0.0361484705282    0.993905587062      -0.100809811733     0.993905587062      -0.100809811733     -0.00346380932443   -0.0361484705282    
5700000000.0        -0.00359724217942   -0.03678995216      0.993695464355      -0.102613088759     0.993695464355      -0.102613088759     -0.00359724217942   -0.03678995216      
5800000000.0        -0.00373303647463   -0.0374310840971    0.99348159877       -0.104416336546     0.99348159877       -0.104416336546     -0.00373303647464   -0.0374310840971    
5900000000.0        -0.00387119157961   -0.0380718538715    0.993263989214      -0.10621954572      0.993263989214      -0.10621954572      -0.00387119157961   -0.0380718538715    
6000000000.0        -0.00401170679436   -0.0387122489529    0.993042634646      -0.108022706823     0.993042634646      -0.108022706823     -0.00401170679436   -0.0387122489529    
6100000000.0        -0.00415458134876   -0.0393522567511    0.992817534083      -0.109825810316     0.992817534083      -0.109825810316     -0.00415458134876   -0.0393522567511    
6200000000.0        -0.00429981440193   -0.0399918646189    0.992588686594      -0.111628846581     0.992588686594      -0.111628846581     -0.00429981440193   -0.0399918646189    
6300000000.0        -0.00444740504173   -0.0406310598547    0.992356091304      -0.113431805926     0.992356091304      -0.113431805926     -0.00444740504173   -0.0406310598547    
6400000000.0        -0.00459735228425   -0.0412698297049    0.992119747394      -0.115234678587     0.992119747394      -0.115234678587     -0.00459735228425   -0.0412698297049    
6500000000.0        -0.00474965507327   -0.0419081613664    0.991879654102      -0.117037454729     0.991879654102      -0.117037454729     -0.00474965507327   -0.0419081613664    
6600000000.0        -0.00490431227986   -0.042546041989     0.991635810719      -0.118840124453     0.991635810719      -0.118840124453     -0.00490431227986   -0.042546041989     
6700000000.0        -0.00506132270195   -0.0431834586775    0.991388216595      -0.120642677795     0.991388216595      -0.120642677795     -0.00506132270195   -0.0431834586775    
6800000000.0        -0.00522068506388   -0.0438203984943    0.991136871138      -0.122445104731     0.991136871138      -0.122445104731     -0.00522068506388   -0.0438203984943    
6900000000.0        -0.00538239801608   -0.0444568484612    0.990881773811      -0.124247395178     0.990881773811      -0.124247395178     -0.00538239801608   -0.0444568484612    
7000000000.0        -0.00554646013469   -0.045092795562     0.990622924135      -0.126049538996     0.990622924135      -0.126049538996     -0.00554646013469   -0.045092795562     
7100000000.0        -0.00571286992123   -0.045728226744     0.990360321687      -0.127851525993     0.990360321687      -0.127851525993     -0.00571286992123   -0.045728226744     
7200000000.0        -0.00588162580231   -0.0463631289205    0.990093966106      -0.129653345927     0.990093966106      -0.129653345927     -0.00588162580231   -0.0463631289205    
7300000000.0        -0.00605272612933   -0.0469974889724    0.989823857085      -0.131454988503     0.989823857085      -0.131454988503     -0.00605272612933   -0.0469974889724    
7400000000.0        -0.00622616917822   -0.0476312937504    0.989549994376      -0.133256443384     0.989549994376      -0.133256443384     -0.00622616917822   -0.0476312937504    
7500000000.0        -0.0064019531492    -0.0482645300768    0.989272377791      -0.135057700184     0.989272377791      -0.135057700184     -0.0064019531492    -0.0482645300768    
7600000000.0        -0.00658007616652   -0.048897184747     0.988991007199      -0.136858748479     0.988991007199      -0.136858748479     -0.00658007616652   -0.048897184747     
7700000000.0        -0.0067605362783    -0.0495292445318    0.988705882528      -0.138659577802     0.988705882528      -0.138659577802     -0.0067605362783    -0.0495292445318    
7800000000.0        -0.00694333145633   -0.0501606961788    0.988417003764      -0.140460177647     0.988417003764      -0.140460177647     -0.00694333145633   -0.0501606961788    
7900000000.0        -0.00712845959585   -0.0507915264141    0.988124370955      -0.142260537473     0.988124370955      -0.142260537473     -0.00712845959585   -0.0507915264141    
8000000000.0        -0.00731591851545   -0.0514217219441    0.987827984204      -0.144060646703     0.987827984204      -0.144060646703     -0.00731591851544   -0.0514217219441    
8100000000.0        -0.00750570595686   -0.052051269457     0.987527843676      -0.145860494729     0.987527843676      -0.145860494729     -0.00750570595686   -0.052051269457     
8200000000.0        -0.00769781958492   -0.0526801556244    0.987223949593      -0.14766007091      0.987223949593      -0.14766007091      -0.00769781958492   -0.0526801556244    
8300000000.0        -0.00789225698735   -0.0533083671028    0.986916302238      -0.149459364576     0.986916302238      -0.149459364576     -0.00789225698735   -0.0533083671028    
8400000000.0        -0.00808901567475   -0.0539358905352    0.986604901954      -0.151258365032     0.986604901954      -0.151258365032     -0.00808901567474   -0.0539358905352    
8500000000.0        -0.00828809308044   -0.0545627125527    0.98628974914       -0.153057061552     0.98628974914       -0.153057061552     -0.00828809308044   -0.0545627125527    
8600000000.0        -0.00848948656045   -0.0551888197754    0.985970844258      -0.15485544339      0.985970844258      -0.15485544339      -0.00848948656045   -0.0551888197754    
8700000000.0        -0.00869319339341   -0.0558141988144    0.985648187828      -0.156653499775     0.985648187828      -0.156653499775     -0.00869319339341   -0.0558141988144    
8800000000.0        -0.00889921078053   -0.056438836273     0.985321780428      -0.158451219916     0.985321780428      -0.158451219916     -0.00889921078053   -0.056438836273     
8900000000.0        -0.00910753584554   -0.0570627187478    0.984991622699      -0.160248592999     0.984991622699      -0.160248592999     -0.00910753584554   -0.0570627187478    
9000000000.0        -0.0093181656347    -0.0576858328306    0.984657715339      -0.162045608196     0.984657715339      -0.162045608196     -0.0093181656347    -0.0576858328306    
9100000000.0        -0.00953109711676   -0.058308165109     0.984320059105      -0.163842254659     0.984320059105      -0.163842254659     -0.00953109711676   -0.058308165109     
9200000000.0        -0.00974632718296   -0.058929702168     0.983978654816      -0.165638521525     0.983978654816      -0.165638521525     -0.00974632718296   -0.058929702168     
9300000000.0        -0.00996385264706   -0.0595504305914    0.983633503347      -0.167434397917     0.983633503347      -0.167434397917     -0.00996385264706   -0.0595504305914    
9400000000.0        -0.0101836702453    -0.0601703369629    0.983284605635      -0.169229872945     0.983284605635      -0.169229872945     -0.0101836702453    -0.0601703369629    
9500000000.0        -0.0104057766366    -0.0607894078671    0.982931962675      -0.171024935706     0.982931962675      -0.171024935706     -0.0104057766366    -0.0607894078671    
9600000000.0        -0.0106301684022    -0.0614076298908    0.982575575523      -0.17281957529      0.982575575523      -0.17281957529      -0.0106301684022    -0.0614076298908    
9700000000.0        -0.0108568420463    -0.0620249896244    0.982215445292      -0.174613780773     0.982215445292      -0.174613780773     -0.0108568420463    -0.0620249896244    
9800000000.0        -0.0110857939955    -0.0626414736627    0.981851573156      -0.176407541227     0.981851573156      -0.176407541227     -0.0110857939955    -0.0626414736627    
9900000000.0        -0.0113170205995    -0.063257068606     0.981483960346      -0.178200845714     0.981483960346      -0.178200845714     -0.0113170205995    -0.063257068606     
10000000000.0       -0.0115505181304    -0.0638717610615    0.981112608154      -0.179993683294     0.981112608154      -0.179993683294     -0.0115505181304    -0.0638717610615    
