# Hz S RI R 50.00 
100000000.0         0.0375871261745     0.00194435247407    0.962411063814      -0.00258990215578   0.962411063814      -0.00258990215578   0.0375871261745     0.00194435247407    
200000000.0         0.0378404809599     0.00388639260526    0.962156476772      -0.00517749634779   0.962156476772      -0.00517749634779   0.0378404809599     0.00388639260526    
300000000.0         0.0380393374793     0.00582697118243    0.961955965669      -0.00776363631998   0.961955965669      -0.00776363631998   0.0380393374793     0.00582697118243    
400000000.0         0.0382153362079     0.00776634068232    0.96177788996       -0.0103485769738    0.96177788996       -0.0103485769738    0.0382153362079     0.00776634068232    
500000000.0         0.0383806943985     0.00970461420513    0.961610032327      -0.0129324335683    0.961610032327      -0.0129324335683    0.0383806943985     0.00970461420513    
600000000.0         0.0385416572921     0.0116418430654     0.961446147464      -0.0155152594034    0.961446147464      -0.0155152594034    0.0385416572921     0.0116418430654     
700000000.0         0.0387019217127     0.0135780446779     0.96128253848       -0.0180970737535    0.96128253848       -0.0180970737535    0.0387019217127     0.0135780446779     
800000000.0         0.0388638869568     0.0155132154986     0.961116806012      -0.0206778748361    0.961116806012      -0.0206778748361    0.0388638869568     0.0155132154986     
900000000.0         0.0390292123448     0.0174473379797     0.960947290667      -0.0232576467854    0.960947290667      -0.0232576467854    0.0390292123448     0.0174473379797     
1000000000.0        0.0391991001242     0.0193803846891     0.960772790126      -0.0258363637852    0.960772790126      -0.0258363637852    0.0391991001242     0.0193803846891     
1100000000.0        0.0393744528924     0.0213123209292     0.960592401715      -0.0284139926971    0.960592401715      -0.0284139926971    0.0393744528924     0.0213123209292     
1200000000.0        0.0395559674929     0.023243106492      0.960405428512      -0.0309904948226    0.960405428512      -0.0309904948226    0.0395559674929     0.023243106492      
1300000000.0        0.0397441941502     0.0251726968861     0.960211320211      -0.0335658271362    0.960211320211      -0.0335658271362    0.0397441941502     0.0251726968861     
1400000000.0        0.0399395753761     0.0271010442238     0.960009634213      -0.036139943177     0.960009634213      -0.036139943177     0.0399395753761     0.0271010442238     
1500000000.0        0.0401424725072     0.0290280978817     0.959800009095      -0.038712793713     0.959800009095      -0.038712793713     0.0401424725072     0.0290280978817     
1600000000.0        0.0403531843619     0.0309538050031     0.959582145946      -0.041284327247     0.959582145946      -0.041284327247     0.0403531843619     0.0309538050031     
1700000000.0        0.0405719606982     0.0328781108897     0.959355794914      -0.04385449041      0.959355794914      -0.04385449041      0.0405719606982     0.0328781108897     
1800000000.0        0.0407990121388     0.0348009593106     0.959120745278      -0.046423228274     0.959120745278      -0.046423228274     0.0407990121388     0.0348009593106     
1900000000.0        0.041034517635      0.0367222927519     0.958876817985      -0.048990484602     0.958876817985      -0.048990484602     0.041034517635      0.0367222927519     
2000000000.0        0.0412786301741     0.0386420526192     0.958623859945      -0.051556202053     0.958623859945      -0.051556202053     0.0412786301741     0.0386420526192     
2100000000.0        0.0415314812114     0.0405601794053     0.958361739593      -0.0541203223515    0.958361739593      -0.0541203223515    0.0415314812114     0.0405601794053     
2200000000.0        0.0417931841579     0.0424766128304     0.958090343409      -0.056682786428     0.958090343409      -0.056682786428     0.0417931841579     0.0424766128304     
2300000000.0        0.0420638371578     0.0443912919597     0.957809573134      -0.0592435345388    0.957809573134      -0.0592435345388    0.0420638371578     0.0443912919597     
2400000000.0        0.0423435253259     0.0463041553045     0.957519343537      -0.0618025063675    0.957519343537      -0.0618025063675    0.0423435253259     0.0463041553045     
2500000000.0        0.0426323225665     0.0482151409079     0.957219580593      -0.064359641112     0.957219580593      -0.064359641112     0.0426323225665     0.0482151409079     
2600000000.0        0.042930293067      0.0501241864204     0.956910219992      -0.0669148775606    0.956910219992      -0.0669148775606    0.042930293067      0.0501241864204     
2700000000.0        0.0432374925328     0.0520312291644     0.956591205901      -0.0694681541578    0.956591205901      -0.0694681541578    0.0432374925328     0.0520312291644     
2800000000.0        0.0435539692187     0.053936206192      0.956262489937      -0.0720194090622    0.956262489937      -0.0720194090622    0.0435539692187     0.053936206192      
2900000000.0        0.0438797647934     0.0558390543357     0.955924030299      -0.0745685801984    0.955924030299      -0.0745685801984    0.0438797647934     0.0558390543357     
3000000000.0        0.0442149150717     0.0577397102532     0.955575791036      -0.0771156053022    0.955575791036      -0.0771156053022    0.0442149150717     0.0577397102532     
3100000000.0        0.0445594506365     0.0596381104683     0.955217741427      -0.0796604219616    0.955217741427      -0.0796604219616    0.0445594506365     0.0596381104683     
3200000000.0        0.044913397371      0.0615341914069     0.954849855448      -0.0822029676541    0.954849855448      -0.0822029676541    0.044913397371      0.0615341914069     
3300000000.0        0.0452767769168     0.0634278894299     0.954472111312      -0.0847431797796    0.954472111312      -0.0847431797796    0.0452767769168     0.0634278894299     
3400000000.0        0.0456496070693     0.0653191408634     0.954084491077      -0.0872809956911    0.954084491077      -0.0872809956911    0.0456496070693     0.0653191408634     
3500000000.0        0.0460319021215     0.0672078820256     0.953686980299      -0.089816352722     0.953686980299      -0.089816352722     0.0460319021215     0.0672078820256     
3600000000.0        0.0464236731634     0.0690940492522     0.953279567736      -0.0923491882119    0.953279567736      -0.0923491882119    0.0464236731634     0.0690940492522     
3700000000.0        0.0468249283453     0.0709775789195     0.952862245082      -0.0948794395302    0.952862245082      -0.0948794395302    0.0468249283453     0.0709775789195     
3800000000.0        0.047235673108      0.0728584074652     0.952435006735      -0.0974070440969    0.952435006735      -0.0974070440969    0.047235673108      0.0728584074652     
3900000000.0        0.0476559103872     0.0747364714088     0.9519978496        -0.0999319394039    0.9519978496        -0.0999319394039    0.0476559103872     0.0747364714088     
4000000000.0        0.0480856407942     0.07661170737       0.9515507729        -0.102454063033     0.9515507729        -0.102454063033     0.0480856407942     0.07661170737       
4100000000.0        0.0485248627766     0.0784840520854     0.95109377802       -0.104973352673     0.95109377802       -0.104973352673     0.0485248627766     0.0784840520854     
4200000000.0        0.0489735727616     0.0803534424253     0.950626868363      -0.107489746138     0.950626868363      -0.107489746138     0.0489735727616     0.0803534424253     
4300000000.0        0.0494317652846     0.0822198154086     0.950150049221      -0.110003181379     0.950150049221      -0.110003181379     0.0494317652846     0.0822198154086     
4400000000.0        0.0498994331045     0.0840831082169     0.949663327658      -0.112513596505     0.949663327658      -0.112513596505     0.0498994331045     0.0840831082169     
4500000000.0        0.0503765673075     0.0859432582084     0.949166712411      -0.115020929789     0.949166712411      -0.115020929789     0.0503765673075     0.0859432582084     
4600000000.0        0.050863157401      0.0878002029307     0.94866021379       -0.117525119686     0.94866021379       -0.117525119686     0.050863157401      0.0878002029307     
4700000000.0        0.0513591913984     0.0896538801324     0.948143843599      -0.120026104846     0.948143843599      -0.120026104846     0.0513591913984     0.0896538801324     
4800000000.0        0.0518646558967     0.0915042277756     0.947617615054      -0.12252382412      0.947617615054      -0.12252382412      0.0518646558967     0.0915042277756     
4900000000.0        0.0523795361468     0.0933511840462     0.947081542715      -0.125018216579     0.947081542715      -0.125018216579     0.0523795361468     0.0933511840462     
5000000000.0        0.0529038161175     0.0951946873645     0.946535642421      -0.127509221518     0.946535642421      -0.127509221518     0.0529038161175     0.0951946873645     
5100000000.0        0.0534374785545     0.0970346763958     0.945979931232      -0.129996778471     0.945979931232      -0.129996778471     0.0534374785545     0.0970346763958     
5200000000.0        0.0539805050346     0.0988710900597     0.945414427373      -0.132480827218     0.945414427373      -0.132480827218     0.0539805050346     0.0988710900597     
5300000000.0        0.0545328760153     0.100703867539      0.944839150188      -0.134961307796     0.944839150188      -0.134961307796     0.0545328760153     0.100703867539      
5400000000.0        0.0550945708806     0.10253294829       0.944254120091      -0.137438160506     0.944254120091      -0.137438160506     0.0550945708806     0.10253294829       
5500000000.0        0.0556655679833     0.104358272048      0.943659358523      -0.139911325926     0.943659358523      -0.139911325926     0.0556655679833     0.104358272048      
5600000000.0        0.0562458446849     0.10617977884       0.943054887915      -0.142380744913     0.943054887915      -0.142380744913     0.0562458446849     0.10617977884       
5700000000.0        0.0568353773915     0.10799740899       0.942440731652      -0.144846358617     0.942440731652      -0.144846358617     0.0568353773915     0.10799740899       
5800000000.0        0.0574341415882     0.109811103125      0.941816914035      -0.147308108485     0.941816914035      -0.147308108485     0.0574341415882     0.109811103125      
5900000000.0        0.0580421118706     0.111620802187      0.941183460254      -0.149765936272     0.941183460254      -0.149765936272     0.0580421118706     0.111620802187      
6000000000.0        0.058659261975      0.113426447436      0.940540396354      -0.152219784045     0.940540396354      -0.152219784045     0.058659261975      0.113426447436      
6100000000.0        0.0592855648054     0.115227980458      0.939887749213      -0.154669594191     0.939887749213      -0.154669594191     0.0592855648054     0.115227980458      
6200000000.0        0.0599209924607     0.117025343175      0.939225546507      -0.157115309425     0.939225546507      -0.157115309425     0.0599209924607     0.117025343175      
6300000000.0        0.0605655162584     0.118818477846      0.938553816694      -0.159556872796     0.938553816694      -0.159556872796     0.0605655162584     0.118818477846      
6400000000.0        0.0612191067584     0.120607327077      0.937872588987      -0.161994227691     0.937872588987      -0.161994227691     0.0612191067584     0.120607327077      
6500000000.0        0.0618817337849     0.122391833828      0.937181893332      -0.164427317847     0.937181893332      -0.164427317847     0.0618817337849     0.122391833828      
6600000000.0        0.062553366447      0.124171941414      0.936481760387      -0.166856087351     0.936481760387      -0.166856087351     0.062553366447      0.124171941414      
6700000000.0        0.0632339731586     0.125947593516      0.935772221502      -0.16928048065      0.935772221502      -0.16928048065      0.0632339731586     0.125947593516      
6800000000.0        0.0639235216572     0.127718734185      0.935053308704      -0.171700442554     0.935053308704      -0.171700442554     0.0639235216572     0.127718734185      
6900000000.0        0.0646219790217     0.129485307846      0.934325054673      -0.174115918243     0.934325054673      -0.174115918243     0.0646219790217     0.129485307846      
7000000000.0        0.0653293116896     0.131247259304      0.933587492729      -0.176526853271     0.933587492729      -0.176526853271     0.0653293116896     0.131247259304      
7100000000.0        0.0660454854732     0.13300453375       0.932840656817      -0.178933193573     0.932840656817      -0.178933193573     0.0660454854732     0.13300453375       
7200000000.0        0.0667704655754     0.134757076766      0.932084581486      -0.181334885471     0.932084581486      -0.181334885471     0.0667704655754     0.134757076766      
7300000000.0        0.0675042166046     0.136504834327      0.931319301878      -0.183731875674     0.931319301878      -0.183731875674     0.0675042166046     0.136504834327      
7400000000.0        0.0682467025891     0.138247752811      0.930544853713      -0.186124111288     0.930544853713      -0.186124111288     0.0682467025891     0.138247752811      
7500000000.0        0.0689978869913     0.139985778999      0.929761273275      -0.188511539817     0.929761273275      -0.188511539817     0.0689978869913     0.139985778999      
7600000000.0        0.0697577327207     0.14171886008       0.928968597398      -0.190894109171     0.928968597398      -0.190894109171     0.0697577327207     0.14171886008       
7700000000.0        0.0705262021472     0.143446943658      0.928166863453      -0.193271767667     0.928166863453      -0.193271767667     0.0705262021472     0.143446943658      
7800000000.0        0.0713032571131     0.145169977752      0.927356109338      -0.195644464035     0.927356109338      -0.195644464035     0.0713032571131     0.145169977752      
7900000000.0        0.072088858946      0.146887910805      0.926536373461      -0.198012147423     0.926536373461      -0.198012147423     0.072088858946      0.146887910805      
8000000000.0        0.0728829684699     0.148600691685      0.925707694732      -0.200374767397     0.925707694732      -0.200374767397     0.0728829684699     0.148600691685      
8100000000.0        0.0736855460169     0.150308269687      0.924870112552      -0.20273227395      0.924870112552      -0.20273227395      0.0736855460169     0.150308269687      
8200000000.0        0.0744965514385     0.152010594542      0.924023666799      -0.205084617504     0.924023666799      -0.205084617504     0.0744965514385     0.152010594542      
8300000000.0        0.0753159441159     0.153707616415      0.92316839782       -0.207431748911     0.92316839782       -0.207431748911     0.0753159441159     0.153707616415      
8400000000.0        0.076143682971      0.155399285912      0.922304346417      -0.209773619461     0.922304346417      -0.209773619461     0.076143682971      0.155399285912      
8500000000.0        0.0769797264766     0.157085554083      0.921431553841      -0.212110180879     0.921431553841      -0.212110180879     0.0769797264766     0.157085554083      
8600000000.0        0.0778240326663     0.158766372423      0.920550061779      -0.214441385338     0.920550061779      -0.214441385338     0.0778240326663     0.158766372423      
8700000000.0        0.0786765591446     0.160441692879      0.919659912346      -0.216767185452     0.919659912346      -0.216767185452     0.0786765591446     0.160441692879      
8800000000.0        0.0795372630962     0.162111467848      0.918761148072      -0.219087534285     0.918761148072      -0.219087534285     0.0795372630962     0.162111467848      
8900000000.0        0.0804061012957     0.163775650185      0.917853811898      -0.221402385355     0.917853811898      -0.221402385355     0.0804061012957     0.163775650185      
9000000000.0        0.0812830301168     0.165434193203      0.916937947162      -0.223711692631     0.916937947162      -0.223711692631     0.0812830301168     0.165434193203      
9100000000.0        0.0821680055413     0.167087050676      0.916013597591      -0.226015410542     0.916013597591      -0.226015410542     0.0821680055413     0.167087050676      
9200000000.0        0.0830609831679     0.168734176842      0.915080807294      -0.228313493976     0.915080807294      -0.228313493976     0.0830609831679     0.168734176842      
9300000000.0        0.0839619182216     0.170375526406      0.914139620752      -0.230605898283     0.914139620752      -0.230605898283     0.0839619182216     0.170375526406      
9400000000.0        0.0848707655613     0.172011054542      0.913190082809      -0.23289257928      0.913190082809      -0.23289257928      0.0848707655613     0.172011054542      
9500000000.0        0.0857874796892     0.173640716895      0.912232238664      -0.235173493249     0.912232238664      -0.235173493249     0.0857874796892     0.173640716895      
9600000000.0        0.0867120147587     0.175264469582      0.911266133861      -0.237448596945     0.911266133861      -0.237448596945     0.0867120147587     0.175264469582      
9700000000.0        0.0876443245829     0.1768822692        0.910291814285      -0.239717847593     0.910291814285      -0.239717847593     0.0876443245829     0.1768822692        
9800000000.0        0.0885843626424     0.17849407282       0.90930932615       -0.241981202892     0.90930932615       -0.241981202892     0.0885843626424     0.17849407282       
9900000000.0        0.0895320820936     0.180099837993      0.908318715991      -0.244238621018     0.908318715991      -0.244238621018     0.0895320820936     0.180099837993      
10000000000.0       0.0904874357765     0.181699522755      0.907320030659      -0.246490060626     0.907320030659      -0.246490060626     0.0904874357765     0.181699522755      
