# Hz S RI R 50.00 
100000000.0         0.000347984679653   0.000119762487018   0.999649715997      -0.00104247485891   0.999649715997      -0.00104247485891   0.000347984679653   0.000119762487018   
200000000.0         0.000350260914725   0.000239512747373   0.999645288829      -0.00208497250807   0.999645288829      -0.00208497250807   0.000350260914725   0.000239512747373   
300000000.0         0.000352174234738   0.000359249005195   0.99964037279       -0.00312750932197   0.99964037279       -0.00312750932197   0.000352174234738   0.000359249005195   
400000000.0         0.000354026812309   0.000478969068288   0.999634665486      -0.00417009667707   0.999634665486      -0.00417009667707   0.000354026812309   0.000478969068288   
500000000.0         0.000355934863144   0.000598670967333   0.99962805044       -0.00521274381117   0.99962805044       -0.00521274381117   0.000355934863144   0.000598670967333   
600000000.0         0.000357957569195   0.000718352975988   0.999620468176      -0.00625545863259   0.999620468176      -0.00625545863259   0.000357957569194   0.000718352975988   
700000000.0         0.000360129833272   0.000838013591047   0.999611883469      -0.00729824810579   0.999611883469      -0.00729824810579   0.000360129833273   0.000838013591047   
800000000.0         0.000362474227045   0.000957651509723   0.999602273399      -0.00834111847416   0.999602273399      -0.00834111847416   0.000362474227046   0.000957651509723   
900000000.0         0.000365006308292   0.00107726560957    0.999591622036      -0.00938407540367   0.999591622036      -0.00938407540367   0.000365006308292   0.00107726560957    
1000000000.0        0.000367737314811   0.00119685493176    0.999579917752      -0.0104271240823    0.999579917752      -0.0104271240823    0.000367737314811   0.00119685493176    
1100000000.0        0.000370675661318   0.0013164186668     0.999567151722      -0.0114702692926    0.999567151722      -0.0114702692926    0.000370675661318   0.0013164186668     
1200000000.0        0.000373827831033   0.00143595614263    0.999553317034      -0.0125135154671    0.999553317034      -0.0125135154671    0.000373827831033   0.00143595614263    
1300000000.0        0.000377198936476   0.00155546681437    0.999538408133      -0.0135568667314    0.999538408133      -0.0135568667314    0.000377198936475   0.00155546681437    
1400000000.0        0.00038079308796    0.00167495025554    0.999522420453      -0.0146003269383    0.999522420453      -0.0146003269383    0.00038079308796    0.00167495025554    
1500000000.0        0.000384613644663   0.00179440615011    0.999505350164      -0.0156438996968    0.999505350164      -0.0156438996968    0.000384613644663   0.00179440615011    
1600000000.0        0.000388663390938   0.00191383428583    0.999487194001      -0.0166875883956    0.999487194001      -0.0166875883956    0.000388663390938   0.00191383428583    
1700000000.0        0.000392944663381   0.00203323454805    0.999467949135      -0.0177313962225    0.999467949135      -0.0177313962225    0.000392944663381   0.00203323454805    
1800000000.0        0.000397459444471   0.00215260691419    0.999447613084      -0.0187753261822    0.999447613084      -0.0187753261822    0.000397459444471   0.00215260691419    
1900000000.0        0.000402209432922   0.0022719514489     0.999426183637      -0.0198193811104    0.999426183637      -0.0198193811104    0.000402209432922   0.0022719514489     
2000000000.0        0.000407196097465   0.00239126829946    0.999403658808      -0.0208635636872    0.999403658808      -0.0208635636872    0.000407196097464   0.00239126829946    
2100000000.0        0.000412420718582   0.00251055769174    0.999380036791      -0.0219078764481    0.999380036791      -0.0219078764481    0.000412420718583   0.00251055769174    
2200000000.0        0.000417884421348   0.00262981992633    0.999355315931      -0.0229523217939    0.999355315931      -0.0229523217939    0.000417884421349   0.00262981992633    
2300000000.0        0.000423588201574   0.00274905537511    0.999329494693      -0.0239969020001    0.999329494693      -0.0239969020001    0.000423588201575   0.00274905537511    
2400000000.0        0.000429532946866   0.002868264478      0.999302571649      -0.0250416192246    0.999302571649      -0.0250416192246    0.000429532946866   0.002868264478      
2500000000.0        0.000435719453757   0.00298744773997    0.999274545454      -0.026086475515     0.999274545454      -0.026086475515     0.000435719453757   0.00298744773997    
2600000000.0        0.00044214844177    0.00310660572824    0.999245414839      -0.0271314728149    0.999245414839      -0.0271314728149    0.00044214844177    0.00310660572824    
2700000000.0        0.000448820565062   0.00322573906961    0.999215178595      -0.0281766129706    0.999215178595      -0.0281766129706    0.000448820565062   0.00322573906961    
2800000000.0        0.000455736422139   0.00334484844811    0.999183835567      -0.0292218977358    0.999183835567      -0.0292218977358    0.000455736422139   0.00334484844811    
2900000000.0        0.000462896564028   0.00346393460255    0.999151384645      -0.0302673287769    0.999151384645      -0.0302673287769    0.000462896564027   0.00346393460255    
3000000000.0        0.000470301501181   0.00358299832449    0.999117824758      -0.0313129076776    0.999117824758      -0.0313129076776    0.000470301501181   0.00358299832449    
3100000000.0        0.00047795170937    0.00370204045611    0.999083154866      -0.0323586359433    0.999083154866      -0.0323586359433    0.00047795170937    0.00370204045611    
3200000000.0        0.000485847634722   0.00382106188831    0.999047373961      -0.0334045150047    0.999047373961      -0.0334045150047    0.000485847634722   0.00382106188831    
3300000000.0        0.000493989698061   0.00394006355886    0.999010481057      -0.0344505462216    0.999010481057      -0.0344505462216    0.000493989698061   0.00394006355886    
3400000000.0        0.000502378298667   0.00405904645062    0.998972475189      -0.0354967308865    0.998972475189      -0.0354967308865    0.000502378298667   0.00405904645062    
3500000000.0        0.00051101381755    0.00417801159001    0.998933355413      -0.0365430702273    0.998933355413      -0.0365430702273    0.00051101381755    0.00417801159001    
3600000000.0        0.000519896620301   0.0042969600453     0.998893120799      -0.0375895654106    0.998893120799      -0.0375895654106    0.000519896620301   0.0042969600453     
3700000000.0        0.000529027059605   0.00441589292524    0.99885177043       -0.0386362175446    0.99885177043       -0.0386362175446    0.000529027059605   0.00441589292524    
3800000000.0        0.000538405477447   0.00453481137755    0.998809303402      -0.0396830276812    0.998809303402      -0.0396830276812    0.000538405477447   0.00453481137755    
3900000000.0        0.000548032207073   0.0046537165876     0.998765718821      -0.0407299968187    0.998765718821      -0.0407299968187    0.000548032207072   0.0046537165876     
4000000000.0        0.00055790757472    0.00477260977712    0.998721015801      -0.0417771259043    0.998721015801      -0.0417771259043    0.00055790757472    0.00477260977712    
4100000000.0        0.000568031901173   0.00489149220294    0.998675193463      -0.0428244158356    0.998675193463      -0.0428244158356    0.000568031901173   0.00489149220294    
4200000000.0        0.000578405503137   0.00501036515583    0.998628250936      -0.0438718674635    0.998628250936      -0.0438718674635    0.000578405503137   0.00501036515583    
4300000000.0        0.00058902869449    0.00512922995933    0.998580187351      -0.0449194815933    0.998580187351      -0.0449194815933    0.00058902869449    0.00512922995933    
4400000000.0        0.00059990178739    0.00524808796872    0.998531001848      -0.0459672589872    0.998531001848      -0.0459672589872    0.00059990178739    0.00524808796872    
4500000000.0        0.000611025093293   0.00536694056992    0.998480693565      -0.0470152003653    0.998480693565      -0.0470152003653    0.000611025093293   0.00536694056992    
4600000000.0        0.000622398923857   0.0054857891785     0.998429261648      -0.0480633064079    0.998429261648      -0.0480633064079    0.000622398923857   0.0054857891785     
4700000000.0        0.000634023591773   0.00560463523879    0.998376705242      -0.0491115777566    0.998376705242      -0.0491115777566    0.000634023591773   0.00560463523879    
4800000000.0        0.000645899411519   0.00572348022285    0.998323023495      -0.0501600150159    0.998323023495      -0.0501600150159    0.000645899411519   0.00572348022285    
4900000000.0        0.000658026700047   0.00584232562966    0.998268215555      -0.0512086187545    0.998268215555      -0.0512086187545    0.000658026700046   0.00584232562966    
5000000000.0        0.000670405777407   0.00596117298425    0.998212280573      -0.0522573895067    0.998212280573      -0.0522573895067    0.000670405777407   0.00596117298425    
5100000000.0        0.000683036967329   0.00608002383684    0.998155217698      -0.0533063277736    0.998155217698      -0.0533063277736    0.000683036967329   0.00608002383684    
5200000000.0        0.000695920597746   0.00619887976213    0.99809702608       -0.0543554340245    0.99809702608       -0.0543554340245    0.000695920597746   0.00619887976213    
5300000000.0        0.000709057001284   0.00631774235846    0.998037704869      -0.0554047086976    0.998037704869      -0.0554047086976    0.000709057001284   0.00631774235846    
5400000000.0        0.000722446515706   0.00643661324712    0.997977253215      -0.0564541522015    0.997977253215      -0.0564541522015    0.000722446515706   0.00643661324712    
5500000000.0        0.000736089484333   0.00655549407162    0.997915670264      -0.0575037649157    0.997915670264      -0.0575037649157    0.000736089484332   0.00655549407163    
5600000000.0        0.000749986256422   0.00667438649704    0.997852955165      -0.0585535471925    0.997852955165      -0.0585535471925    0.000749986256422   0.00667438649704    
5700000000.0        0.000764137187524   0.00679329220931    0.997789107064      -0.0596034993567    0.997789107064      -0.0596034993567    0.000764137187524   0.00679329220931    
5800000000.0        0.000778542639817   0.00691221291465    0.997724125104      -0.0606536217077    0.997724125104      -0.0606536217077    0.000778542639818   0.00691221291465    
5900000000.0        0.00079320298241    0.0070311503389     0.997658008428      -0.0617039145195    0.997658008428      -0.0617039145195    0.00079320298241    0.0070311503389     
6000000000.0        0.000808118591631   0.00715010622694    0.997590756176      -0.0627543780418    0.997590756176      -0.0627543780418    0.000808118591631   0.00715010622694    
6100000000.0        0.000823289851297   0.00726908234211    0.997522367489      -0.0638050125009    0.997522367489      -0.0638050125009    0.000823289851297   0.00726908234211    
6200000000.0        0.000838717152962   0.00738808046567    0.997452841502      -0.0648558181004    0.997452841502      -0.0648558181004    0.000838717152962   0.00738808046567    
6300000000.0        0.000854400896155   0.00750710239624    0.99738217735       -0.0659067950217    0.99738217735       -0.0659067950217    0.000854400896155   0.00750710239624    
6400000000.0        0.000870341488597   0.00762614994932    0.997310374164      -0.0669579434247    0.997310374164      -0.0669579434247    0.000870341488597   0.00762614994932    
6500000000.0        0.000886539346409   0.00774522495672    0.997237431076      -0.0680092634489    0.997237431076      -0.0680092634489    0.00088653934641    0.00774522495672    
6600000000.0        0.000902994894309   0.00786432926611    0.997163347211      -0.0690607552136    0.997163347211      -0.0690607552136    0.000902994894309   0.00786432926611    
6700000000.0        0.000919708565791   0.00798346474056    0.997088121694      -0.0701124188183    0.997088121694      -0.0701124188183    0.000919708565791   0.00798346474056    
6800000000.0        0.0009366808033     0.00810263325804    0.997011753647      -0.0711642543438    0.997011753647      -0.0711642543438    0.0009366808033     0.00810263325804    
6900000000.0        0.000953912058396   0.00822183671101    0.996934242189      -0.0722162618527    0.996934242189      -0.0722162618527    0.000953912058396   0.00822183671101    
7000000000.0        0.000971402791907   0.00834107700596    0.996855586436      -0.0732684413893    0.996855586436      -0.0732684413893    0.000971402791907   0.00834107700596    
7100000000.0        0.000989153474076   0.00846035606299    0.996775785502      -0.0743207929809    0.996775785502      -0.0743207929809    0.000989153474076   0.00846035606299    
7200000000.0        0.0010071645847     0.00857967581543    0.996694838497      -0.0753733166376    0.996694838497      -0.0753733166376    0.0010071645847     0.00857967581543    
7300000000.0        0.00102543661325    0.00869903820941    0.996612744528      -0.0764260123534    0.996612744528      -0.0764260123534    0.00102543661325    0.00869903820941    
7400000000.0        0.00104397005903    0.00881844520348    0.9965295027        -0.077478880106     0.9965295027        -0.077478880106     0.00104397005903    0.00881844520348    
7500000000.0        0.00106276543123    0.00893789876826    0.996445112114      -0.0785319198578    0.996445112114      -0.0785319198578    0.00106276543123    0.00893789876826    
7600000000.0        0.00108182324913    0.00905740088604    0.996359571868      -0.0795851315559    0.996359571868      -0.0795851315559    0.00108182324913    0.00905740088604    
7700000000.0        0.0011011440421     0.00917695355044    0.996272881057      -0.0806385151327    0.996272881057      -0.0806385151327    0.0011011440421     0.00917695355044    
7800000000.0        0.00112072834982    0.00929655876605    0.996185038774      -0.0816920705061    0.996185038774      -0.0816920705061    0.00112072834982    0.00929655876605    
7900000000.0        0.00114057672226    0.00941621854813    0.996096044106      -0.08274579758      0.996096044106      -0.08274579758      0.00114057672226    0.00941621854813    
8000000000.0        0.00116068971985    0.00953593492223    0.99600589614       -0.0837996962446    0.99600589614       -0.0837996962446    0.00116068971985    0.00953593492223    
8100000000.0        0.00118106791356    0.0096557099239     0.995914593957      -0.0848537663769    0.995914593957      -0.0848537663769    0.00118106791356    0.0096557099239     
8200000000.0        0.00120171188496    0.00977554559838    0.995822136636      -0.0859080078405    0.995822136636      -0.0859080078405    0.00120171188496    0.00977554559838    
8300000000.0        0.00122262222631    0.00989544400027    0.995728523253      -0.0869624204866    0.995728523253      -0.0869624204866    0.00122262222631    0.00989544400027    
8400000000.0        0.00124379954065    0.0100154071933     0.995633752881      -0.0880170041538    0.995633752881      -0.0880170041538    0.00124379954065    0.0100154071933     
8500000000.0        0.00126524444184    0.0101354372498     0.995537824587      -0.0890717586683    0.995537824587      -0.0890717586683    0.00126524444184    0.0101354372498     
8600000000.0        0.00128695755469    0.0102555362509     0.995440737439      -0.0901266838447    0.995440737439      -0.0901266838447    0.00128695755469    0.0102555362509     
8700000000.0        0.00130893951498    0.0103757062857     0.995342490498      -0.0911817794857    0.995342490498      -0.0911817794857    0.00130893951498    0.0103757062857     
8800000000.0        0.00133119096952    0.0104959494513     0.995243082822      -0.0922370453827    0.995243082822      -0.0922370453827    0.00133119096952    0.0104959494513     
8900000000.0        0.00135371257626    0.0106162678526     0.995142513469      -0.0932924813159    0.995142513469      -0.0932924813159    0.00135371257626    0.0106162678526     
9000000000.0        0.00137650500431    0.0107366636019     0.995040781489      -0.0943480870545    0.995040781489      -0.0943480870545    0.00137650500431    0.0107366636019     
9100000000.0        0.00139956893401    0.0108571388184     0.994937885931      -0.0954038623568    0.994937885931      -0.0954038623568    0.00139956893401    0.0108571388184     
9200000000.0        0.00142290505698    0.0109776956286     0.994833825841      -0.0964598069708    0.994833825841      -0.0964598069708    0.00142290505698    0.0109776956286     
9300000000.0        0.00144651407618    0.0110983361655     0.994728600261      -0.097515920634     0.994728600261      -0.097515920634     0.00144651407618    0.0110983361655     
9400000000.0        0.00147039670597    0.0112190625684     0.994622208229      -0.0985722030737    0.994622208229      -0.0985722030737    0.00147039670597    0.0112190625684     
9500000000.0        0.00149455367215    0.0113398769831     0.99451464878       -0.0996286540072    0.99451464878       -0.0996286540072    0.00149455367215    0.0113398769831     
9600000000.0        0.00151898571198    0.011460781561      0.994405920945      -0.100685273142     0.994405920945      -0.100685273142     0.00151898571198    0.011460781561      
9700000000.0        0.00154369357428    0.0115817784596     0.994296023754      -0.101742060177     0.994296023754      -0.101742060177     0.00154369357428    0.0115817784596     
9800000000.0        0.00156867801942    0.0117028698417     0.99418495623       -0.102799014798     0.99418495623       -0.102799014798     0.00156867801942    0.0117028698417     
9900000000.0        0.00159393981942    0.0118240578754     0.994072717396      -0.103856136687     0.994072717396      -0.103856136687     0.00159393981942    0.0118240578754     
10000000000.0       0.00161947975792    0.0119453447339     0.993959306268      -0.104913425512     0.993959306268      -0.104913425512     0.00161947975792    0.0119453447339     
