# Hz S RI R 50.00 
100000000.0         0.000389986560636   -0.00393383726678   0.999559382206      -0.00510063727943   0.999559382206      -0.00510063727943   0.000389986560635   -0.00393383726678   
200000000.0         0.000328181651113   -0.00786715860602   0.999489928201      -0.010200765749     0.999489928201      -0.010200765749     0.000328181651113   -0.00786715860602   
300000000.0         0.000225533304849   -0.0117994757086    0.99937971232       -0.0152999144415    0.99937971232       -0.0152999144415    0.00022553330485    -0.0117994757086    
400000000.0         8.24189614794e-05   -0.0157302917985    0.999228395055      -0.0203975986821    0.999228395055      -0.0203975986821    8.24189614796e-05   -0.0157302917985    
500000000.0         -0.000100996641968  -0.0196591056683    0.999035865625      -0.0254933276558    0.999035865625      -0.0254933276558    -0.000100996641967  -0.0196591056683    
600000000.0         -0.000324608234662  -0.0235854134424    0.998802089014      -0.0305866069367    0.998802089014      -0.0305866069367    -0.000324608234662  -0.0235854134424    
700000000.0         -0.00058833105694   -0.0275087095957    0.998527067178      -0.0356769398303    0.998527067178      -0.0356769398303    -0.000588331056939  -0.0275087095957    
800000000.0         -0.000892086634771  -0.0314284876433    0.998210824945      -0.0407638282356    0.998210824945      -0.0407638282356    -0.000892086634771  -0.0314284876433    
900000000.0         -0.00123579644154   -0.03534424066      0.997853403741      -0.0458467732691    0.997853403741      -0.0458467732691    -0.00123579644154   -0.03534424066      
1000000000.0        -0.0016193786858    -0.0392554617014    0.997454858431      -0.0509252757541    0.997454858431      -0.0509252757541    -0.0016193786858    -0.0392554617014    
1100000000.0        -0.00204274652985   -0.0431616441603    0.997015255557      -0.0559988366262    0.997015255557      -0.0559988366262    -0.00204274652985   -0.0431616441603    
1200000000.0        -0.0025058070356    -0.0470622820829    0.996534672283      -0.0610669572846    0.996534672283      -0.0610669572846    -0.0025058070356    -0.0470622820829    
1300000000.0        -0.003008460511     -0.0509568704544    0.996013195724      -0.0661291399045    0.996013195724      -0.0661291399045    -0.003008460511     -0.0509568704544    
1400000000.0        -0.003550600092     -0.0548449054641    0.995450922499      -0.0711848877231    0.995450922499      -0.0711848877231    -0.003550600092     -0.0548449054641    
1500000000.0        -0.00413211147079   -0.0587258847527    0.994847958405      -0.0762337053041    0.994847958405      -0.0762337053041    -0.00413211147079   -0.0587258847527    
1600000000.0        -0.00475287271916   -0.0625993076481    0.994204418184      -0.0812750987869    0.994204418184      -0.0812750987869    -0.00475287271916   -0.0625993076481    
1700000000.0        -0.00541275417645   -0.0664646753904    0.993520425336      -0.086308576123     0.993520425336      -0.086308576123     -0.00541275417645   -0.0664646753904    
1800000000.0        -0.00611161838301   -0.0703214913483    0.992796111963      -0.091333647302     0.992796111963      -0.091333647302     -0.00611161838301   -0.0703214913483    
1900000000.0        -0.00684932004698   -0.0741692612277    0.992031618639      -0.0963498245683    0.992031618639      -0.0963498245683    -0.00684932004698   -0.0741692612277    
2000000000.0        -0.00762570603611   -0.0780074932755    0.991227094295      -0.101356622632     0.991227094295      -0.101356622632     -0.00762570603611   -0.0780074932755    
2100000000.0        -0.00844061538912   -0.0818356984759    0.990382696106      -0.10635355887      0.990382696106      -0.10635355887      -0.00844061538912   -0.0818356984759    
2200000000.0        -0.00929387934268   -0.0856533907426    0.989498589392      -0.111340153526     0.989498589392      -0.111340153526     -0.00929387934268   -0.0856533907426    
2300000000.0        -0.0101853213713    -0.0894600871063    0.988574947515      -0.116315929901     0.988574947515      -0.116315929901     -0.0101853213713    -0.0894600871063    
2400000000.0        -0.0111147572378    -0.0932553078972    0.987611951779      -0.121280414539     0.987611951779      -0.121280414539     -0.0111147572378    -0.0932553078972    
2500000000.0        -0.0120819950535    -0.0970385769236    0.986609791333      -0.126233137411     0.986609791333      -0.126233137411     -0.0120819950535    -0.0970385769236    
2600000000.0        -0.0130868353461    -0.100809421646     0.985568663069      -0.131173632092     0.985568663069      -0.131173632092     -0.0130868353461    -0.100809421646     
2700000000.0        -0.014129071135     -0.104567373349     0.984488771522      -0.136101435936     0.984488771522      -0.136101435936     -0.014129071135     -0.104567373349     
2800000000.0        -0.0152084880128    -0.108311967304     0.983370328763      -0.141016090241     0.983370328763      -0.141016090241     -0.0152084880128    -0.108311967304     
2900000000.0        -0.0163248642335    -0.112042742937     0.982213554297      -0.145917140418     0.982213554297      -0.145917140418     -0.0163248642335    -0.112042742937     
3000000000.0        -0.0174779708053    -0.115759243982     0.981018674948      -0.150804136149     0.981018674948      -0.150804136149     -0.0174779708053    -0.115759243982     
3100000000.0        -0.018667571589     -0.11946101864      0.979785924754      -0.155676631547     0.979785924754      -0.155676631547     -0.018667571589     -0.11946101864      
3200000000.0        -0.0198934234005    -0.123147619727     0.97851554485       -0.160534185307     0.97851554485       -0.160534185307     -0.0198934234005    -0.123147619727     
3300000000.0        -0.0211552761188    -0.126818604823     0.977207783352      -0.165376360854     0.977207783352      -0.165376360854     -0.0211552761188    -0.126818604823     
3400000000.0        -0.0224528727968    -0.130473536414     0.975862895234      -0.170202726489     0.975862895234      -0.170202726489     -0.0224528727968    -0.130473536414     
3500000000.0        -0.0237859497773    -0.134111982032     0.974481142209      -0.175012855529     0.974481142209      -0.175012855529     -0.0237859497773    -0.134111982032     
3600000000.0        -0.0251542368116    -0.137733514389     0.973062792604      -0.179806326445     0.973062792604      -0.179806326445     -0.0251542368116    -0.137733514389     
3700000000.0        -0.0265574571821    -0.141337711511     0.97160812123       -0.184582722992     0.97160812123       -0.184582722992     -0.0265574571821    -0.141337711511     
3800000000.0        -0.0279953278283    -0.144924156862     0.97011740925       -0.189341634342     0.97011740925       -0.189341634342     -0.0279953278283    -0.144924156862     
3900000000.0        -0.0294675594758    -0.148492439468     0.96859094405       -0.194082655202     0.96859094405       -0.194082655202     -0.0294675594758    -0.148492439468     
4000000000.0        -0.0309738567678    -0.152042154039     0.967029019101      -0.198805385941     0.967029019101      -0.198805385941     -0.0309738567678    -0.152042154039     
4100000000.0        -0.0325139184002    -0.155572901081     0.965431933821      -0.203509432701     0.965431933821      -0.203509432701     -0.0325139184002    -0.155572901081     
4200000000.0        -0.0340874372585    -0.159084287007     0.963799993436      -0.208194407511     0.963799993436      -0.208194407511     -0.0340874372585    -0.159084287007     
4300000000.0        -0.0356941005577    -0.162575924245     0.962133508837      -0.212859928394     0.962133508837      -0.212859928394     -0.0356941005577    -0.162575924245     
4400000000.0        -0.0373335899842    -0.166047431341     0.960432796435      -0.217505619471     0.960432796435      -0.217505619471     -0.0373335899842    -0.166047431341     
4500000000.0        -0.0390055818399    -0.169498433054     0.958698178015      -0.22213111106      0.958698178015      -0.22213111106      -0.0390055818399    -0.169498433054     
4600000000.0        -0.0407097471884    -0.172928560455     0.956929980592      -0.226736039768     0.956929980592      -0.226736039768     -0.0407097471884    -0.172928560455     
4700000000.0        -0.0424457520028    -0.176337451013     0.955128536253      -0.231320048587     0.955128536253      -0.231320048587     -0.0424457520028    -0.176337451013     
4800000000.0        -0.0442132573156    -0.17972474868      0.953294182016      -0.235882786975     0.953294182016      -0.235882786975     -0.0442132573156    -0.17972474868      
4900000000.0        -0.0460119193696    -0.183090103976     0.951427259669      -0.240423910942     0.951427259669      -0.240423910942     -0.0460119193696    -0.183090103976     
5000000000.0        -0.0478413897707    -0.186433174062     0.94952811562       -0.244943083123     0.94952811562       -0.244943083123     -0.0478413897707    -0.186433174062     
5100000000.0        -0.0497013156419    -0.189753622816     0.947597100742      -0.249439972855     0.947597100742      -0.249439972855     -0.0497013156419    -0.189753622816     
5200000000.0        -0.051591339778     -0.193051120898     0.945634570217      -0.253914256245     0.945634570217      -0.253914256245     -0.051591339778     -0.193051120898     
5300000000.0        -0.0535111008021    -0.196325345816     0.943640883376      -0.258365616231     0.943640883376      -0.258365616231     -0.0535111008021    -0.196325345816     
5400000000.0        -0.0554602333219    -0.199575981986     0.941616403548      -0.26279374265      0.941616403548      -0.26279374265      -0.0554602333219    -0.199575981986     
5500000000.0        -0.0574383680878    -0.202802720784     0.939561497893      -0.267198332285     0.939561497893      -0.267198332285     -0.0574383680878    -0.202802720784     
5600000000.0        -0.0594451321509    -0.206005260602     0.93747653725       -0.271579088921     0.93747653725       -0.271579088921     -0.0594451321509    -0.206005260602     
5700000000.0        -0.0614801490217    -0.209183306892     0.935361895973      -0.275935723394     0.935361895973      -0.275935723394     -0.0614801490217    -0.209183306892     
5800000000.0        -0.0635430388293    -0.212336572208     0.933217951776      -0.28026795363      0.933217951776      -0.28026795363      -0.0635430388293    -0.212336572208     
5900000000.0        -0.0656334184801    -0.215464776248     0.931045085569      -0.284575504686     0.931045085569      -0.284575504686     -0.0656334184801    -0.215464776248     
6000000000.0        -0.0677509018179    -0.218567645881     0.9288436813        -0.288858108786     0.9288436813        -0.288858108786     -0.0677509018179    -0.218567645881     
6100000000.0        -0.0698950997826    -0.221644915187     0.926614125795      -0.293115505345     0.926614125795      -0.293115505345     -0.0698950997826    -0.221644915187     
6200000000.0        -0.0720656205694    -0.224696325472     0.924356808599      -0.297347441006     0.924356808599      -0.297347441006     -0.0720656205694    -0.224696325472     
6300000000.0        -0.0742620697879    -0.2277216253       0.922072121815      -0.301553669651     0.922072121815      -0.301553669651     -0.0742620697879    -0.2277216253       
6400000000.0        -0.0764840506205    -0.230720570503     0.919760459947      -0.305733952427     0.919760459947      -0.305733952427     -0.0764840506205    -0.230720570503     
6500000000.0        -0.0787311639802    -0.233692924199     0.917422219741      -0.309888057757     0.917422219741      -0.309888057757     -0.0787311639802    -0.233692924199     
6600000000.0        -0.0810030086681    -0.2366384568       0.915057800027      -0.314015761347     0.915057800027      -0.314015761347     -0.0810030086681    -0.2366384568       
6700000000.0        -0.0832991815301    -0.239556946019     0.912667601562      -0.3181168462       0.912667601562      -0.3181168462       -0.0832991815301    -0.239556946019     
6800000000.0        -0.0856192776125    -0.242448176868     0.910252026874      -0.322191102611     0.910252026874      -0.322191102611     -0.0856192776125    -0.242448176868     
6900000000.0        -0.0879628903172    -0.245311941665     0.907811480109      -0.326238328168     0.907811480109      -0.326238328168     -0.0879628903172    -0.245311941665     
7000000000.0        -0.0903296115551    -0.248148040018     0.905346366871      -0.330258327749     0.905346366871      -0.330258327749     -0.0903296115551    -0.248148040018     
7100000000.0        -0.0927190318993    -0.250956278824     0.902857094076      -0.334250913507     0.902857094076      -0.334250913507     -0.0927190318993    -0.250956278824     
7200000000.0        -0.0951307407363    -0.253736472249     0.900344069796      -0.338215904866     0.900344069796      -0.338215904866     -0.0951307407363    -0.253736472249     
7300000000.0        -0.0975643264163    -0.256488441719     0.897807703108      -0.342153128495     0.897807703108      -0.342153128495     -0.0975643264163    -0.256488441719     
7400000000.0        -0.100019376402     -0.259212015894     0.89524840395       -0.346062418298     0.89524840395       -0.346062418298     -0.100019376402     -0.259212015894     
7500000000.0        -0.102495477416     -0.261907030647     0.892666582967      -0.349943615384     0.892666582967      -0.349943615384     -0.102495477416     -0.261907030647     
7600000000.0        -0.104992215586     -0.264573329037     0.890062651369      -0.35379656804      0.890062651369      -0.35379656804      -0.104992215586     -0.264573329037     
7700000000.0        -0.10750917659      -0.267210761282     0.887437020786      -0.357621131709     0.887437020786      -0.357621131709     -0.10750917659      -0.267210761282     
7800000000.0        -0.110045945797     -0.269819184718     0.884790103126      -0.361417168948     0.884790103126      -0.361417168948     -0.110045945797     -0.269819184718     
7900000000.0        -0.112602108409     -0.27239846377      0.882122310432      -0.365184549398     0.882122310432      -0.365184549398     -0.112602108409     -0.27239846377      
8000000000.0        -0.115177249599     -0.274948469911     0.879434054746      -0.368923149739     0.879434054746      -0.368923149739     -0.115177249599     -0.274948469911     
8100000000.0        -0.117770954647     -0.277469081617     0.87672574797       -0.372632853656     0.87672574797       -0.372632853656     -0.117770954647     -0.277469081617     
8200000000.0        -0.120382809078     -0.279960184323     0.873997801732      -0.376313551784     0.873997801732      -0.376313551784     -0.120382809078     -0.279960184323     
8300000000.0        -0.12301239879      -0.282421670377     0.871250627253      -0.37996514167      0.871250627253      -0.37996514167      -0.12301239879      -0.282421670377     
8400000000.0        -0.125659310187     -0.284853438986     0.868484635217      -0.383587527715     0.868484635217      -0.383587527715     -0.125659310187     -0.284853438986     
8500000000.0        -0.128323130308     -0.287255396164     0.86570023564       -0.387180621122     0.86570023564       -0.387180621122     -0.128323130308     -0.287255396164     
8600000000.0        -0.131003446952     -0.289627454675     0.862897837749      -0.390744339843     0.862897837749      -0.390744339843     -0.131003446952     -0.289627454675     
8700000000.0        -0.1336998488       -0.291969533976     0.86007784985       -0.394278608519     0.86007784985       -0.394278608519     -0.1336998488       -0.291969533976     
8800000000.0        -0.136411925542     -0.294281560156     0.857240679214      -0.397783358419     0.857240679214      -0.397783358419     -0.136411925542     -0.294281560156     
8900000000.0        -0.13913926799      -0.29656346587      0.854386731954      -0.401258527375     0.854386731954      -0.401258527375     -0.13913926799      -0.29656346587      
9000000000.0        -0.1418814682       -0.298815190278     0.851516412908      -0.404704059722     0.851516412908      -0.404704059722     -0.1418814682       -0.298815190278     
9100000000.0        -0.144638119581     -0.301036678971     0.848630125525      -0.408119906224     0.848630125525      -0.408119906224     -0.144638119581     -0.301036678971     
9200000000.0        -0.14740881701      -0.303227883908     0.845728271754      -0.411506024009     0.845728271754      -0.411506024009     -0.14740881701      -0.303227883908     
9300000000.0        -0.150193156944     -0.30538876334      0.842811251933      -0.414862376497     0.842811251933      -0.414862376497     -0.150193156944     -0.30538876334      
9400000000.0        -0.152990737519     -0.30751928174      0.839879464684      -0.418188933324     0.839879464684      -0.418188933324     -0.152990737519     -0.30751928174      
9500000000.0        -0.155801158662     -0.309619409724     0.836933306807      -0.421485670269     0.836933306807      -0.421485670269     -0.155801158662     -0.309619409724     
9600000000.0        -0.158624022189     -0.311689123973     0.833973173177      -0.424752569177     0.833973173177      -0.424752569177     -0.158624022189     -0.311689123973     
9700000000.0        -0.161458931904     -0.313728407162     0.830999456649      -0.427989617879     0.830999456649      -0.427989617879     -0.161458931904     -0.313728407162     
9800000000.0        -0.164305493696     -0.315737247869     0.828012547957      -0.431196810115     0.828012547957      -0.431196810115     -0.164305493696     -0.315737247869     
9900000000.0        -0.167163315632     -0.317715640504     0.825012835623      -0.434374145448     0.825012835623      -0.434374145448     -0.167163315632     -0.317715640504     
10000000000.0       -0.170032008052     -0.319663585218     0.822000705864      -0.437521629185     0.822000705864      -0.437521629185     -0.170032008052     -0.319663585218     
