# Hz S RI R 50.00 
100000000.0         -0.00945021733781   -0.0962728588041    0.99050603783       -0.0964536151253    0.99050603783       -0.0964536151253    -0.00945021733781   -0.0962728588041    
200000000.0         -0.0366321010664    -0.187231318091     0.963323805394      -0.18759287885      0.963323805394      -0.18759287885      -0.0366321010664    -0.187231318091     
300000000.0         -0.0786984826735    -0.268531839214     0.921257117002      -0.269074278317     0.921257117002      -0.269074278317     -0.0786984826735    -0.268531839214     
400000000.0         -0.131729582914     -0.337359652703     0.868225714268      -0.338083064044     0.868225714268      -0.338083064044     -0.131729582914     -0.337359652703     
500000000.0         -0.191522484961     -0.392564767901     0.808432499558      -0.393469262236     0.808432499558      -0.393469262236     -0.191522484961     -0.392564767901     
600000000.0         -0.254254507179     -0.434411103762     0.745700147129      -0.435496806524     0.745700147129      -0.435496806524     -0.254254507179     -0.434411103762     
700000000.0         -0.316866240298     -0.464129737468     0.683088061873      -0.465396787078     0.683088061873      -0.465396787078     -0.316866240298     -0.464129737468     
800000000.0         -0.377173924364     -0.48345968925      0.622780000884      -0.48490823573      0.622780000884      -0.48490823573      -0.377173924364     -0.48345968925      
900000000.0         -0.433797796472     -0.494284613505     0.566155725067      -0.4959148173       0.566155725067      -0.4959148173       -0.433797796472     -0.494284613505     
1000000000.0        -0.486002584231     -0.498397008004     0.513950505338      -0.500209038953     0.513950505338      -0.500209038953     -0.486002584231     -0.498397008004     
1100000000.0        -0.533520414928     -0.497374443078     0.466432213277      -0.499368479519     0.466432213277      -0.499368479519     -0.533520414928     -0.497374443078     
1200000000.0        -0.576394287295     -0.49253516896      0.42355784925       -0.494711396916     0.42355784925       -0.494711396916     -0.576394287295     -0.49253516896      
1300000000.0        -0.614856050762     -0.484941420078     0.385095563092      -0.487300032537     0.385095563092      -0.487300032537     -0.614856050762     -0.484941420078     
1400000000.0        -0.649239038324     -0.475426703619     0.350712021186      -0.477967899884     0.350712021186      -0.477967899884     -0.649239038324     -0.475426703619     
1500000000.0        -0.679919559308     -0.464631928668     0.320030913676      -0.467355913763     0.320030913676      -0.467355913763     -0.679919559308     -0.464631928668     
1600000000.0        -0.707280071331     -0.453041906515     0.292669782483      -0.455948890653     0.292669782483      -0.455948890653     -0.707280071331     -0.453041906515     
1700000000.0        -0.731687563186     -0.441018164462     0.268261638401      -0.444108362562     0.268261638401      -0.444108362562     -0.731687563186     -0.441018164462     
1800000000.0        -0.753482072539     -0.428826610984     0.246466443395      -0.43210024223      0.246466443395      -0.43210024223      -0.753482072539     -0.428826610984     
1900000000.0        -0.772971658093     -0.416659959226     0.226976138423      -0.420117246671     0.226976138423      -0.420117246671     -0.772971658093     -0.416659959226     
2000000000.0        -0.790431295033     -0.404655442763     0.209515747991      -0.408296612967     0.209515747991      -0.408296612967     -0.790431295033     -0.404655442763     
2100000000.0        -0.806104020411     -0.392908573654     0.193842234755      -0.396733856361     0.193842234755      -0.396733856361     -0.806104020411     -0.392908573654     
2200000000.0        -0.820203258876     -0.381483701988     0.179742173795      -0.385493329835     0.179742173795      -0.385493329835     -0.820203258876     -0.381483701988     
2300000000.0        -0.832915667356     -0.370422054472     0.167028907926      -0.374616262722     0.167028907926      -0.374616262722     -0.832915667356     -0.370422054472     
2400000000.0        -0.844404105156     -0.359747818462     0.155539577598      -0.364126844772     0.155539577598      -0.364126844772     -0.844404105156     -0.359747818462     
2500000000.0        -0.854810507258     -0.349472727093     0.145132247592      -0.354036811302     0.145132247592      -0.354036811302     -0.854810507258     -0.349472727093     
2600000000.0        -0.864258545593     -0.339599503292     0.135683245754      -0.344348887236     0.135683245754      -0.344348887236     -0.864258545593     -0.339599503292     
2700000000.0        -0.872856028044     -0.330124439226     0.127084763982      -0.335059366573     0.127084763982      -0.335059366573     -0.872856028044     -0.330124439226     
2800000000.0        -0.880697023137     -0.321039322779     0.119242733536      -0.326160038882     0.119242733536      -0.326160038882     -0.880697023137     -0.321039322779     
2900000000.0        -0.887863719661     -0.312332871836     0.112074965423      -0.317639623612     0.112074965423      -0.317639623612     -0.887863719661     -0.312332871836     
3000000000.0        -0.894428041371     -0.303991798081     0.105509535684      -0.309484833898     0.105509535684      -0.309484833898     -0.894428041371     -0.303991798081     
3100000000.0        -0.900453041654     -0.296001592123     0.0994833907352     -0.301681161709     0.0994833907352     -0.301681161709     -0.900453041654     -0.296001592123     
3200000000.0        -0.905994104023     -0.288347099211     0.0939411468701     -0.294213453575     0.0939411468701     -0.294213453575     -0.905994104023     -0.288347099211     
3300000000.0        -0.911099973391     -0.281012937673     0.0888340589816     -0.28706632904      0.0888340589816     -0.28706632904      -0.911099973391     -0.281012937673     
3400000000.0        -0.915813641085     -0.273983799388     0.0841191355559     -0.280224481147     0.0841191355559     -0.280224481147     -0.915813641085     -0.273983799388     
3500000000.0        -0.920173104128     -0.267244661899     0.0797583793822     -0.273672888563     0.0797583793822     -0.273672888563     -0.920173104128     -0.267244661899     
3600000000.0        -0.92421201688      -0.260780934487     0.0757181359142     -0.267396961661     0.0757181359142     -0.267396961661     -0.92421201688      -0.260780934487     
3700000000.0        -0.927960250712     -0.254578555057     0.0719685335992     -0.261382639418     0.0719685335992     -0.261382639418     -0.927960250712     -0.254578555057     
3800000000.0        -0.9314443752       -0.248624050532     0.0684830026761     -0.255616449813     0.0684830026761     -0.255616449813     -0.9314443752       -0.248624050532     
3900000000.0        -0.934688072421     -0.24290457034      0.0652378608874     -0.250085543332     0.0652378608874     -0.250085543332     -0.934688072421     -0.24290457034      
4000000000.0        -0.937712494167     -0.237407900247     0.0622119562589     -0.244777706797     0.0622119562589     -0.244777706797     -0.937712494167     -0.237407900247     
4100000000.0        -0.940536570477     -0.232122461966     0.0593863585718     -0.239681362986     0.0593863585718     -0.239681362986     -0.940536570477     -0.232122461966     
4200000000.0        -0.943177276574     -0.227037302661     0.0567440924218     -0.234785560148     0.0567440924218     -0.234785560148     -0.943177276574     -0.227037302661     
4300000000.0        -0.945649864254     -0.222142077429     0.0542699058317     -0.230079954482     0.0542699058317     -0.230079954482     -0.945649864254     -0.222142077429     
4400000000.0        -0.947968062834     -0.217427027071     0.051950069305      -0.225554787917     0.051950069305      -0.225554787917     -0.947968062834     -0.217427027071     
4500000000.0        -0.950144253993     -0.212882952866     0.0497722009793     -0.221200862892     0.0497722009793     -0.221200862892     -0.950144253993     -0.212882952866     
4600000000.0        -0.952189624211     -0.208501189643     0.0477251141945     -0.217009515429     0.0477251141945     -0.217009515429     -0.952189624211     -0.208501189643     
4700000000.0        -0.954114297911     -0.204273578072     0.0457986843442     -0.212972587429     0.0457986843442     -0.212972587429     -0.954114297911     -0.204273578072     
4800000000.0        -0.955927453994     -0.20019243687      0.0439837323448     -0.209082398879     0.0439837323448     -0.209082398879     -0.955927453994     -0.20019243687      
4900000000.0        -0.95763742802      -0.196250535397     0.042271922452      -0.205331720458     0.042271922452      -0.205331720458     -0.95763742802      -0.196250535397     
5000000000.0        -0.959251801982     -0.192441067009     0.0406556724869     -0.201713746881     0.0406556724869     -0.201713746881     -0.959251801982     -0.192441067009     
5100000000.0        -0.960777483328     -0.18875762336      0.0391280748158     -0.198222071212     0.0391280748158     -0.198222071212     -0.960777483328     -0.18875762336      
5200000000.0        -0.962220774643     -0.185194169846     0.0376828266653     -0.19485066031      0.0376828266653     -0.19485066031      -0.962220774643     -0.185194169846     
5300000000.0        -0.963587435215     -0.181745022249     0.0363141685587     -0.191593831466     0.0363141685587     -0.191593831466     -0.963587435215     -0.181745022249     
5400000000.0        -0.964882735522     -0.178404824627     0.0350168298272     -0.188446230306     0.0350168298272     -0.188446230306     -0.964882735522     -0.178404824627     
5500000000.0        -0.966111505543     -0.175168528472     0.033785980299      -0.185402809941     0.033785980299      -0.185402809941     -0.966111505543     -0.175168528472     
5600000000.0        -0.967278177667     -0.172031373108     0.0326171873907     -0.182458811372     0.0326171873907     -0.182458811372     -0.967278177667     -0.172031373108     
5700000000.0        -0.968386824868     -0.168988867296     0.0315063779322     -0.179609745095     0.0315063779322     -0.179609745095     -0.968386824868     -0.168988867296     
5800000000.0        -0.969441194726     -0.166036772018     0.030449804146      -0.176851373879     0.030449804146      -0.176851373879     -0.969441194726     -0.166036772018     
5900000000.0        -0.970444739794     -0.163171084364     0.0294440132797     -0.174179696666     0.0294440132797     -0.174179696666     -0.970444739794     -0.163171084364     
6000000000.0        -0.971400644746     -0.160388022493     0.0284858204555     -0.171590933519     0.0284858204555     -0.171590933519     -0.971400644746     -0.160388022493     
6100000000.0        -0.972311850694     -0.157684011583     0.0275722843586     -0.169081511585     0.0275722843586     -0.169081511585     -0.972311850694     -0.157684011583     
6200000000.0        -0.973181076985     -0.155055670739     0.0267006854334     -0.166648051991     0.0267006854334     -0.166648051991     -0.973181076985     -0.155055670739     
6300000000.0        -0.974010840791     -0.152499800777     0.0258685063005     -0.16428735764      0.0258685063005     -0.16428735764      -0.974010840791     -0.152499800777     
6400000000.0        -0.974803474717     -0.150013372843     0.0250734141417     -0.16199640182      0.0250734141417     -0.16199640182      -0.974803474717     -0.150013372843     
6500000000.0        -0.975561142673     -0.147593517805     0.0243132448338     -0.159772317604     0.0243132448338     -0.159772317604     -0.975561142673     -0.147593517805     
6600000000.0        -0.976285854183     -0.145237516371     0.0235859886354     -0.15761238796      0.0235859886354     -0.15761238796      -0.976285854183     -0.145237516371     
6700000000.0        -0.976979477315     -0.142942789873     0.0228897772596     -0.155514036544     0.0228897772596     -0.155514036544     -0.976979477315     -0.142942789873     
6800000000.0        -0.977643750371     -0.140706891688     0.0222228721812     -0.153474819114     0.0222228721812     -0.153474819114     -0.977643750371     -0.140706891688     
6900000000.0        -0.97828029248      -0.138527499235     0.0215836540466     -0.151492415528     0.0215836540466     -0.151492415528     -0.97828029248      -0.138527499235     
7000000000.0        -0.978890613197     -0.136402406514     0.020970613071      -0.149564622285     0.020970613071      -0.149564622285     -0.978890613197     -0.136402406514     
7100000000.0        -0.979476121227     -0.134329517152     0.0203823403198     -0.14768934557      0.0203823403198     -0.14768934557      -0.979476121227     -0.134329517152     
7200000000.0        -0.980038132346     -0.13230683791      0.0198175197822     -0.145864594758     0.0198175197822     -0.145864594758     -0.980038132346     -0.13230683791      
7300000000.0        -0.980577876616     -0.130332472628     0.019274921158      -0.144088476363     0.019274921158      -0.144088476363     -0.980577876616     -0.130332472628     
7400000000.0        -0.981096504959     -0.128404616573     0.0187533932839     -0.142359188383     0.0187533932839     -0.142359188383     -0.981096504959     -0.128404616573     
7500000000.0        -0.981595095154     -0.126521551157     0.0182518581375     -0.140675015017     0.0182518581375     -0.140675015017     -0.981595095154     -0.126521551157     
7600000000.0        -0.982074657312     -0.124681639004     0.0177693053611     -0.139034321736     0.0177693053611     -0.139034321736     -0.982074657312     -0.124681639004     
7700000000.0        -0.98253613888      -0.122883319339     0.0173047872544     -0.137435550665     0.0173047872544     -0.137435550665     -0.98253613888      -0.122883319339     
7800000000.0        -0.98298042923      -0.121125103679     0.0168574141932     -0.135877216278     0.0168574141932     -0.135877216278     -0.98298042923      -0.121125103679     
7900000000.0        -0.983408363849     -0.119405571792     0.01642635043       -0.134357901359     0.01642635043       -0.134357901359     -0.983408363849     -0.119405571792     
8000000000.0        -0.983820728197     -0.117723367929     0.0160108102443     -0.132876253227     0.0160108102443     -0.132876253227     -0.983820728197     -0.117723367929     
8100000000.0        -0.984218261237     -0.116077197282     0.0156100544073     -0.131430980197     0.0156100544073     -0.131430980197     -0.984218261237     -0.116077197282     
8200000000.0        -0.984601658685     -0.114465822673     0.0152233869339     -0.130020848272     0.0152233869339     -0.130020848272     -0.984601658685     -0.114465822673     
8300000000.0        -0.984971575997     -0.11288806145      0.014850152094      -0.128644678033     0.014850152094      -0.128644678033     -0.984971575997     -0.11288806145      
8400000000.0        -0.985328631122     -0.111342782572     0.0144897316624     -0.127301341726     0.0144897316624     -0.127301341726     -0.985328631122     -0.111342782572     
8500000000.0        -0.985673407034     -0.109828903876     0.0141415423827     -0.125989760531     0.0141415423827     -0.125989760531     -0.985673407034     -0.109828903876     
8600000000.0        -0.986006454074     -0.108345389515     0.0138050336292     -0.124708901995     0.0138050336292     -0.124708901995     -0.986006454074     -0.108345389515     
8700000000.0        -0.986328292106     -0.106891247543     0.0134796852482     -0.12345777762      0.0134796852482     -0.12345777762      -0.986328292106     -0.106891247543     
8800000000.0        -0.986639412513     -0.105465527656     0.0131650055631     -0.122235440605     0.0131650055631     -0.122235440605     -0.986639412513     -0.105465527656     
8900000000.0        -0.986940280042     -0.104067319057     0.0128605295296     -0.121040983707     0.0128605295296     -0.121040983707     -0.986940280042     -0.104067319057     
9000000000.0        -0.98723133451      -0.102695748462     0.0125658170284     -0.119873537247     0.0125658170284     -0.119873537247     -0.98723133451      -0.102695748462     
9100000000.0        -0.987512992385     -0.101349978204     0.0122804512839     -0.11873226722      0.0122804512839     -0.11873226722      -0.987512992385     -0.101349978204     
9200000000.0        -0.987785648254     -0.100029204471     0.0120040373979     -0.117616373521     0.0120040373979     -0.117616373521     -0.987785648254     -0.100029204471     
9300000000.0        -0.988049676183     -0.0987326556228    0.0117362009893     -0.116525088276     0.0117362009893     -0.116525088276     -0.988049676183     -0.0987326556228    
9400000000.0        -0.988305430979     -0.0974595906238    0.0114765869311     -0.115457674261     0.0114765869311     -0.115457674261     -0.988305430979     -0.0974595906238    
9500000000.0        -0.988553249362     -0.0962092975531    0.0112248581773     -0.114413423423     0.0112248581773     -0.114413423423     -0.988553249362     -0.0962092975531    
9600000000.0        -0.988793451059     -0.0949810922046    0.0109806946714     -0.113391655473     0.0109806946714     -0.113391655473     -0.988793451059     -0.0949810922046    
9700000000.0        -0.989026339818     -0.0937743167638    0.010743792331      -0.112391716564     0.010743792331      -0.112391716564     -0.989026339818     -0.0937743167638    
9800000000.0        -0.989252204353     -0.0925883385586    0.0105138621025     -0.111412978044     0.0105138621025     -0.111412978044     -0.989252204353     -0.0925883385586    
9900000000.0        -0.989471319226     -0.0914225488796    0.0102906290798     -0.110454835274     0.0102906290798     -0.110454835274     -0.989471319226     -0.0914225488796    
10000000000.0       -0.989683945666     -0.0902763618649    0.0100738316827     -0.109516706514     0.0100738316827     -0.109516706514     -0.989683945666     -0.0902763618649    
