# Hz S RI R 50.00 
100000000.0         0.000110385346503   -0.0131018631637    0.999486352542      -0.0142957895289    0.999486352542      -0.0142957895289    0.000110385346503   -0.0131018631637    
200000000.0         -0.000462558964329  -0.0261879738937    0.998907031664      -0.0285758616576    0.998907031664      -0.0285758616576    -0.000462558964329  -0.0261879738937    
300000000.0         -0.00140908015436   -0.0392432747953    0.997953781479      -0.0428251943714    0.997953781479      -0.0428251943714    -0.00140908015436   -0.0392432747953    
400000000.0         -0.00272685760102   -0.0522527986234    0.996628384887      -0.0570288499585    0.996628384887      -0.0570288499585    -0.00272685760102   -0.0522527986234    
500000000.0         -0.00441294238377   -0.065201731414     0.994933584089      -0.071172041764     0.994933584089      -0.071172041764     -0.00441294238377   -0.065201731414     
600000000.0         -0.00646365675782   -0.0780754683402    0.99287295138       -0.0852401909528    0.99287295138       -0.0852401909528    -0.00646365675782   -0.0780754683402    
700000000.0         -0.00887458369205   -0.0908596662801    0.990450841318      -0.09921897949      0.990450841318      -0.09921897949      -0.00887458369205   -0.0908596662801    
800000000.0         -0.011640578976     -0.103540293716     0.987672357375      -0.11309440027      0.987672357375      -0.11309440027      -0.011640578976     -0.103540293716     
900000000.0         -0.0147557929891    -0.116103677972     0.984543320733      -0.126852804501     0.984543320733      -0.126852804501     -0.0147557929891    -0.116103677972     
1000000000.0        -0.0182136982765    -0.128536549643     0.981070237925      -0.140480946229     0.981070237925      -0.140480946229     -0.0182136982765    -0.128536549643     
1100000000.0        -0.0220071213605    -0.140826083991     0.977260266378      -0.153966023812     0.977260266378      -0.153966023812     -0.0220071213605    -0.140826083991     
1200000000.0        -0.0261282779358    -0.152959939137     0.973121177638      -0.167295718157     0.973121177638      -0.167295718157     -0.0261282779358    -0.152959939137     
1300000000.0        -0.0305688108676    -0.164926290832     0.968661318384      -0.180458227543     0.968661318384      -0.180458227543     -0.0305688108676    -0.164926290832     
1400000000.0        -0.0353198305159    -0.176713863688     0.963889569455      -0.193442298875     0.963889569455      -0.193442298875     -0.0353198305159    -0.176713863688     
1500000000.0        -0.0403719569591    -0.188311958717     0.958815303183      -0.206237255256     0.958815303183      -0.206237255256     -0.0403719569591    -0.188311958717     
1600000000.0        -0.0457153637112    -0.199710477119     0.953448339365      -0.218833019801     0.953448339365      -0.218833019801     -0.0457153637112    -0.199710477119     
1700000000.0        -0.0513398225463    -0.210899940263     0.947798900219      -0.231220135627     0.947798900219      -0.231220135627     -0.0513398225463    -0.210899940263     
1800000000.0        -0.0572347490522    -0.221871505848     0.941877564667      -0.243389782039     0.941877564667      -0.243389782039     -0.0572347490522    -0.221871505848     
1900000000.0        -0.0633892485517    -0.23261698028      0.935695222286      -0.255333786919     0.935695222286      -0.255333786919     -0.0633892485517    -0.23261698028      
2000000000.0        -0.0697921620438    -0.243128827321     0.929263027281      -0.267044635388     0.929263027281      -0.267044635388     -0.0697921620438    -0.243128827321     
2100000000.0        -0.0764321118345    -0.253400173102     0.922592352773      -0.278515474825     0.922592352773      -0.278515474825     -0.0764321118345    -0.253400173102     
2200000000.0        -0.0832975465483    -0.263424807623     0.915694745738      -0.289740116388     0.915694745738      -0.289740116388     -0.0832975465483    -0.263424807623     
2300000000.0        -0.0903767852313    -0.273197182894     0.908581882855      -0.300713033149     0.908581882855      -0.300713033149     -0.0903767852313    -0.273197182894     
2400000000.0        -0.0976580602836    -0.282712407874     0.901265527538      -0.311429355054     0.901265527538      -0.311429355054     -0.0976580602836    -0.282712407874     
2500000000.0        -0.105129558981     -0.291966240415     0.893757488387      -0.321884860871     0.893757488387      -0.321884860871     -0.105129558981     -0.291966240415     
2600000000.0        -0.112779463375     -0.300955076414     0.886069579258      -0.33207596734      0.886069579258      -0.33207596734      -0.112779463375     -0.300955076414     
2700000000.0        -0.12059598839      -0.30967593638      0.878213581156      -0.341999715761     0.878213581156      -0.341999715761     -0.12059598839      -0.30967593638      
2800000000.0        -0.128567417949     -0.318126449668     0.87020120608       -0.351653756223     0.87020120608       -0.351653756223     -0.128567417949     -0.318126449668     
2900000000.0        -0.13668213902      -0.326304836598     0.862044062975      -0.36103632973      0.862044062975      -0.36103632973      -0.13668213902      -0.326304836598     
3000000000.0        -0.144928673451     -0.334209888708     0.853753625876      -0.370146248464     0.853753625876      -0.370146248464     -0.144928673451     -0.334209888708     
3100000000.0        -0.153295707545     -0.341840947374     0.845341204329      -0.378982874403     0.845341204329      -0.378982874403     -0.153295707545     -0.341840947374     
3200000000.0        -0.161772119303     -0.349197881039     0.836817916134      -0.38754609656      0.836817916134      -0.38754609656      -0.161772119303     -0.349197881039     
3300000000.0        -0.170347003315     -0.356281061279     0.828194662453      -0.395836307051     0.828194662453      -0.395836307051     -0.170347003315     -0.356281061279     
3400000000.0        -0.179009693292     -0.363091337938     0.819482105266      -0.403854376232     0.819482105266      -0.403854376232     -0.179009693292     -0.363091337938     
3500000000.0        -0.187749782245     -0.369630013535     0.810690647189      -0.411601627114     0.810690647189      -0.411601627114     -0.187749782245     -0.369630013535     
3600000000.0        -0.196557140359     -0.375898817169     0.801830413595      -0.41907980927      0.801830413595      -0.41907980927      -0.196557140359     -0.375898817169     
3700000000.0        -0.20542193059      -0.381899878098     0.792911237013      -0.426291072412     0.792911237013      -0.426291072412     -0.20542193059      -0.381899878098     
3800000000.0        -0.214334622058     -0.38763569918      0.783942643728      -0.433237939845     0.783942643728      -0.433237939845     -0.214334622058     -0.38763569918      
3900000000.0        -0.223286001321     -0.393109130353     0.774933842508      -0.439923281946     0.774933842508      -0.439923281946     -0.223286001321     -0.393109130353     
4000000000.0        -0.232267181588     -0.398323342296     0.765893715384      -0.446350289824     0.765893715384      -0.446350289824     -0.232267181588     -0.398323342296     
4100000000.0        -0.241269610004     -0.403281800419     0.756830810367      -0.452522449319     0.756830810367      -0.452522449319     -0.241269610004     -0.403281800419     
4200000000.0        -0.25028507307      -0.407988239306     0.747753336018      -0.458443515443     0.747753336018      -0.458443515443     -0.25028507307      -0.407988239306     
4300000000.0        -0.259305700337     -0.412446637723     0.738669157758      -0.464117487395     0.738669157758      -0.464117487395     -0.259305700337     -0.412446637723     
4400000000.0        -0.268323966469     -0.416661194287     0.729585795805      -0.469548584233     0.729585795805      -0.469548584233     -0.268323966469     -0.416661194287     
4500000000.0        -0.277332691784     -0.420636303894     0.720510424618      -0.474741221296     0.720510424618      -0.474741221296     -0.277332691784     -0.420636303894     
4600000000.0        -0.286325041413     -0.424376534948     0.711449873754      -0.479699987449     0.711449873754      -0.479699987449     -0.286325041413     -0.424376534948     
4700000000.0        -0.295294523156     -0.427886607491     0.702410629993      -0.484429623205     0.702410629993      -0.484429623205     -0.295294523156     -0.427886607491     
4800000000.0        -0.304234984185     -0.431171372243     0.693398840649      -0.488934999771     0.693398840649      -0.488934999771     -0.304234984185     -0.431171372243     
4900000000.0        -0.313140606672     -0.434235790615     0.684420317926      -0.493221099065     0.684420317926      -0.493221099065     -0.313140606672     -0.434235790615     
5000000000.0        -0.322005902484     -0.437084915712     0.675480544234      -0.497292994717     0.675480544234      -0.497292994717     -0.322005902484     -0.437084915712     
5100000000.0        -0.330825707017     -0.43972387434      0.666584678344      -0.501155834085     0.666584678344      -0.501155834085     -0.330825707017     -0.43972387434      
5200000000.0        -0.3395951723       -0.442157850036     0.657737562288      -0.504814821278     0.657737562288      -0.504814821278     -0.3395951723       -0.442157850036     
5300000000.0        -0.348309759446     -0.44439206711      0.648943728906      -0.508275201211     0.648943728906      -0.508275201211     -0.348309759446     -0.44439206711      
5400000000.0        -0.356965230551     -0.446431775704     0.640207409945      -0.511542244656     0.640207409945      -0.511542244656     -0.356965230551     -0.446431775704     
5500000000.0        -0.36555764012      -0.448282237851     0.631532544629      -0.514621234311     0.631532544629      -0.514621234311     -0.36555764012      -0.448282237851     
5600000000.0        -0.374083326116     -0.449948714515     0.622922788614      -0.517517451838     0.622922788614      -0.517517451838     -0.374083326116     -0.449948714515     
5700000000.0        -0.382538900689     -0.451436453597     0.614381523253      -0.520236165868     0.614381523253      -0.520236165868     -0.382538900689     -0.451436453597     
5800000000.0        -0.390921240671     -0.452750678869     0.605911865104      -0.522782620948     0.605911865104      -0.522782620948     -0.390921240671     -0.452750678869     
5900000000.0        -0.399227477898     -0.453896579827     0.597516675603      -0.525162027383     0.597516675603      -0.525162027383     -0.399227477898     -0.453896579827     
6000000000.0        -0.407454989407     -0.454879302408     0.589198570869      -0.527379551963     0.589198570869      -0.527379551963     -0.407454989407     -0.454879302408     
6100000000.0        -0.415601387589     -0.455703940551     0.580959931548      -0.529440309526     0.580959931548      -0.529440309526     -0.415601387589     -0.455703940551     
6200000000.0        -0.423664510314     -0.45637552857      0.572802912686      -0.531349355326     0.572802912686      -0.531349355326     -0.423664510314     -0.45637552857      
6300000000.0        -0.431642411104     -0.456899034282     0.564729453557      -0.533111678173     0.564729453557      -0.533111678173     -0.431642411104     -0.456899034282     
6400000000.0        -0.439533349375     -0.457279352883     0.556741287418      -0.534732194302     0.556741287418      -0.534732194302     -0.439533349375     -0.457279352883     
6500000000.0        -0.447335780786     -0.457521301499     0.548839951161      -0.536215741931     0.548839951161      -0.536215741931     -0.447335780786     -0.457521301499     
6600000000.0        -0.455048347734     -0.457629614406     0.541026794814      -0.537567076482     0.541026794814      -0.537567076482     -0.455048347734     -0.457629614406     
6700000000.0        -0.462669870015     -0.457608938858     0.533302990881      -0.538790866408     0.533302990881      -0.538790866408     -0.462669870015     -0.457608938858     
6800000000.0        -0.470199335679     -0.457463831496     0.525669543485      -0.539891689608     0.525669543485      -0.539891689608     -0.470199335679     -0.457463831496     
6900000000.0        -0.477635892096     -0.4571987553       0.5181272973        -0.540874030378     0.5181272973        -0.540874030378     -0.477635892096     -0.4571987553       
7000000000.0        -0.484978837253     -0.456818077043     0.510676946256      -0.54174227687      0.510676946256      -0.54174227687      -0.484978837253     -0.456818077043     
7100000000.0        -0.492227611293     -0.456326065224     0.503319041993      -0.542500719022     0.503319041993      -0.542500719022     -0.492227611293     -0.456326065224     
7200000000.0        -0.499381788313     -0.455726888425     0.496054002068      -0.543153546922     0.496054002068      -0.543153546922     -0.499381788313     -0.455726888425     
7300000000.0        -0.506441068423     -0.455024614086     0.48888211789       -0.543704849577     0.48888211789       -0.543704849577     -0.506441068423     -0.455024614086     
7400000000.0        -0.513405270076     -0.454223207637     0.481803562391      -0.544158614059     0.481803562391      -0.544158614059     -0.513405270076     -0.454223207637     
7500000000.0        -0.520274322677     -0.453326531985     0.474818397416      -0.544518724982     0.474818397416      -0.544518724982     -0.520274322677     -0.453326531985     
7600000000.0        -0.527048259464     -0.452338347305     0.467926580841      -0.544788964302     0.467926580841      -0.544788964302     -0.527048259464     -0.452338347305     
7700000000.0        -0.533727210673     -0.451262311126     0.461127973401      -0.544973011399     0.461127973401      -0.544973011399     -0.533727210673     -0.451262311126     
7800000000.0        -0.540311396985     -0.450101978663     0.454422345253      -0.545074443419     0.454422345253      -0.545074443419     -0.540311396985     -0.450101978663     
7900000000.0        -0.54680112324      -0.448860803399     0.447809382248      -0.545096735849     0.447809382248      -0.545096735849     -0.54680112324      -0.448860803399     
8000000000.0        -0.553196772438     -0.447542137868     0.441288691939      -0.545043263309     0.441288691939      -0.545043263309     -0.553196772438     -0.447542137868     
8100000000.0        -0.559498800002     -0.446149234636     0.434859809308      -0.544917300526     0.434859809308      -0.544917300526     -0.559498800002     -0.446149234636     
8200000000.0        -0.565707728311     -0.444685247443     0.42852220224       -0.544722023488     0.42852220224       -0.544722023488     -0.565707728311     -0.444685247443     
8300000000.0        -0.571824141494     -0.443153232505     0.422275276721      -0.544460510741     0.422275276721      -0.544460510741     -0.571824141494     -0.443153232505     
8400000000.0        -0.577848680476     -0.441556149941     0.416118381792      -0.544135744821     0.416118381792      -0.544135744821     -0.577848680476     -0.441556149941     
8500000000.0        -0.583782038279     -0.43989686532      0.410050814249      -0.5437506138       0.410050814249      -0.5437506138       -0.583782038279     -0.43989686532      
8600000000.0        -0.589624955555     -0.438178151309     0.404071823106      -0.543307912938     0.404071823106      -0.543307912938     -0.589624955555     -0.438178151309     
8700000000.0        -0.595378216362     -0.436402689407     0.398180613819      -0.542810346416     0.398180613819      -0.542810346416     -0.595378216362     -0.436402689407     
8800000000.0        -0.601042644162     -0.434573071746     0.392376352283      -0.542260529144     0.392376352283      -0.542260529144     -0.601042644162     -0.434573071746     
8900000000.0        -0.606619098042     -0.432691802966     0.386658168618      -0.541660988631     0.386658168618      -0.541660988631     -0.606619098042     -0.432691802966     
9000000000.0        -0.612108469136     -0.430761302126     0.381025160732      -0.541014166904     0.381025160732      -0.541014166904     -0.612108469136     -0.430761302126     
9100000000.0        -0.617511677269     -0.428783904663     0.375476397689      -0.540322422464     0.375476397689      -0.540322422464     -0.617511677269     -0.428783904663     
9200000000.0        -0.622829667776     -0.426761864379     0.370010922878      -0.539588032277     0.370010922878      -0.539588032277     -0.622829667776     -0.426761864379     
9300000000.0        -0.628063408524     -0.424697355447     0.364627756995      -0.538813193783     0.364627756995      -0.538813193783     -0.628063408524     -0.424697355447     
9400000000.0        -0.633213887105     -0.422592474436     0.359325900848      -0.53800002692      0.359325900848      -0.53800002692      -0.633213887105     -0.422592474436     
9500000000.0        -0.638282108206     -0.420449242337     0.354104337983      -0.537150576152     0.354104337983      -0.537150576152     -0.638282108206     -0.420449242337     
9600000000.0        -0.643269091137     -0.418269606592     0.348962037153      -0.536266812503     0.348962037153      -0.536266812503     -0.643269091137     -0.418269606592     
9700000000.0        -0.648175867527     -0.41605544312      0.343897954625      -0.535350635581     0.343897954625      -0.535350635581     -0.648175867527     -0.41605544312      
9800000000.0        -0.653003479158     -0.413808558325     0.338911036341      -0.534403875589     0.338911036341      -0.534403875589     -0.653003479158     -0.413808558325     
9900000000.0        -0.657752975947     -0.411530691097     0.334000219933      -0.533428295331     0.334000219933      -0.533428295331     -0.657752975947     -0.411530691097     
10000000000.0       -0.662425414066     -0.409223514791     0.329164436606      -0.532425592185     0.329164436606      -0.532425592185     -0.662425414066     -0.409223514791     
