# Hz S RI R 50.00 
100000000.0         -0.000101555401877  -0.010381764456     0.999861607077      -0.0105081072482    0.999861607077      -0.0105081072482    -0.000101555401877  -0.010381764456     
200000000.0         -0.000438945625376  -0.0207559942236    0.999523941949      -0.0210087004461    0.999523941949      -0.0210087004461    -0.000438945625376  -0.0207559942236    
300000000.0         -0.000993941076514  -0.0311157418081    0.998968719151      -0.0314948427385    0.998968719151      -0.0314948427385    -0.000993941076515  -0.0311157418081    
400000000.0         -0.00176576272371   -0.0414541260807    0.99819668601       -0.0419596611289    0.99819668601       -0.0419596611289    -0.00176576272371   -0.0414541260807    
500000000.0         -0.00275335448103   -0.0517643310968    0.997208886444      -0.0523963465137    0.997208886444      -0.0523963465137    -0.00275335448103   -0.0517643310968    
600000000.0         -0.00395538096472   -0.0620396151848    0.996006649652      -0.0627981631952    0.996006649652      -0.0627981631952    -0.00395538096472   -0.0620396151848    
700000000.0         -0.00537023092362   -0.0722733224863    0.994591583234      -0.0731584606396    0.994591583234      -0.0731584606396    -0.00537023092362   -0.0722733224863    
800000000.0         -0.00699602247567   -0.0824588952603    0.992965566712      -0.0834706859112    0.992965566712      -0.0834706859112    -0.00699602247567   -0.0824588952603    
900000000.0         -0.00883060942924   -0.0925898863235    0.991130744641      -0.0937283961996    0.991130744641      -0.0937283961996    -0.00883060942924   -0.0925898863235    
1000000000.0        -0.0108715884706    -0.10265997132      0.98908951915       -0.103925271151     0.98908951915       -0.103925271151     -0.0108715884706    -0.10265997132      
1100000000.0        -0.0131163071191    -0.112662960648     0.986844541823      -0.114055124842     0.986844541823      -0.114055124842     -0.0131163071191    -0.112662960648     
1200000000.0        -0.0155618723834    -0.122592810924     0.984398704956      -0.124111917276     0.984398704956      -0.124111917276     -0.0155618723834    -0.122592810924     
1300000000.0        -0.0182051600615    -0.132443635897     0.981755132195      -0.134089765329     0.981755132195      -0.134089765329     -0.0182051600615    -0.132443635897     
1400000000.0        -0.0210428246314    -0.142209716748     0.978917168608      -0.143982953076     0.978917168608      -0.143982953076     -0.0210428246314    -0.142209716748     
1500000000.0        -0.0240713096757    -0.151885511734     0.975888370237      -0.153785941446     0.975888370237      -0.153785941446     -0.0240713096757    -0.151885511734     
1600000000.0        -0.0272868587831    -0.161465665117     0.972672493173      -0.163493377175     0.972672493173      -0.163493377175     -0.0272868587831    -0.161465665117     
1700000000.0        -0.0306855268705    -0.170945015363     0.969273482227      -0.173100101015     0.969273482227      -0.173100101015     -0.0306855268705    -0.170945015363     
1800000000.0        -0.0342631918655    -0.180318602575     0.965695459234      -0.182601155186     0.965695459234      -0.182601155186     -0.0342631918655    -0.180318602575     
1900000000.0        -0.0380155666891    -0.189581675147     0.961942711063      -0.191991790033     0.961942711063      -0.191991790033     -0.0380155666891    -0.189581675147     
2000000000.0        -0.0419382114804    -0.198729695627     0.958019677391      -0.201267469908     0.958019677391      -0.201267469908     -0.0419382114804    -0.198729695627     
2100000000.0        -0.0460265460036    -0.207758345779     0.953930938287      -0.210423878234     0.953930938287      -0.210423878234     -0.0460265460036    -0.207758345779     
2200000000.0        -0.0502758621777    -0.216663530844     0.94968120168       -0.219456921777     0.94968120168       -0.219456921777     -0.0502758621777    -0.216663530844     
2300000000.0        -0.0546813366717    -0.225441383006     0.945275290765      -0.228362734125     0.945275290765      -0.228362734125     -0.0546813366717    -0.225441383006     
2400000000.0        -0.0592380435109    -0.234088264075     0.940718131389      -0.237137678369     0.940718131389      -0.237137678369     -0.0592380435109    -0.234088264075     
2500000000.0        -0.0639409666375    -0.242600767387     0.936014739492      -0.245778349013     0.936014739492      -0.245778349013     -0.0639409666375    -0.242600767387     
2600000000.0        -0.0687850123768    -0.25097571895      0.931170208641      -0.254281573133     0.931170208641      -0.254281573133     -0.0687850123768    -0.25097571895      
2700000000.0        -0.0737650217573    -0.25921017786      0.926189697705      -0.262644410787     0.926189697705      -0.262644410787     -0.0737650217573    -0.25921017786      
2800000000.0        -0.0788757826393    -0.267301435994     0.921078418727      -0.270864154723     0.921078418727      -0.270864154723     -0.0788757826393    -0.267301435994     
2900000000.0        -0.0841120416081    -0.275247017025     0.915841625031      -0.278938329394     0.915841625031      -0.278938329394     -0.0841120416081    -0.275247017025     
3000000000.0        -0.0894685155927    -0.283044674781     0.910484599601      -0.286864689324     0.910484599601      -0.286864689324     -0.0894685155927    -0.283044674781     
3100000000.0        -0.0949399031704    -0.290692390981     0.905012643779      -0.294641216849     0.905012643779      -0.294641216849     -0.0949399031704    -0.290692390981     
3200000000.0        -0.100520895526     -0.298188372383     0.899431066299      -0.302266119266     0.899431066299      -0.302266119266     -0.100520895526     -0.298188372383     
3300000000.0        -0.106206187035     -0.305531047377     0.893745172713      -0.309737825433     0.893745172713      -0.309737825433     -0.106206187035     -0.305531047377     
3400000000.0        -0.11199048544      -0.312719062068     0.887960255202      -0.317054981855     0.887960255202      -0.317054981855     -0.11199048544      -0.312719062068     
3500000000.0        -0.117868521609     -0.319751275878     0.882081582831      -0.324216448291     0.882081582831      -0.324216448291     -0.117868521609     -0.319751275878     
3600000000.0        -0.123835058834     -0.326626756712     0.876114392239      -0.33122129292      0.876114392239      -0.33122129292      -0.123835058834     -0.326626756712     
3700000000.0        -0.12988490168      -0.333344775723     0.870063878795      -0.338068787114     0.870063878795      -0.338068787114     -0.12988490168      -0.333344775723     
3800000000.0        -0.13601290435      -0.33990480172      0.863935188233      -0.344758399844     0.863935188233      -0.344758399844     -0.13601290435      -0.33990480172      
3900000000.0        -0.142213978566     -0.346306495252     0.857733408769      -0.351289791773     0.857733408769      -0.351289791773     -0.142213978566     -0.346306495252     
4000000000.0        -0.148483100955     -0.352549702414     0.851463563714      -0.357662809059     0.851463563714      -0.357662809059     -0.148483100955     -0.352549702414     
4100000000.0        -0.154815319945     -0.358634448405     0.845130604584      -0.363877476918     0.845130604584      -0.363877476918     -0.154815319945     -0.358634448405     
4200000000.0        -0.161205762152     -0.364560930877     0.838739404705      -0.36993399298      0.838739404705      -0.36993399298      -0.161205762152     -0.364560930877     
4300000000.0        -0.167649638278     -0.37032951312      0.832294753317      -0.375832720466     0.832294753317      -0.375832720466     -0.167649638278     -0.37032951312      
4400000000.0        -0.174142248514     -0.375940717101     0.825801350175      -0.381574181241     0.825801350175      -0.381574181241     -0.174142248514     -0.375940717101     
4500000000.0        -0.180678987455     -0.381395216403     0.819263800631      -0.387159048749     0.819263800631      -0.387159048749     -0.180678987455     -0.381395216403     
4600000000.0        -0.187255348534     -0.386693829094     0.812686611198      -0.392588140882     0.812686611198      -0.392588140882     -0.187255348534     -0.386693829094     
4700000000.0        -0.193866927991     -0.391837510548     0.806074185585      -0.397862412812     0.806074185585      -0.397862412812     -0.193866927991     -0.391837510548     
4800000000.0        -0.20050942838      -0.396827346261     0.799430821188      -0.402982949798     0.799430821188      -0.402982949798     -0.20050942838      -0.396827346261     
4900000000.0        -0.207178661634     -0.401664544669     0.792760706024      -0.407950960014     0.792760706024      -0.407950960014     -0.207178661634     -0.401664544669     
5000000000.0        -0.213870551697     -0.406350430017     0.7860679161        -0.412767767416     0.7860679161        -0.412767767416     -0.213870551697     -0.406350430017     
5100000000.0        -0.220581136741     -0.410886435275     0.779356413193      -0.417434804661     0.779356413193      -0.417434804661     -0.220581136741     -0.410886435275     
5200000000.0        -0.227306570992     -0.415274095148     0.772630043035      -0.421953606119     0.772630043035      -0.421953606119     -0.227306570992     -0.415274095148     
5300000000.0        -0.234043126156     -0.419515039184     0.765892533869      -0.42632580098      0.765892533869      -0.42632580098      -0.234043126156     -0.419515039184     
5400000000.0        -0.240787192504     -0.423610984997     0.75914749538       -0.430553106483     0.75914749538       -0.430553106483     -0.240787192504     -0.423610984997     
5500000000.0        -0.247535279591     -0.427563731636     0.752398417968      -0.43463732128      0.752398417968      -0.43463732128      -0.247535279591     -0.427563731636     
5600000000.0        -0.254284016661     -0.431375153092     0.745648672343      -0.438580318954     0.745648672343      -0.438580318954     -0.254284016661     -0.431375153092     
5700000000.0        -0.261030152736     -0.435047191979     0.73890150944       -0.442384041689     0.73890150944       -0.442384041689     -0.261030152736     -0.435047191979     
5800000000.0        -0.267770556419     -0.43858185338      0.732160060614      -0.446050494128     0.732160060614      -0.446050494128     -0.267770556419     -0.43858185338      
5900000000.0        -0.27450221542      -0.441981198881     0.725427338109      -0.449581737403     0.725427338109      -0.449581737403     -0.27450221542      -0.441981198881     
6000000000.0        -0.28122223584      -0.445247340794     0.718706235785      -0.452979883358     0.718706235785      -0.452979883358     -0.28122223584      -0.445247340794     
6100000000.0        -0.287927841207     -0.448382436577     0.711999530071      -0.456247088977     0.711999530071      -0.456247088977     -0.287927841207     -0.448382436577     
6200000000.0        -0.294616371306     -0.451388683465     0.705309881142      -0.459385551004     0.705309881142      -0.459385551004     -0.294616371306     -0.451388683465     
6300000000.0        -0.301285280804     -0.454268313292     0.698639834288      -0.46239750078      0.698639834288      -0.46239750078      -0.301285280804     -0.454268313292     
6400000000.0        -0.307932137699     -0.457023587542     0.691991821474      -0.465285199283     0.691991821474      -0.465285199283     -0.307932137699     -0.457023587542     
6500000000.0        -0.314554621595     -0.459656792596     0.685368163055      -0.468050932384     0.685368163055      -0.468050932384     -0.314554621595     -0.459656792596     
6600000000.0        -0.321150521838     -0.462170235203     0.678771069645      -0.470697006314     0.678771069645      -0.470697006314     -0.321150521838     -0.462170235203     
6700000000.0        -0.327717735514     -0.464566238155     0.672202644121      -0.473225743343     0.672202644121      -0.473225743343     -0.327717735514     -0.464566238155     
6800000000.0        -0.334254265323     -0.466847136182     0.665664883743      -0.475639477672     0.665664883743      -0.475639477672     -0.334254265323     -0.466847136182     
6900000000.0        -0.340758217359     -0.469015272047     0.659159682381      -0.477940551533     0.659159682381      -0.477940551533     -0.340758217359     -0.469015272047     
7000000000.0        -0.347227798793     -0.471072992858     0.652688832826      -0.480131311498     0.652688832826      -0.480131311498     -0.347227798793     -0.471072992858     
7100000000.0        -0.353661315475     -0.473022646576     0.646254029191      -0.482214104992     0.646254029191      -0.482214104992     -0.353661315475     -0.473022646576     
7200000000.0        -0.360057169478     -0.474866578732     0.639856869366      -0.484191277005     0.639856869366      -0.484191277005     -0.360057169478     -0.474866578732     
7300000000.0        -0.366413856584     -0.476607129334     0.633498857533      -0.486065167004     0.633498857533      -0.486065167004     -0.366413856584     -0.476607129334     
7400000000.0        -0.372729963723     -0.478246629966     0.627181406727      -0.487838106031     0.627181406727      -0.487838106031     -0.372729963723     -0.478246629966     
7500000000.0        -0.379004166385     -0.479787401083     0.620905841422      -0.489512413997     0.620905841422      -0.489512413997     -0.379004166385     -0.479787401083     
7600000000.0        -0.385235226002     -0.481231749474     0.61467340015       -0.491090397149     0.61467340015       -0.491090397149     -0.385235226002     -0.481231749474     
7700000000.0        -0.391421987324     -0.482581965912     0.608485238128      -0.492574345719     0.608485238128      -0.492574345719     -0.391421987324     -0.482581965912     
7800000000.0        -0.397563375776     -0.483840322975     0.602342429896      -0.493966531742     0.602342429896      -0.493966531742     -0.397563375776     -0.483840322975     
7900000000.0        -0.403658394827     -0.485009073022     0.59624597195       -0.495269207037     0.59624597195       -0.495269207037     -0.403658394827     -0.485009073022     
8000000000.0        -0.40970612336      -0.486090446338     0.590196785374      -0.496484601353     0.590196785374      -0.496484601353     -0.40970612336      -0.486090446338     
8100000000.0        -0.415705713061     -0.487086649428     0.584195718448      -0.497614920657     0.584195718448      -0.497614920657     -0.415705713061     -0.487086649428     
8200000000.0        -0.421656385824     -0.487999863458     0.578243549245      -0.498662345582     0.578243549245      -0.498662345582     -0.421656385824     -0.487999863458     
8300000000.0        -0.427557431183     -0.488832242834     0.572340988199      -0.499629030003     0.572340988199      -0.499629030003     -0.427557431183     -0.488832242834     
8400000000.0        -0.433408203775     -0.489585913919     0.566488680639      -0.500517099757     0.566488680639      -0.500517099757     -0.433408203775     -0.489585913919     
8500000000.0        -0.439208120839     -0.490262973878     0.560687209294      -0.501328651482     0.560687209294      -0.501328651482     -0.439208120839     -0.490262973878     
8600000000.0        -0.444956659748     -0.490865489641     0.55493709676       -0.502065751589     0.55493709676       -0.502065751589     -0.444956659748     -0.490865489641     
8700000000.0        -0.45065335559      -0.491395496988     0.549238807915      -0.502730435341     0.549238807915      -0.502730435341     -0.45065335559      -0.491395496988     
8800000000.0        -0.456297798789     -0.491854999739     0.543592752305      -0.503324706045     0.543592752305      -0.503324706045     -0.456297798789     -0.491854999739     
8900000000.0        -0.461889632775     -0.492245969052     0.537999286469      -0.50385053435      0.537999286469      -0.50385053435      -0.461889632775     -0.492245969052     
9000000000.0        -0.467428551704     -0.492570342818     0.532458716218      -0.504309857644     0.532458716218      -0.504309857644     -0.467428551704     -0.492570342818     
9100000000.0        -0.472914298231     -0.492830025151     0.526971298868      -0.504704579543     0.526971298868      -0.504704579543     -0.472914298231     -0.492830025151     
9200000000.0        -0.478346661333     -0.493026885964     0.52153724541       -0.505036569463     0.52153724541       -0.505036569463     -0.478346661333     -0.493026885964     
9300000000.0        -0.483725474191     -0.493162760627     0.516156722634      -0.505307662288     0.516156722634      -0.505307662288     -0.483725474191     -0.493162760627     
9400000000.0        -0.489050612125     -0.493239449709     0.510829855188      -0.505519658101     0.510829855188      -0.505519658101     -0.489050612125     -0.493239449709     
9500000000.0        -0.494321990585     -0.493258718784     0.505556727593      -0.505674321999     0.505556727593      -0.505674321999     -0.494321990585     -0.493258718784     
9600000000.0        -0.499539563202     -0.493222298311     0.500337386188      -0.505773383968     0.500337386188      -0.505773383968     -0.499539563202     -0.493222298311     
9700000000.0        -0.504703319894     -0.493131883576     0.495171841026      -0.505818538824     0.495171841026      -0.505818538824     -0.504703319894     -0.493131883576     
9800000000.0        -0.50981328503      -0.492989134692     0.490060067706      -0.505811446221     0.490060067706      -0.505811446221     -0.50981328503      -0.492989134692     
9900000000.0        -0.514869515654     -0.492795676655     0.485002009158      -0.5057537307       0.485002009158      -0.5057537307       -0.514869515654     -0.492795676655     
10000000000.0       -0.519872099761     -0.492553099455     0.479997577355      -0.505646981797     0.479997577355      -0.505646981797     -0.519872099761     -0.492553099455     
