# Hz S RI R 50.00 
100000000.0         0.00399109263121    0.000174293758209   0.996007850959      -0.000233590189387  0.996007850959      -0.000233590189387  0.00399109263121    0.000174293758209   
200000000.0         0.00401732585705    0.00034856624563    0.995981557803      -0.00046715926745   0.995981557803      -0.00046715926745   0.00401732585705    0.00034856624563    
300000000.0         0.00403649951592    0.000522826286809   0.995962320691      -0.000700716144771  0.995962320691      -0.000700716144771  0.00403649951592    0.000522826286809   
400000000.0         0.00405209012308    0.000697076989471   0.995946663111      -0.000934263996045  0.995946663111      -0.000934263996045  0.00405209012308    0.000697076989471   
500000000.0         0.00406544093843    0.000871320124316   0.9959332418        -0.00116780464946   0.9959332418        -0.00116780464946   0.00406544093842    0.000871320124316   
600000000.0         0.00407723919394    0.00104555686728    0.995921369527      -0.0014013393322    0.995921369527      -0.0014013393322    0.00407723919394    0.00104555686728    
700000000.0         0.00408789213982    0.00121978806666    0.995910639043      -0.0016348689395    0.995910639043      -0.0016348689395    0.00408789213982    0.00121978806666    
800000000.0         0.0040976644651     0.00139401436744    0.995900785656      -0.00186839415975   0.995900785656      -0.00186839415975   0.0040976644651     0.00139401436744    
900000000.0         0.00410673956031    0.00156823627809    0.995891625978      -0.00210191554206   0.995891625978      -0.00210191554206   0.00410673956031    0.00156823627809    
1000000000.0        0.00411525060842    0.0017424542102     0.995883026824      -0.00233543353643   0.995883026824      -0.00233543353643   0.00411525060842    0.0017424542102     
1100000000.0        0.00412329788867    0.00191666850379    0.995874887915      -0.00256894851922   0.995874887915      -0.00256894851922   0.00412329788867    0.00191666850379    
1200000000.0        0.00413095910029    0.00209087944412    0.995867131552      -0.00280246081043   0.995867131552      -0.00280246081043   0.00413095910029    0.00209087944412    
1300000000.0        0.00413829586522    0.00226508727363    0.995859696113      -0.00303597068568   0.995859696113      -0.00303597068568   0.00413829586522    0.00226508727363    
1400000000.0        0.00414535800752    0.00243929220037    0.995852531773      -0.00326947838499   0.995852531773      -0.00326947838499   0.00414535800752    0.00243929220037    
1500000000.0        0.00415218647321    0.00261349440454    0.995845597586      -0.00350298411916   0.995845597586      -0.00350298411916   0.00415218647321    0.00261349440454    
1600000000.0        0.00415881538321    0.00278769404315    0.995838859432      -0.00373648807489   0.995838859432      -0.00373648807489   0.00415881538321    0.00278769404315    
1700000000.0        0.00416527351457    0.00296189125392    0.995832288532      -0.00396999041847   0.995832288532      -0.00396999041847   0.00416527351457    0.00296189125392    
1800000000.0        0.0041715853934     0.00313608615814    0.99582586036       -0.00420349129896   0.99582586036       -0.00420349129896   0.0041715853934     0.00313608615814    
1900000000.0        0.00417777211656    0.00331027886314    0.99581955382       -0.00443699085054   0.99581955382       -0.00443699085054   0.00417777211656    0.00331027886314    
2000000000.0        0.00418385198056    0.00348446946416    0.995813350615      -0.00467048919454   0.995813350615      -0.00467048919454   0.00418385198056    0.00348446946416    
2100000000.0        0.0041898409695     0.00365865804598    0.995807234759      -0.00490398644109   0.995807234759      -0.00490398644109   0.0041898409695     0.00365865804598    
2200000000.0        0.00419575313972    0.00383284468415    0.995801192198      -0.0051374826905    0.995801192198      -0.0051374826905    0.00419575313972    0.00383284468415    
2300000000.0        0.00420160092559    0.00400702944623    0.995795210495      -0.00537097803435   0.995795210495      -0.00537097803435   0.00420160092558    0.00400702944623    
2400000000.0        0.00420739538625    0.00418121239263    0.995789278593      -0.00560447255647   0.995789278593      -0.00560447255647   0.00420739538625    0.00418121239263    
2500000000.0        0.0042131464061     0.00435539357742    0.995783386605      -0.00583796633383   0.995783386605      -0.00583796633383   0.0042131464061     0.00435539357742    
2600000000.0        0.00421886285934    0.00452957304901    0.995777525658      -0.00607145943716   0.995777525658      -0.00607145943716   0.00421886285934    0.00452957304901    
2700000000.0        0.00422455274624    0.00470375085077    0.995771687751      -0.00630495193164   0.995771687751      -0.00630495193164   0.00422455274624    0.00470375085077    
2800000000.0        0.00423022330666    0.00487792702146    0.995765865644      -0.00653844387741   0.995765865644      -0.00653844387741   0.00423022330666    0.00487792702146    
2900000000.0        0.0042358811154     0.0050521015958     0.995760052762      -0.00677193532999   0.995760052762      -0.00677193532999   0.0042358811154     0.0050521015958     
3000000000.0        0.00424153216281    0.00522627460472    0.995754243115      -0.00700542634077   0.995754243115      -0.00700542634077   0.00424153216281    0.00522627460472    
3100000000.0        0.00424718192336    0.00540044607582    0.995748431227      -0.00723891695733   0.995748431227      -0.00723891695733   0.00424718192336    0.00540044607582    
3200000000.0        0.00425283541412    0.00557461603361    0.995742612081      -0.00747240722374   0.995742612081      -0.00747240722374   0.00425283541412    0.00557461603361    
3300000000.0        0.00425849724519    0.0057487844998     0.995736781067      -0.00770589718087   0.995736781067      -0.00770589718087   0.00425849724519    0.0057487844998     
3400000000.0        0.00426417166318    0.00592295149354    0.995730933938      -0.00793938686665   0.995730933938      -0.00793938686665   0.00426417166318    0.00592295149354    
3500000000.0        0.00426986258893    0.00609711703156    0.995725066772      -0.00817287631639   0.995725066772      -0.00817287631639   0.00426986258893    0.00609711703156    
3600000000.0        0.00427557365037    0.00627128112859    0.995719175943      -0.00840636556269   0.995719175943      -0.00840636556269   0.00427557365037    0.00627128112859    
3700000000.0        0.00428130821127    0.00644544379722    0.995713258085      -0.00863985463602   0.995713258085      -0.00863985463602   0.00428130821127    0.00644544379722    
3800000000.0        0.00428706939656    0.00661960504831    0.995707310073      -0.00887334356457   0.995707310073      -0.00887334356457   0.00428706939656    0.00661960504831    
3900000000.0        0.00429286011451    0.00679376489101    0.995701328999      -0.00910683237459   0.995701328999      -0.00910683237459   0.00429286011451    0.00679376489101    
4000000000.0        0.00429868307647    0.00696792333289    0.995695312151      -0.00934032109046   0.995695312151      -0.00934032109046   0.00429868307647    0.00696792333289    
4100000000.0        0.00430454081432    0.00714208038012    0.995689256997      -0.00957380973481   0.995689256997      -0.00957380973481   0.00430454081432    0.00714208038012    
4200000000.0        0.00431043569597    0.00731623603755    0.995683161169      -0.00980729832864   0.995683161169      -0.00980729832864   0.00431043569597    0.00731623603755    
4300000000.0        0.00431636993932    0.00749039030876    0.995677022448      -0.0100407868914    0.995677022448      -0.0100407868914    0.00431636993932    0.00749039030876    
4400000000.0        0.00432234562454    0.00766454319621    0.995670838755      -0.0102742754413    0.995670838755      -0.0102742754413    0.00432234562454    0.00766454319621    
4500000000.0        0.00432836470535    0.00783869470129    0.995664608134      -0.010507763995     0.995664608134      -0.010507763995     0.00432836470535    0.00783869470129    
4600000000.0        0.00433442901891    0.00801284482444    0.995658328749      -0.0107412525679    0.995658328749      -0.0107412525679    0.00433442901891    0.00801284482444    
4700000000.0        0.00434054029498    0.00818699356511    0.99565199887       -0.0109747411745    0.99565199887       -0.0109747411745    0.00434054029498    0.00818699356511    
4800000000.0        0.00434670016392    0.00836114092199    0.995645616865      -0.011208229828     0.995645616865      -0.011208229828     0.00434670016392    0.00836114092199    
4900000000.0        0.00435291016424    0.00853528689291    0.995639181196      -0.0114417185406    0.995639181196      -0.0114417185406    0.00435291016424    0.00853528689291    
5000000000.0        0.00435917174923    0.00870943147501    0.995632690409      -0.0116752073235    0.995632690409      -0.0116752073235    0.00435917174923    0.00870943147501    
5100000000.0        0.00436548629302    0.00888357466472    0.995626143131      -0.0119086961869    0.995626143131      -0.0119086961869    0.00436548629302    0.00888357466472    
5200000000.0        0.00437185509626    0.00905771645781    0.995619538059      -0.0121421851404    0.995619538059      -0.0121421851404    0.00437185509626    0.00905771645781    
5300000000.0        0.00437827939107    0.00923185684951    0.995612873962      -0.0123756741926    0.995612873962      -0.0123756741926    0.00437827939107    0.00923185684951    
5400000000.0        0.00438476034576    0.00940599583444    0.99560614967       -0.0126091633513    0.99560614967       -0.0126091633513    0.00438476034576    0.00940599583444    
5500000000.0        0.00439129906902    0.00958013340675    0.995599364075      -0.0128426526237    0.995599364075      -0.0128426526237    0.00439129906902    0.00958013340675    
5600000000.0        0.00439789661387    0.00975426956006    0.995592516124      -0.0130761420162    0.995592516124      -0.0130761420162    0.00439789661387    0.00975426956006    
5700000000.0        0.00440455398122    0.00992840428758    0.995585604815      -0.0133096315346    0.995585604815      -0.0133096315346    0.00440455398122    0.00992840428758    
5800000000.0        0.00441127212313    0.0101025375821     0.995578629195      -0.0135431211841    0.995578629195      -0.0135431211841    0.00441127212313    0.0101025375821     
5900000000.0        0.00441805194591    0.0102766694361     0.995571588359      -0.0137766109691    0.995571588359      -0.0137766109691    0.00441805194591    0.0102766694361     
6000000000.0        0.00442489431289    0.0104507998414     0.995564481442      -0.0140101008939    0.995564481442      -0.0140101008939    0.00442489431289    0.0104507998414     
6100000000.0        0.00443180004703    0.0106249287899     0.995557307621      -0.0142435909618    0.995557307621      -0.0142435909618    0.00443180004703    0.0106249287899     
6200000000.0        0.00443876993327    0.0107990562728     0.995550066111      -0.014477081176     0.995550066111      -0.014477081176     0.00443876993327    0.0107990562728     
6300000000.0        0.0044458047208     0.0109731822814     0.995542756162      -0.0147105715389    0.995542756162      -0.0147105715389    0.0044458047208     0.0109731822814     
6400000000.0        0.00445290512511    0.0111473068064     0.995535377059      -0.0149440620526    0.995535377059      -0.0149440620526    0.00445290512511    0.0111473068064     
6500000000.0        0.00446007182989    0.0113214298384     0.995527928117      -0.0151775527188    0.995527928117      -0.0151775527188    0.00446007182989    0.0113214298384     
6600000000.0        0.00446730548881    0.0114955513677     0.995520408683      -0.0154110435388    0.995520408683      -0.0154110435388    0.00446730548881    0.0114955513677     
6700000000.0        0.0044746067272     0.0116696713844     0.99551281813       -0.0156445345134    0.99551281813       -0.0156445345134    0.0044746067272     0.0116696713844     
6800000000.0        0.00448197614356    0.0118437898786     0.99550515586       -0.0158780256432    0.99550515586       -0.0158780256432    0.00448197614356    0.0118437898786     
6900000000.0        0.00448941431102    0.0120179068399     0.995497421299      -0.0161115169283    0.995497421299      -0.0161115169283    0.00448941431102    0.0120179068399     
7000000000.0        0.0044969217787     0.012192022258      0.995489613898      -0.0163450083686    0.995489613898      -0.0163450083686    0.0044969217787     0.012192022258      
7100000000.0        0.00450449907292    0.0123661361222     0.99548173313       -0.0165784999637    0.99548173313       -0.0165784999637    0.00450449907292    0.0123661361222     
7200000000.0        0.0045121466984     0.0125402484218     0.995473778491      -0.0168119917126    0.995473778491      -0.0168119917126    0.0045121466984     0.0125402484218     
7300000000.0        0.0045198651394     0.0127143591461     0.995465749494      -0.0170454836145    0.995465749494      -0.0170454836145    0.0045198651394     0.0127143591461     
7400000000.0        0.00452765486069    0.0128884682841     0.995457645676      -0.017278975668     0.995457645676      -0.017278975668     0.00452765486069    0.0128884682841     
7500000000.0        0.00453551630853    0.0130625758246     0.99544946659       -0.0175124678715    0.99544946659       -0.0175124678715    0.00453551630853    0.0130625758246     
7600000000.0        0.00454344991161    0.0132366817566     0.995441211806      -0.0177459602231    0.995441211806      -0.0177459602231    0.00454344991161    0.0132366817566     
7700000000.0        0.00455145608189    0.0134107860688     0.995432880912      -0.017979452721     0.995432880912      -0.017979452721     0.00455145608189    0.0134107860688     
7800000000.0        0.00455953521539    0.0135848887499     0.995424473512      -0.0182129453628    0.995424473512      -0.0182129453628    0.00455953521539    0.0135848887499     
7900000000.0        0.00456768769296    0.0137589897885     0.995415989225      -0.018446438146     0.995415989225      -0.018446438146     0.00456768769296    0.0137589897885     
8000000000.0        0.00457591388098    0.0139330891731     0.995407427684      -0.018679931068     0.995407427684      -0.018679931068     0.00457591388098    0.0139330891731     
8100000000.0        0.00458421413204    0.0141071868924     0.995398788535      -0.0189134241259    0.995398788535      -0.0189134241259    0.00458421413204    0.0141071868924     
8200000000.0        0.00459258878558    0.0142812829347     0.99539007144       -0.0191469173167    0.99539007144       -0.0191469173167    0.00459258878558    0.0142812829347     
8300000000.0        0.00460103816846    0.0144553772884     0.99538127607       -0.0193804106373    0.99538127607       -0.0193804106373    0.00460103816846    0.0144553772884     
8400000000.0        0.00460956259556    0.0146294699421     0.995372402111      -0.0196139040841    0.995372402111      -0.0196139040841    0.00460956259556    0.0146294699421     
8500000000.0        0.00461816237027    0.0148035608841     0.995363449259      -0.0198473976538    0.995363449259      -0.0198473976538    0.00461816237027    0.0148035608841     
8600000000.0        0.00462683778506    0.0149776501026     0.99535441722       -0.0200808913426    0.99535441722       -0.0200808913426    0.00462683778506    0.0149776501026     
8700000000.0        0.00463558912189    0.0151517375862     0.995345305714      -0.0203143851468    0.995345305714      -0.0203143851468    0.00463558912189    0.0151517375862     
8800000000.0        0.00464441665269    0.0153258233231     0.995336114466      -0.0205478790625    0.995336114466      -0.0205478790625    0.00464441665269    0.0153258233231     
8900000000.0        0.00465332063979    0.0154999073016     0.995326843215      -0.0207813730855    0.995326843215      -0.0207813730855    0.00465332063979    0.0154999073016     
9000000000.0        0.00466230133633    0.0156739895103     0.995317491707      -0.0210148672118    0.995317491707      -0.0210148672118    0.00466230133633    0.0156739895103     
9100000000.0        0.00467135898664    0.0158480699373     0.995308059697      -0.0212483614371    0.995308059697      -0.0212483614371    0.00467135898664    0.0158480699373     
9200000000.0        0.00468049382659    0.0160221485712     0.995298546949      -0.0214818557569    0.995298546949      -0.0214818557569    0.00468049382659    0.0160221485712     
9300000000.0        0.00468970608398    0.0161962254002     0.995288953234      -0.0217153501668    0.995288953234      -0.0217153501668    0.00468970608398    0.0161962254002     
9400000000.0        0.00469899597881    0.0163703004129     0.995279278334      -0.0219488446623    0.995279278334      -0.0219488446623    0.00469899597881    0.0163703004129     
9500000000.0        0.00470836372365    0.0165443735977     0.995269522033      -0.0221823392386    0.995269522033      -0.0221823392386    0.00470836372365    0.0165443735977     
9600000000.0        0.0047178095239     0.0167184449431     0.995259684128      -0.0224158338911    0.995259684128      -0.0224158338911    0.0047178095239     0.0167184449431     
9700000000.0        0.00472733357811    0.0168925144375     0.995249764417      -0.0226493286148    0.995249764417      -0.0226493286148    0.00472733357811    0.0168925144375     
9800000000.0        0.00473693607821    0.0170665820696     0.995239762711      -0.022882823405     0.995239762711      -0.022882823405     0.00473693607821    0.0170665820696     
9900000000.0        0.00474661720979    0.017240647828      0.995229678821      -0.0231163182566    0.995229678821      -0.0231163182566    0.00474661720979    0.017240647828      
10000000000.0       0.00475637715234    0.0174147117012     0.995219512569      -0.0233498131646    0.995219512569      -0.0233498131646    0.00475637715234    0.0174147117012     
