# Hz S RI R 50.00 
100000000.0         0.000473962294754   -0.00271675567809   0.999482750124      -0.00556392600721   0.999482750124      -0.00556392600721   0.000473962294754   -0.00271675567809   
200000000.0         0.000427941769845   -0.00543333274942   0.999417896662      -0.0111277507895    0.999417896662      -0.0111277507895    0.000427941769844   -0.00543333274942   
300000000.0         0.000350824684185   -0.0081494698077    0.999315548789      -0.0166912866757    0.999315548789      -0.0166912866757    0.000350824684185   -0.0081494698077    
400000000.0         0.000243038153443   -0.0108648793303    0.999175278203      -0.0222542967632    0.999175278203      -0.0222542967632    0.000243038153443   -0.0108648793303    
500000000.0         0.000104749444122   -0.0135792586821    0.998996921382      -0.0278165201724    0.998996921382      -0.0278165201724    0.000104749444121   -0.0135792586821    
600000000.0         -6.39514299892e-05  -0.0162922947706    0.998780397944      -0.0333776803242    0.998780397944      -0.0333776803242    -6.39514299893e-05  -0.0162922947706    
700000000.0         -0.000263005134747  -0.0190036665834    0.998525664761      -0.0389374891273    0.998525664761      -0.0389374891273    -0.000263005134747  -0.0190036665834    
800000000.0         -0.000492365902718  -0.0217130467878    0.998232699375      -0.0444956495015    0.998232699375      -0.0444956495015    -0.000492365902719  -0.0217130467878    
900000000.0         -0.000751993828578  -0.0244201028406    0.997901492732      -0.0500518570672    0.997901492732      -0.0500518570672    -0.000751993828578  -0.0244201028406    
1000000000.0        -0.00104185089966   -0.027124497811     0.997532045567      -0.0556058013612    0.997532045567      -0.0556058013612    -0.00104185089966   -0.027124497811     
1100000000.0        -0.00136189874      -0.0298258910217    0.997124366467      -0.0611571667598    0.997124366467      -0.0611571667598    -0.00136189874      -0.0298258910217    
1200000000.0        -0.00171209722735   -0.0325239385698    0.996678470746      -0.0667056332092    0.996678470746      -0.0667056332092    -0.00171209722735   -0.0325239385698    
1300000000.0        -0.00209240359252   -0.0352182937632    0.996194379787      -0.0722508768236    0.996194379787      -0.0722508768236    -0.00209240359252   -0.0352182937632    
1400000000.0        -0.00250277180284   -0.037908607496     0.995672120626      -0.0777925703878    0.995672120626      -0.0777925703878    -0.00250277180284   -0.037908607496     
1500000000.0        -0.00294315212261   -0.0405945285784    0.995111725696      -0.0833303837896    0.995111725696      -0.0833303837896    -0.00294315212261   -0.0405945285784    
1600000000.0        -0.00341349078871   -0.0432757040319    0.994513232665      -0.0888639843994    0.994513232665      -0.0888639843994    -0.00341349078871   -0.0432757040319    
1700000000.0        -0.00391372976449   -0.0459517793581    0.99387668433       -0.094393037408     0.99387668433       -0.094393037408     -0.00391372976449   -0.0459517793581    
1800000000.0        -0.00444380654879   -0.0486223987853    0.993202128551      -0.0999172061325    0.993202128551      -0.0999172061325    -0.00444380654879   -0.0486223987853    
1900000000.0        -0.00500365402497   -0.0512872054982    0.992489618212      -0.105436152296     0.992489618212      -0.105436152296     -0.00500365402497   -0.0512872054982    
2000000000.0        -0.00559320034009   -0.0539458418531    0.991739211195      -0.110949536284     0.991739211195      -0.110949536284     -0.00559320034009   -0.0539458418531    
2100000000.0        -0.00621236880729   -0.0565979495821    0.990950970366      -0.116457017389     0.990950970366      -0.116457017389     -0.00621236880729   -0.0565979495821    
2200000000.0        -0.00686107782663   -0.0592431699862    0.990124963563      -0.121958254033     0.990124963563      -0.121958254033     -0.00686107782663   -0.0592431699862    
2300000000.0        -0.00753924082088   -0.0618811441207    0.989261263597      -0.127452903979     0.989261263597      -0.127452903979     -0.00753924082088   -0.0618811441207    
2400000000.0        -0.00824676618366   -0.0645115129731    0.988359948241      -0.13294062454      0.988359948241      -0.13294062454      -0.00824676618366   -0.0645115129731    
2500000000.0        -0.00898355723827   -0.0671339176343    0.987421100234      -0.138421072767     0.987421100234      -0.138421072767     -0.00898355723827   -0.0671339176343    
2600000000.0        -0.00974951220551   -0.0697479994648    0.986444807269      -0.143893905636     0.986444807269      -0.143893905636     -0.00974951220551   -0.0697479994648    
2700000000.0        -0.0105445241795    -0.0723534002549    0.985431161995      -0.149358780227     0.985431161995      -0.149358780227     -0.0105445241795    -0.0723534002549    
2800000000.0        -0.0113684811108    -0.0749497623811    0.984380262003      -0.154815353894     0.984380262003      -0.154815353894     -0.0113684811108    -0.0749497623811    
2900000000.0        -0.0122212657956    -0.077536728958     0.98329220982       -0.160263284431     0.98329220982       -0.160263284431     -0.0122212657956    -0.077536728958     
3000000000.0        -0.013102755871     -0.0801139439864    0.982167112893      -0.165702230235     0.982167112893      -0.165702230235     -0.013102755871     -0.0801139439864    
3100000000.0        -0.0140128238162    -0.0826810524979    0.981005083579      -0.171131850459     0.981005083579      -0.171131850459     -0.0140128238162    -0.0826810524979    
3200000000.0        -0.0149513369574    -0.0852377006959    0.979806239123      -0.176551805164     0.979806239123      -0.176551805164     -0.0149513369574    -0.0852377006959    
3300000000.0        -0.0159181574789    -0.0877835360936    0.978570701636      -0.181961755468     0.978570701636      -0.181961755468     -0.0159181574789    -0.0877835360936    
3400000000.0        -0.0169131424375    -0.0903182076494    0.977298598075      -0.187361363688     0.977298598075      -0.187361363688     -0.0169131424375    -0.0903182076494    
3500000000.0        -0.017936143782     -0.0928413658983    0.975990060214      -0.192750293478     0.975990060214      -0.192750293478     -0.017936143782     -0.0928413658983    
3600000000.0        -0.0189870083757    -0.0953526630818    0.974645224614      -0.198128209969     0.974645224614      -0.198128209969     -0.0189870083757    -0.0953526630818    
3700000000.0        -0.0200655780234    -0.097851753274     0.973264232593      -0.203494779898     0.973264232593      -0.203494779898     -0.0200655780234    -0.097851753274     
3800000000.0        -0.021171689502     -0.100338292506     0.971847230186      -0.20884967174      0.971847230186      -0.20884967174      -0.021171689502     -0.100338292506     
3900000000.0        -0.0223051745939    -0.102811938886     0.97039436811       -0.214192555832     0.97039436811       -0.214192555832     -0.0223051745939    -0.102811938886     
4000000000.0        -0.0234658601247    -0.10527235272      0.968905801721      -0.219523104499     0.968905801721      -0.219523104499     -0.0234658601247    -0.10527235272      
4100000000.0        -0.0246535680033    -0.107719196626     0.967381690972      -0.224840992174     0.967381690972      -0.224840992174     -0.0246535680033    -0.107719196626     
4200000000.0        -0.0258681152652    -0.110152135649     0.965822200366      -0.230145895512     0.965822200366      -0.230145895512     -0.0258681152652    -0.110152135649     
4300000000.0        -0.0271093141193    -0.112570837372     0.964227498903      -0.235437493509     0.964227498903      -0.235437493509     -0.0271093141193    -0.112570837372     
4400000000.0        -0.0283769719967    -0.114974972024     0.962597760035      -0.240715467611     0.962597760035      -0.240715467611     -0.0283769719967    -0.114974972024     
4500000000.0        -0.0296708916031    -0.117364212587     0.960933161604      -0.245979501823     0.960933161604      -0.245979501823     -0.0296708916031    -0.117364212587     
4600000000.0        -0.0309908709728    -0.119738234899     0.959233885792      -0.251229282818     0.959233885792      -0.251229282818     -0.0309908709728    -0.119738234899     
4700000000.0        -0.0323367035265    -0.122096717757     0.957500119057      -0.256464500036     0.957500119057      -0.256464500036     -0.0323367035265    -0.122096717757     
4800000000.0        -0.0337081781302    -0.124439343012     0.955732052076      -0.261684845788     0.955732052076      -0.261684845788     -0.0337081781302    -0.124439343012     
4900000000.0        -0.0351050791577    -0.126765795671     0.953929879676      -0.266890015353     0.953929879676      -0.266890015353     -0.0351050791577    -0.126765795671     
5000000000.0        -0.0365271865544    -0.129075763986     0.952093800772      -0.272079707073     0.952093800772      -0.272079707073     -0.0365271865544    -0.129075763986     
5100000000.0        -0.0379742759035    -0.131368939546     0.950224018301      -0.277253622444     0.950224018301      -0.277253622444     -0.0379742759035    -0.131368939546     
5200000000.0        -0.0394461184947    -0.13364501737      0.948320739146      -0.282411466209     0.948320739146      -0.282411466209     -0.0394461184947    -0.13364501737      
5300000000.0        -0.0409424813946    -0.135903695988     0.94638417407       -0.287552946445     0.94638417407       -0.287552946445     -0.0409424813946    -0.135903695988     
5400000000.0        -0.0424631275184    -0.138144677529     0.94441453764       -0.292677774642     0.94441453764       -0.292677774642     -0.0424631275184    -0.138144677529     
5500000000.0        -0.0440078157048    -0.140367667798     0.942412048151      -0.297785665792     0.942412048151      -0.297785665792     -0.0440078157048    -0.140367667798     
5600000000.0        -0.0455763007912    -0.142572376359     0.94037692755       -0.302876338464     0.94037692755       -0.302876338464     -0.0455763007912    -0.142572376359     
5700000000.0        -0.0471683336913    -0.14475851661      0.938309401359      -0.307949514881     0.938309401359      -0.307949514881     -0.0471683336913    -0.14475851661      
5800000000.0        -0.0487836614743    -0.146925805856     0.936209698592      -0.313004920993     0.936209698592      -0.313004920993     -0.0487836614743    -0.146925805856     
5900000000.0        -0.0504220274454    -0.149073965379     0.934078051675      -0.31804228655      0.934078051675      -0.31804228655      -0.0504220274454    -0.149073965379     
6000000000.0        -0.0520831712274    -0.151202720511     0.931914696361      -0.323061345168     0.931914696361      -0.323061345168     -0.0520831712274    -0.151202720511     
6100000000.0        -0.0537668288444    -0.153311800695     0.92971987165       -0.328061834398     0.92971987165       -0.328061834398     -0.0537668288444    -0.153311800695     
6200000000.0        -0.055472732806     -0.155400939552     0.927493819698      -0.333043495784     0.927493819698      -0.333043495784     -0.055472732806     -0.155400939552     
6300000000.0        -0.057200612193     -0.15746987494      0.925236785735      -0.338006074928     0.925236785735      -0.338006074928     -0.057200612193     -0.15746987494      
6400000000.0        -0.0589501927442    -0.159518349014     0.922949017974      -0.342949321545     0.922949017974      -0.342949321545     -0.0589501927442    -0.159518349014     
6500000000.0        -0.060721196944     -0.16154610828      0.920630767526      -0.347872989518     0.920630767526      -0.347872989518     -0.060721196944     -0.16154610828      
6600000000.0        -0.0625133441116    -0.16355290365      0.918282288306      -0.352776836952     0.918282288306      -0.352776836952     -0.0625133441116    -0.16355290365      
6700000000.0        -0.0643263504897    -0.165538490493     0.915903836944      -0.357660626222     0.915903836944      -0.357660626222     -0.0643263504897    -0.165538490493     
6800000000.0        -0.0661599293358    -0.167502628681     0.913495672695      -0.36252412402      0.913495672695      -0.36252412402      -0.0661599293358    -0.167502628681     
6900000000.0        -0.0680137910123    -0.169445082637     0.911058057346      -0.3673671014       0.911058057346      -0.3673671014       -0.0680137910123    -0.169445082637     
7000000000.0        -0.0698876430792    -0.171365621376     0.908591255123      -0.372189333821     0.908591255123      -0.372189333821     -0.0698876430792    -0.171365621376     
7100000000.0        -0.0717811903853    -0.173264018548     0.9060955326        -0.376990601184     0.9060955326        -0.376990601184     -0.0717811903853    -0.173264018548     
7200000000.0        -0.0736941351618    -0.175140052476     0.903571158601      -0.381770687869     0.903571158601      -0.381770687869     -0.0736941351618    -0.175140052476     
7300000000.0        -0.0756261771152    -0.176993506189     0.90101840411       -0.386529382769     0.90101840411       -0.386529382769     -0.0756261771152    -0.176993506189     
7400000000.0        -0.0775770135206    -0.178824167456     0.898437542174      -0.391266479323     0.898437542174      -0.391266479323     -0.0775770135206    -0.178824167456     
7500000000.0        -0.0795463393158    -0.18063182882      0.89582884781       -0.395981775543     0.89582884781       -0.395981775543     -0.0795463393158    -0.18063182882      
7600000000.0        -0.0815338471953    -0.182416287623     0.89319259791       -0.400675074041     0.89319259791       -0.400675074041     -0.0815338471953    -0.182416287623     
7700000000.0        -0.0835392277043    -0.184177346031     0.890529071143      -0.405346182052     0.890529071143      -0.405346182052     -0.0835392277043    -0.184177346031     
7800000000.0        -0.0855621693333    -0.185914811062     0.887838547862      -0.409994911458     0.887838547862      -0.409994911458     -0.0855621693333    -0.185914811062     
7900000000.0        -0.087602358612     -0.187628494601     0.885121310011      -0.414621078803     0.885121310011      -0.414621078803     -0.087602358612     -0.187628494601     
8000000000.0        -0.089659480204     -0.189318213424     0.882377641025      -0.419224505313     0.882377641025      -0.419224505313     -0.089659480204     -0.189318213424     
8100000000.0        -0.0917332170006    -0.19098378921      0.879607825739      -0.423805016908     0.879607825739      -0.423805016908     -0.0917332170006    -0.19098378921      
8200000000.0        -0.0938232502151    -0.19262504856      0.876812150289      -0.428362444213     0.876812150289      -0.428362444213     -0.0938232502151    -0.19262504856      
8300000000.0        -0.0959292594762    -0.194241823004     0.873990902023      -0.432896622571     0.873990902023      -0.432896622571     -0.0959292594762    -0.194241823004     
8400000000.0        -0.0980509229219    -0.195833949011     0.871144369401      -0.437407392044     0.871144369401      -0.437407392044     -0.0980509229219    -0.195833949011     
8500000000.0        -0.100187917293     -0.197401267999     0.868272841903      -0.441894597425     0.868272841903      -0.441894597425     -0.100187917293     -0.197401267999     
8600000000.0        -0.102339918023     -0.19894362634      0.865376609936      -0.446358088234     0.865376609936      -0.446358088234     -0.102339918023     -0.19894362634      
8700000000.0        -0.104506599337     -0.200460875358     0.862455964741      -0.45079771872      0.862455964741      -0.45079771872      -0.104506599337     -0.200460875358     
8800000000.0        -0.106687634335     -0.201952871336     0.859511198298      -0.455213347861     0.859511198298      -0.455213347861     -0.106687634335     -0.201952871336     
8900000000.0        -0.108882695089     -0.203419475509     0.856542603237      -0.459604839358     0.856542603237      -0.459604839358     -0.108882695089     -0.203419475509     
9000000000.0        -0.111091452735     -0.204860554066     0.853550472742      -0.463972061629     0.853550472742      -0.463972061629     -0.111091452735     -0.204860554066     
9100000000.0        -0.113313577555     -0.206275978139     0.850535100466      -0.4683148878       0.850535100466      -0.4683148878       -0.113313577555     -0.206275978139     
9200000000.0        -0.115548739075     -0.2076656238       0.847496780435      -0.472633195696     0.847496780435      -0.472633195696     -0.115548739075     -0.2076656238       
9300000000.0        -0.11779660615      -0.209029372049     0.844435806962      -0.476926867826     0.844435806962      -0.476926867826     -0.11779660615      -0.209029372049     
9400000000.0        -0.12005684705      -0.210367108804     0.841352474557      -0.481195791371     0.841352474557      -0.481195791371     -0.12005684705      -0.210367108804     
9500000000.0        -0.12232912955      -0.211678724884     0.83824707784       -0.485439858165     0.83824707784       -0.485439858165     -0.12232912955      -0.211678724884     
9600000000.0        -0.124613121016     -0.212964116002     0.835119911451      -0.489658964679     0.835119911451      -0.489658964679     -0.124613121016     -0.212964116002     
9700000000.0        -0.126908488486     -0.214223182737     0.831971269971      -0.493853012        0.831971269971      -0.493853012        -0.126908488486     -0.214223182737     
9800000000.0        -0.129214898762     -0.215455830526     0.828801447826      -0.498021905807     0.828801447826      -0.498021905807     -0.129214898762     -0.215455830526     
9900000000.0        -0.131532018484     -0.216661969637     0.825610739215      -0.50216555635      0.825610739215      -0.50216555635      -0.131532018484     -0.216661969637     
10000000000.0       -0.133859514221     -0.217841515146     0.822399438017      -0.506283878422     0.822399438017      -0.506283878422     -0.133859514221     -0.217841515146     
