# Hz S RI R 50.00 
100000000.0         0.000152226099869   -0.00483776585781   0.999781554682      -0.00564743898625   0.999781554682      -0.00564743898625   0.000152226099869   -0.00483776585781   
200000000.0         6.63945194062e-05   -0.00967473064214   0.99969223055       -0.0112940973028    0.99969223055       -0.0112940973028    6.63945194059e-05   -0.00967473064214   
300000000.0         -7.43780712783e-05  -0.0145101256762    0.999547952122      -0.0169392217289    0.999547952122      -0.0169392217289    -7.43780712784e-05  -0.0145101256762    
400000000.0         -0.000269896645419  -0.0193431657148    0.999348594781      -0.0225820389046    0.999348594781      -0.0225820389046    -0.000269896645419  -0.0193431657148    
500000000.0         -0.000520049520824  -0.0241730575952    0.999094147411      -0.0282217660489    0.999094147411      -0.0282217660489    -0.000520049520824  -0.0241730575952    
600000000.0         -0.000824739812425  -0.028999003602     0.998784644366      -0.0338576149022    0.998784644366      -0.0338576149022    -0.000824739812425  -0.028999003602     
700000000.0         -0.00118386793791   -0.0338202033874    0.998420148307      -0.0394887939205    0.998420148307      -0.0394887939205    -0.00118386793791   -0.0338202033874    
800000000.0         -0.00159732519811   -0.0386358552835    0.998000743986      -0.0451145097455    0.998000743986      -0.0451145097455    -0.00159732519811   -0.0386358552835    
900000000.0         -0.00206499090726   -0.0434451573054    0.997526535509      -0.050733968307     0.997526535509      -0.050733968307     -0.00206499090726   -0.0434451573054    
1000000000.0        -0.00258673094255   -0.0482473079747    0.996997644934      -0.0563463757169    0.996997644934      -0.0563463757169    -0.00258673094255   -0.0482473079747    
1100000000.0        -0.00316239695291   -0.0530415070324    0.996414211493      -0.0619509390315    0.996414211493      -0.0619509390315    -0.00316239695291   -0.0530415070324    
1200000000.0        -0.00379182591037   -0.0578269560758    0.995776391103      -0.0675468669267    0.995776391103      -0.0675468669267    -0.00379182591037   -0.0578269560758    
1300000000.0        -0.00447483985665   -0.0626028591435    0.995084356024      -0.0731333703126    0.995084356024      -0.0731333703126    -0.00447483985665   -0.0626028591435    
1400000000.0        -0.00521124576987   -0.0673684232612    0.99433829461       -0.0787096629025    0.99433829461       -0.0787096629025    -0.00521124576988   -0.0673684232612    
1500000000.0        -0.00600083551068   -0.0721228589579    0.993538411102      -0.0842749617484    0.993538411102      -0.0842749617484    -0.00600083551068   -0.0721228589579    
1600000000.0        -0.00684338582391   -0.0768653807571    0.992684925437      -0.0898284877482    0.992684925437      -0.0898284877482    -0.00684338582391   -0.0768653807571    
1700000000.0        -0.00773865838183   -0.0815952076498    0.991778073075      -0.0953694661321    0.991778073075      -0.0953694661321    -0.00773865838183   -0.0815952076498    
1800000000.0        -0.00868639985965   -0.0863115635497    0.990818104826      -0.100897126929     0.990818104826      -0.100897126929     -0.00868639985965   -0.0863115635497    
1900000000.0        -0.00968634203734   -0.0910136777332    0.989805286677      -0.106410705415     0.989805286677      -0.106410705415     -0.00968634203734   -0.0910136777332    
2000000000.0        -0.0107382019238    -0.0957007852668    0.988739899608      -0.111909442554     0.988739899608      -0.111909442554     -0.0107382019238    -0.0957007852668    
2100000000.0        -0.0118416819004    -0.100372127422     0.987622239409      -0.117392585412     0.987622239409      -0.117392585412     -0.0118416819004    -0.100372127422     
2200000000.0        -0.0129964698814    -0.105026952077     0.986452616483      -0.122859387574     0.986452616483      -0.122859387574     -0.0129964698814    -0.105026952077     
2300000000.0        -0.0142022394908    -0.109664514112     0.985231355646      -0.128309109539     0.985231355646      -0.128309109539     -0.0142022394908    -0.109664514112     
2400000000.0        -0.0154586502526    -0.114284075784     0.983958795912      -0.133741019103     0.983958795912      -0.133741019103     -0.0154586502526    -0.114284075784     
2500000000.0        -0.0167653477947    -0.118884907103     0.982635290273      -0.13915439174      0.982635290273      -0.13915439174      -0.0167653477947    -0.118884907103     
2600000000.0        -0.0181219640656    -0.12346628619      0.981261205469      -0.144548510961     0.981261205469      -0.144548510961     -0.0181219640656    -0.12346628619      
2700000000.0        -0.019528117562     -0.128027499626     0.979836921747      -0.149922668671     0.979836921747      -0.149922668671     -0.019528117562     -0.128027499626     
2800000000.0        -0.0209834135684    -0.132567842789     0.978362832613      -0.155276165509     0.978362832613      -0.155276165509     -0.0209834135684    -0.132567842789     
2900000000.0        -0.0224874444059    -0.137086620187     0.976839344573      -0.16060831118      0.976839344573      -0.16060831118      -0.0224874444059    -0.137086620187     
3000000000.0        -0.0240397896917    -0.141583145771     0.975266876871      -0.165918424777     0.975266876871      -0.165918424777     -0.0240397896917    -0.141583145771     
3100000000.0        -0.0256400166078    -0.146056743247     0.97364586121       -0.171205835092     0.97364586121       -0.171205835092     -0.0256400166078    -0.146056743247     
3200000000.0        -0.027287680178     -0.150506746368     0.971976741472      -0.17646988091      0.971976741472      -0.17646988091      -0.027287680178     -0.150506746368     
3300000000.0        -0.0289823235535    -0.154932499224     0.97025997343       -0.181709911305     0.97025997343       -0.181709911305     -0.0289823235535    -0.154932499224     
3400000000.0        -0.0307234783063    -0.159333356513     0.968496024447      -0.18692528591      0.968496024447      -0.18692528591      -0.0307234783063    -0.159333356513     
3500000000.0        -0.03251066473      -0.163708683809     0.966685373176      -0.192115375187     0.966685373176      -0.192115375187     -0.03251066473      -0.163708683809     
3600000000.0        -0.0343433921473    -0.168057857811     0.964828509246      -0.19727956068      0.964828509246      -0.19727956068      -0.0343433921473    -0.168057857811     
3700000000.0        -0.0362211592236    -0.172380266586     0.96292593295       -0.20241723526      0.96292593295       -0.20241723526      -0.0362211592236    -0.172380266586     
3800000000.0        -0.0381434542876    -0.176675309799     0.960978154922      -0.207527803356     0.960978154922      -0.207527803356     -0.0381434542876    -0.176675309799     
3900000000.0        -0.0401097556561    -0.180942398936     0.958985695805      -0.212610681174     0.958985695805      -0.212610681174     -0.0401097556561    -0.180942398936     
4000000000.0        -0.0421195319645    -0.185180957503     0.956949085926      -0.217665296909     0.956949085926      -0.217665296909     -0.0421195319645    -0.185180957503     
4100000000.0        -0.0441722425025    -0.18939042123      0.954868864955      -0.222691090942     0.954868864955      -0.222691090942     -0.0441722425025    -0.18939042123      
4200000000.0        -0.0462673375525    -0.193570238254     0.952745581566      -0.227687516024     0.952745581566      -0.227687516024     -0.0462673375525    -0.193570238254     
4300000000.0        -0.0484042587333    -0.197719869287     0.950579793093      -0.232654037451     0.950579793093      -0.232654037451     -0.0484042587333    -0.197719869287     
4400000000.0        -0.050582439346     -0.201838787784     0.948372065183      -0.23759013323      0.948372065183      -0.23759013323      -0.050582439346     -0.201838787784     
4500000000.0        -0.0528013047231    -0.205926480091     0.946122971445      -0.242495294225     0.946122971445      -0.242495294225     -0.0528013047231    -0.205926480091     
4600000000.0        -0.0550602725807    -0.209982445582     0.943833093098      -0.247369024301     0.943833093098      -0.247369024301     -0.0550602725807    -0.209982445582     
4700000000.0        -0.0573587533715    -0.214006196786     0.941503018617      -0.25221084045      0.941503018617      -0.25221084045      -0.0573587533715    -0.214006196786     
4800000000.0        -0.0596961506405    -0.217997259504     0.939133343376      -0.257020272908     0.939133343376      -0.257020272908     -0.0596961506405    -0.217997259504     
4900000000.0        -0.0620718613814    -0.221955172914     0.936724669293      -0.261796865258     0.936724669293      -0.261796865258     -0.0620718613814    -0.221955172914     
5000000000.0        -0.064485276394     -0.225879489661     0.934277604471      -0.266540174529     0.934277604471      -0.266540174529     -0.064485276394     -0.225879489661     
5100000000.0        -0.0669357806419    -0.229769775939     0.931792762838      -0.271249771273     0.931792762838      -0.271249771273     -0.0669357806419    -0.229769775939     
5200000000.0        -0.06942275361      -0.233625611565     0.929270763793      -0.275925239639     0.929270763793      -0.275925239639     -0.06942275361      -0.233625611565     
5300000000.0        -0.0719455696625    -0.237446590032     0.926712231845      -0.28056617743      0.926712231845      -0.28056617743      -0.0719455696625    -0.237446590032     
5400000000.0        -0.0745035983991    -0.241232318563     0.924117796256      -0.285172196158     0.924117796256      -0.285172196158     -0.0745035983991    -0.241232318563     
5500000000.0        -0.0770962050108    -0.244982418145     0.921488090686      -0.289742921077     0.921488090686      -0.289742921077     -0.0770962050108    -0.244982418145     
5600000000.0        -0.0797227506339    -0.248696523557     0.91882375284       -0.294277991212     0.91882375284       -0.294277991212     -0.0797227506339    -0.248696523557     
5700000000.0        -0.0823825927027    -0.252374283387     0.916125424111      -0.298777059374     0.916125424111      -0.298777059374     -0.0823825927027    -0.252374283387     
5800000000.0        -0.0850750852993    -0.256015360036     0.913393749236      -0.303239792174     0.913393749236      -0.303239792174     -0.0850750852993    -0.256015360036     
5900000000.0        -0.0877995795017    -0.259619429714     0.910629375942      -0.307665870008     0.910629375942      -0.307665870008     -0.0877995795017    -0.259619429714     
6000000000.0        -0.0905554237286    -0.263186182429     0.907832954603      -0.312054987053     0.907832954603      -0.312054987053     -0.0905554237286    -0.263186182429     
6100000000.0        -0.0933419640814    -0.266715321957     0.905005137899      -0.316406851238     0.905005137899      -0.316406851238     -0.0933419640814    -0.266715321957     
6200000000.0        -0.0961585446825    -0.270206565812     0.902146580477      -0.320721184213     0.902146580477      -0.320721184213     -0.0961585446825    -0.270206565812     
6300000000.0        -0.0990045080104    -0.273659645204     0.899257938615      -0.324997721306     0.899257938615      -0.324997721306     -0.0990045080104    -0.273659645204     
6400000000.0        -0.101879195231     -0.277074304983     0.896339869891      -0.32923621147      0.896339869891      -0.32923621147      -0.101879195231     -0.277074304983     
6500000000.0        -0.104781946522     -0.280450303579     0.893393032858      -0.333436417223     0.893393032858      -0.333436417223     -0.104781946522     -0.280450303579     
6600000000.0        -0.107712101399     -0.283787412932     0.890418086717      -0.337598114581     0.890418086717      -0.337598114581     -0.107712101399     -0.283787412932     
6700000000.0        -0.11066899903      -0.287085418416     0.887415691007      -0.341721092974     0.887415691007      -0.341721092974     -0.11066899903      -0.287085418416     
6800000000.0        -0.113651978548     -0.290344118745     0.884386505285      -0.345805155165     0.884386505285      -0.345805155165     -0.113651978548     -0.290344118745     
6900000000.0        -0.116660379361     -0.293563325887     0.881331188822      -0.349850117152     0.881331188822      -0.349850117152     -0.116660379361     -0.293563325887     
7000000000.0        -0.119693541451     -0.296742864954     0.878250400302      -0.35385580807      0.878250400302      -0.35385580807      -0.119693541451     -0.296742864954     
7100000000.0        -0.122750805673     -0.299882574098     0.87514479752       -0.357822070075     0.87514479752       -0.357822070075     -0.122750805673     -0.299882574098     
7200000000.0        -0.125831514044     -0.302982304387     0.872015037099      -0.361748758234     0.872015037099      -0.361748758234     -0.125831514044     -0.302982304387     
7300000000.0        -0.128935010028     -0.306041919687     0.868861774198      -0.365635740395     0.868861774198      -0.365635740395     -0.128935010028     -0.306041919687     
7400000000.0        -0.132060638817     -0.309061296527     0.865685662237      -0.369482897063     0.865685662237      -0.369482897063     -0.132060638817     -0.309061296527     
7500000000.0        -0.1352077476       -0.312040323961     0.862487352622      -0.373290121256     0.862487352622      -0.373290121256     -0.1352077476       -0.312040323961     
7600000000.0        -0.138375685833     -0.314978903431     0.859267494481      -0.377057318365     0.859267494481      -0.377057318365     -0.138375685833     -0.314978903431     
7700000000.0        -0.141563805496     -0.317876948607     0.856026734402      -0.380784406007     0.856026734402      -0.380784406007     -0.141563805496     -0.317876948607     
7800000000.0        -0.144771461348     -0.320734385241     0.852765716183      -0.384471313867     0.852765716183      -0.384471313867     -0.144771461348     -0.320734385241     
7900000000.0        -0.147998011173     -0.323551151001     0.849485080578      -0.388117983538     0.849485080578      -0.388117983538     -0.147998011173     -0.323551151001     
8000000000.0        -0.151242816019     -0.326327195311     0.846185465068      -0.391724368359     0.846185465068      -0.391724368359     -0.151242816019     -0.326327195311     
8100000000.0        -0.154505240433     -0.329062479172     0.842867503618      -0.395290433242     0.842867503618      -0.395290433242     -0.154505240433     -0.329062479172     
8200000000.0        -0.157784652685     -0.331756974998     0.839531826455      -0.398816154499     0.839531826455      -0.398816154499     -0.157784652685     -0.331756974998     
8300000000.0        -0.161080424988     -0.334410666427     0.836179059852      -0.402301519661     0.836179059852      -0.402301519661     -0.161080424988     -0.334410666427     
8400000000.0        -0.164391933709     -0.337023548145     0.832809825908      -0.405746527299     0.832809825908      -0.405746527299     -0.164391933709     -0.337023548145     
8500000000.0        -0.167718559576     -0.339595625696     0.829424742353      -0.409151186837     0.829424742353      -0.409151186837     -0.167718559576     -0.339595625696     
8600000000.0        -0.171059687875     -0.342126915294     0.826024422339      -0.412515518358     0.826024422339      -0.412515518358     -0.171059687875     -0.342126915294     
8700000000.0        -0.174414708641     -0.344617443625     0.822609474258      -0.415839552415     0.822609474258      -0.415839552415     -0.174414708641     -0.344617443625     
8800000000.0        -0.177783016841     -0.347067247657     0.819180501553      -0.419123329835     0.819180501553      -0.419123329835     -0.177783016841     -0.347067247657     
8900000000.0        -0.18116401255      -0.349476374436     0.815738102546      -0.422366901519     0.815738102546      -0.422366901519     -0.18116401255      -0.349476374436     
9000000000.0        -0.184557101125     -0.351844880889     0.812282870261      -0.425570328239     0.812282870261      -0.425570328239     -0.184557101125     -0.351844880889     
9100000000.0        -0.187961693362     -0.354172833615     0.808815392269      -0.42873368044      0.808815392269      -0.42873368044      -0.187961693362     -0.354172833615     
9200000000.0        -0.191377205655     -0.356460308686     0.805336250528      -0.431857038029     0.805336250528      -0.431857038029     -0.191377205655     -0.356460308686     
9300000000.0        -0.194803060141     -0.358707391434     0.801846021236      -0.434940490174     0.801846021236      -0.434940490174     -0.194803060141     -0.358707391434     
9400000000.0        -0.198238684847     -0.360914176245     0.79834527469       -0.437984135088     0.79834527469       -0.437984135088     -0.198238684847     -0.360914176245     
9500000000.0        -0.201683513819     -0.363080766351     0.794834575148      -0.440988079829     0.794834575148      -0.440988079829     -0.201683513819     -0.363080766351     
9600000000.0        -0.205136987254     -0.365207273615     0.791314480707      -0.443952440079     0.791314480707      -0.443952440079     -0.205136987254     -0.365207273615     
9700000000.0        -0.208598551617     -0.367293818323     0.787785543176      -0.446877339943     0.787785543176      -0.446877339943     -0.208598551617     -0.367293818323     
9800000000.0        -0.212067659759     -0.369340528967     0.784248307967      -0.449762911727     0.784248307967      -0.449762911727     -0.212067659759     -0.369340528967     
9900000000.0        -0.215543771023     -0.37134754204      0.780703313981      -0.452609295733     0.780703313981      -0.452609295733     -0.215543771023     -0.37134754204      
10000000000.0       -0.219026351344     -0.373315001816     0.777151093515      -0.455416640043     0.777151093515      -0.455416640043     -0.219026351344     -0.373315001816     
