# Hz S RI R 50.00 
100000000.0         -0.000157303569116  -0.0124862499434    0.999816101316      -0.0126219858021    0.999816101316      -0.0126219858021    -0.000157303569116  -0.0124862499434    
200000000.0         -0.000642211887653  -0.0249593251901    0.999330984138      -0.0252308426571    0.999330984138      -0.0252308426571    -0.000642211887653  -0.0249593251901    
300000000.0         -0.00144104380587   -0.0374070690983    0.998531970742      -0.0378144370442    0.998531970742      -0.0378144370442    -0.00144104380587   -0.0374070690983    
400000000.0         -0.00255217297829   -0.0498174964238    0.99742066456       -0.0503608010613    0.99742066456       -0.0503608010613    -0.00255217297829   -0.0498174964238    
500000000.0         -0.00397338041656   -0.0621787903251    0.995999275771      -0.0628581321363    0.995999275771      -0.0628581321363    -0.00397338041656   -0.0621787903251    
600000000.0         -0.00570186378947   -0.0744793248244    0.994270602205      -0.0752948164451    0.994270602205      -0.0752948164451    -0.00570186378947   -0.0744793248244    
700000000.0         -0.00773425215084   -0.0867076929768    0.992238012136      -0.0876594575772    0.992238012136      -0.0876594575772    -0.00773425215084   -0.0867076929768    
800000000.0         -0.0100666234834    -0.0988527364629    0.989905425836      -0.0999409064313    0.989905425836      -0.0999409064313    -0.0100666234834    -0.0988527364629    
900000000.0         -0.0126945245447    -0.110903574996     0.987277295324      -0.11212829083      0.987277295324      -0.11212829083      -0.0126945245447    -0.110903574996     
1000000000.0        -0.0156129927862    -0.122849634744     0.984358582247      -0.124211044087     0.984358582247      -0.124211044087     -0.0156129927862    -0.122849634744     
1100000000.0        -0.0188165801639    -0.134680675294     0.981154733956      -0.136178932096     0.981154733956      -0.136178932096     -0.0188165801639    -0.134680675294     
1200000000.0        -0.022299378655     -0.146386814858     0.977671657924      -0.14802207862      0.977671657924      -0.14802207862      -0.022299378655     -0.146386814858     
1300000000.0        -0.0260550472904    -0.157958553497     0.973915694668      -0.159730988595     0.973915694668      -0.159730988595     -0.0260550472904    -0.157958553497     
1400000000.0        -0.0300768404986    -0.169386794199     0.969893589385      -0.171296569272     0.969893589385      -0.171296569272     -0.0300768404986    -0.169386794199     
1500000000.0        -0.034357637554     -0.180662861713     0.965612462475      -0.182710149106     0.965612462475      -0.182710149106     -0.034357637554     -0.180662861713     
1600000000.0        -0.038889972916     -0.191778519043     0.961079779201      -0.193963494301     0.961079779201      -0.193963494301     -0.038889972916     -0.191778519043     
1700000000.0        -0.043666067245     -0.202725981567     0.956303318653      -0.205048822968     0.956303318653      -0.205048822968     -0.043666067245     -0.202725981567     
1800000000.0        -0.0486778588824    -0.213497928748     0.951291142268      -0.21595881688      0.951291142268      -0.21595881688      -0.0486778588824    -0.213497928748     
1900000000.0        -0.0539170355855    -0.224087513456     0.946051562086      -0.226686630822     0.946051562086      -0.226686630822     -0.0539170355855    -0.224087513456     
2000000000.0        -0.0593750663155    -0.234488368901     0.940593108964      -0.237225899566     0.940593108964      -0.237225899566     -0.0593750663155    -0.234488368901     
2100000000.0        -0.0650432328813    -0.244694613254     0.93492450092       -0.247570742511     0.93492450092       -0.247570742511     -0.0650432328813    -0.244694613254     
2200000000.0        -0.0709126612564    -0.254700851987     0.929054611824      -0.257715766056     0.929054611824      -0.257715766056     -0.0709126612564    -0.254700851987     
2300000000.0        -0.0769743523919    -0.264502178033     0.922992440577      -0.267656063783     0.922992440577      -0.267656063783     -0.0769743523919    -0.264502178033     
2400000000.0        -0.0832192123665    -0.274094169849     0.916747080959      -0.277387214546     0.916747080959      -0.277387214546     -0.0832192123665    -0.274094169849     
2500000000.0        -0.0896380817226    -0.283472887496     0.910327692296      -0.286905278564     0.910327692296      -0.286905278564     -0.0896380817226    -0.283472887496     
2600000000.0        -0.0962217638563    -0.292634866836     0.903743471066      -0.296206791648     0.903743471066      -0.296206791648     -0.0962217638563    -0.292634866836     
2700000000.0        -0.10296105234      -0.30157711199      0.897003623578      -0.305288757672     0.897003623578      -0.305288757672     -0.10296105234      -0.30157711199      
2800000000.0        -0.109846757074     -0.310297086177     0.890117339816      -0.314148639428     0.890117339816      -0.314148639428     -0.109846757074     -0.310297086177     
2900000000.0        -0.116869729176     -0.318792701071     0.883093768553      -0.322784348002     0.883093768553      -0.322784348002     -0.116869729176     -0.318792701071     
3000000000.0        -0.124020884536     -0.327062304819     0.875941993793      -0.331194230804     0.875941993793      -0.331194230804     -0.124020884536     -0.327062304819     
3100000000.0        -0.131291225975     -0.335104668857     0.868671012612      -0.339377058402     0.868671012612      -0.339377058402     -0.131291225975     -0.335104668857     
3200000000.0        -0.138671863962     -0.342918973669     0.861289714443      -0.347332010289     0.861289714443      -0.347332010289     -0.138671863962     -0.342918973669     
3300000000.0        -0.146154035857     -0.350504793632     0.853806861834      -0.355058659742     0.853806861834      -0.355058659742     -0.146154035857     -0.350504793632     
3400000000.0        -0.153729123656     -0.357862081069     0.846231072692      -0.362556957887     0.846231072692      -0.362556957887     -0.153729123656     -0.357862081069     
3500000000.0        -0.161388670248     -0.364991149669     0.838570804043      -0.369827217127     0.838570804043      -0.369827217127     -0.161388670248     -0.364991149669     
3600000000.0        -0.169124394159     -0.371892657379     0.830834337272      -0.376870094048     0.830834337272      -0.376870094048     -0.169124394159     -0.371892657379     
3700000000.0        -0.176928202831     -0.37856758891      0.823029764854      -0.383686571929     0.823029764854      -0.383686571929     -0.176928202831     -0.37856758891      
3800000000.0        -0.184792204429     -0.385017237964     0.815164978542      -0.390277942978     0.815164978542      -0.390277942978     -0.184792204429     -0.385017237964     
3900000000.0        -0.192708718232     -0.391243189299     0.807247658977      -0.39664579041      0.807247658977      -0.39664579041      -0.192708718232     -0.391243189299     
4000000000.0        -0.200670283637     -0.397247300734     0.799285266684      -0.402791970452     0.799285266684      -0.402791970452     -0.200670283637     -0.397247300734     
4100000000.0        -0.208669667822     -0.403031685195     0.791285034412      -0.408718594399     0.791285034412      -0.408718594399     -0.208669667822     -0.403031685195     
4200000000.0        -0.216699872123     -0.408598692879     0.78325396075       -0.414428010786     0.78325396075       -0.414428010786     -0.216699872123     -0.408598692879     
4300000000.0        -0.224754137181     -0.413950893635     0.775198804985      -0.419922787771     0.775198804985      -0.419922787771     -0.224754137181     -0.413950893635     
4400000000.0        -0.232825946919     -0.41909105962      0.767126083123      -0.425205695799     0.767126083123      -0.425205695799     -0.232825946919     -0.41909105962      
4500000000.0        -0.240909031415     -0.424022148307     0.759042065021      -0.430279690613     0.759042065021      -0.430279690613     -0.240909031415     -0.424022148307     
4600000000.0        -0.248997368726     -0.428747285894     0.750952772553      -0.435147896668     0.750952772553      -0.435147896668     -0.248997368726     -0.428747285894     
4700000000.0        -0.257085185744     -0.433269751174     0.742863978762      -0.439813591006     0.742863978762      -0.439813591006     -0.257085185744     -0.433269751174     
4800000000.0        -0.265166958144     -0.437592959902     0.73478120791       -0.444280187624     0.73478120791       -0.444280187624     -0.265166958144     -0.437592959902     
4900000000.0        -0.273237409486     -0.441720449698     0.726709736373      -0.448551222387     0.726709736373      -0.448551222387     -0.273237409486     -0.441720449698     
5000000000.0        -0.281291509553     -0.445655865522     0.71865459431       -0.452630338498     0.71865459431       -0.452630338498     -0.281291509553     -0.445655865522     
5100000000.0        -0.289324471969     -0.449402945739     0.710620568034      -0.456521272571     0.710620568034      -0.456521272571     -0.289324471969     -0.449402945739     
5200000000.0        -0.297331751192     -0.452965508795     0.702612203032      -0.460227841307     0.702612203032      -0.460227841307     -0.297331751192     -0.452965508795     
5300000000.0        -0.305309038908     -0.456347440514     0.694633807557      -0.463753928796     0.694633807557      -0.463753928796     -0.305309038908     -0.456347440514     
5400000000.0        -0.313252259924     -0.459552682035     0.686689456749      -0.467103474454     0.686689456749      -0.467103474454     -0.313252259924     -0.459552682035     
5500000000.0        -0.321157567586     -0.462585218378     0.678782997206      -0.470280461594     0.678782997206      -0.470280461594     -0.321157567586     -0.462585218378     
5600000000.0        -0.329021338803     -0.465449067653     0.670918051964      -0.473288906631     0.670918051964      -0.473288906631     -0.329021338803     -0.465449067653     
5700000000.0        -0.336840168717     -0.4681482709       0.663098025831      -0.47613284893      0.663098025831      -0.47613284893      -0.336840168717     -0.4681482709       
5800000000.0        -0.344610865069     -0.470686882553     0.655326111011      -0.478816341268     0.655326111011      -0.478816341268     -0.344610865069     -0.470686882553     
5900000000.0        -0.35233044232      -0.473068961527     0.647605292993      -0.481343440922     0.647605292993      -0.481343440922     -0.35233044232      -0.473068961527     
6000000000.0        -0.359996115557     -0.475298562897     0.639938356641      -0.483718201353     0.639938356641      -0.483718201353     -0.359996115557     -0.475298562897     
6100000000.0        -0.367605294237     -0.477379730186     0.632327892447      -0.485944664488     0.632327892447      -0.485944664488     -0.367605294237     -0.477379730186     
6200000000.0        -0.375155575802     -0.479316488205     0.624776302923      -0.488026853568     0.624776302923      -0.488026853568     -0.375155575802     -0.479316488205     
6300000000.0        -0.382644739205     -0.481112836465     0.617285809066      -0.489968766557     0.617285809066      -0.489968766557     -0.382644739205     -0.481112836465     
6400000000.0        -0.390070738375     -0.482772743113     0.609858456902      -0.491774370081     0.609858456902      -0.491774370081     -0.390070738375     -0.482772743113     
6500000000.0        -0.397431695655     -0.484300139398     0.602496124041      -0.493447593891     0.602496124041      -0.493447593891     -0.397431695655     -0.484300139398     
6600000000.0        -0.404725895243     -0.485698914615     0.59520052624       -0.494992325811     0.59520052624       -0.494992325811     -0.404725895243     -0.485698914615     
6700000000.0        -0.411951776652     -0.486972911539     0.587973223941      -0.496412407169     0.587973223941      -0.496412407169     -0.411951776652     -0.486972911539     
6800000000.0        -0.419107928225     -0.488125922299     0.580815628758      -0.497711628674     0.580815628758      -0.497711628674     -0.419107928225     -0.488125922299     
6900000000.0        -0.426193080709     -0.489161684684     0.5737290099        -0.498893726726     0.5737290099        -0.498893726726     -0.426193080709     -0.489161684684     
7000000000.0        -0.433206100923     -0.490083878866     0.566714500505      -0.499962380128     0.566714500505      -0.499962380128     -0.433206100923     -0.490083878866     
7100000000.0        -0.440145985524     -0.490896124491     0.559773103873      -0.500921207189     0.559773103873      -0.500921207189     -0.440145985524     -0.490896124491     
7200000000.0        -0.447011854888     -0.491601978151     0.552905699588      -0.501773763188     0.552905699588      -0.501773763188     -0.447011854888     -0.491601978151     
7300000000.0        -0.453802947118     -0.492204931187     0.546113049506      -0.502523538182     0.546113049506      -0.502523538182     -0.453802947118     -0.492204931187     
7400000000.0        -0.460518612193     -0.492708407819     0.539395803605      -0.503173955131     0.539395803605      -0.503173955131     -0.460518612193     -0.492708407819     
7500000000.0        -0.467158306263     -0.493115763573     0.532754505698      -0.503728368333     0.532754505698      -0.503728368333     -0.467158306263     -0.493115763573     
7600000000.0        -0.473721586091     -0.493430283994     0.52618959898       -0.504190062128     0.52618959898       -0.504190062128     -0.473721586091     -0.493430283994     
7700000000.0        -0.480208103669     -0.493655183616     0.519701431421      -0.504562249873     0.519701431421      -0.504562249873     -0.480208103669     -0.493655183616     
7800000000.0        -0.48661760098      -0.493793605178     0.513290260998      -0.504848073156     0.513290260998      -0.504848073156     -0.48661760098      -0.493793605178     
7900000000.0        -0.492949904942     -0.493848619067     0.506956260755      -0.50505060124      0.506956260755      -0.50505060124      -0.492949904942     -0.493848619067     
8000000000.0        -0.499204922516     -0.493823222962     0.500699523693      -0.505172830706     0.500699523693      -0.505172830706     -0.499204922516     -0.493823222962     
8100000000.0        -0.505382635986     -0.493720341678     0.494520067491      -0.505217685298     0.494520067491      -0.505217685298     -0.505382635986     -0.493720341678     
8200000000.0        -0.511483098407     -0.493542827185     0.488417839056      -0.505188015938     0.488417839056      -0.505188015938     -0.511483098407     -0.493542827185     
8300000000.0        -0.517506429232     -0.493293458782     0.482392718897      -0.505086600906     0.482392718897      -0.505086600906     -0.517506429232     -0.493293458782     
8400000000.0        -0.523452810106     -0.492974943428     0.476444525334      -0.504916146163     0.476444525334      -0.504916146163     -0.523452810106     -0.492974943428     
8500000000.0        -0.529322480827     -0.492589916195     0.470573018532      -0.504679285813     0.470573018532      -0.504679285813     -0.529322480827     -0.492589916195     
8600000000.0        -0.535115735475     -0.492140940857     0.464777904374      -0.504378582682     0.464777904374      -0.504378582682     -0.535115735475     -0.492140940857     
8700000000.0        -0.54083291871      -0.491630510574     0.459058838165      -0.504016529007     0.459058838165      -0.504016529007     -0.54083291871      -0.491630510574     
8800000000.0        -0.546474422227     -0.491061048684     0.453415428174      -0.50359554723      0.453415428174      -0.50359554723      -0.546474422227     -0.491061048684     
8900000000.0        -0.552040681367     -0.490434909578     0.447847239024      -0.503117990865     0.447847239024      -0.503117990865     -0.552040681367     -0.490434909578     
9000000000.0        -0.557532171894     -0.489754379653     0.442353794917      -0.502586145459     0.442353794917      -0.502586145459     -0.557532171894     -0.489754379653     
9100000000.0        -0.562949406909     -0.489021678338     0.436934582716      -0.502002229613     0.436934582716      -0.502002229613     -0.562949406909     -0.489021678338     
9200000000.0        -0.568292933918     -0.488238959174     0.43158905488       -0.501368396059     0.43158905488       -0.501368396059     -0.568292933918     -0.488238959174     
9300000000.0        -0.573563332048     -0.487408310949     0.426316632248      -0.500686732804     0.426316632248      -0.500686732804     -0.573563332048     -0.487408310949     
9400000000.0        -0.578761209389     -0.48653175888      0.421116706695      -0.499959264299     0.421116706695      -0.499959264299     -0.578761209389     -0.48653175888      
9500000000.0        -0.583887200481     -0.485611265825     0.415988643648      -0.499187952664     0.415988643648      -0.499187952664     -0.583887200481     -0.485611265825     
9600000000.0        -0.588941963926     -0.484648733537     0.410931784468      -0.498374698931     0.410931784468      -0.498374698931     -0.588941963926     -0.484648733537     
9700000000.0        -0.593926180126     -0.483646003935     0.405945448721      -0.497521344319     0.405945448721      -0.497521344319     -0.593926180126     -0.483646003935     
9800000000.0        -0.598840549142     -0.4826048604       0.401028936312      -0.496629671531     0.401028936312      -0.496629671531     -0.598840549142     -0.4826048604       
9900000000.0        -0.603685788668     -0.481527029082     0.396181529511      -0.495701406056     0.396181529511      -0.495701406056     -0.603685788668     -0.481527029082     
10000000000.0       -0.608462632121     -0.480414180221     0.391402494871      -0.494738217496     0.391402494871      -0.494738217496     -0.608462632121     -0.480414180221     
