# Hz S RI R 50.00 
100000000.0         0.00305586346689    0.00038042645475    0.996942948192      -0.000563452317506  0.996942948192      -0.000563452317506  0.00305586346689    0.00038042645475    
200000000.0         0.00307658590104    0.000760815538446   0.99692200388       -0.00112686902785   0.99692200388       -0.00112686902785   0.00307658590104    0.000760815538446   
300000000.0         0.00309230404202    0.00114118282896    0.996906030322      -0.00169026665136   0.996906030322      -0.00169026665136   0.00309230404202    0.00114118282896    
400000000.0         0.00310567452858    0.00152153369629    0.996892370876      -0.00225365128716   0.996892370876      -0.00225365128716   0.00310567452858    0.00152153369629    
500000000.0         0.0031177223528     0.00190187110615    0.996880000547      -0.00281702652248   0.996880000547      -0.00281702652248   0.0031177223528     0.00190187110615    
600000000.0         0.0031289711782     0.00228219694992    0.996868395668      -0.00338039480004   0.996868395668      -0.00338039480004   0.0031289711782     0.00228219694992    
700000000.0         0.00313973088897    0.0026625125258     0.99685724635       -0.00394375791794   0.99685724635       -0.00394375791794   0.00313973088897    0.0026625125258     
800000000.0         0.00315020260744    0.00304281876313    0.996846351467      -0.00450711726563   0.996846351467      -0.00450711726563   0.00315020260744    0.00304281876313    
900000000.0         0.00316052548345    0.00342311634392    0.996835571865      -0.0050704739524    0.996835571865      -0.0050704739524    0.00316052548345    0.00342311634392    
1000000000.0        0.00317080042631    0.0038034057747     0.996824806629      -0.00563382888519   0.996824806629      -0.00563382888519   0.00317080042631    0.0038034057747     
1100000000.0        0.00318110330532    0.00418368743301    0.996813979885      -0.00619718281809   0.996813979885      -0.00619718281809   0.00318110330532    0.00418368743301    
1200000000.0        0.00319149282063    0.00456396159794    0.996803032929      -0.00676053638682   0.996803032929      -0.00676053638682   0.00319149282063    0.00456396159794    
1300000000.0        0.00320201545815    0.00494422847235    0.996791919269      -0.00732389013229   0.996791919269      -0.00732389013229   0.00320201545815    0.00494422847235    
1400000000.0        0.00321270874867    0.00532448819828    0.996780601368      -0.00788724451858   0.996780601368      -0.00788724451858   0.00321270874867    0.00532448819828    
1500000000.0        0.00322360348978    0.00570474086879    0.996769048424      -0.00845059994615   0.996769048424      -0.00845059994615   0.00322360348977    0.00570474086879    
1600000000.0        0.00323472530758    0.00608498653702    0.996757234804      -0.00901395676195   0.996757234804      -0.00901395676195   0.00323472530758    0.00608498653702    
1700000000.0        0.00324609578278    0.00646522522301    0.996745138922      -0.00957731526762   0.996745138922      -0.00957731526762   0.00324609578278    0.00646522522301    
1800000000.0        0.00325773328081    0.00684545691929    0.996732742406      -0.0101406757258    0.996732742406      -0.0101406757258    0.00325773328081    0.00684545691929    
1900000000.0        0.0032696535759     0.00722568159529    0.996720029476      -0.0107040383656    0.996720029476      -0.0107040383656    0.0032696535759     0.00722568159529    
2000000000.0        0.00328187032816    0.00760589920092    0.996706986465      -0.0112674033863    0.996706986465      -0.0112674033863    0.00328187032816    0.00760589920092    
2100000000.0        0.00329439545378    0.00798610966949    0.99669360145       -0.0118307709616    0.99669360145       -0.0118307709616    0.00329439545378    0.00798610966949    
2200000000.0        0.00330723941635    0.0083663129202     0.996679863961      -0.0123941412423    0.996679863961      -0.0123941412423    0.00330723941635    0.0083663129202     
2300000000.0        0.00332041145871    0.00874650886018    0.996665764749      -0.0129575143587    0.996665764749      -0.0129575143587    0.00332041145871    0.00874650886018    
2400000000.0        0.00333391978955    0.00912669738618    0.996651295597      -0.0135208904231    0.996651295597      -0.0135208904231    0.00333391978956    0.00912669738618    
2500000000.0        0.00334777173517    0.00950687838613    0.996636449173      -0.0140842695314    0.996636449173      -0.0140842695314    0.00334777173517    0.00950687838613    
2600000000.0        0.00336197386385    0.00988705174031    0.9966212189        -0.0146476517646    0.9966212189        -0.0146476517646    0.00336197386385    0.00988705174031    
2700000000.0        0.00337653208881    0.0102672173225     0.996605598859      -0.0152110371907    0.996605598859      -0.0152110371907    0.00337653208881    0.0102672173225     
2800000000.0        0.00339145175398    0.0106473750008     0.996589583698      -0.0157744258654    0.996589583698      -0.0157744258654    0.00339145175398    0.0106473750008     
2900000000.0        0.00340673770589    0.0110275246387     0.996573168563      -0.0163378178335    0.996573168563      -0.0163378178335    0.00340673770589    0.0110275246387     
3000000000.0        0.00342239435452    0.0114076660954     0.996556349036      -0.0169012131298    0.996556349036      -0.0169012131298    0.00342239435452    0.0114076660954     
3100000000.0        0.00343842572492    0.0117877992269     0.996539121084      -0.0174646117798    0.996539121084      -0.0174646117798    0.00343842572492    0.0117877992269     
3200000000.0        0.00345483550132    0.0121679238862     0.996521481016      -0.0180280138009    0.996521481016      -0.0180280138009    0.00345483550132    0.0121679238862     
3300000000.0        0.00347162706507    0.0125480399238     0.996503425443      -0.0185914192023    0.996503425443      -0.0185914192023    0.00347162706507    0.0125480399238     
3400000000.0        0.00348880352734    0.0129281471884     0.996484951244      -0.0191548279865    0.996484951244      -0.0191548279865    0.00348880352734    0.0129281471884     
3500000000.0        0.00350636775747    0.013308245527      0.996466055543      -0.0197182401491    0.996466055543      -0.0197182401491    0.00350636775747    0.013308245527      
3600000000.0        0.00352432240769    0.0136883347853     0.99644673568       -0.0202816556801    0.99644673568       -0.0202816556801    0.00352432240769    0.0136883347853     
3700000000.0        0.00354266993471    0.0140684148084     0.996426989189      -0.0208450745634    0.996426989189      -0.0208450745634    0.00354266993471    0.0140684148084     
3800000000.0        0.00356141261866    0.0144484854402     0.996406813783      -0.021408496778     0.996406813783      -0.021408496778     0.00356141261866    0.0144484854402     
3900000000.0        0.0035805525798     0.0148285465246     0.996386207332      -0.021971922298     0.996386207332      -0.021971922298     0.0035805525798     0.0148285465246     
4000000000.0        0.00360009179327    0.0152085979051     0.996365167853      -0.0225353510931    0.996365167853      -0.0225353510931    0.00360009179327    0.0152085979051     
4100000000.0        0.00362003210217    0.0155886394252     0.996343693494      -0.0230987831288    0.996343693494      -0.0230987831288    0.00362003210217    0.0155886394252     
4200000000.0        0.00364037522916    0.0159686709287     0.996321782524      -0.0236622183666    0.996321782524      -0.0236622183666    0.00364037522916    0.0159686709287     
4300000000.0        0.00366112278689    0.0163486922595     0.996299433323      -0.0242256567647    0.996299433323      -0.0242256567647    0.00366112278689    0.0163486922595     
4400000000.0        0.00368227628725    0.0167287032621     0.996276644369      -0.0247890982778    0.996276644369      -0.0247890982778    0.00368227628725    0.0167287032621     
4500000000.0        0.00370383714967    0.0171087037817     0.996253414235      -0.0253525428573    0.996253414235      -0.0253525428573    0.00370383714967    0.0171087037817     
4600000000.0        0.00372580670866    0.0174886936641     0.996229741577      -0.025915990452     0.996229741577      -0.025915990452     0.00372580670866    0.0174886936641     
4700000000.0        0.00374818622047    0.017868672756      0.99620562513       -0.0264794410077    0.99620562513       -0.0264794410077    0.00374818622047    0.017868672756      
4800000000.0        0.00377097686923    0.0182486409048     0.996181063701      -0.027042894468     0.996181063701      -0.027042894468     0.00377097686923    0.0182486409048     
4900000000.0        0.00379417977245    0.0186285979594     0.996156056164      -0.0276063507737    0.996156056164      -0.0276063507737    0.00379417977245    0.0186285979594     
5000000000.0        0.00381779598603    0.0190085437692     0.996130601455      -0.0281698098637    0.996130601455      -0.0281698098637    0.00381779598603    0.0190085437692     
5100000000.0        0.00384182650875    0.0193884781853     0.996104698564      -0.0287332716747    0.996104698564      -0.0287332716747    0.00384182650875    0.0193884781853     
5200000000.0        0.00386627228646    0.0197684010597     0.996078346539      -0.0292967361415    0.996078346539      -0.0292967361415    0.00386627228646    0.0197684010597     
5300000000.0        0.00389113421583    0.0201483122458     0.996051544472      -0.029860203197     0.996051544472      -0.029860203197     0.00389113421583    0.0201483122458     
5400000000.0        0.0039164131478     0.0205282115984     0.996024291504      -0.0304236727725    0.996024291504      -0.0304236727725    0.0039164131478     0.0205282115984     
5500000000.0        0.00394210989072    0.0209080989736     0.995996586818      -0.0309871447977    0.995996586818      -0.0309871447977    0.00394210989072    0.0209080989736     
5600000000.0        0.00396822521327    0.0212879742289     0.995968429636      -0.0315506192007    0.995968429636      -0.0315506192007    0.00396822521327    0.0212879742289     
5700000000.0        0.00399475984711    0.0216678372234     0.995939819216      -0.0321140959084    0.995939819216      -0.0321140959084    0.00399475984711    0.0216678372234     
5800000000.0        0.0040217144893     0.0220476878178     0.995910754854      -0.0326775748462    0.995910754854      -0.0326775748462    0.0040217144893     0.0220476878178     
5900000000.0        0.00404908980458    0.022427525874      0.995881235875      -0.0332410559383    0.995881235875      -0.0332410559383    0.00404908980458    0.022427525874      
6000000000.0        0.00407688642743    0.0228073512558     0.995851261635      -0.0338045391081    0.995851261635      -0.0338045391081    0.00407688642743    0.0228073512558     
6100000000.0        0.00410510496401    0.0231871638284     0.995820831519      -0.0343680242773    0.995820831519      -0.0343680242773    0.00410510496401    0.0231871638284     
6200000000.0        0.00413374599389    0.0235669634588     0.995789944938      -0.0349315113672    0.995789944938      -0.0349315113672    0.00413374599389    0.0235669634588     
6300000000.0        0.00416281007173    0.0239467500156     0.995758601329      -0.0354950002979    0.995758601329      -0.0354950002979    0.00416281007173    0.0239467500156     
6400000000.0        0.00419229772881    0.0243265233688     0.995726800151      -0.0360584909886    0.995726800151      -0.0360584909886    0.00419229772881    0.0243265233688     
6500000000.0        0.00422220947439    0.0247062833904     0.995694540886      -0.0366219833577    0.995694540886      -0.0366219833577    0.00422220947439    0.0247062833904     
6600000000.0        0.0042525457971     0.025086029954      0.995661823035      -0.037185477323     0.995661823035      -0.037185477323     0.0042525457971     0.025086029954      
6700000000.0        0.00428330716608    0.0254657629348     0.99562864612       -0.0377489728014    0.99562864612       -0.0377489728014    0.00428330716608    0.0254657629348     
6800000000.0        0.0043144940322     0.0258454822097     0.995595009682      -0.0383124697091    0.995595009682      -0.0383124697091    0.0043144940322     0.0258454822097     
6900000000.0        0.00434610682906    0.0262251876576     0.995560913277      -0.038875967962     0.995560913277      -0.038875967962     0.00434610682906    0.0262251876576     
7000000000.0        0.004378145974      0.0266048791588     0.995526356479      -0.039439467475     0.995526356479      -0.039439467475     0.004378145974      0.0266048791588     
7100000000.0        0.00441061186904    0.0269845565954     0.995491338876      -0.0400029681628    0.995491338876      -0.0400029681628    0.00441061186904    0.0269845565954     
7200000000.0        0.00444350490173    0.0273642198513     0.995455860072      -0.0405664699395    0.995455860072      -0.0405664699395    0.00444350490173    0.0273642198513     
7300000000.0        0.00447682544597    0.0277438688121     0.995419919684      -0.0411299727187    0.995419919684      -0.0411299727187    0.00447682544597    0.0277438688121     
7400000000.0        0.00451057386276    0.0281235033653     0.995383517341      -0.0416934764135    0.995383517341      -0.0416934764135    0.00451057386276    0.0281235033653     
7500000000.0        0.00454475050092    0.0285031233998     0.995346652686      -0.0422569809368    0.995346652686      -0.0422569809368    0.00454475050092    0.0285031233998     
7600000000.0        0.00457935569775    0.0288827288066     0.995309325372      -0.042820486201     0.995309325372      -0.042820486201     0.00457935569775    0.0288827288066     
7700000000.0        0.00461438977966    0.0292623194781     0.995271535063      -0.0433839921181    0.995271535063      -0.0433839921181    0.00461438977966    0.0292623194781     
7800000000.0        0.00464985306278    0.0296418953087     0.995233281434      -0.0439474986001    0.995233281434      -0.0439474986001    0.00464985306278    0.0296418953087     
7900000000.0        0.00468574585348    0.0300214561945     0.99519456417       -0.0445110055582    0.99519456417       -0.0445110055582    0.00468574585348    0.0300214561945     
8000000000.0        0.00472206844891    0.0304010020331     0.995155382964      -0.0450745129039    0.995155382964      -0.0450745129039    0.00472206844891    0.0304010020331     
8100000000.0        0.00475882113751    0.0307805327241     0.995115737518      -0.0456380205479    0.995115737518      -0.0456380205479    0.00475882113751    0.0307805327241     
8200000000.0        0.00479600419945    0.0311600481688     0.995075627545      -0.0462015284012    0.995075627545      -0.0462015284012    0.00479600419945    0.0311600481688     
8300000000.0        0.00483361790706    0.03153954827       0.995035052761      -0.0467650363743    0.995035052761      -0.0467650363743    0.00483361790706    0.03153954827       
8400000000.0        0.0048716625253     0.0319190329323     0.994994012893      -0.0473285443775    0.994994012893      -0.0473285443775    0.0048716625253     0.0319190329323     
8500000000.0        0.00491013831208    0.0322985020623     0.994952507674      -0.047892052321     0.994952507674      -0.047892052321     0.00491013831208    0.0322985020623     
8600000000.0        0.00494904551867    0.0326779555678     0.994910536843      -0.0484555601149    0.994910536843      -0.0484555601149    0.00494904551867    0.0326779555678     
8700000000.0        0.00498838439004    0.0330573933586     0.994868100148      -0.0490190676691    0.994868100148      -0.0490190676691    0.00498838439004    0.0330573933586     
8800000000.0        0.0050281551652     0.0334368153462     0.994825197339      -0.0495825748935    0.994825197339      -0.0495825748935    0.0050281551652     0.0334368153462     
8900000000.0        0.00506835807751    0.0338162214437     0.994781828175      -0.0501460816976    0.994781828175      -0.0501460816976    0.00506835807751    0.0338162214437     
9000000000.0        0.00510899335496    0.0341956115658     0.994737992418      -0.0507095879912    0.994737992418      -0.0507095879912    0.00510899335496    0.0341956115658     
9100000000.0        0.0051500612205     0.034574985629      0.994693689837      -0.0512730936837    0.994693689837      -0.0512730936837    0.0051500612205     0.034574985629      
9200000000.0        0.00519156189223    0.0349543435513     0.994648920205      -0.0518365986845    0.994648920205      -0.0518365986845    0.00519156189223    0.0349543435513     
9300000000.0        0.00523349558375    0.0353336852526     0.9946036833        -0.0524001029031    0.9946036833        -0.0524001029031    0.00523349558375    0.0353336852526     
9400000000.0        0.00527586250431    0.0357130106541     0.994557978902      -0.0529636062487    0.994557978902      -0.0529636062487    0.00527586250431    0.0357130106541     
9500000000.0        0.00531866285912    0.0360923196789     0.9945118068        -0.0535271086308    0.9945118068        -0.0535271086308    0.00531866285912    0.0360923196789     
9600000000.0        0.0053618968495     0.0364716122516     0.994465166781      -0.0540906099584    0.994465166781      -0.0540906099584    0.0053618968495     0.0364716122516     
9700000000.0        0.00540556467315    0.0368508882983     0.994418058641      -0.0546541101409    0.994418058641      -0.0546541101409    0.00540556467315    0.0368508882983     
9800000000.0        0.0054496665243     0.037230147747      0.994370482175      -0.0552176090874    0.994370482175      -0.0552176090874    0.0054496665243     0.037230147747      
9900000000.0        0.00549420259392    0.0376093905269     0.994322437185      -0.0557811067071    0.994322437185      -0.0557811067071    0.00549420259392    0.0376093905269     
10000000000.0       0.0055391730699     0.0379886165692     0.994273923475      -0.0563446029093    0.994273923475      -0.0563446029093    0.0055391730699     0.0379886165692     
