# Hz S RI R 50.00 
100000000.0         -0.00257137702343   -0.0502012585924    0.9974077255        -0.0502899358415    0.9974077255        -0.0502899358415    -0.00257137702343   -0.0502012585924    
200000000.0         -0.0101361246838    -0.0996302608574    0.989842823128      -0.0998076400442    0.989842823128      -0.0998076400442    -0.0101361246838    -0.0996302608574    
300000000.0         -0.0224569205823    -0.147566218773     0.977521900498      -0.147832337149     0.977521900498      -0.147832337149     -0.0224569205823    -0.147566218773     
400000000.0         -0.0391756306895    -0.193361608501     0.960803073677      -0.193716512732     0.960803073677      -0.193716512732     -0.0391756306895    -0.193361608501     
500000000.0         -0.0598287229296    -0.23646839933      0.94014986785       -0.236912143783     0.94014986785       -0.236912143783     -0.0598287229296    -0.23646839933      
600000000.0         -0.0838776693294    -0.276455251298     0.916100807484      -0.276987896843     0.916100807484      -0.276987896843     -0.0838776693294    -0.276455251298     
700000000.0         -0.110741063161     -0.313014942041     0.88923729724       -0.313636555116     0.88923729724       -0.313636555116     -0.110741063161     -0.313014942041     
800000000.0         -0.139825270304     -0.345962682497     0.860152969896      -0.346673334338     0.860152969896      -0.346673334338     -0.139825270304     -0.345962682497     
900000000.0         -0.170551146762     -0.375226958992     0.829426968521      -0.376026724979     0.829426968521      -0.376026724979     -0.170551146762     -0.375226958992     
1000000000.0        -0.202375284018     -0.400835069214     0.797602700956      -0.401724028299     0.797602700956      -0.401724028299     -0.202375284018     -0.400835069214     
1100000000.0        -0.234805176172     -0.422895622234     0.76517267259       -0.423873856439     0.76517267259       -0.423873856439     -0.234805176172     -0.422895622234     
1200000000.0        -0.267408480436     -0.44158004471      0.732569225812      -0.44264763868      0.732569225812      -0.44264763868      -0.267408480436     -0.44158004471      
1300000000.0        -0.299817085523     -0.457104708484     0.700160471593      -0.458261749079     0.700160471593      -0.458261749079     -0.299817085523     -0.457104708484     
1400000000.0        -0.3317269999       -0.469714795215     0.668250401202      -0.470961371153     0.668250401202      -0.470961371153     -0.3317269999       -0.469714795215     
1500000000.0        -0.362895160469     -0.479670537837     0.637082077522      -0.481006739363     0.637082077522      -0.481006739363     -0.362895160469     -0.479670537837     
1600000000.0        -0.393134200595     -0.487236084175     0.606842867004      -0.488662002769     0.606842867004      -0.488662002769     -0.393134200595     -0.487236084175     
1700000000.0        -0.422306065877     -0.492670938326     0.57767082389       -0.494186666432     0.57767082389       -0.494186666432     -0.422306065877     -0.492670938326     
1800000000.0        -0.450315177605     -0.49622374848      0.549661526755      -0.497829379265     0.549661526755      -0.497829379265     -0.450315177605     -0.49622374848      
1900000000.0        -0.477101654132     -0.498128109834     0.522874857124      -0.499823736971     0.522874857124      -0.499823736971     -0.477101654132     -0.498128109834     
2000000000.0        -0.502634931371     -0.498600016477     0.497341378975      -0.500385733948     0.497341378975      -0.500385733948     -0.502634931371     -0.498600016477     
2100000000.0        -0.526907985431     -0.497836605235     0.473068116107      -0.499712507151     0.473068116107      -0.499712507151     -0.526907985431     -0.497836605235     
2200000000.0        -0.549932255345     -0.496015869582     0.450043629398      -0.497982050029     0.450043629398      -0.497982050029     -0.549932255345     -0.496015869582     
2300000000.0        -0.571733289115     -0.493297069172     0.428242370768      -0.495353622066     0.428242370768      -0.495353622066     -0.571733289115     -0.493297069172     
2400000000.0        -0.592347086922     -0.489821611141     0.407628339963      -0.491968630101     0.407628339963      -0.491968630101     -0.592347086922     -0.489821611141     
2500000000.0        -0.61181708575      -0.485714227381     0.388158099936      -0.487951805618     0.388158099936      -0.487951805618     -0.61181708575      -0.485714227381     
2600000000.0        -0.630191714514     -0.481084314419     0.369783221709      -0.483412544637     0.369783221709      -0.483412544637     -0.630191714514     -0.481084314419     
2700000000.0        -0.64752244366      -0.476027338204     0.352452234778      -0.478446312513     0.352452234778      -0.478446312513     -0.64752244366      -0.476027338204     
2800000000.0        -0.663862254548     -0.470626234884     0.336112157733      -0.473136044722     0.336112157733      -0.473136044722     -0.663862254548     -0.470626234884     
2900000000.0        -0.679264459126     -0.464952761202     0.320709678574      -0.46755349727      0.320709678574      -0.46755349727      -0.679264459126     -0.464952761202     
3000000000.0        -0.693781807648     -0.459068765204     0.306192047003      -0.461760517411     0.306192047003      -0.461760517411     -0.693781807648     -0.459068765204     
3100000000.0        -0.707465830151     -0.453027360619     0.292507732937      -0.455810218033     0.292507732937      -0.455810218033     -0.707465830151     -0.453027360619     
3200000000.0        -0.720366365353     -0.446873997302     0.279606897618      -0.44974804811      0.279606897618      -0.44974804811      -0.720366365353     -0.446873997302     
3300000000.0        -0.732531238085     -0.440647426448     0.267441716177      -0.443612757923     0.267441716177      -0.443612757923     -0.732531238085     -0.440647426448     
3400000000.0        -0.744006053037     -0.434380563463     0.255966583884      -0.437437261939     0.255966583884      -0.437437261939     -0.744006053037     -0.434380563463     
3500000000.0        -0.754834078483     -0.428101254045     0.245138232432      -0.431249404895     0.245138232432      -0.431249404895     -0.754834078483     -0.428101254045     
3600000000.0        -0.765056198634     -0.421832950532     0.234915777576      -0.425072638154     0.234915777576      -0.425072638154     -0.765056198634     -0.421832950532     
3700000000.0        -0.774710917496     -0.41559530631      0.225260715277      -0.418926614118     0.225260715277      -0.418926614118     -0.774710917496     -0.41559530631      
3800000000.0        -0.78383440061      -0.409404696266     0.216136879963      -0.412827706684     0.216136879963      -0.412827706684     -0.78383440061      -0.409404696266     
3900000000.0        -0.792460543931     -0.403274671072     0.207510375651      -0.406789465532     0.207510375651      -0.406789465532     -0.792460543931     -0.403274671072     
4000000000.0        -0.800621061442     -0.397216352731     0.199349488328      -0.400823011675     0.199349488328      -0.400823011675     -0.800621061442     -0.397216352731     
4100000000.0        -0.808345584993     -0.391238778225     0.191624586118      -0.394937381112     0.191624586118      -0.394937381112     -0.808345584993     -0.391238778225     
4200000000.0        -0.815661771378     -0.385349197584     0.1843080122        -0.389139822897     0.1843080122        -0.389139822897     -0.815661771378     -0.385349197584     
4300000000.0        -0.822595412856     -0.379553332011     0.177373974288      -0.383436057267     0.177373974288      -0.383436057267     -0.822595412856     -0.379553332011     
4400000000.0        -0.829170548302     -0.37385559716      0.170798433485      -0.377830498927     0.170798433485      -0.377830498927     -0.829170548302     -0.37385559716      
4500000000.0        -0.835409572895     -0.368259296054     0.164558994587      -0.372326449962     0.164558994587      -0.372326449962     -0.835409572895     -0.368259296054     
4600000000.0        -0.841333344876     -0.362766785624     0.15863479933       -0.366926266384     0.15863479933       -0.366926266384     -0.841333344876     -0.362766785624     
4700000000.0        -0.846961288325     -0.357379620349     0.15300642361       -0.361631501772     0.15300642361       -0.361631501772     -0.846961288325     -0.357379620349     
4800000000.0        -0.852311491295     -0.352098676059     0.147655779355      -0.356443031074     0.147655779355      -0.356443031074     -0.852311491295     -0.352098676059     
4900000000.0        -0.857400798872     -0.346924256563     0.142566021455      -0.351361157241     0.142566021455      -0.351361157241     -0.857400798872     -0.346924256563     
5000000000.0        -0.862244900973     -0.341856185416     0.137721459975      -0.346385702988     0.137721459975      -0.346385702988     -0.862244900973     -0.341856185416     
5100000000.0        -0.866858414802     -0.336893884842     0.133107477688      -0.341516089726     0.133107477688      -0.341516089726     -0.866858414802     -0.336893884842     
5200000000.0        -0.871254962038     -0.332036443559     0.128710452897      -0.336751405382     0.128710452897      -0.336751405382     -0.871254962038     -0.332036443559     
5300000000.0        -0.875447240865     -0.327282675024     0.124517687399      -0.332090462644     0.124517687399      -0.332090462644     -0.875447240865     -0.327282675024     
5400000000.0        -0.879447093046     -0.322631167393     0.120517339409      -0.327531848925     0.120517339409      -0.327531848925     -0.879447093046     -0.322631167393     
5500000000.0        -0.883265566265     -0.318080326339     0.116698361227      -0.323073969184     0.116698361227      -0.323073969184     -0.883265566265     -0.318080326339     
5600000000.0        -0.886912971964     -0.313628411717     0.113050441392      -0.318715082579     0.113050441392      -0.318715082579     -0.886912971964     -0.313628411717     
5700000000.0        -0.890398938959     -0.309273568886     0.109563951069      -0.314453333804     0.109563951069      -0.314453333804     -0.890398938959     -0.309273568886     
5800000000.0        -0.893732463078     -0.305013855465     0.106229894415      -0.310286779834     0.106229894415      -0.310286779834     -0.893732463078     -0.305013855465     
5900000000.0        -0.89692195308      -0.300847264112     0.10303986265       -0.306213412712     0.10303986265       -0.306213412712     -0.89692195308      -0.300847264112     
6000000000.0        -0.899975273123     -0.296771741901     0.0999859916        -0.302231178919     0.0999859916        -0.302231178919     -0.899975273123     -0.296771741901     
6100000000.0        -0.90289978201      -0.292785206743     0.0970609224451     -0.298337995799     0.0970609224451     -0.298337995799     -0.90289978201      -0.292785206743     
6200000000.0        -0.905702369452     -0.288885561282     0.0942577654578     -0.294531765457     0.0942577654578     -0.294531765457     -0.905702369452     -0.288885561282     
6300000000.0        -0.908389489568     -0.285070704597     0.0915700665014     -0.290810386451     0.0915700665014     -0.290810386451     -0.908389489568     -0.285070704597     
6400000000.0        -0.910967191834     -0.281338542018     0.0889917760838     -0.287171763621     0.0889917760838     -0.287171763621     -0.910967191834     -0.281338542018     
6500000000.0        -0.913441149668     -0.277686993324     0.08651722077       -0.283613816278     0.08651722077       -0.283613816278     -0.913441149668     -0.277686993324     
6600000000.0        -0.915816686843     -0.274113999551     0.0841410767722     -0.280134485011     0.0841410767722     -0.280134485011     -0.915816686843     -0.274113999551     
6700000000.0        -0.918098801883     -0.270617528585     0.0818583455475     -0.276731737288     0.0818583455475     -0.276731737288     -0.918098801883     -0.270617528585     
6800000000.0        -0.920292190623     -0.26719557974      0.0796643312465     -0.273403572024     0.0796643312465     -0.273403572024     -0.920292190623     -0.26719557974      
6900000000.0        -0.922401267049     -0.263846187442     0.0775546198666     -0.270148023269     0.0775546198666     -0.270148023269     -0.922401267049     -0.263846187442     
7000000000.0        -0.924430182577     -0.260567424157     0.0755250599757     -0.266963163138     0.0755250599757     -0.266963163138     -0.924430182577     -0.260567424157     
7100000000.0        -0.926382843883     -0.257357402671     0.0735717448819     -0.263847104086     0.0735717448819     -0.263847104086     -0.926382843883     -0.257357402671     
7200000000.0        -0.928262929401     -0.254214277813     0.071690996135      -0.260798000633     0.071690996135      -0.260798000633     -0.928262929401     -0.254214277813     
7300000000.0        -0.930073904595     -0.25113624771      0.0698793482544     -0.257814050616     0.0698793482544     -0.257814050616     -0.930073904595     -0.25113624771      
7400000000.0        -0.931819036105     -0.248121554629     0.0681335345856     -0.254893496038     0.0681335345856     -0.254893496038     -0.931819036105     -0.248121554629     
7500000000.0        -0.933501404845     -0.245168485492     0.0664504741975     -0.252034623573     0.0664504741975     -0.252034623573     -0.933501404845     -0.245168485492     
7600000000.0        -0.935123918152     -0.242275372091     0.0648272597371     -0.249235764785     0.0648272597371     -0.249235764785     -0.935123918152     -0.242275372091     
7700000000.0        -0.936689321047     -0.239440591064     0.0632611461676     -0.246495296105     0.0632611461676     -0.246495296105     -0.936689321047     -0.239440591064     
7800000000.0        -0.938200206683     -0.236662563665     0.0617495403195     -0.2438116386       0.0617495403195     -0.2438116386       -0.938200206683     -0.236662563665     
7900000000.0        -0.939659026046     -0.233939755372     0.060289991192      -0.241183257575     0.060289991192      -0.241183257575     -0.939659026046     -0.233939755372     
8000000000.0        -0.941068096957     -0.231270675339     0.0588801809463     -0.238608662033     0.0588801809463     -0.238608662033     -0.941068096957     -0.231270675339     
8100000000.0        -0.942429612447     -0.228653875748     0.0575179165368     -0.236086404022     0.0575179165368     -0.236086404022     -0.942429612447     -0.228653875748     
8200000000.0        -0.94374564853      -0.226087951058     0.0562011219317     -0.233615077886     0.0562011219317     -0.233615077886     -0.94374564853      -0.226087951058     
8300000000.0        -0.945018171445     -0.223571537184     0.0549278308767     -0.231193319436     0.0549278308767     -0.231193319436     -0.945018171445     -0.223571537184     
8400000000.0        -0.946249044385     -0.22110331061      0.0536961801619     -0.228819805075     0.0536961801619     -0.228819805075     -0.946249044385     -0.22110331061      
8500000000.0        -0.94744003377      -0.218681987465     0.0525044033523     -0.226493250862     0.0525044033523     -0.226493250862     -0.94744003377      -0.218681987465     
8600000000.0        -0.948592815081     -0.216306322557     0.0513508249472     -0.224212411556     0.0513508249472     -0.224212411556     -0.948592815081     -0.216306322557     
8700000000.0        -0.949708978313     -0.213975108392     0.0502338549376     -0.221976079625     0.0502338549376     -0.221976079625     -0.949708978313     -0.213975108392     
8800000000.0        -0.950790033043     -0.21168717417      0.0491519837295     -0.219783084246     0.0491519837295     -0.219783084246     -0.950790033043     -0.21168717417      
8900000000.0        -0.951837413167     -0.209441384777     0.0481037774083     -0.217632290298     0.0481037774083     -0.217632290298     -0.951837413167     -0.209441384777     
9000000000.0        -0.952852481326     -0.207236639776     0.0470878733178     -0.21552259735      0.0470878733178     -0.21552259735      -0.952852481326     -0.207236639776     
9100000000.0        -0.95383653303      -0.205071872396     0.046102975931      -0.213452938654     0.046102975931      -0.213452938654     -0.95383653303      -0.205071872396     
9200000000.0        -0.954790800516     -0.202946048537     0.0451478529916     -0.21142228014      0.0451478529916     -0.21142228014      -0.954790800516     -0.202946048537     
9300000000.0        -0.955716456362     -0.200858165779     0.0442213319066     -0.209429619437     0.0442213319066     -0.209429619437     -0.955716456362     -0.200858165779     
9400000000.0        -0.956614616854     -0.198807252405     0.0433222963715     -0.207473984888     0.0433222963715     -0.207473984888     -0.956614616854     -0.198807252405     
9500000000.0        -0.957486345147     -0.196792366452     0.0424496832129     -0.205554434599     0.0424496832129     -0.205554434599     -0.957486345147     -0.196792366452     
9600000000.0        -0.958332654225     -0.19481259476      0.0416024794305     -0.203670055497     0.0416024794305     -0.203670055497     -0.958332654225     -0.19481259476      
9700000000.0        -0.959154509667     -0.192867052065     0.0407797194271     -0.201819962412     0.0407797194271     -0.201819962412     -0.959154509667     -0.192867052065     
9800000000.0        -0.959952832245     -0.19095488009      0.039980482412      -0.200003297175     0.039980482412      -0.200003297175     -0.959952832245     -0.19095488009      
9900000000.0        -0.960728500361     -0.189075246677     0.039203889966      -0.198219227746     0.039203889966      -0.198219227746     -0.960728500361     -0.189075246677     
10000000000.0       -0.961482352328     -0.187227344932     0.0384491037564     -0.196466947359     0.0384491037564     -0.196466947359     -0.961482352328     -0.187227344932     
