# Hz S RI R 50.00 
100000000.0         5.53687436933e-05   1.09645811937e-05   0.999943447744      -0.000187298577692  0.999943447744      -0.000187298577692  5.53687436933e-05   1.09645811937e-05   
200000000.0         5.56661472808e-05   2.19271181881e-05   0.99994293572       -0.000374603832477  0.99994293572       -0.000374603832477  5.56661472808e-05   2.1927118188e-05    
300000000.0         5.58693350405e-05   3.28867440493e-05   0.999942486793      -0.000561919311099  0.999942486793      -0.000561919311099  5.58693350405e-05   3.28867440493e-05   
400000000.0         5.60267904133e-05   4.38428159454e-05   0.999942052465      -0.000749247705516  0.999942052465      -0.000749247705516  5.60267904133e-05   4.38428159454e-05   
500000000.0         5.61571608795e-05   5.47948281986e-05   0.999941614075      -0.000936591283709  0.999941614075      -0.000936591283709  5.61571608795e-05   5.47948281986e-05   
600000000.0         5.62699435396e-05   6.57423738951e-05   0.99994116211       -0.00112395203724   0.99994116211       -0.00112395203724   5.62699435394e-05   6.57423738951e-05   
700000000.0         5.6370740281e-05    7.66851232367e-05   0.999940690952      -0.00131133175667   0.999940690952      -0.00131133175667   5.6370740281e-05    7.66851232367e-05   
800000000.0         5.64631746207e-05   8.76228102146e-05   0.99994019696       -0.00149873207631   0.99994019696       -0.00149873207631   5.64631746207e-05   8.76228102146e-05   
900000000.0         5.65497448421e-05   9.85552226562e-05   0.999939677616      -0.00168615450456   0.999939677616      -0.00168615450456   5.65497448424e-05   9.85552226562e-05   
1000000000.0        5.66322560451e-05   0.000109482197045   0.999939131098      -0.0018736004431    0.999939131098      -0.0018736004431    5.66322560451e-05   0.000109482197045   
1100000000.0        5.67120602819e-05   0.00012040361153    0.999938556032      -0.00206107120415   0.999938556032      -0.00206107120415   5.67120602819e-05   0.00012040361153    
1200000000.0        5.67901995767e-05   0.000131319382934   0.999937951357      -0.00224856802114   0.999937951357      -0.00224856802114   5.67901995769e-05   0.000131319382934   
1300000000.0        5.68674957744e-05   0.000142229462845   0.999937316229      -0.00243609205858   0.999937316229      -0.00243609205858   5.68674957744e-05   0.000142229462845   
1400000000.0        5.69446096641e-05   0.000153133835114   0.999936649966      -0.0026236444193    0.999936649966      -0.0026236444193    5.69446096641e-05   0.000153133835114   
1500000000.0        5.70220811835e-05   0.000164032512969   0.999935952006      -0.0028112261512    0.999935952006      -0.0028112261512    5.70220811837e-05   0.000164032512969   
1600000000.0        5.71003576944e-05   0.000174925537344   0.999935221879      -0.002998838252     0.999935221879      -0.002998838252     5.71003576944e-05   0.000174925537344   
1700000000.0        5.71798142863e-05   0.000185812975147   0.999934459188      -0.00318648167364   0.999934459188      -0.00318648167364   5.71798142865e-05   0.000185812975147   
1800000000.0        5.72607687976e-05   0.000196694917055   0.99993366359       -0.00337415732669   0.99993366359       -0.00337415732669   5.7260768797e-05    0.000196694917055   
1900000000.0        5.73434930393e-05   0.000207571476474   0.999932834792      -0.00356186608328   0.999932834792      -0.00356186608328   5.73434930393e-05   0.000207571476474   
2000000000.0        5.74282214183e-05   0.000218442788667   0.999931972534      -0.00374960877952   0.999931972534      -0.00374960877952   5.74282214183e-05   0.000218442788667   
2100000000.0        5.75151575695e-05   0.000229309008756   0.999931076588      -0.00393738621901   0.999931076588      -0.00393738621901   5.75151575697e-05   0.000229309008756   
2200000000.0        5.7604479617e-05    0.000240170311013   0.999930146753      -0.00412519917465   0.999930146753      -0.00412519917465   5.7604479617e-05    0.000240170311013   
2300000000.0        5.769634432e-05     0.000251026888322   0.999929182847      -0.00431304839036   0.999929182847      -0.00431304839036   5.769634432e-05     0.000251026888322   
2400000000.0        5.77908904422e-05   0.000261878950517   0.999928184706      -0.00450093458358   0.999928184706      -0.00450093458358   5.7790890442e-05    0.000261878950517   
2500000000.0        5.78882414572e-05   0.000272726724245   0.999927152183      -0.00468885844633   0.999927152183      -0.00468885844633   5.78882414572e-05   0.000272726724245   
2600000000.0        5.79885077927e-05   0.000283570451735   0.999926085142      -0.00487682064714   0.999926085142      -0.00487682064714   5.79885077927e-05   0.000283570451735   
2700000000.0        5.80917886619e-05   0.000294410390342   0.999924983458      -0.0050648218322    0.999924983458      -0.0050648218322    5.80917886621e-05   0.000294410390342   
2800000000.0        5.81981736074e-05   0.000305246811782   0.999923847018      -0.00525286262669   0.999923847018      -0.00525286262669   5.81981736074e-05   0.000305246811782   
2900000000.0        5.83077437817e-05   0.000316080001517   0.999922675715      -0.00544094363599   0.999922675715      -0.00544094363599   5.83077437815e-05   0.000316080001517   
3000000000.0        5.84205730372e-05   0.000326910258339   0.999921469449      -0.00562906544654   0.999921469449      -0.00562906544654   5.84205730376e-05   0.000326910258339   
3100000000.0        5.85367288612e-05   0.000337737893529   0.999920228129      -0.00581722862714   0.999920228129      -0.00581722862714   5.85367288612e-05   0.000337737893529   
3200000000.0        5.86562731393e-05   0.000348563230612   0.999918951667      -0.00600543372961   0.999918951667      -0.00600543372961   5.86562731395e-05   0.000348563230612   
3300000000.0        5.87792628592e-05   0.000359386604858   0.999917639981      -0.00619368128965   0.999917639981      -0.00619368128965   5.87792628592e-05   0.000359386604858   
3400000000.0        5.89057506741e-05   0.000370208362545   0.999916292994      -0.00638197182793   0.999916292994      -0.00638197182793   5.89057506741e-05   0.000370208362545   
3500000000.0        5.90357854231e-05   0.000381028860967   0.999914910631      -0.00657030585035   0.999914910631      -0.00657030585035   5.90357854233e-05   0.000381028860967   
3600000000.0        5.91694125684e-05   0.000391848467635   0.999913492822      -0.00675868384917   0.999913492822      -0.00675868384917   5.91694125682e-05   0.000391848467635   
3700000000.0        5.93066745771e-05   0.000402667560222   0.9999120395        -0.00694710630333   0.9999120395        -0.00694710630333   5.93066745771e-05   0.000402667560222   
3800000000.0        5.9447611265e-05    0.000413486525908   0.999910550599      -0.00713557367929   0.999910550599      -0.00713557367929   5.94476112654e-05   0.000413486525908   
3900000000.0        5.9592260093e-05    0.000424305761155   0.999909026059      -0.00732408643155   0.999909026059      -0.00732408643155   5.9592260093e-05    0.000424305761155   
4000000000.0        5.97406564313e-05   0.000435125671503   0.999907465818      -0.00751264500301   0.999907465818      -0.00751264500301   5.97406564311e-05   0.000435125671503   
4100000000.0        5.9892833788e-05    0.000445946671039   0.999905869819      -0.00770124982571   0.999905869819      -0.00770124982571   5.98928337878e-05   0.000445946671039   
4200000000.0        6.00488240279e-05   0.000456769182316   0.999904238006      -0.00788990132112   0.999904238006      -0.00788990132112   6.00488240279e-05   0.000456769182316   
4300000000.0        6.02086575472e-05   0.000467593635815   0.999902570325      -0.00807859990078   0.999902570325      -0.00807859990078   6.02086575474e-05   0.000467593635815   
4400000000.0        6.03723634482e-05   0.000478420469895   0.999900866721      -0.00826734596657   0.999900866721      -0.00826734596657   6.03723634482e-05   0.000478420469895   
4500000000.0        6.05399696816e-05   0.000489250130429   0.999899127143      -0.00845613991116   0.999899127143      -0.00845613991116   6.05399696816e-05   0.000489250130429   
4600000000.0        6.07115031852e-05   0.000500083070636   0.999897351542      -0.00864498211837   0.999897351542      -0.00864498211837   6.07115031852e-05   0.000500083070636   
4700000000.0        6.08869900032e-05   0.000510919750676   0.999895539866      -0.00883387296366   0.999895539866      -0.00883387296366   6.08869900032e-05   0.000510919750676   
4800000000.0        6.10664553957e-05   0.000521760637693   0.999893692068      -0.00902281281421   0.999893692068      -0.00902281281421   6.10664553959e-05   0.000521760637693   
4900000000.0        6.12499239374e-05   0.000532606205233   0.9998918081        -0.00921180202962   0.9998918081        -0.00921180202962   6.12499239376e-05   0.000532606205233   
5000000000.0        6.14374196084e-05   0.000543456933482   0.999889887914      -0.00940084096178   0.999889887914      -0.00940084096178   6.14374196086e-05   0.000543456933481   
5100000000.0        6.16289658755e-05   0.00055431330864    0.999887931466      -0.0095899299556    0.999887931466      -0.0095899299556    6.16289658755e-05   0.00055431330864    
5200000000.0        6.18245857675e-05   0.000565175823032   0.999885938709      -0.00977906934893   0.999885938709      -0.00977906934893   6.18245857673e-05   0.000565175823032   
5300000000.0        6.20243019429e-05   0.000576044974778   0.999883909599      -0.00996825947307   0.999883909599      -0.00996825947307   6.20243019429e-05   0.000576044974778   
5400000000.0        6.22281367526e-05   0.000586921267598   0.999881844091      -0.010157500653     0.999881844091      -0.010157500653     6.22281367528e-05   0.000586921267598   
5500000000.0        6.24361122972e-05   0.000597805210789   0.999879742142      -0.0103467932074    0.999879742142      -0.0103467932074    6.24361122972e-05   0.000597805210789   
5600000000.0        6.26482504784e-05   0.000608697318932   0.999877603708      -0.0105361374491    0.999877603708      -0.0105361374491    6.26482504784e-05   0.000608697318932   
5700000000.0        6.28645730494e-05   0.000619598111801   0.999875428746      -0.0107255336853    0.999875428746      -0.0107255336853    6.28645730494e-05   0.000619598111801   
5800000000.0        6.30851016592e-05   0.000630508114141   0.999873217213      -0.0109149822178    0.999873217213      -0.0109149822178    6.3085101659e-05    0.000630508114141   
5900000000.0        6.33098578913e-05   0.000641427855594   0.999870969068      -0.0111044833429    0.999870969068      -0.0111044833429    6.33098578913e-05   0.000641427855594   
6000000000.0        6.35388633057e-05   0.000652357870594   0.999868684268      -0.011294037352     0.999868684268      -0.011294037352     6.35388633059e-05   0.000652357870594   
6100000000.0        6.37721394714e-05   0.000663298698077   0.999866362772      -0.0114836445316    0.999866362772      -0.0114836445316    6.37721394714e-05   0.000663298698077   
6200000000.0        6.40097079989e-05   0.000674250881536   0.999864004538      -0.0116733051635    0.999864004538      -0.0116733051635    6.40097079989e-05   0.000674250881536   
6300000000.0        6.42515905724e-05   0.000685214968813   0.999861609525      -0.0118630195247    0.999861609525      -0.0118630195247    6.42515905727e-05   0.000685214968813   
6400000000.0        6.44978089794e-05   0.000696191511951   0.999859177692      -0.0120527878882    0.999859177692      -0.0120527878882    6.4497808979e-05    0.000696191511951   
6500000000.0        6.47483851284e-05   0.000707181067091   0.999856708998      -0.0122426105226    0.999856708998      -0.0122426105226    6.47483851286e-05   0.000707181067091   
6600000000.0        6.50033410872e-05   0.000718184194445   0.999854203402      -0.0124324876923    0.999854203402      -0.0124324876923    6.50033410869e-05   0.000718184194445   
6700000000.0        6.52626990933e-05   0.000729201458122   0.999851660863      -0.0126224196578    0.999851660863      -0.0126224196578    6.52626990933e-05   0.000729201458122   
6800000000.0        6.55264815816e-05   0.000740233425934   0.999849081342      -0.0128124066761    0.999849081342      -0.0128124066761    6.55264815816e-05   0.000740233425934   
6900000000.0        6.5794711205e-05    0.000751280669537   0.999846464798      -0.0130024490002    0.999846464798      -0.0130024490002    6.5794711205e-05    0.000751280669537   
7000000000.0        6.60674108479e-05   0.000762343764086   0.99984381119       -0.0131925468795    0.99984381119       -0.0131925468795    6.60674108477e-05   0.000762343764086   
7100000000.0        6.634460365e-05     0.000773423288276   0.999841120479      -0.0133827005602    0.999841120479      -0.0133827005602    6.634460365e-05     0.000773423288276   
7200000000.0        6.66263130182e-05   0.00078451982425    0.999838392623      -0.0135729102852    0.999838392623      -0.0135729102852    6.66263130182e-05   0.00078451982425    
7300000000.0        6.69125626453e-05   0.00079563395744    0.999835627583      -0.013763176294     0.999835627583      -0.013763176294     6.69125626453e-05   0.00079563395744    
7400000000.0        6.7203376523e-05    0.000806766276584   0.99983282532       -0.0139534988231    0.99983282532       -0.0139534988231    6.72033765228e-05   0.000806766276584   
7500000000.0        6.74987789542e-05   0.00081791737351    0.999829985791      -0.014143878106     0.999829985791      -0.014143878106     6.74987789542e-05   0.00081791737351    
7600000000.0        6.77987945694e-05   0.000829087843267   0.999827108959      -0.0143343143733    0.999827108959      -0.0143343143733    6.77987945692e-05   0.000829087843267   
7700000000.0        6.81034483365e-05   0.000840278283775   0.999824194782      -0.0145248078528    0.999824194782      -0.0145248078528    6.81034483365e-05   0.000840278283775   
7800000000.0        6.84127655732e-05   0.000851489295989   0.99982124322       -0.0147153587695    0.99982124322       -0.0147153587695    6.8412765573e-05    0.000851489295989   
7900000000.0        6.87267719581e-05   0.000862721483713   0.999818254234      -0.014905967346     0.999818254234      -0.014905967346     6.87267719581e-05   0.000862721483713   
8000000000.0        6.90454935401e-05   0.00087397545356    0.999815227783      -0.0150966338021    0.999815227783      -0.0150966338021    6.90454935406e-05   0.00087397545356    
8100000000.0        6.93689567497e-05   0.000885251814867   0.999812163827      -0.0152873583553    0.999812163827      -0.0152873583553    6.93689567499e-05   0.000885251814867   
8200000000.0        6.96971884067e-05   0.000896551179643   0.999809062326      -0.0154781412206    0.999809062326      -0.0154781412206    6.96971884062e-05   0.000896551179643   
8300000000.0        7.0030215729e-05    0.000907874162523   0.999805923239      -0.0156689826106    0.999805923239      -0.0156689826106    7.0030215729e-05    0.000907874162523   
8400000000.0        7.03680663456e-05   0.000919221380686   0.999802746527      -0.0158598827359    0.999802746527      -0.0158598827359    7.03680663456e-05   0.000919221380686   
8500000000.0        7.07107682947e-05   0.000930593453793   0.999799532149      -0.0160508418047    0.999799532149      -0.0160508418047    7.07107682951e-05   0.000930593453793   
8600000000.0        7.10583500436e-05   0.000941991003925   0.999796280065      -0.0162418600232    0.999796280065      -0.0162418600232    7.10583500441e-05   0.000941991003925   
8700000000.0        7.1410840486e-05    0.000953414655578   0.999792990233      -0.0164329375955    0.999792990233      -0.0164329375955    7.1410840486e-05    0.000953414655578   
8800000000.0        7.17682689542e-05   0.000964865035523   0.999789662614      -0.0166240747237    0.999789662614      -0.0166240747237    7.17682689544e-05   0.000964865035523   
8900000000.0        7.21306652218e-05   0.000976342772839   0.999786297168      -0.016815271608     0.999786297168      -0.016815271608     7.2130665222e-05    0.00097634277284    
9000000000.0        7.24980595155e-05   0.000987848498793   0.999782893852      -0.0170065284466    0.999782893852      -0.0170065284466    7.24980595155e-05   0.000987848498793   
9100000000.0        7.28704825148e-05   0.00099938284682    0.999779452627      -0.017197845436     0.999779452627      -0.017197845436     7.28704825148e-05   0.00099938284682    
9200000000.0        7.32479653636e-05   0.00101094645252    0.999775973452      -0.0173892227709    0.999775973452      -0.0173892227709    7.32479653636e-05   0.00101094645252    
9300000000.0        7.36305396707e-05   0.00102253995351    0.999772456286      -0.0175806606441    0.999772456286      -0.0175806606441    7.36305396707e-05   0.00102253995351    
9400000000.0        7.40182375181e-05   0.00103416398944    0.999768901087      -0.017772159247     0.999768901087      -0.017772159247     7.40182375181e-05   0.00103416398944    
9500000000.0        7.44110914643e-05   0.00104581920199    0.999765307816      -0.0179637187691    0.999765307816      -0.0179637187691    7.44110914641e-05   0.00104581920199    
9600000000.0        7.48091345515e-05   0.00105750623471    0.999761676429      -0.0181553393984    0.999761676429      -0.0181553393984    7.48091345517e-05   0.00105750623471    
9700000000.0        7.52124003081e-05   0.00106922573308    0.999758006886      -0.0183470213214    0.999758006886      -0.0183470213214    7.52124003081e-05   0.00106922573308    
9800000000.0        7.56209227517e-05   0.00108097834445    0.999754299147      -0.0185387647229    0.999754299147      -0.0185387647229    7.56209227519e-05   0.00108097834445    
9900000000.0        7.60347363982e-05   0.00109276471792    0.999750553168      -0.0187305697866    0.999750553168      -0.0187305697866    7.60347363982e-05   0.00109276471792    
10000000000.0       7.64538762619e-05   0.00110458550443    0.999746768909      -0.0189224366942    0.999746768909      -0.0189224366942    7.64538762619e-05   0.00110458550443    
