# Hz S RI R 50.00 
100000000.0         0.0913771077673     0.00457928496775    0.908619592444      -0.00597635063642   0.908619592444      -0.00597635063642   0.0913771077673     0.00457928496775    
200000000.0         0.0920129947691     0.00914483147587    0.907979387479      -0.0119389844444    0.907979387479      -0.0119389844444    0.0920129947691     0.00914483147587    
300000000.0         0.0925598747277     0.0137008503789     0.907426170395      -0.0178921292459    0.907426170395      -0.0178921292459    0.0925598747277     0.0137008503789     
400000000.0         0.0930903223025     0.0182481562624     0.906887365697      -0.0238366145623    0.906887365697      -0.0238366145623    0.0930903223025     0.0182481562624     
500000000.0         0.0936322636328     0.0227867760781     0.906335046432      -0.0297724812556    0.906335046432      -0.0297724812556    0.0936322636328     0.0227867760781     
600000000.0         0.0941998905849     0.0273163901404     0.905755019902      -0.0356994228775    0.905755019902      -0.0356994228775    0.0941998905849     0.0273163901404     
700000000.0         0.0948015265967     0.0318364907911     0.905138961803      -0.0416169445153    0.905138961803      -0.0416169445153    0.0948015265967     0.0318364907911     
800000000.0         0.0954424996444     0.0363464562339     0.904481543244      -0.0475244367336    0.904481543244      -0.0475244367336    0.0954424996444     0.0363464562339     
900000000.0         0.09612642232       0.040845590409      0.903779150665      -0.0534212155207    0.903779150665      -0.0534212155207    0.09612642232       0.040845590409      
1000000000.0        0.0968558411139     0.0453331467998     0.903029236552      -0.0593065461456    0.903029236552      -0.0593065461456    0.0968558411139     0.0453331467998     
1100000000.0        0.0976325975987     0.0498083437316     0.902229958245      -0.0651796584932    0.902229958245      -0.0651796584932    0.0976325975987     0.0498083437316     
1200000000.0        0.0984580438238     0.0542703747802     0.901379962549      -0.0710397575021    0.901379962549      -0.0710397575021    0.0984580438238     0.0542703747802     
1300000000.0        0.0993331779672     0.0587184161888     0.900478250073      -0.076886030603     0.900478250073      -0.076886030603     0.0993331779672     0.0587184161888     
1400000000.0        0.100258733614      0.0631516323596     0.899524085958      -0.0827176532293    0.899524085958      -0.0827176532293    0.100258733614      0.0631516323596     
1500000000.0        0.101235240697      0.0675691800556     0.898516938928      -0.0885337930329    0.898516938928      -0.0885337930329    0.101235240697      0.0675691800556     
1600000000.0        0.102263068397      0.0719702117083     0.897456438396      -0.0943336132048    0.897456438396      -0.0943336132048    0.102263068397      0.0719702117083     
1700000000.0        0.103342456154      0.0763538780853     0.896342343448      -0.100116275153     0.896342343448      -0.100116275153     0.103342456154      0.0763538780853     
1800000000.0        0.104473536606      0.0807193304899     0.895174519907      -0.105880940712     0.895174519907      -0.105880940712     0.104473536606      0.0807193304899     
1900000000.0        0.105656352915      0.0850657226091     0.893952923002      -0.111626773997     0.893952923002      -0.111626773997     0.105656352915      0.0850657226091     
2000000000.0        0.106890872095      0.089392212092      0.892677584048      -0.11735294299      0.892677584048      -0.11735294299      0.106890872095      0.089392212092      
2100000000.0        0.108176995433      0.0936979619174     0.891348600015      -0.123058620915     0.891348600015      -0.123058620915     0.108176995433      0.0936979619174     
2200000000.0        0.109514566775      0.0979821415945     0.88996612525       -0.128742987439     0.88996612525       -0.128742987439     0.109514566775      0.0979821415945     
2300000000.0        0.110903379201      0.102243928227      0.888530364796      -0.134405229751     0.888530364796      -0.134405229751     0.110903379201      0.102243928227      
2400000000.0        0.112343180486      0.106482507469      0.887041568938      -0.140044543507     0.887041568938      -0.140044543507     0.112343180486      0.106482507469      
2500000000.0        0.113833677612      0.11069707438       0.885500028684      -0.145660133707     0.885500028684      -0.145660133707     0.113833677612      0.11069707438       
2600000000.0        0.115374540558      0.114886834213      0.883906071976      -0.151251215469     0.883906071976      -0.151251215469     0.115374540558      0.114886834213      
2700000000.0        0.11696540551       0.119051003122      0.882260060487      -0.156817014754     0.882260060487      -0.156817014754     0.11696540551       0.119051003122      
2800000000.0        0.118605877617      0.123188808816      0.880562386855      -0.162356769016     0.880562386855      -0.162356769016     0.118605877617      0.123188808816      
2900000000.0        0.120295533383      0.127299491167      0.878813472299      -0.16786972781      0.878813472299      -0.16786972781      0.120295533383      0.127299491167      
3000000000.0        0.122033922758      0.131382302756      0.877013764523      -0.17335515335      0.877013764523      -0.17335515335      0.122033922758      0.131382302756      
3100000000.0        0.123820571001      0.135436509391      0.875163735857      -0.178812321021     0.875163735857      -0.178812321021     0.123820571001      0.135436509391      
3200000000.0        0.125654980332      0.139461390578      0.873263881601      -0.184240519856     0.873263881601      -0.184240519856     0.125654980332      0.139461390578      
3300000000.0        0.127536631437      0.143456239962      0.871314718522      -0.189639052975     0.871314718522      -0.189639052975     0.127536631437      0.143456239962      
3400000000.0        0.12946498483       0.147420365726      0.869316783494      -0.195007237995     0.869316783494      -0.195007237995     0.12946498483       0.147420365726      
3500000000.0        0.131439482103      0.151353090972      0.867270632244      -0.200344407402     0.867270632244      -0.200344407402     0.131439482103      0.151353090972      
3600000000.0        0.133459547089      0.155253754059      0.865176838193      -0.205649908897     0.865176838193      -0.205649908897     0.133459547089      0.155253754059      
3700000000.0        0.135524586936      0.159121708922      0.863035991379      -0.210923105716     0.863035991379      -0.210923105716     0.135524586936      0.159121708922      
3800000000.0        0.137633993119      0.162956325363      0.860848697443      -0.216163376921     0.860848697443      -0.216163376921     0.137633993119      0.162956325363      
3900000000.0        0.139787142398      0.166756989313      0.858615576681      -0.221370117665     0.858615576681      -0.221370117665     0.139787142398      0.166756989313      
4000000000.0        0.141983397713      0.170523103076      0.856337263136      -0.226542739435     0.856337263136      -0.226542739435     0.141983397713      0.170523103076      
4100000000.0        0.144222109051      0.174254085539      0.85401440374       -0.231680670267     0.85401440374       -0.231680670267     0.144222109051      0.174254085539      
4200000000.0        0.146502614264      0.177949372373      0.851647657491      -0.236783354946     0.851647657491      -0.236783354946     0.146502614264      0.177949372373      
4300000000.0        0.148824239861      0.1816084162        0.849237694666      -0.241850255173     0.849237694666      -0.241850255173     0.148824239861      0.1816084162        
4400000000.0        0.151186301764      0.185230686747      0.84678519606       -0.24688084972      0.84678519606       -0.24688084972      0.151186301764      0.185230686747      
4500000000.0        0.153588106041      0.188815670972      0.844290852254      -0.251874634563     0.844290852254      -0.251874634563     0.153588106041      0.188815670972      
4600000000.0        0.156028949616      0.192362873177      0.841755362907      -0.256831122987     0.841755362907      -0.256831122987     0.156028949616      0.192362873177      
4700000000.0        0.158508120958      0.195871815094      0.839179436068      -0.261749845683     0.839179436068      -0.261749845683     0.158508120958      0.195871815094      
4800000000.0        0.16102490074       0.199342035962      0.83656378751       -0.266630350815     0.83656378751       -0.266630350815     0.16102490074       0.199342035962      
4900000000.0        0.163578562499      0.202773092576      0.83390914008       -0.271472204078     0.83390914008       -0.271472204078     0.163578562499      0.202773092576      
5000000000.0        0.166168373255      0.20616455932       0.831216223071      -0.27627498873      0.831216223071      -0.27627498873      0.166168373255      0.20616455932       
5100000000.0        0.168793594134      0.209516028189      0.828485771604      -0.281038305613     0.828485771604      -0.281038305613     0.168793594134      0.209516028189      
5200000000.0        0.171453480965      0.212827108786      0.825718526029      -0.285761773151     0.825718526029      -0.285761773151     0.171453480965      0.212827108786      
5300000000.0        0.174147284863      0.216097428305      0.822915231343      -0.29044502734      0.822915231343      -0.29044502734      0.174147284863      0.216097428305      
5400000000.0        0.1768742528        0.219326631504      0.820076636619      -0.295087721709     0.820076636619      -0.295087721709     0.1768742528        0.219326631504      
5500000000.0        0.179633628161      0.222514380649      0.817203494447      -0.29968952728      0.817203494447      -0.29968952728      0.179633628161      0.222514380649      
5600000000.0        0.18242465129       0.225660355462      0.814296560393      -0.304250132502     0.814296560393      -0.304250132502     0.18242465129       0.225660355462      
5700000000.0        0.185246560013      0.228764253034      0.81135659247       -0.308769243179     0.81135659247       -0.308769243179     0.185246560013      0.228764253034      
5800000000.0        0.188098590162      0.231825787741      0.80838435062       -0.313246582372     0.80838435062       -0.313246582372     0.188098590162      0.231825787741      
5900000000.0        0.190979976075      0.234844691136      0.80538059621       -0.317681890305     0.80538059621       -0.317681890305     0.190979976075      0.234844691136      
6000000000.0        0.193889951088      0.237820711832      0.802346091539      -0.322074924239     0.802346091539      -0.322074924239     0.193889951088      0.237820711832      
6100000000.0        0.196827748013      0.240753615373      0.799281599362      -0.326425458351     0.799281599362      -0.326425458351     0.196827748013      0.240753615373      
6200000000.0        0.199792599609      0.243643184091      0.796187882421      -0.330733283586     0.796187882421      -0.330733283586     0.199792599609      0.243643184091      
6300000000.0        0.202783739029      0.246489216953      0.793065702991      -0.334998207505     0.793065702991      -0.334998207505     0.202783739029      0.246489216953      
6400000000.0        0.20580040027       0.249291529397      0.789915822439      -0.339220054124     0.789915822439      -0.339220054124     0.20580040027       0.249291529397      
6500000000.0        0.208841818594      0.252049953155      0.786739000793      -0.343398663739     0.786739000793      -0.343398663739     0.208841818594      0.252049953155      
6600000000.0        0.211907230953      0.254764336068      0.783535996326      -0.347533892738     0.783535996326      -0.347533892738     0.211907230953      0.254764336068      
6700000000.0        0.214995876389      0.257434541894      0.780307565149      -0.351625613409     0.780307565149      -0.351625613409     0.214995876389      0.257434541894      
6800000000.0        0.218106996429      0.260060450102      0.77705446082       -0.355673713739     0.77705446082       -0.355673713739     0.218106996429      0.260060450102      
6900000000.0        0.221239835466      0.262641955659      0.77377743396       -0.359678097196     0.77377743396       -0.359678097196     0.221239835466      0.262641955659      
7000000000.0        0.224393641126      0.265178968811      0.770477231887      -0.363638682515     0.770477231887      -0.363638682515     0.224393641126      0.265178968811      
7100000000.0        0.227567664627      0.267671414853      0.76715459826       -0.367555403468     0.76715459826       -0.367555403468     0.227567664627      0.267671414853      
7200000000.0        0.23076116112       0.270119233896      0.763810272729      -0.371428208628     0.763810272729      -0.371428208628     0.23076116112       0.270119233896      
7300000000.0        0.233973390024      0.272522380624      0.760444990609      -0.375257061129     0.760444990609      -0.375257061129     0.233973390024      0.272522380624      
7400000000.0        0.237203615347      0.274880824044      0.757059482557      -0.379041938417     0.757059482557      -0.379041938417     0.237203615347      0.274880824044      
7500000000.0        0.24045110599       0.277194547236      0.753654474262      -0.382782831997     0.753654474262      -0.382782831997     0.24045110599       0.277194547236      
7600000000.0        0.243715136049      0.279463547087      0.75023068615       -0.386479747176     0.75023068615       -0.386479747176     0.243715136049      0.279463547087      
7700000000.0        0.246994985097      0.281687834035      0.746788833097      -0.390132702794     0.746788833097      -0.390132702794     0.246994985097      0.281687834035      
7800000000.0        0.250289938455      0.283867431791      0.743329624159      -0.39374173096      0.743329624159      -0.39374173096      0.250289938455      0.283867431791      
7900000000.0        0.253599287457      0.286002377076      0.739853762307      -0.397306876779     0.739853762307      -0.397306876779     0.253599287457      0.286002377076      
8000000000.0        0.256922329698      0.288092719336      0.736361944181      -0.400828198073     0.736361944181      -0.400828198073     0.256922329698      0.288092719336      
8100000000.0        0.260258369273      0.290138520466      0.732854859846      -0.404305765105     0.732854859846      -0.404305765105     0.260258369273      0.290138520466      
8200000000.0        0.263606717003      0.29213985453       0.729333192571      -0.407739660297     0.729333192571      -0.407739660297     0.263606717003      0.29213985453       
8300000000.0        0.26696669065       0.294096807469      0.725797618607      -0.411129977942     0.725797618607      -0.411129977942     0.26696669065       0.294096807469      
8400000000.0        0.270337615125      0.296009476822      0.722248806987      -0.414476823919     0.722248806987      -0.414476823919     0.270337615125      0.296009476822      
8500000000.0        0.273718822678      0.297877971431      0.718687419328      -0.417780315406     0.718687419328      -0.417780315406     0.273718822678      0.297877971431      
8600000000.0        0.277109653085      0.299702411155      0.71511410965       -0.42104058059      0.71511410965       -0.42104058059      0.277109653085      0.299702411155      
8700000000.0        0.280509453816      0.301482926576      0.711529524204      -0.424257758374     0.711529524204      -0.424257758374     0.280509453816      0.301482926576      
8800000000.0        0.283917580199      0.30321965871       0.707934301308      -0.427431998088     0.707934301308      -0.427431998088     0.283917580199      0.30321965871       
8900000000.0        0.287333395573      0.304912758712      0.704329071194      -0.430563459195     0.704329071194      -0.430563459195     0.287333395573      0.304912758712      
9000000000.0        0.290756271425      0.306562387587      0.700714455872      -0.433652311002     0.700714455872      -0.433652311002     0.290756271425      0.306562387587      
9100000000.0        0.294185587527      0.308168715895      0.697091068991      -0.436698732367     0.697091068991      -0.436698732367     0.294185587527      0.308168715895      
9200000000.0        0.297620732054      0.309731923464      0.693459515721      -0.439702911409     0.693459515721      -0.439702911409     0.297620732054      0.309731923464      
9300000000.0        0.301061101698      0.311252199095      0.689820392642      -0.442665045215     0.689820392642      -0.442665045215     0.301061101698      0.311252199095      
9400000000.0        0.304506101768      0.312729740277      0.686174287635      -0.445585339557     0.686174287635      -0.445585339557     0.304506101768      0.312729740277      
9500000000.0        0.307955146287      0.314164752896      0.682521779796      -0.448464008598     0.682521779796      -0.448464008598     0.307955146287      0.314164752896      
9600000000.0        0.311407658074      0.31555745095       0.678863439342      -0.45130127461      0.678863439342      -0.45130127461      0.311407658074      0.31555745095       
9700000000.0        0.314863068823      0.316908056266      0.675199827545      -0.454097367691     0.675199827545      -0.454097367691     0.314863068823      0.316908056266      
9800000000.0        0.318320819167      0.318216798216      0.671531496655      -0.456852525477     0.671531496655      -0.456852525477     0.318320819167      0.318216798216      
9900000000.0        0.321780358737      0.319483913438      0.667858989845      -0.459566992872     0.667858989845      -0.459566992872     0.321780358737      0.319483913438      
10000000000.0       0.325241146216      0.32070964556       0.664182841162      -0.462241021761     0.664182841162      -0.462241021761     0.325241146216      0.32070964556       
