# Hz S RI R 50.00 
100000000.0         0.000173238624524   -0.000384000602985  0.999823836369      -0.000838853944358  0.999823836369      -0.000838853944358  0.000173238624524   -0.000384000602985  
200000000.0         0.000172858865173   -0.000768009186484  0.999820795578      -0.00167771868372   0.999820795578      -0.00167771868372   0.000172858865173   -0.000768009186484  
300000000.0         0.000171529132158   -0.00115202901867   0.999817209086      -0.00251660087789   0.999817209086      -0.00251660087789   0.000171529132158   -0.00115202901867   
400000000.0         0.000169400439658   -0.00153606250667   0.999812925705      -0.00335550520629   0.999812925705      -0.00335550520629   0.000169400439659   -0.00153606250667   
500000000.0         0.00016653076747    -0.0019201115442    0.999807887253      -0.00419443542647   0.999807887253      -0.00419443542647   0.000166530767469   -0.0019201115442    
600000000.0         0.000162949568586   -0.00230417767322   0.999802064049      -0.00503339470731   0.999802064049      -0.00503339470731   0.000162949568586   -0.00230417767322   
700000000.0         0.000158674153132   -0.00268826217191   0.999795438529      -0.00587238579347   0.999795438529      -0.00587238579347   0.000158674153132   -0.00268826217191   
800000000.0         0.000153715662822   -0.00307236610925   0.999787999281      -0.00671141110211   0.999787999281      -0.00671141110211   0.000153715662822   -0.00307236610925   
900000000.0         0.000148081729352   -0.00345649038131   0.99977973838       -0.00755047278538   0.99977973838       -0.00755047278538   0.000148081729352   -0.00345649038131   
1000000000.0        0.000141777820898   -0.00384063573789   0.999770650052      -0.00838957277476   0.999770650052      -0.00838957277476   0.000141777820898   -0.00384063573789   
1100000000.0        0.000134807990187   -0.00422480280214   0.99976072992       -0.00922871281324   0.99976072992       -0.00922871281324   0.000134807990187   -0.00422480280214   
1200000000.0        0.000127175320047   -0.00460899208554   0.999749974565      -0.0100678944797    0.999749974565      -0.0100678944797    0.000127175320047   -0.00460899208554   
1300000000.0        0.000118882203662   -0.00499320399992   0.999738381244      -0.0109071192078    0.999738381244      -0.0109071192078    0.000118882203662   -0.00499320399992   
1400000000.0        0.00010993052869    -0.00537743886737   0.999725947708      -0.0117463883022    0.999725947708      -0.0117463883022    0.00010993052869    -0.00537743886737   
1500000000.0        0.000100321802752   -0.00576169692809   0.999712672076      -0.0125857029503    0.999712672076      -0.0125857029503    0.000100321802752   -0.00576169692809   
1600000000.0        9.00572415585e-05   -0.00614597834744   0.99969855275       -0.0134250642333    0.99969855275       -0.0134250642333    9.00572415585e-05   -0.00614597834744   
1700000000.0        7.91378324521e-05   -0.00653028322131   0.999683588353      -0.0142644731348    0.999683588353      -0.0142644731348    7.91378324523e-05   -0.00653028322131   
1800000000.0        6.75643812393e-05   -0.00691461158144   0.999667777676      -0.0151039305483    0.999667777676      -0.0151039305483    6.75643812393e-05   -0.00691461158144   
1900000000.0        5.53375474006e-05   -0.00729896339945   0.999651119654      -0.0159434372842    0.999651119654      -0.0159434372842    5.53375474006e-05   -0.00729896339945   
2000000000.0        4.2457871019e-05    -0.00768333859083   0.99963361333       -0.0167829940749    0.99963361333       -0.0167829940749    4.24578710188e-05   -0.00768333859083   
2100000000.0        2.89257936994e-05   -0.00806773701804   0.999615257842      -0.0176226015802    0.999615257842      -0.0176226015802    2.89257936992e-05   -0.00806773701804   
2200000000.0        1.47416750311e-05   -0.00845215849378   0.999596052401      -0.0184622603915    0.999596052401      -0.0184622603915    1.47416750313e-05   -0.00845215849378   
2300000000.0        -9.41942767119e-08  -0.00883660278336   0.999575996284      -0.0193019710362    0.999575996284      -0.0193019710362    -9.41942768229e-08  -0.00883660278336   
2400000000.0        -1.5581581818e-05   -0.00922106960727   0.999555088819      -0.0201417339804    0.999555088819      -0.0201417339804    -1.5581581818e-05   -0.00922106960727   
2500000000.0        -3.17203048571e-05  -0.00960555864332   0.999533329381      -0.0209815496331    0.999533329381      -0.0209815496331    -3.17203048571e-05  -0.00960555864332   
2600000000.0        -4.85102232519e-05  -0.0099900695286    0.999510717382      -0.0218214183483    0.999510717382      -0.0218214183483    -4.85102232523e-05  -0.0099900695286    
2700000000.0        -6.59512335605e-05  -0.0103746018613    0.999487252268      -0.0226613404282    0.999487252268      -0.0226613404282    -6.59512335607e-05  -0.0103746018613    
2800000000.0        -8.40432641347e-05  -0.0107591552025    0.999462933512      -0.0235013161251    0.999462933512      -0.0235013161251    -8.40432641348e-05  -0.0107591552025    
2900000000.0        -0.00010278627097   -0.0111437290774    0.999437760614      -0.024341345644     0.999437760614      -0.024341345644     -0.00010278627097   -0.0111437290774    
3000000000.0        -0.000122180234202  -0.0115283229771    0.999411733094      -0.0251814291447    0.999411733094      -0.0251814291447    -0.000122180234202  -0.0115283229771    
3100000000.0        -0.000142225155096  -0.0119129363596    0.99938485049       -0.0260215667431    0.99938485049       -0.0260215667431    -0.000142225155097  -0.0119129363596    
3200000000.0        -0.000162921053481  -0.0122975686513    0.99935711236       -0.0268617585137    0.99935711236       -0.0268617585137    -0.000162921053481  -0.0122975686513    
3300000000.0        -0.00018426796552   -0.0126822192481    0.999328518273      -0.0277020044908    0.999328518273      -0.0277020044908    -0.00018426796552   -0.0126822192481    
3400000000.0        -0.000206265941767  -0.013066887516     0.999299067814      -0.0285423046699    0.999299067814      -0.0285423046699    -0.000206265941767  -0.013066887516     
3500000000.0        -0.000228915045495  -0.0134515727931    0.999268760578      -0.0293826590095    0.999268760578      -0.0293826590095    -0.000228915045495  -0.0134515727931    
3600000000.0        -0.000252215351204  -0.0138362743894    0.999237596171      -0.0302230674322    0.999237596171      -0.0302230674322    -0.000252215351205  -0.0138362743894    
3700000000.0        -0.000276166943321  -0.0142209915885    0.99920557421       -0.031063529826     0.99920557421       -0.031063529826     -0.000276166943321  -0.0142209915885    
3800000000.0        -0.000300769915037  -0.0146057236483    0.99917269432       -0.0319040460453    0.99917269432       -0.0319040460453    -0.000300769915037  -0.0146057236483    
3900000000.0        -0.000326024367285  -0.0149904698013    0.999138956132      -0.0327446159122    0.999138956132      -0.0327446159122    -0.000326024367285  -0.0149904698013    
4000000000.0        -0.000351930407828  -0.0153752292562    0.999104359286      -0.0335852392177    0.999104359286      -0.0335852392177    -0.000351930407828  -0.0153752292562    
4100000000.0        -0.000378488150426  -0.0157600011979    0.999068903429      -0.0344259157222    0.999068903429      -0.0344259157222    -0.000378488150426  -0.0157600011979    
4200000000.0        -0.000405697714103  -0.0161447847884    0.999032588214      -0.0352666451569    0.999032588214      -0.0352666451569    -0.000405697714103  -0.0161447847884    
4300000000.0        -0.000433559222481  -0.0165295791676    0.998995413299      -0.0361074272245    0.998995413299      -0.0361074272245    -0.000433559222481  -0.0165295791676    
4400000000.0        -0.000462072803176  -0.0169143834537    0.998957378348      -0.0369482615998    0.998957378348      -0.0369482615998    -0.000462072803176  -0.0169143834537    
4500000000.0        -0.000491238587249  -0.017299196744     0.998918483031      -0.0377891479311    0.998918483031      -0.0377891479311    -0.000491238587249  -0.017299196744     
4600000000.0        -0.000521056708708  -0.0176840181155    0.99887872702       -0.0386300858404    0.99887872702       -0.0386300858404    -0.000521056708708  -0.0176840181155    
4700000000.0        -0.000551527304049  -0.0180688466249    0.998838109994      -0.0394710749244    0.998838109994      -0.0394710749244    -0.000551527304049  -0.0180688466249    
4800000000.0        -0.000582650511841  -0.0184536813099    0.998796631635      -0.0403121147552    0.998796631635      -0.0403121147552    -0.000582650511841  -0.0184536813099    
4900000000.0        -0.000614426472337  -0.0188385211893    0.998754291631      -0.0411532048807    0.998754291631      -0.0411532048807    -0.000614426472337  -0.0188385211893    
5000000000.0        -0.00064685532713   -0.0192233652632    0.998711089671      -0.0419943448259    0.998711089671      -0.0419943448259    -0.00064685532713   -0.0192233652632    
5100000000.0        -0.000679937218814  -0.0196082125142    0.99866702545       -0.0428355340925    0.99866702545       -0.0428355340925    -0.000679937218813  -0.0196082125142    
5200000000.0        -0.000713672290687  -0.019993061907     0.998622098667      -0.0436767721606    0.998622098667      -0.0436767721606    -0.000713672290687  -0.019993061907     
5300000000.0        -0.000748060686475  -0.0203779123896    0.998576309022      -0.0445180584882    0.998576309022      -0.0445180584882    -0.000748060686476  -0.0203779123896    
5400000000.0        -0.00078310255006   -0.0207627628931    0.998529656221      -0.0453593925127    0.998529656221      -0.0453593925127    -0.00078310255006   -0.0207627628931    
5500000000.0        -0.00081879802525   -0.0211476123325    0.998482139973      -0.0462007736509    0.998482139973      -0.0462007736509    -0.00081879802525   -0.0211476123325    
5600000000.0        -0.000855147255539  -0.0215324596069    0.998433759989      -0.0470422012993    0.998433759989      -0.0470422012993    -0.000855147255538  -0.0215324596069    
5700000000.0        -0.000892150383902  -0.0219173035998    0.998384515984      -0.0478836748352    0.998384515984      -0.0478836748352    -0.000892150383902  -0.0219173035998    
5800000000.0        -0.000929807552597  -0.0223021431797    0.998334407677      -0.0487251936167    0.998334407677      -0.0487251936167    -0.000929807552597  -0.0223021431797    
5900000000.0        -0.000968118902972  -0.0226869772003    0.998283434789      -0.0495667569835    0.998283434789      -0.0495667569835    -0.000968118902972  -0.0226869772003    
6000000000.0        -0.00100708457529   -0.0230718045008    0.998231597044      -0.0504083642568    0.998231597044      -0.0504083642568    -0.00100708457529   -0.0230718045008    
6100000000.0        -0.00104670470858   -0.0234566239063    0.998178894172      -0.0512500147403    0.998178894172      -0.0512500147403    -0.00104670470858   -0.0234566239063    
6200000000.0        -0.00108697944044   -0.0238414342281    0.998125325902      -0.0520917077204    0.998125325902      -0.0520917077204    -0.00108697944044   -0.0238414342281    
6300000000.0        -0.00112790890694   -0.024226234264     0.998070891968      -0.0529334424664    0.998070891968      -0.0529334424664    -0.00112790890694   -0.024226234264     
6400000000.0        -0.00116949324245   -0.0246110227985    0.998015592107      -0.0537752182313    0.998015592107      -0.0537752182313    -0.00116949324245   -0.0246110227985    
6500000000.0        -0.0012117325795    -0.0249957986035    0.997959426061      -0.0546170342515    0.997959426061      -0.0546170342515    -0.0012117325795    -0.0249957986035    
6600000000.0        -0.00125462704869   -0.0253805604379    0.997902393571      -0.0554588897481    0.997902393571      -0.0554588897481    -0.00125462704869   -0.0253805604379    
6700000000.0        -0.00129817677854   -0.0257653070484    0.997844494384      -0.0563007839263    0.997844494384      -0.0563007839263    -0.00129817677854   -0.0257653070484    
6800000000.0        -0.00134238189538   -0.0261500371697    0.997785728249      -0.0571427159765    0.997785728249      -0.0571427159765    -0.00134238189538   -0.0261500371697    
6900000000.0        -0.00138724252326   -0.0265347495245    0.99772609492       -0.057984685074     0.99772609492       -0.057984685074     -0.00138724252326   -0.0265347495245    
7000000000.0        -0.00143275878382   -0.0269194428241    0.99766559415       -0.05882669038      0.99766559415       -0.05882669038      -0.00143275878382   -0.0269194428241    
7100000000.0        -0.00147893079622   -0.0273041157684    0.9976042257        -0.0596687310411    0.9976042257        -0.0596687310411    -0.00147893079622   -0.0273041157684    
7200000000.0        -0.00152575867703   -0.0276887670462    0.99754198933       -0.0605108061905    0.99754198933       -0.0605108061905    -0.00152575867703   -0.0276887670462    
7300000000.0        -0.00157324254011   -0.0280733953354    0.997478884806      -0.0613529149474    0.997478884806      -0.0613529149474    -0.00157324254011   -0.0280733953354    
7400000000.0        -0.0016213824966    -0.0284579993033    0.997414911895      -0.0621950564179    0.997414911895      -0.0621950564179    -0.0016213824966    -0.0284579993033    
7500000000.0        -0.00167017865476   -0.0288425776069    0.997350070368      -0.0630372296953    0.997350070368      -0.0630372296953    -0.00167017865476   -0.0288425776069    
7600000000.0        -0.00171963111994   -0.0292271288929    0.997284360001      -0.0638794338599    0.997284360001      -0.0638794338599    -0.00171963111994   -0.0292271288929    
7700000000.0        -0.00176973999449   -0.029611651798     0.99721778057       -0.0647216679796    0.99721778057       -0.0647216679796    -0.00176973999449   -0.029611651798     
7800000000.0        -0.00182050537766   -0.0299961449493    0.997150331855      -0.0655639311101    0.997150331855      -0.0655639311101    -0.00182050537766   -0.0299961449493    
7900000000.0        -0.00187192736557   -0.0303806069641    0.997082013642      -0.0664062222953    0.997082013642      -0.0664062222953    -0.00187192736557   -0.0303806069641    
8000000000.0        -0.00192400605114   -0.0307650364505    0.997012825717      -0.0672485405672    0.997012825717      -0.0672485405672    -0.00192400605114   -0.0307650364505    
8100000000.0        -0.00197674152399   -0.0311494320075    0.99694276787       -0.0680908849465    0.99694276787       -0.0680908849465    -0.00197674152399   -0.0311494320075    
8200000000.0        -0.00203013387041   -0.0315337922249    0.996871839896      -0.0689332544424    0.996871839896      -0.0689332544424    -0.00203013387041   -0.0315337922249    
8300000000.0        -0.00208418317328   -0.0319181156838    0.996800041591      -0.0697756480535    0.996800041591      -0.0697756480535    -0.00208418317328   -0.0319181156838    
8400000000.0        -0.00213888951202   -0.0323024009567    0.996727372755      -0.0706180647673    0.996727372755      -0.0706180647673    -0.00213888951203   -0.0323024009567    
8500000000.0        -0.00219425296257   -0.0326866466077    0.996653833193      -0.0714605035608    0.996653833193      -0.0714605035608    -0.00219425296257   -0.0326866466077    
8600000000.0        -0.00225027359724   -0.0330708511925    0.996579422712      -0.0723029634009    0.996579422712      -0.0723029634009    -0.00225027359724   -0.0330708511925    
8700000000.0        -0.00230695148478   -0.0334550132589    0.996504141121      -0.073145443244     0.996504141121      -0.073145443244     -0.00230695148478   -0.0334550132589    
8800000000.0        -0.00236428669023   -0.0338391313465    0.996427988235      -0.0739879420368    0.996427988235      -0.0739879420368    -0.00236428669023   -0.0338391313465    
8900000000.0        -0.00242227927492   -0.0342232039875    0.996350963872      -0.0748304587163    0.996350963872      -0.0748304587163    -0.00242227927492   -0.0342232039875    
9000000000.0        -0.00248092929642   -0.0346072297061    0.996273067851      -0.0756729922099    0.996273067851      -0.0756729922099    -0.00248092929642   -0.0346072297061    
9100000000.0        -0.00254023680848   -0.0349912070193    0.996194299998      -0.0765155414355    0.996194299998      -0.0765155414355    -0.00254023680848   -0.0349912070193    
9200000000.0        -0.00260020186101   -0.0353751344368    0.996114660139      -0.0773581053021    0.996114660139      -0.0773581053021    -0.00260020186101   -0.0353751344368    
9300000000.0        -0.00266082449999   -0.0357590104611    0.996034148107      -0.0782006827097    0.996034148107      -0.0782006827097    -0.00266082449999   -0.0357590104611    
9400000000.0        -0.0027221047675    -0.0361428335876    0.995952763736      -0.0790432725493    0.995952763736      -0.0790432725493    -0.0027221047675    -0.0361428335876    
9500000000.0        -0.00278404270161   -0.036526602305     0.995870506865      -0.0798858737035    0.995870506865      -0.0798858737035    -0.00278404270161   -0.036526602305     
9600000000.0        -0.0028466383364    -0.0369103150952    0.995787377335      -0.0807284850463    0.995787377335      -0.0807284850463    -0.0028466383364    -0.0369103150952    
9700000000.0        -0.00290989170186   -0.0372939704337    0.995703374993      -0.0815711054436    0.995703374993      -0.0815711054436    -0.00290989170186   -0.0372939704337    
9800000000.0        -0.00297380282393   -0.0376775667892    0.995618499687      -0.0824137337531    0.995618499687      -0.0824137337531    -0.00297380282393   -0.0376775667892    
9900000000.0        -0.00303837172439   -0.0380611026246    0.99553275127       -0.0832563688246    0.99553275127       -0.0832563688246    -0.00303837172439   -0.0380611026246    
10000000000.0       -0.00310359842089   -0.0384445763962    0.9954461296        -0.0840990094999    0.9954461296        -0.0840990094999    -0.00310359842089   -0.0384445763962    
