# Hz S RI R 50.00 
100000000.0         5.56423679592e-05   -0.000321149846048  0.999942223727      -0.000501631622864  0.999942223727      -0.000501631622864  5.56423679592e-05   -0.000321149846048  
200000000.0         5.51439038401e-05   -0.000642306810648  0.99994091125       -0.00100327256685   0.99994091125       -0.00100327256685   5.51439038401e-05   -0.000642306810648  
300000000.0         5.42242221477e-05   -0.000963474557782  0.999939342883      -0.00150492788695   0.999939342883      -0.00150492788695   5.42242221477e-05   -0.000963474557782  
400000000.0         5.29322781624e-05   -0.00128465582965   0.999937469573      -0.00200660136099   0.999937469573      -0.00200660136099   5.29322781624e-05   -0.00128465582965   
500000000.0         5.12868399043e-05   -0.00160585289333   0.999935272437      -0.0025082961342    0.999935272437      -0.0025082961342    5.12868399043e-05   -0.00160585289333   
600000000.0         4.92974201596e-05   -0.00192706770129   0.999932741835      -0.00301001493897   0.999932741835      -0.00301001493897   4.92974201598e-05   -0.00192706770129   
700000000.0         4.69695918088e-05   -0.00224830197503   0.999929872052      -0.00351176020724   0.999929872052      -0.00351176020724   4.69695918088e-05   -0.00224830197503   
800000000.0         4.43069257461e-05   -0.00256955725363   0.999926659365      -0.0040135341358    0.999926659365      -0.0040135341358    4.43069257461e-05   -0.00256955725363   
900000000.0         4.13118530835e-05   -0.00289083492743   0.999923101177      -0.0045153387307    0.999923101177      -0.0045153387307    4.13118530835e-05   -0.00289083492743   
1000000000.0        3.79861018369e-05   -0.00321213626178   0.999919195587      -0.00501717583847   0.999919195587      -0.00501717583847   3.79861018369e-05   -0.00321213626178   
1100000000.0        3.43309394144e-05   -0.00353346241335   0.999914941145      -0.00551904716785   0.999914941145      -0.00551904716785   3.43309394144e-05   -0.00353346241335   
1200000000.0        3.03473172578e-05   -0.00385481444475   0.999910336707      -0.00602095430855   0.999910336707      -0.00602095430855   3.0347317258e-05    -0.00385481444475   
1300000000.0        2.60359616935e-05   -0.00417619333361   0.999905381348      -0.00652289874344   0.999905381348      -0.00652289874344   2.60359616935e-05   -0.00417619333361   
1400000000.0        2.13974336449e-05   -0.00449759998246   0.9999000743        -0.00702488186107   0.9999000743        -0.00702488186107   2.13974336447e-05   -0.00449759998246   
1500000000.0        1.64321693494e-05   -0.00481903522431   0.999894414913      -0.00752690496326   0.999894414913      -0.00752690496326   1.64321693497e-05   -0.00481903522431   
1600000000.0        1.11405090433e-05   -0.00514049982949   0.999888402627      -0.0080289692737    0.999888402627      -0.0080289692737    1.11405090433e-05   -0.00514049982949   
1700000000.0        5.52271751331e-06   -0.0054619945102    0.999882036952      -0.00853107594385   0.999882036952      -0.00853107594385   5.52271751331e-06   -0.0054619945102    
1800000000.0        -4.21000603046e-07  -0.00578351992465   0.99987531745       -0.00903322605842   0.99987531745       -0.00903322605842   -4.21000602824e-07  -0.00578351992465   
1900000000.0        -6.69048939161e-06  -0.00610507668111   0.999868243729      -0.00953542064039   0.999868243729      -0.00953542064039   -6.69048939161e-06  -0.00610507668111   
2000000000.0        -1.32856328909e-05  -0.0064266653408    0.999860815431      -0.0100376606548    0.999860815431      -0.0100376606548    -1.3285632891e-05   -0.0064266653408    
2100000000.0        -2.02063482466e-05  -0.00674828642098   0.999853032227      -0.0105399470127    0.999853032227      -0.0105399470127    -2.02063482467e-05  -0.00674828642098   
2200000000.0        -2.74525803545e-05  -0.00706994039719   0.999844893811      -0.0110422805739    0.999844893811      -0.0110422805739    -2.74525803546e-05  -0.00706994039719   
2300000000.0        -3.50242975559e-05  -0.0073916277061    0.999836399896      -0.0115446621509    0.999836399896      -0.0115446621509    -3.50242975554e-05  -0.0073916277061    
2400000000.0        -4.29214881523e-05  -0.0077133487468    0.999827550212      -0.0120470925101    0.999827550212      -0.0120470925101    -4.29214881523e-05  -0.0077133487468    
2500000000.0        -5.11441576063e-05  -0.00803510388318   0.999818344502      -0.012549572375     0.999818344502      -0.012549572375     -5.11441576063e-05  -0.00803510388318   
2600000000.0        -5.96923261663e-05  -0.00835689344551   0.999808782521      -0.0130521024284    0.999808782521      -0.0130521024284    -5.96923261663e-05  -0.00835689344551   
2700000000.0        -6.85660269494e-05  -0.00867871773191   0.999798864032      -0.013554683314     0.999798864032      -0.013554683314     -6.85660269493e-05  -0.00867871773191   
2800000000.0        -7.7765304307e-05   -0.00900057700971   0.999788588809      -0.0140573156381    0.999788588809      -0.0140573156381    -7.77653043066e-05  -0.00900057700971   
2900000000.0        -8.72902124462e-05  -0.00932247151693   0.999777956631      -0.0145599999716    0.999777956631      -0.0145599999716    -8.72902124462e-05  -0.00932247151693   
3000000000.0        -9.71408142587e-05  -0.00964440146341   0.999766967285      -0.0150627368513    0.999766967285      -0.0150627368513    -9.71408142585e-05  -0.00964440146341   
3100000000.0        -0.000107317180318  -0.00996636703186   0.999755620562      -0.0155655267814    0.999755620562      -0.0155655267814    -0.000107317180318  -0.00996636703186   
3200000000.0        -0.000117819388013  -0.010288368379     0.999743916258      -0.0160683702347    0.999743916258      -0.0160683702347    -0.000117819388013  -0.010288368379     
3300000000.0        -0.000128647520795  -0.0106104056364    0.999731854172      -0.0165712676536    0.999731854172      -0.0165712676536    -0.000128647520795  -0.0106104056364    
3400000000.0        -0.000139801667525  -0.0109324789117    0.99971943411       -0.017074219452     0.99971943411       -0.017074219452     -0.000139801667525  -0.0109324789117    
3500000000.0        -0.000151281921894  -0.0112545882889    0.999706655878      -0.0175772260153    0.999706655878      -0.0175772260153    -0.000151281921894  -0.0112545882889    
3600000000.0        -0.000163088381923  -0.0115767338297    0.999693519285      -0.0180802877021    0.999693519285      -0.0180802877021    -0.000163088381923  -0.0115767338297    
3700000000.0        -0.000175221149504  -0.0118989155742    0.999680024145      -0.0185834048451    0.999680024145      -0.0185834048451    -0.000175221149504  -0.0118989155742    
3800000000.0        -0.000187680330011  -0.0122211335412    0.999666170271      -0.0190865777516    0.999666170271      -0.0190865777516    -0.000187680330011  -0.0122211335412    
3900000000.0        -0.00020046603193   -0.0125433877294    0.999651957481      -0.0195898067048    0.999651957481      -0.0195898067048    -0.000200466031931  -0.0125433877294    
4000000000.0        -0.000213578366552  -0.0128656781175    0.999637385592      -0.0200930919641    0.999637385592      -0.0200930919641    -0.000213578366552  -0.0128656781175    
4100000000.0        -0.000227017447666  -0.0131880046653    0.999622454427      -0.0205964337663    0.999622454427      -0.0205964337663    -0.000227017447666  -0.0131880046653    
4200000000.0        -0.000240783391317  -0.0135103673141    0.999607163805      -0.021099832326     0.999607163805      -0.021099832326     -0.000240783391317  -0.0135103673141    
4300000000.0        -0.000254876315552  -0.013832765987     0.999591513551      -0.0216032878363    0.999591513551      -0.0216032878363    -0.000254876315552  -0.013832765987     
4400000000.0        -0.00026929634021   -0.0141552005901    0.999575503489      -0.0221068004697    0.999575503489      -0.0221068004697    -0.00026929634021   -0.0141552005901    
4500000000.0        -0.000284043586722  -0.0144776710118    0.999559133446      -0.0226103703783    0.999559133446      -0.0226103703783    -0.000284043586722  -0.0144776710118    
4600000000.0        -0.000299118177935  -0.0148001771248    0.999542403248      -0.0231139976947    0.999542403248      -0.0231139976947    -0.000299118177935  -0.0148001771248    
4700000000.0        -0.000314520237935  -0.0151227187852    0.999525312724      -0.0236176825325    0.999525312724      -0.0236176825325    -0.000314520237935  -0.0151227187852    
4800000000.0        -0.000330249891899  -0.0154452958338    0.999507861704      -0.0241214249866    0.999507861704      -0.0241214249866    -0.000330249891899  -0.0154452958338    
4900000000.0        -0.000346307265954  -0.0157679080964    0.999490050017      -0.0246252251341    0.999490050017      -0.0246252251341    -0.000346307265954  -0.0157679080964    
5000000000.0        -0.000362692487038  -0.0160905553836    0.999471877495      -0.0251290830344    0.999471877495      -0.0251290830344    -0.000362692487038  -0.0160905553836    
5100000000.0        -0.000379405682781  -0.0164132374919    0.999453343971      -0.02563299873      0.999453343971      -0.02563299873      -0.000379405682781  -0.0164132374919    
5200000000.0        -0.000396446981392  -0.0167359542038    0.999434449279      -0.0261369722466    0.999434449279      -0.0261369722466    -0.000396446981392  -0.0167359542038    
5300000000.0        -0.00041381651155   -0.0170587052882    0.999415193252      -0.026641003594     0.999415193252      -0.026641003594     -0.00041381651155   -0.0170587052882    
5400000000.0        -0.000431514402301  -0.0173814905004    0.999395575726      -0.0271450927658    0.999395575726      -0.0271450927658    -0.000431514402301  -0.0173814905004    
5500000000.0        -0.000449540782969  -0.0177043095832    0.999375596537      -0.0276492397408    0.999375596537      -0.0276492397408    -0.000449540782968  -0.0177043095832    
5600000000.0        -0.00046789578306   -0.0180271622665    0.999355255523      -0.0281534444823    0.999355255523      -0.0281534444823    -0.00046789578306   -0.0180271622665    
5700000000.0        -0.000486579532193  -0.0183500482678    0.999334552521      -0.0286577069394    0.999334552521      -0.0286577069394    -0.000486579532193  -0.0183500482678    
5800000000.0        -0.000505592160002  -0.0186729672928    0.999313487371      -0.0291620270467    0.999313487371      -0.0291620270467    -0.000505592160002  -0.0186729672928    
5900000000.0        -0.000524933796079  -0.0189959190353    0.999292059912      -0.0296664047249    0.999292059912      -0.0296664047249    -0.000524933796079  -0.0189959190353    
6000000000.0        -0.000544604569894  -0.0193189031777    0.999270269986      -0.0301708398814    0.999270269986      -0.0301708398814    -0.000544604569894  -0.0193189031777    
6100000000.0        -0.000564604610731  -0.0196419193913    0.999248117433      -0.03067533241      0.999248117433      -0.03067533241      -0.000564604610731  -0.0196419193913    
6200000000.0        -0.000584934047629  -0.0199649673363    0.999225602098      -0.0311798821919    0.999225602098      -0.0311798821919    -0.000584934047629  -0.0199649673363    
6300000000.0        -0.000605593009311  -0.0202880466624    0.999202723823      -0.0316844890955    0.999202723823      -0.0316844890955    -0.000605593009311  -0.0202880466624    
6400000000.0        -0.000626581624139  -0.0206111570088    0.999179482453      -0.0321891529768    0.999179482453      -0.0321891529768    -0.000626581624139  -0.0206111570088    
6500000000.0        -0.000647900020056  -0.0209342980047    0.999155877833      -0.03269387368      0.999155877833      -0.03269387368      -0.000647900020056  -0.0209342980047    
6600000000.0        -0.00066954832453   -0.0212574692691    0.999131909811      -0.0331986510373    0.999131909811      -0.0331986510373    -0.00066954832453   -0.0212574692691    
6700000000.0        -0.000691526664507  -0.0215806704114    0.999107578233      -0.0337034848696    0.999107578233      -0.0337034848696    -0.000691526664507  -0.0215806704114    
6800000000.0        -0.000713835166365  -0.0219039010316    0.999082882949      -0.0342083749865    0.999082882949      -0.0342083749865    -0.000713835166365  -0.0219039010316    
6900000000.0        -0.000736473955867  -0.0222271607204    0.999057823806      -0.0347133211864    0.999057823806      -0.0347133211864    -0.000736473955867  -0.0222271607204    
7000000000.0        -0.000759443158121  -0.0225504490593    0.999032400657      -0.0352183232573    0.999032400657      -0.0352183232573    -0.000759443158121  -0.0225504490593    
7100000000.0        -0.000782742897531  -0.022873765621     0.999006613353      -0.0357233809765    0.999006613353      -0.0357233809765    -0.000782742897531  -0.022873765621     
7200000000.0        -0.000806373297767  -0.0231971099697    0.998980461745      -0.0362284941112    0.998980461745      -0.0362284941112    -0.000806373297767  -0.0231971099697    
7300000000.0        -0.000830334481717  -0.023520481661     0.998953945689      -0.0367336624183    0.998953945689      -0.0367336624183    -0.000830334481717  -0.023520481661     
7400000000.0        -0.00085462657146   -0.0238438802421    0.998927065038      -0.037238885645     0.998927065038      -0.037238885645     -0.00085462657146   -0.0238438802421    
7500000000.0        -0.000879249688221  -0.0241673052522    0.998899819648      -0.0377441635291    0.998899819648      -0.0377441635291    -0.000879249688221  -0.0241673052522    
7600000000.0        -0.000904203952342  -0.0244907562227    0.998872209376      -0.0382494957988    0.998872209376      -0.0382494957988    -0.000904203952343  -0.0244907562227    
7700000000.0        -0.000929489483254  -0.0248142326771    0.99884423408       -0.038754882173     0.99884423408       -0.038754882173     -0.000929489483254  -0.0248142326771    
7800000000.0        -0.000955106399434  -0.0251377341313    0.99881589362       -0.0392603223618    0.99881589362       -0.0392603223618    -0.000955106399434  -0.0251377341313    
7900000000.0        -0.000981054818387  -0.0254612600939    0.998787187855      -0.0397658160666    0.998787187855      -0.0397658160666    -0.000981054818387  -0.0254612600939    
8000000000.0        -0.0010073348566    -0.0257848100661    0.998758116647      -0.0402713629798    0.998758116647      -0.0402713629798    -0.0010073348566    -0.0257848100661    
8100000000.0        -0.00103394662955   -0.0261083835421    0.998728679858      -0.0407769627858    0.998728679858      -0.0407769627858    -0.00103394662955   -0.0261083835421    
8200000000.0        -0.00106089025162   -0.0264319800093    0.998698877352      -0.0412826151605    0.998698877352      -0.0412826151605    -0.00106089025162   -0.0264319800093    
8300000000.0        -0.00108816583612   -0.026755598948     0.998668708995      -0.0417883197717    0.998668708995      -0.0417883197717    -0.00108816583612   -0.026755598948     
8400000000.0        -0.00111577349525   -0.027079239832     0.998638174652      -0.0422940762794    0.998638174652      -0.0422940762794    -0.00111577349525   -0.027079239832     
8500000000.0        -0.00114371334006   -0.0274029021286    0.99860727419       -0.0427998843358    0.99860727419       -0.0427998843358    -0.00114371334006   -0.0274029021286    
8600000000.0        -0.00117198548045   -0.0277265852988    0.998576007479      -0.0433057435858    0.998576007479      -0.0433057435858    -0.00117198548045   -0.0277265852988    
8700000000.0        -0.00120059002512   -0.0280502887972    0.998544374388      -0.0438116536664    0.998544374388      -0.0438116536664    -0.00120059002512   -0.0280502887972    
8800000000.0        -0.00122952708159   -0.0283740120725    0.998512374788      -0.0443176142077    0.998512374788      -0.0443176142077    -0.00122952708159   -0.0283740120725    
8900000000.0        -0.00125879675611   -0.0286977545673    0.998480008552      -0.0448236248325    0.998480008552      -0.0448236248325    -0.00125879675611   -0.0286977545673    
9000000000.0        -0.00128839915372   -0.0290215157185    0.998447275553      -0.0453296851568    0.998447275553      -0.0453296851568    -0.00128839915372   -0.0290215157185    
9100000000.0        -0.00131833437817   -0.0293452949571    0.998414175667      -0.0458357947897    0.998414175667      -0.0458357947897    -0.00131833437817   -0.0293452949571    
9200000000.0        -0.00134860253193   -0.0296690917086    0.998380708769      -0.0463419533336    0.998380708769      -0.0463419533336    -0.00134860253193   -0.0296690917086    
9300000000.0        -0.00137920371615   -0.029992905393     0.998346874737      -0.0468481603845    0.998346874737      -0.0468481603845    -0.00137920371615   -0.029992905393     
9400000000.0        -0.00141013803068   -0.0303167354251    0.998312673451      -0.0473544155317    0.998312673451      -0.0473544155317    -0.00141013803068   -0.0303167354251    
9500000000.0        -0.00144140557399   -0.0306405812144    0.99827810479       -0.0478607183587    0.99827810479       -0.0478607183587    -0.00144140557399   -0.0306405812144    
9600000000.0        -0.00147300644323   -0.030964442165     0.998243168636      -0.0483670684423    0.998243168636      -0.0483670684423    -0.00147300644323   -0.030964442165     
9700000000.0        -0.00150494073414   -0.0312883176764    0.998207864873      -0.0488734653539    0.998207864873      -0.0488734653539    -0.00150494073414   -0.0312883176764    
9800000000.0        -0.00153720854109   -0.0316122071429    0.998172193384      -0.0493799086585    0.998172193384      -0.0493799086585    -0.00153720854109   -0.0316122071429    
9900000000.0        -0.00156980995703   -0.0319361099542    0.998136154055      -0.0498863979156    0.998136154055      -0.0498863979156    -0.00156980995703   -0.0319361099542    
10000000000.0       -0.0016027450735    -0.0322600254951    0.998099746774      -0.050392932679     0.998099746774      -0.050392932679     -0.0016027450735    -0.0322600254951    
