# Hz S RI R 50.00 
100000000.0         5.35048166026e-05   -0.000131139424323  0.999945038334      -0.000261659418202  0.999945038334      -0.000261659418202  5.35048166026e-05   -0.000131139424323  
200000000.0         5.35769044496e-05   -0.000262281862204  0.999944355088      -0.0005233230645    0.999944355088      -0.0005233230645    5.35769044498e-05   -0.000262281862204  
300000000.0         5.34854135379e-05   -0.000393428831473  0.999943681095      -0.000784993258765  0.999943681095      -0.000784993258765  5.34854135379e-05   -0.000393428831473  
400000000.0         5.3277258047e-05    -0.000524581500873  0.999942969418      -0.00104667176193   0.999942969418      -0.00104667176193   5.3277258047e-05    -0.000524581500873  
500000000.0         5.29704628627e-05   -0.000655740860383  0.99994220201       -0.0013083600653    0.99994220201       -0.0013083600653    5.29704628627e-05   -0.000655740860383  
600000000.0         5.25741954238e-05   -0.000786907778108  0.999941369674      -0.00157005948217   0.999941369674      -0.00157005948217   5.25741954236e-05   -0.000786907778108  
700000000.0         5.20938540225e-05   -0.000918083034774  0.999940466982      -0.00183177119902   0.999940466982      -0.00183177119902   5.20938540225e-05   -0.000918083034774  
800000000.0         5.15329227202e-05   -0.00104926734142   0.999939490417      -0.00209349630286   0.999939490417      -0.00209349630286   5.15329227198e-05   -0.00104926734142   
900000000.0         5.08937968269e-05   -0.00118046135226   0.999938437548      -0.00235523580023   0.999938437548      -0.00235523580023   5.08937968269e-05   -0.00118046135226   
1000000000.0        5.0178201108e-05    -0.001311665673     0.999937306615      -0.00261699062986   0.999937306615      -0.00261699062986   5.01782011078e-05   -0.001311665673     
1100000000.0        4.9387421696e-05    -0.00144288086932   0.999936096292      -0.00287876167423   0.999936096292      -0.00287876167423   4.9387421696e-05    -0.00144288086932   
1200000000.0        4.85224445299e-05   -0.00157410746949   0.999934805552      -0.00314054976448   0.999934805552      -0.00314054976448   4.85224445301e-05   -0.00157410746949   
1300000000.0        4.75840422023e-05   -0.00170534596972   0.999933433579      -0.00340235568766   0.999933433579      -0.00340235568766   4.75840422023e-05   -0.00170534596972   
1400000000.0        4.65728311536e-05   -0.00183659683864   0.999931979714      -0.00366418019256   0.999931979714      -0.00366418019256   4.65728311536e-05   -0.00183659683864   
1500000000.0        4.54893103998e-05   -0.00196786051695   0.999930443411      -0.00392602399062   0.999930443411      -0.00392602399062   4.54893103998e-05   -0.00196786051695   
1600000000.0        4.433388895e-05     -0.00209913742212   0.999928824214      -0.00418788776156   0.999928824214      -0.00418788776156   4.43338889498e-05   -0.00209913742212   
1700000000.0        4.3106905415e-05    -0.00223042795      0.999927121736      -0.00444977215578   0.999927121736      -0.00444977215578   4.31069054154e-05   -0.00223042795      
1800000000.0        4.18086424725e-05   -0.00236173247497   0.999925335644      -0.00471167779528   0.999925335644      -0.00471167779528   4.18086424725e-05   -0.00236173247497   
1900000000.0        4.04393377569e-05   -0.00249305135308   0.999923465649      -0.00497360527726   0.999923465649      -0.00497360527726   4.04393377573e-05   -0.00249305135308   
2000000000.0        3.89991921566e-05   -0.0026243849221    0.999921511497      -0.00523555517481   0.999921511497      -0.00523555517481   3.89991921566e-05   -0.0026243849221    
2100000000.0        3.74883762377e-05   -0.0027557335033    0.999919472966      -0.00549752803906   0.999919472966      -0.00549752803906   3.74883762375e-05   -0.0027557335033    
2200000000.0        3.59070353335e-05   -0.00288709740228   0.999917349853      -0.00575952440042   0.999917349853      -0.00575952440042   3.59070353337e-05   -0.00288709740228   
2300000000.0        3.42552935488e-05   -0.00301847690946   0.999915141981      -0.0060215447694    0.999915141981      -0.0060215447694    3.42552935486e-05   -0.00301847690946   
2400000000.0        3.25332570019e-05   -0.00314987230127   0.999912849185      -0.00628358963817   0.999912849185      -0.00628358963817   3.25332570019e-05   -0.00314987230127   
2500000000.0        3.07410164526e-05   -0.00328128384062   0.999910471318      -0.0065456594812    0.999910471318      -0.0065456594812    3.07410164526e-05   -0.00328128384062   
2600000000.0        2.88786494804e-05   -0.00341271177794   0.999908008244      -0.00680775475664   0.999908008243      -0.00680775475664   2.88786494802e-05   -0.00341271177794   
2700000000.0        2.69462222369e-05   -0.00354415635106   0.999905459835      -0.00706987590637   0.999905459835      -0.00706987590637   2.69462222371e-05   -0.00354415635106   
2800000000.0        2.49437909556e-05   -0.00367561778647   0.999902825977      -0.00733202335748   0.999902825977      -0.00733202335748   2.49437909556e-05   -0.00367561778647   
2900000000.0        2.28714031931e-05   -0.00380709629921   0.999900106561      -0.00759419752239   0.999900106561      -0.00759419752239   2.28714031933e-05   -0.00380709629921   
3000000000.0        2.07290988874e-05   -0.003938592094     0.999897301484      -0.00785639880002   0.999897301484      -0.00785639880002   2.07290988876e-05   -0.003938592094     
3100000000.0        1.85169112379e-05   -0.00407010536497   0.999894410651      -0.00811862757581   0.999894410651      -0.00811862757581   1.85169112377e-05   -0.00407010536497   
3200000000.0        1.62348674899e-05   -0.00420163629636   0.999891433972      -0.00838088422252   0.999891433972      -0.00838088422252   1.62348674899e-05   -0.00420163629636   
3300000000.0        1.38829895866e-05   -0.00433318506299   0.99988837136       -0.00864316910077   0.99988837136       -0.00864316910077   1.38829895866e-05   -0.00433318506299   
3400000000.0        1.14612947315e-05   -0.00446475183054   0.999885222735      -0.00890548255954   0.999885222735      -0.00890548255954   1.14612947315e-05   -0.00446475183054   
3500000000.0        8.96979589449e-06   -0.00459633675568   0.999881988017      -0.00916782493632   0.999881988017      -0.00916782493632   8.96979589426e-06   -0.00459633675568   
3600000000.0        6.40850222955e-06   -0.00472793998678   0.999878667133      -0.00943019655799   0.999878667133      -0.00943019655799   6.40850222955e-06   -0.00472793998678   
3700000000.0        3.77741946234e-06   -0.00485956166365   0.999875260009      -0.00969259774063   0.999875260009      -0.00969259774063   3.77741946256e-06   -0.00485956166365   
3800000000.0        1.07655021542e-06   -0.00499120191822   0.999871766578      -0.00995502879026   0.999871766578      -0.00995502879026   1.0765502152e-06    -0.00499120191822   
3900000000.0        -1.69410569706e-06  -0.00512286087469   0.999868186772      -0.0102174900032    0.999868186772      -0.0102174900032    -1.69410569706e-06  -0.00512286087469   
4000000000.0        -4.53455101412e-06  -0.00525453864966   0.999864520526      -0.010479981666     0.999864520526      -0.010479981666     -4.53455101401e-06  -0.00525453864966   
4100000000.0        -7.4447907894e-06   -0.00538623535261   0.999860767777      -0.0107425040564    0.999860767777      -0.0107425040564    -7.44479078929e-06  -0.00538623535261   
4200000000.0        -1.04248321929e-05  -0.00551795108575   0.999856928464      -0.0110050574429    0.999856928464      -0.0110050574429    -1.04248321929e-05  -0.00551795108575   
4300000000.0        -1.34746843279e-05  -0.00564968594454   0.999853002526      -0.0112676420855    0.999853002526      -0.0112676420855    -1.3474684328e-05   -0.00564968594454   
4400000000.0        -1.65943580603e-05  -0.00578144001772   0.999848989907      -0.0115302582357    0.999848989907      -0.0115302582357    -1.65943580603e-05  -0.00578144001772   
4500000000.0        -1.97838658761e-05  -0.00591321338757   0.999844890547      -0.0117929061371    0.999844890547      -0.0117929061371    -1.9783865876e-05   -0.00591321338757   
4600000000.0        -2.30432217408e-05  -0.00604500613011   0.999840704393      -0.0120555860251    0.999840704393      -0.0120555860251    -2.30432217408e-05  -0.00604500613011   
4700000000.0        -2.63724409905e-05  -0.00617681831506   0.999836431388      -0.0123182981276    0.999836431388      -0.0123182981276    -2.63724409904e-05  -0.00617681831506   
4800000000.0        -2.97715402094e-05  -0.00630865000637   0.999832071479      -0.012581042665     0.999832071479      -0.012581042665     -2.97715402094e-05  -0.00630865000637   
4900000000.0        -3.32405371367e-05  -0.00644050126207   0.999827624613      -0.0128438198505    0.999827624613      -0.0128438198505    -3.32405371367e-05  -0.00644050126207   
5000000000.0        -3.67794505738e-05  -0.0065723721344    0.999823090737      -0.0131066298898    0.999823090737      -0.0131066298898    -3.6779450574e-05   -0.0065723721344    
5100000000.0        -4.03883003042e-05  -0.00670426267026   0.999818469801      -0.0133694729823    0.999818469801      -0.0133694729823    -4.03883003042e-05  -0.00670426267026   
5200000000.0        -4.40671070128e-05  -0.00683617291113   0.999813761753      -0.0136323493203    0.999813761753      -0.0136323493203    -4.40671070128e-05  -0.00683617291113   
5300000000.0        -4.78158922198e-05  -0.00696810289313   0.999808966543      -0.0138952590897    0.999808966543      -0.0138952590897    -4.78158922198e-05  -0.00696810289313   
5400000000.0        -5.16346782168e-05  -0.00710005264739   0.999804084122      -0.01415820247      0.999804084122      -0.01415820247      -5.16346782166e-05  -0.00710005264739   
5500000000.0        -5.55234880041e-05  -0.00723202219992   0.999799114441      -0.0144211796344    0.999799114441      -0.0144211796344    -5.55234880041e-05  -0.00723202219992   
5600000000.0        -5.94823452419e-05  -0.00736401157181   0.999794057451      -0.0146841907502    0.999794057451      -0.0146841907502    -5.9482345242e-05   -0.00736401157181   
5700000000.0        -6.35112741953e-05  -0.00749602077957   0.999788913104      -0.0149472359786    0.999788913104      -0.0149472359786    -6.35112741953e-05  -0.00749602077957   
5800000000.0        -6.76102996896e-05  -0.00762804983488   0.999783681354      -0.0152103154751    0.999783681354      -0.0152103154751    -6.76102996894e-05  -0.00762804983488   
5900000000.0        -7.17794470672e-05  -0.00776009874484   0.999778362151      -0.0154734293896    0.999778362151      -0.0154734293896    -7.17794470668e-05  -0.00776009874484   
6000000000.0        -7.60187421478e-05  -0.00789216751229   0.999772955451      -0.0157365778663    0.999772955451      -0.0157365778663    -7.6018742148e-05   -0.00789216751229   
6100000000.0        -8.03282111923e-05  -0.00802425613552   0.999767461207      -0.0159997610443    0.999767461207      -0.0159997610443    -8.03282111925e-05  -0.00802425613552   
6200000000.0        -8.47078808612e-05  -0.00815636460859   0.999761879372      -0.0162629790571    0.999761879372      -0.0162629790571    -8.47078808612e-05  -0.00815636460859   
6300000000.0        -8.91577781922e-05  -0.00828849292153   0.9997562099        -0.0165262320334    0.9997562099        -0.0165262320334    -8.91577781922e-05  -0.00828849292153   
6400000000.0        -9.36779305641e-05  -0.0084206410602    0.999750452747      -0.0167895200966    0.999750452747      -0.0167895200966    -9.36779305641e-05  -0.0084206410602    
6500000000.0        -9.82683656701e-05  -0.00855280900648   0.999744607868      -0.0170528433652    0.999744607868      -0.0170528433652    -9.82683656697e-05  -0.00855280900648   
6600000000.0        -0.000102929111486  -0.00868499673834   0.999738675216      -0.0173162019531    0.999738675216      -0.0173162019531    -0.000102929111486  -0.00868499673834   
6700000000.0        -0.000107660196254  -0.00881720422997   0.999732654749      -0.0175795959693    0.999732654749      -0.0175795959693    -0.000107660196254  -0.00881720422997   
6800000000.0        -0.000112461648455  -0.00894943145182   0.999726546422      -0.0178430255182    0.999726546422      -0.0178430255182    -0.000112461648455  -0.00894943145182   
6900000000.0        -0.000117333496785  -0.0090816783707    0.999720350189      -0.0181064906997    0.999720350189      -0.0181064906997    -0.000117333496785  -0.0090816783707    
7000000000.0        -0.000122275770134  -0.00921394494984   0.999714066009      -0.0183699916094    0.999714066009      -0.0183699916094    -0.000122275770134  -0.00921394494984   
7100000000.0        -0.000127288497572  -0.00934623114888   0.999707693836      -0.0186335283385    0.999707693836      -0.0186335283385    -0.000127288497572  -0.00934623114888   
7200000000.0        -0.000132371708323  -0.0094785369241    0.999701233629      -0.0188971009739    0.999701233629      -0.0188971009739    -0.000132371708323  -0.0094785369241    
7300000000.0        -0.000137525431752  -0.00961086222844   0.999694685342      -0.0191607095983    0.999694685342      -0.0191607095983    -0.000137525431753  -0.00961086222844   
7400000000.0        -0.000142749697351  -0.00974320701146   0.999688048935      -0.0194243542907    0.999688048935      -0.0194243542907    -0.000142749697351  -0.00974320701146   
7500000000.0        -0.000148044534713  -0.0098755712196    0.999681324362      -0.0196880351257    0.999681324362      -0.0196880351257    -0.000148044534713  -0.0098755712196    
7600000000.0        -0.000153409973529  -0.010007954796     0.999674511583      -0.0199517521741    0.999674511583      -0.0199517521741    -0.00015340997353   -0.010007954796     
7700000000.0        -0.000158846043569  -0.0101403576809    0.999667610555      -0.0202155055032    0.999667610555      -0.0202155055032    -0.000158846043569  -0.0101403576809    
7800000000.0        -0.000164352774667  -0.0102727798114    0.999660621235      -0.0204792951761    0.999660621235      -0.0204792951761    -0.000164352774667  -0.0102727798114    
7900000000.0        -0.000169930196704  -0.0104052211213    0.999653543581      -0.0207431212525    0.999653543581      -0.0207431212525    -0.000169930196705  -0.0104052211213    
8000000000.0        -0.000175578339613  -0.0105376815421    0.999646377552      -0.0210069837885    0.999646377552      -0.0210069837885    -0.000175578339613  -0.0105376815421    
8100000000.0        -0.000181297233347  -0.0106701610021    0.999639123106      -0.0212708828365    0.999639123106      -0.0212708828365    -0.000181297233347  -0.0106701610021    
8200000000.0        -0.000187086907879  -0.0108026594265    0.999631780201      -0.0215348184456    0.999631780201      -0.0215348184456    -0.000187086907879  -0.0108026594265    
8300000000.0        -0.000192947393191  -0.0109351767384    0.999624348795      -0.0217987906615    0.999624348795      -0.0217987906615    -0.000192947393191  -0.0109351767384    
8400000000.0        -0.000198878719261  -0.0110677128578    0.999616828849      -0.0220627995266    0.999616828849      -0.0220627995266    -0.000198878719261  -0.0110677128578    
8500000000.0        -0.000204880916054  -0.0112002677019    0.99960922032       -0.0223268450797    0.99960922032       -0.0223268450797    -0.000204880916054  -0.0112002677019    
8600000000.0        -0.000210954013514  -0.0113328411856    0.999601523167      -0.022590927357     0.999601523167      -0.022590927357     -0.000210954013514  -0.0113328411856    
8700000000.0        -0.000217098041556  -0.0114654332213    0.999593737351      -0.022855046391     0.999593737351      -0.022855046391     -0.000217098041556  -0.0114654332213    
8800000000.0        -0.000223313030056  -0.0115980437186    0.99958586283       -0.0231192022114    0.99958586283       -0.0231192022114    -0.000223313030056  -0.0115980437186    
8900000000.0        -0.00022959900884   -0.0117306725848    0.999577899564      -0.0233833948449    0.999577899564      -0.0233833948449    -0.00022959900884   -0.0117306725848    
9000000000.0        -0.000235956007685  -0.0118633197249    0.999569847512      -0.0236476243151    0.999569847512      -0.0236476243151    -0.000235956007685  -0.0118633197249    
9100000000.0        -0.000242384056301  -0.0119959850415    0.999561706635      -0.0239118906428    0.999561706635      -0.0239118906428    -0.000242384056301  -0.0119959850415    
9200000000.0        -0.000248883184333  -0.0121286684347    0.999553476893      -0.0241761938458    0.999553476893      -0.0241761938458    -0.000248883184333  -0.0121286684347    
9300000000.0        -0.000255453421347  -0.0122613698024    0.999545158246      -0.0244405339393    0.999545158246      -0.0244405339393    -0.000255453421347  -0.0122613698024    
9400000000.0        -0.000262094796828  -0.0123940890404    0.999536750654      -0.0247049109356    0.999536750654      -0.0247049109356    -0.000262094796828  -0.0123940890404    
9500000000.0        -0.000268807340173  -0.0125268260423    0.999528254078      -0.0249693248443    0.999528254078      -0.0249693248443    -0.000268807340173  -0.0125268260423    
9600000000.0        -0.000275591080684  -0.0126595806995    0.999519668479      -0.0252337756725    0.999519668479      -0.0252337756725    -0.000275591080684  -0.0126595806995    
9700000000.0        -0.000282446047561  -0.0127923529011    0.999510993817      -0.0254982634244    0.999510993817      -0.0254982634244    -0.00028244604756   -0.0127923529011    
9800000000.0        -0.0002893722699    -0.0129251425345    0.999502230053      -0.0257627881019    0.999502230053      -0.0257627881019    -0.000289372269899  -0.0129251425345    
9900000000.0        -0.00029636977668   -0.0130579494847    0.999493377148      -0.0260273497043    0.999493377148      -0.0260273497043    -0.000296369776681  -0.0130579494847    
10000000000.0       -0.000303438596773  -0.013190773635     0.999484435065      -0.0262919482285    0.999484435065      -0.0262919482285    -0.000303438596773  -0.013190773635     
