# Hz S RI R 50.00 
100000000.0         0.0112189990499     0.00085381203837    0.988779387597      -0.00137259597765   0.988779387597      -0.00137259597765   0.0112189990499     0.00085381203837    
200000000.0         0.0112956399628     0.00170728641851    0.98870186316       -0.00274485474153   0.98870186316       -0.00274485474153   0.0112956399628     0.00170728641851    
300000000.0         0.0113548408616     0.00256054946363    0.988641508552      -0.00411690314869   0.988641508552      -0.00411690314869   0.0113548408616     0.00256054946363    
400000000.0         0.0114062802967     0.00341364018573    0.98858864521       -0.00548878064754   0.98858864521       -0.00548878064754   0.0114062802967     0.00341364018573    
500000000.0         0.0114536930394     0.0042665772969     0.988539538351      -0.00686050633812   0.988539538351      -0.00686050633812   0.0114536930394     0.0042665772969     
600000000.0         0.0114989873648     0.00511937052201    0.988492279688      -0.0082320903019    0.988492279688      -0.0082320903019    0.0114989873648     0.00511937052201    
700000000.0         0.0115432925761     0.0059720246596     0.988445739907      -0.00960353767142   0.988445739907      -0.00960353767142   0.0115432925761     0.0059720246596     
800000000.0         0.011587341609      0.00682454146423    0.98839918606       -0.0109748505178    0.98839918606       -0.0109748505178    0.011587341609      0.00682454146423    
900000000.0         0.0116316415107     0.00767692065671    0.988352111087      -0.0123460288644    0.988352111087      -0.0123460288644    0.0116316415107     0.00767692065671    
1000000000.0        0.0116765599152     0.00852916052166    0.988304147343      -0.0137170712868    0.988304147343      -0.0137170712868    0.0116765599152     0.00852916052166    
1100000000.0        0.0117223731474     0.00938125828678    0.988255018489      -0.0150879752936    0.988255018489      -0.0150879752936    0.0117223731474     0.00938125828678    
1200000000.0        0.0117692949075     0.0102332103764     0.988204510811      -0.0164587375818    0.988204510811      -0.0164587375818    0.0117692949075     0.0102332103764     
1300000000.0        0.01181749433       0.0110850125886     0.98815245516       -0.0178293542143    0.98815245516       -0.0178293542143    0.01181749433       0.0110850125886     
1400000000.0        0.0118671078625     0.0119366602225     0.988098715074      -0.0191998207487    0.988098715074      -0.0191998207487    0.0118671078625     0.0119366602225     
1500000000.0        0.0119182473652     0.0127881481734     0.988043178677      -0.0205701323325    0.988043178677      -0.0205701323325    0.0119182473652     0.0127881481734     
1600000000.0        0.0119710058044     0.0136394710042     0.987985752987      -0.0219402837756    0.987985752987      -0.0219402837756    0.0119710058044     0.0136394710042     
1700000000.0        0.0120254613569     0.0144906230015     0.98792635981       -0.0233102696066    0.98792635981       -0.0233102696066    0.0120254613569     0.0144906230015     
1800000000.0        0.0120816804373     0.015341598219      0.987864932715      -0.0246800841167    0.987864932715      -0.0246800841167    0.0120816804373     0.015341598219      
1900000000.0        0.0121397199733     0.016192390513      0.987801414756      -0.0260497213956    0.987801414756      -0.0260497213956    0.0121397199733     0.016192390513      
2000000000.0        0.0121996291451     0.0170429935707     0.987735756734      -0.0274191753597    0.987735756734      -0.0274191753597    0.0121996291451     0.0170429935707     
2100000000.0        0.0122614507358     0.0178934009335     0.987667915848      -0.0287884397763    0.987667915848      -0.0287884397763    0.0122614507358     0.0178934009335     
2200000000.0        0.0123252221934     0.0187436060163     0.98759785463       -0.0301575082829    0.98759785463       -0.0301575082829    0.0123252221934     0.0187436060163     
2300000000.0        0.0123909764764     0.0195936021237     0.9875255401        -0.0315263744034    0.9875255401        -0.0315263744034    0.0123909764764     0.0195936021237     
2400000000.0        0.0124587427348     0.0204433824639     0.987450943089      -0.0328950315622    0.987450943089      -0.0328950315622    0.0124587427348     0.0204433824639     
2500000000.0        0.0125285468632     0.02129294016       0.98737403768       -0.034263473096     0.98737403768       -0.034263473096     0.0125285468632     0.02129294016       
2600000000.0        0.0126004119547     0.0221422682602     0.987294800758      -0.0356316922637    0.987294800758      -0.0356316922637    0.0126004119547     0.0221422682602     
2700000000.0        0.0126743586767     0.0229913597462     0.987213211633      -0.0369996822555    0.987213211633      -0.0369996822555    0.0126743586767     0.0229913597462     
2800000000.0        0.0127504055832     0.0238402075408     0.987129251727      -0.0383674362       0.987129251727      -0.0383674362       0.0127504055832     0.0238402075408     
2900000000.0        0.0128285693779     0.0246888045142     0.987042904314      -0.0397349471712    0.987042904314      -0.0397349471712    0.0128285693779     0.0246888045142     
3000000000.0        0.0129088651357     0.02553714349       0.986954154294      -0.0411022081941    0.986954154294      -0.0411022081941    0.0129088651357     0.02553714349       
3100000000.0        0.012991306491      0.02638521725       0.986862988007      -0.0424692122499    0.986862988007      -0.0424692122499    0.012991306491      0.02638521725       
3200000000.0        0.0130759057993     0.0272330185389     0.986769393073      -0.0438359522805    0.986769393073      -0.0438359522805    0.0130759057993     0.0272330185389     
3300000000.0        0.0131626742748     0.028080540068      0.98667335825       -0.0452024211929    0.98667335825       -0.0452024211929    0.0131626742748     0.028080540068      
3400000000.0        0.0132516221106     0.0289277745188     0.98657487332       -0.046568611862     0.98657487332       -0.046568611862     0.0132516221106     0.0289277745188     
3500000000.0        0.0133427585815     0.0297747145464     0.986473928979      -0.0479345171348    0.986473928979      -0.0479345171348    0.0133427585815     0.0297747145464     
3600000000.0        0.0134360921348     0.030621352782      0.986370516754      -0.0493001298326    0.986370516754      -0.0493001298326    0.0134360921348     0.030621352782      
3700000000.0        0.0135316304686     0.0314676818358     0.986264628916      -0.0506654427542    0.986264628916      -0.0506654427542    0.0135316304686     0.0314676818358     
3800000000.0        0.0136293806016     0.0323136942993     0.986156258419      -0.0520304486778    0.986156258419      -0.0520304486778    0.0136293806016     0.0323136942993     
3900000000.0        0.0137293489335     0.0331593827471     0.986045398832      -0.0533951403636    0.986045398832      -0.0533951403636    0.0137293489335     0.0331593827471     
4000000000.0        0.0138315412991     0.0340047397395     0.985932044291      -0.0547595105553    0.985932044291      -0.0547595105553    0.0138315412991     0.0340047397395     
4100000000.0        0.0139359630162     0.0348497578235     0.985816189448      -0.0561235519827    0.985816189448      -0.0561235519827    0.0139359630162     0.0348497578235     
4200000000.0        0.0140426189281     0.0356944295349     0.985697829426      -0.0574872573624    0.985697829426      -0.0574872573624    0.0140426189281     0.0356944295349     
4300000000.0        0.0141515134411     0.0365387473998     0.985576959789      -0.0588506194002    0.985576959789      -0.0588506194002    0.0141515134411     0.0365387473998     
4400000000.0        0.0142626505591     0.0373827039358     0.9854535765        -0.060213630792     0.9854535765        -0.060213630792     0.0142626505591     0.0373827039358     
4500000000.0        0.0143760339133     0.0382262916533     0.985327675894      -0.0615762842254    0.985327675894      -0.0615762842254    0.0143760339133     0.0382262916533     
4600000000.0        0.01449166679       0.039069503057      0.985199254652      -0.0629385723806    0.985199254652      -0.0629385723806    0.01449166679       0.039069503057      
4700000000.0        0.0146095521552     0.0399123306464     0.985068309772      -0.064300487932     0.985068309772      -0.064300487932     0.0146095521552     0.0399123306464     
4800000000.0        0.0147296926767     0.0407547669174     0.984934838554      -0.0656620235486    0.984934838554      -0.0656620235486    0.0147296926767     0.0407547669174     
4900000000.0        0.0148520907444     0.041596804363      0.98479883857       -0.0670231718957    0.98479883857       -0.0670231718957    0.0148520907444     0.041596804363      
5000000000.0        0.0149767484885     0.042438435474      0.984660307656      -0.0683839256354    0.984660307656      -0.0683839256354    0.0149767484885     0.042438435474      
5100000000.0        0.0151036677961     0.0432796527402     0.984519243887      -0.0697442774275    0.984519243887      -0.0697442774275    0.0151036677961     0.0432796527402     
5200000000.0        0.0152328503265     0.0441204486512     0.984375645568      -0.0711042199304    0.984375645568      -0.0711042199304    0.0152328503265     0.0441204486512     
5300000000.0        0.0153642975249     0.0449608156967     0.984229511215      -0.0724637458018    0.984229511215      -0.0724637458018    0.0153642975249     0.0449608156967     
5400000000.0        0.015498010635      0.0458007463676     0.984080839546      -0.0738228476995    0.984080839546      -0.0738228476995    0.015498010635      0.0458007463676     
5500000000.0        0.0156339907106     0.0466402331565     0.98392962947       -0.0751815182819    0.98392962947       -0.0751815182819    0.0156339907106     0.0466402331565     
5600000000.0        0.0157722386263     0.0474792685582     0.983775880072      -0.0765397502089    0.983775880072      -0.0765397502089    0.0157722386263     0.0474792685582     
5700000000.0        0.0159127550873     0.0483178450708     0.983619590608      -0.0778975361423    0.983619590608      -0.0778975361423    0.0159127550873     0.0483178450708     
5800000000.0        0.0160555406379     0.0491559551954     0.983460760492      -0.0792548687465    0.983460760492      -0.0792548687465    0.0160555406379     0.0491559551954     
5900000000.0        0.0162005956705     0.0499935914374     0.983299389291      -0.0806117406889    0.983299389291      -0.0806117406889    0.0162005956705     0.0499935914374     
6000000000.0        0.0163479204328     0.0508307463069     0.983135476717      -0.0819681446406    0.983135476717      -0.0819681446406    0.0163479204328     0.0508307463069     
6100000000.0        0.0164975150346     0.0516674123186     0.982969022617      -0.0833240732769    0.982969022617      -0.0833240732769    0.0164975150346     0.0516674123186     
6200000000.0        0.0166493794551     0.0525035819929     0.982800026971      -0.0846795192775    0.982800026971      -0.0846795192775    0.0166493794551     0.0525035819929     
6300000000.0        0.0168035135482     0.053339247856      0.98262848988       -0.0860344753274    0.98262848988       -0.0860344753274    0.0168035135482     0.053339247856      
6400000000.0        0.0169599170485     0.0541744024406     0.982454411567      -0.0873889341168    0.982454411567      -0.0873889341168    0.0169599170485     0.0541744024406     
6500000000.0        0.0171185895764     0.055009038286      0.982277792367      -0.0887428883422    0.982277792367      -0.0887428883422    0.0171185895764     0.055009038286      
6600000000.0        0.0172795306431     0.0558431479385     0.982098632724      -0.090096330706     0.982098632724      -0.090096330706     0.0172795306431     0.0558431479385     
6700000000.0        0.017442739655      0.056676723952      0.981916933188      -0.0914492539175    0.981916933188      -0.0914492539175    0.017442739655      0.056676723952      
6800000000.0        0.0176082159176     0.0575097588885     0.981732694406      -0.0928016506932    0.981732694406      -0.0928016506932    0.0176082159176     0.0575097588885     
6900000000.0        0.0177759586403     0.0583422453176     0.981545917123      -0.0941535137567    0.981545917123      -0.0941535137567    0.0177759586403     0.0583422453176     
7000000000.0        0.0179459669391     0.059174175818      0.981356602176      -0.0955048358396    0.981356602176      -0.0955048358396    0.0179459669391     0.059174175818      
7100000000.0        0.0181182398407     0.060005542977      0.981164750492      -0.0968556096816    0.981164750492      -0.0968556096816    0.0181182398407     0.060005542977      
7200000000.0        0.0182927762855     0.0608363393909     0.980970363081      -0.0982058280309    0.980970363081      -0.0982058280309    0.0182927762855     0.0608363393909     
7300000000.0        0.0184695751304     0.0616665576657     0.980773441039      -0.0995554836441    0.980773441039      -0.0995554836441    0.0184695751304     0.0616665576657     
7400000000.0        0.0186486351522     0.0624961904171     0.980573985541      -0.100904569287     0.980573985541      -0.100904569287     0.0186486351522     0.0624961904171     
7500000000.0        0.0188299550496     0.0633252302708     0.980371997837      -0.102253077736     0.980371997837      -0.102253077736     0.0188299550496     0.0633252302708     
7600000000.0        0.0190135334463     0.0641536698627     0.980167479255      -0.103601001774     0.980167479255      -0.103601001774     0.0190135334463     0.0641536698627     
7700000000.0        0.019199368893      0.0649815018395     0.979960431193      -0.104948334197     0.979960431193      -0.104948334197     0.019199368893      0.0649815018395     
7800000000.0        0.0193874598696     0.0658087188584     0.979750855121      -0.106295067809     0.979750855121      -0.106295067809     0.0193874598696     0.0658087188584     
7900000000.0        0.0195778047874     0.0666353135881     0.979538752575      -0.107641195427     0.979538752575      -0.107641195427     0.0195778047874     0.0666353135881     
8000000000.0        0.0197704019914     0.0674612787084     0.979324125159      -0.108986709876     0.979324125159      -0.108986709876     0.0197704019914     0.0674612787084     
8100000000.0        0.0199652497614     0.0682866069105     0.97910697454       -0.110331603992     0.97910697454       -0.110331603992     0.0199652497614     0.0682866069105     
8200000000.0        0.0201623463145     0.0691112908977     0.978887302448      -0.111675870625     0.978887302448      -0.111675870625     0.0201623463145     0.0691112908977     
8300000000.0        0.0203616898063     0.0699353233851     0.978665110675      -0.113019502634     0.978665110675      -0.113019502634     0.0203616898063     0.0699353233851     
8400000000.0        0.020563278333      0.0707586971004     0.97844040107       -0.11436249289      0.97844040107       -0.11436249289      0.020563278333      0.0707586971004     
8500000000.0        0.0207671099321     0.0715814047833     0.97821317554       -0.115704834275     0.97821317554       -0.115704834275     0.0207671099321     0.0715814047833     
8600000000.0        0.0209731825846     0.0724034391866     0.97798343605       -0.117046519686     0.97798343605       -0.117046519686     0.0209731825846     0.0724034391866     
8700000000.0        0.021181494216      0.0732247930757     0.977751184619      -0.11838754203      0.977751184619      -0.11838754203      0.021181494216      0.0732247930757     
8800000000.0        0.0213920426976     0.0740454592292     0.977516423319      -0.119727894226     0.977516423319      -0.119727894226     0.0213920426976     0.0740454592292     
8900000000.0        0.0216048258476     0.0748654304391     0.977279154275      -0.121067569209     0.977279154275      -0.121067569209     0.0216048258476     0.0748654304391     
9000000000.0        0.0218198414327     0.0756846995108     0.977039379665      -0.122406559922     0.977039379665      -0.122406559922     0.0218198414327     0.0756846995108     
9100000000.0        0.0220370871688     0.0765032592633     0.976797101713      -0.123744859325     0.976797101713      -0.123744859325     0.0220370871688     0.0765032592633     
9200000000.0        0.0222565607219     0.0773211025296     0.976552322696      -0.125082460391     0.976552322696      -0.125082460391     0.0222565607219     0.0773211025296     
9300000000.0        0.0224782597099     0.0781382221568     0.976305044939      -0.126419356104     0.976305044939      -0.126419356104     0.0224782597099     0.0781382221568     
9400000000.0        0.0227021817025     0.0789546110061     0.97605527081       -0.127755539465     0.97605527081       -0.127755539465     0.0227021817025     0.0789546110061     
9500000000.0        0.0229283242231     0.0797702619532     0.975803002729      -0.129091003486     0.975803002729      -0.129091003486     0.0229283242231     0.0797702619532     
9600000000.0        0.023156684749      0.0805851678884     0.975548243156      -0.130425741195     0.975548243156      -0.130425741195     0.023156684749      0.0805851678884     
9700000000.0        0.0233872607126     0.0813993217168     0.9752909946        -0.131759745633     0.9752909946        -0.131759745633     0.0233872607126     0.0813993217168     
9800000000.0        0.0236200495019     0.0822127163584     0.975031259611      -0.133093009857     0.975031259611      -0.133093009857     0.0236200495019     0.0822127163584     
9900000000.0        0.0238550484616     0.0830253447483     0.974769040783      -0.134425526937     0.974769040783      -0.134425526937     0.0238550484616     0.0830253447483     
10000000000.0       0.0240922548937     0.0838371998369     0.974504340752      -0.135757289959     0.974504340752      -0.135757289959     0.0240922548937     0.0838371998369     
