# Hz S RI R 50.00 
100000000.0         0.000275185512471   9.50268827903e-05   0.999723756167      -0.000155640886093  0.999723756167      -0.000155640886093  0.000275185512471   9.50268827903e-05   
200000000.0         0.000277036032782   0.000190053368513   0.999721843649      -0.000311282438496  0.999721843649      -0.000311282438496  0.000277036032782   0.000190053368513   
300000000.0         0.000278427631922   0.000285080101477   0.999720386376      -0.000466925847192  0.999720386376      -0.000466925847192  0.000278427631922   0.000285080101477   
400000000.0         0.000279600006982   0.000380107433222   0.99971914465       -0.000622571882191  0.99971914465       -0.000622571882191  0.000279600006982   0.000380107433222   
500000000.0         0.000280645523414   0.000475135637612   0.999718026103      -0.000778221169204  0.999718026103      -0.000778221169204  0.000280645523414   0.000475135637612   
600000000.0         0.000281611312571   0.000570164950627   0.999716983605      -0.000933874254149  0.999716983605      -0.000933874254149  0.000281611312572   0.000570164950627   
700000000.0         0.000282525231105   0.00066519558737    0.999715989296      -0.00108953162964   0.999715989296      -0.00108953162964   0.000282525231105   0.00066519558737    
800000000.0         0.000283405336732   0.000760227749897   0.999715025119      -0.00124519375      0.999715025119      -0.00124519375      0.000283405336732   0.000760227749898   
900000000.0         0.000284264107844   0.000855261631297   0.999714078595      -0.00140086104087   0.999714078595      -0.00140086104087   0.000284264107844   0.000855261631297   
1000000000.0        0.000285110582462   0.000950297418918   0.999713140683      -0.00155653390487   0.999713140683      -0.00155653390487   0.000285110582462   0.000950297418918   
1100000000.0        0.000285951547482   0.0010453352965     0.999712204597      -0.00171221272565   0.999712204597      -0.00171221272565   0.000285951547482   0.0010453352965     
1200000000.0        0.000286792247653   0.00114037544505    0.99971126509       -0.0018678978715    0.99971126509       -0.0018678978715    0.000286792247653   0.00114037544505    
1300000000.0        0.000287636831311   0.00123541804404    0.999710318013      -0.0020235896975    0.999710318013      -0.0020235896975    0.000287636831311   0.00123541804404    
1400000000.0        0.000288488643631   0.00133046327201    0.999709360019      -0.00217928854747   0.999709360019      -0.00217928854747   0.000288488643631   0.00133046327201    
1500000000.0        0.00028935042636    0.00142551130739    0.999708388367      -0.00233499475523   0.999708388367      -0.00233499475523   0.00028935042636    0.00142551130739    
1600000000.0        0.000290224458211   0.00152056232848    0.999707400775      -0.00249070864625   0.999707400775      -0.00249070864625   0.000290224458211   0.00152056232848    
1700000000.0        0.000291112655975   0.00161561651397    0.999706395326      -0.00264643053843   0.999706395326      -0.00264643053843   0.000291112655975   0.00161561651397    
1800000000.0        0.000292016649044   0.00171067404352    0.999705370389      -0.00280216074269   0.999705370389      -0.00280216074269   0.000292016649044   0.00171067404352    
1900000000.0        0.000292937835419   0.00180573509739    0.999704324566      -0.0029578995642    0.999704324566      -0.0029578995642    0.000292937835418   0.00180573509739    
2000000000.0        0.000293877424429   0.00190079985711    0.999703256645      -0.00311364730253   0.999703256645      -0.00311364730253   0.000293877424429   0.00190079985711    
2100000000.0        0.000294836470064   0.00199586850521    0.999702165571      -0.00326940425259   0.999702165571      -0.00326940425259   0.000294836470064   0.00199586850521    
2200000000.0        0.000295815896921   0.00209094122555    0.999701050419      -0.00342517070485   0.999701050419      -0.00342517070485   0.000295815896921   0.00209094122555    
2300000000.0        0.000296816520995   0.0021860182036     0.999699910372      -0.00358094694559   0.999699910372      -0.00358094694559   0.000296816520995   0.0021860182036     
2400000000.0        0.000297839066457   0.00228109962601    0.999698744703      -0.00373673325771   0.999698744703      -0.00373673325771   0.000297839066457   0.00228109962601    
2500000000.0        0.000298884179142   0.00237618568115    0.999697552765      -0.00389252992059   0.999697552765      -0.00389252992059   0.000298884179142   0.00237618568115    
2600000000.0        0.000299952437701   0.00247127655894    0.99969633398       -0.00404833721064   0.99969633398       -0.00404833721064   0.000299952437701   0.00247127655894    
2700000000.0        0.000301044362819   0.0025663724508     0.999695087824      -0.00420415540158   0.999695087824      -0.00420415540158   0.000301044362819   0.0025663724508     
2800000000.0        0.000302160424825   0.00266147354993    0.999693813826      -0.00435998476442   0.999693813826      -0.00435998476442   0.000302160424825   0.00266147354993    
2900000000.0        0.000303301050149   0.00275658005121    0.999692511559      -0.00451582556784   0.999692511559      -0.00451582556784   0.000303301050149   0.00275658005121    
3000000000.0        0.000304466626746   0.00285169215112    0.999691180633      -0.00467167807844   0.999691180633      -0.00467167807844   0.000304466626746   0.00285169215112    
3100000000.0        0.00030565750868    0.00294681004792    0.999689820692      -0.00482754256075   0.999689820692      -0.00482754256075   0.00030565750868    0.00294681004792    
3200000000.0        0.000306874020073   0.00304193394154    0.999688431412      -0.0049834192775    0.999688431412      -0.0049834192775    0.000306874020073   0.00304193394154    
3300000000.0        0.000308116458468   0.00313706403374    0.999687012492      -0.00513930848963   0.999687012492      -0.00513930848963   0.000308116458468   0.00313706403374    
3400000000.0        0.000309385097749   0.00323220052791    0.999685563659      -0.00529521045661   0.999685563659      -0.00529521045661   0.00030938509775    0.00323220052791    
3500000000.0        0.000310680190674   0.00332734362923    0.999684084658      -0.00545112543637   0.999684084658      -0.00545112543637   0.000310680190674   0.00332734362923    
3600000000.0        0.00031200197104    0.00342249354467    0.999682575254      -0.00560705368551   0.999682575254      -0.00560705368551   0.000312001971039   0.00342249354467    
3700000000.0        0.000313350655638   0.00351765048276    0.999681035228      -0.0057629954595    0.999681035228      -0.0057629954595    0.000313350655638   0.00351765048276    
3800000000.0        0.000314726445921   0.00361281465397    0.999679464379      -0.00591895101246   0.999679464379      -0.00591895101246   0.000314726445921   0.00361281465397    
3900000000.0        0.000316129529474   0.00370798627041    0.999677862516      -0.00607492059755   0.999677862516      -0.00607492059755   0.000316129529474   0.00370798627041    
4000000000.0        0.000317560081346   0.00380316554587    0.999676229464      -0.00623090446699   0.999676229464      -0.00623090446699   0.000317560081345   0.00380316554587    
4100000000.0        0.000319018265188   0.00389835269596    0.999674565057      -0.00638690287197   0.999674565057      -0.00638690287197   0.000319018265188   0.00389835269596    
4200000000.0        0.0003205042343     0.003993547938      0.999672869141      -0.00654291606285   0.999672869141      -0.00654291606285   0.0003205042343     0.003993547938      
4300000000.0        0.000322018132548   0.00408875149081    0.999671141571      -0.0066989442894    0.999671141571      -0.0066989442894    0.000322018132547   0.00408875149081    
4400000000.0        0.000323560095171   0.00418396357521    0.999669382209      -0.00685498780038   0.999669382209      -0.00685498780038   0.000323560095171   0.00418396357521    
4500000000.0        0.000325130249537   0.00427918441346    0.999667590928      -0.0070110468441    0.999667590928      -0.0070110468441    0.000325130249536   0.00427918441346    
4600000000.0        0.000326728715789   0.00437441422962    0.999665767606      -0.00716712166817   0.999665767606      -0.00716712166817   0.000326728715789   0.00437441422962    
4700000000.0        0.000328355607452   0.00446965324938    0.999663912128      -0.00732321251965   0.999663912128      -0.00732321251965   0.000328355607452   0.00446965324938    
4800000000.0        0.000330011031965   0.00456490170004    0.999662024385      -0.00747931964514   0.999662024385      -0.00747931964514   0.000330011031965   0.00456490170004    
4900000000.0        0.000331695091163   0.00466015981065    0.999660104274      -0.00763544329066   0.999660104274      -0.00763544329066   0.000331695091163   0.00466015981065    
5000000000.0        0.000333407881729   0.00475542781177    0.999658151696      -0.0077915837019    0.999658151696      -0.0077915837019    0.000333407881729   0.00475542781177    
5100000000.0        0.000335149495584   0.00485070593565    0.99965616656       -0.00794774112412   0.99965616656       -0.00794774112412   0.000335149495584   0.00485070593565    
5200000000.0        0.000336920020257   0.00494599441614    0.999654148775      -0.00810391580219   0.999654148775      -0.00810391580219   0.000336920020257   0.00494599441614    
5300000000.0        0.000338719539219   0.00504129348867    0.999652098257      -0.00826010798071   0.999652098257      -0.00826010798071   0.000338719539219   0.00504129348867    
5400000000.0        0.000340548132182   0.00513660339029    0.999650014926      -0.00841631790393   0.999650014926      -0.00841631790393   0.000340548132182   0.00513660339029    
5500000000.0        0.00034240587538    0.00523192435958    0.999647898702      -0.00857254581589   0.999647898702      -0.00857254581589   0.00034240587538    0.00523192435958    
5600000000.0        0.00034429284182    0.00532725663671    0.999645749513      -0.00872879196036   0.999645749513      -0.00872879196036   0.00034429284182    0.00532725663671    
5700000000.0        0.00034620910152    0.00542260046337    0.999643567287      -0.00888505658096   0.999643567287      -0.00888505658096   0.000346209101521   0.00542260046337    
5800000000.0        0.000348154721723   0.00551795608281    0.999641351955      -0.00904133992105   0.999641351955      -0.00904133992105   0.000348154721723   0.00551795608281    
5900000000.0        0.00035012976709    0.00561332373982    0.999639103451      -0.00919764222389   0.999639103451      -0.00919764222389   0.00035012976709    0.00561332373982    
6000000000.0        0.000352134299889   0.00570870368066    0.999636821713      -0.00935396373257   0.999636821713      -0.00935396373257   0.000352134299889   0.00570870368066    
6100000000.0        0.000354168380158   0.00580409615316    0.999634506677      -0.00951030469007   0.999634506677      -0.00951030469007   0.000354168380158   0.00580409615316    
6200000000.0        0.000356232065864   0.00589950140655    0.999632158286      -0.00966666533932   0.999632158286      -0.00966666533932   0.000356232065864   0.00589950140655    
6300000000.0        0.000358325413048   0.0059949196916     0.999629776482      -0.00982304592313   0.999629776482      -0.00982304592313   0.000358325413048   0.0059949196916     
6400000000.0        0.000360448475953   0.00609035126059    0.99962736121       -0.00997944668421   0.99962736121       -0.00997944668421   0.000360448475953   0.00609035126059    
6500000000.0        0.000362601307152   0.00618579636715    0.999624912415      -0.0101358678653    0.999624912415      -0.0101358678653    0.000362601307152   0.00618579636715    
6600000000.0        0.000364783957663   0.00628125526639    0.999622430045      -0.0102923097092    0.999622430045      -0.0102923097092    0.000364783957664   0.00628125526639    
6700000000.0        0.000366996477059   0.00637672821492    0.999619914051      -0.0104487724585    0.999619914051      -0.0104487724585    0.000366996477059   0.00637672821492    
6800000000.0        0.000369238913555   0.00647221547071    0.999617364381      -0.0106052563559    0.999617364381      -0.0106052563559    0.000369238913555   0.00647221547071    
6900000000.0        0.00037151131412    0.00656771729314    0.999614780989      -0.0107617616442    0.999614780989      -0.0107617616442    0.00037151131412    0.00656771729314    
7000000000.0        0.000373813724547   0.00666323394302    0.999612163826      -0.010918288566     0.999612163826      -0.010918288566     0.000373813724547   0.00666323394302    
7100000000.0        0.000376146189546   0.00675876568252    0.999609512848      -0.0110748373642    0.999609512848      -0.0110748373642    0.000376146189546   0.00675876568252    
7200000000.0        0.000378508752808   0.00685431277523    0.99960682801       -0.0112314082816    0.99960682801       -0.0112314082816    0.000378508752808   0.00685431277523    
7300000000.0        0.000380901457087   0.00694987548606    0.999604109266      -0.0113880015612    0.999604109266      -0.0113880015612    0.000380901457087   0.00694987548606    
7400000000.0        0.00038332434426    0.00704545408129    0.999601356576      -0.0115446174459    0.999601356576      -0.0115446174459    0.00038332434426    0.00704545408129    
7500000000.0        0.000385777455392   0.00714104882856    0.999598569895      -0.0117012561788    0.999598569895      -0.0117012561788    0.000385777455393   0.00714104882856    
7600000000.0        0.000388260830791   0.0072366599969     0.999595749184      -0.0118579180031    0.999595749184      -0.0118579180031    0.000388260830791   0.0072366599969     
7700000000.0        0.000390774510067   0.00733228785652    0.999592894401      -0.0120146031622    0.999592894401      -0.0120146031622    0.000390774510067   0.00733228785652    
7800000000.0        0.000393318532178   0.00742793267913    0.999590005506      -0.0121713118993    0.999590005506      -0.0121713118993    0.000393318532178   0.00742793267913    
7900000000.0        0.000395892935487   0.00752359473757    0.999587082459      -0.0123280444581    0.999587082459      -0.0123280444581    0.000395892935487   0.00752359473757    
8000000000.0        0.000398497757799   0.00761927430614    0.999584125223      -0.0124848010822    0.999584125223      -0.0124848010822    0.000398497757799   0.00761927430614    
8100000000.0        0.000401133036408   0.00771497166032    0.999581133758      -0.0126415820153    0.999581133758      -0.0126415820153    0.000401133036408   0.00771497166032    
8200000000.0        0.00040379880814    0.00781068707688    0.999578108027      -0.0127983875016    0.999578108027      -0.0127983875016    0.00040379880814    0.00781068707688    
8300000000.0        0.000406495109383   0.00790642083393    0.999575047992      -0.0129552177849    0.999575047992      -0.0129552177849    0.000406495109384   0.00790642083393    
8400000000.0        0.000409221976135   0.00800217321077    0.999571953616      -0.0131120731097    0.999571953616      -0.0131120731097    0.000409221976136   0.00800217321077    
8500000000.0        0.000411979444028   0.00809794448794    0.999568824863      -0.0132689537203    0.999568824863      -0.0132689537203    0.000411979444028   0.00809794448794    
8600000000.0        0.000414767548362   0.00819373494731    0.999565661697      -0.0134258598613    0.999565661697      -0.0134258598613    0.000414767548362   0.00819373494731    
8700000000.0        0.000417586324144   0.00828954487189    0.999562464081      -0.0135827917776    0.999562464081      -0.0135827917776    0.000417586324144   0.00828954487189    
8800000000.0        0.000420435806105   0.00838537454595    0.999559231979      -0.013739749714     0.999559231979      -0.013739749714     0.000420435806105   0.00838537454595    
8900000000.0        0.000423316028735   0.008481224255      0.999555965358      -0.0138967339157    0.999555965358      -0.0138967339157    0.000423316028735   0.008481224255      
9000000000.0        0.000426227026307   0.00857709428573    0.99955266418       -0.014053744628     0.99955266418       -0.014053744628     0.000426227026308   0.00857709428573    
9100000000.0        0.000429168832903   0.00867298492604    0.999549328412      -0.0142107820965    0.999549328412      -0.0142107820965    0.000429168832903   0.00867298492604    
9200000000.0        0.000432141482434   0.00876889646502    0.999545958018      -0.0143678465669    0.999545958018      -0.0143678465669    0.000432141482434   0.00876889646502    
9300000000.0        0.000435145008667   0.00886482919292    0.999542552964      -0.014524938285     0.999542552964      -0.014524938285     0.000435145008667   0.00886482919292    
9400000000.0        0.00043817944524    0.00896078340123    0.999539113216      -0.0146820574971    0.999539113216      -0.0146820574971    0.00043817944524    0.00896078340123    
9500000000.0        0.000441244825691   0.00905675938251    0.999535638738      -0.0148392044496    0.999535638738      -0.0148392044496    0.00044124482569    0.00905675938251    
9600000000.0        0.000444341183466   0.00915275743057    0.999532129498      -0.0149963793888    0.999532129498      -0.0149963793888    0.000444341183466   0.00915275743057    
9700000000.0        0.000447468551948   0.00924877784034    0.99952858546       -0.0151535825617    0.99952858546       -0.0151535825617    0.000447468551948   0.00924877784034    
9800000000.0        0.000450626964469   0.00934482090788    0.99952500659       -0.0153108142153    0.99952500659       -0.0153108142153    0.000450626964469   0.00934482090788    
9900000000.0        0.000453816454326   0.00944088693041    0.999521392856      -0.0154680745967    0.999521392856      -0.0154680745967    0.000453816454326   0.00944088693041    
10000000000.0       0.000457037054798   0.00953697620625    0.999517744221      -0.0156253639535    0.999517744221      -0.0156253639535    0.000457037054798   0.00953697620625    
