# Hz S RI R 50.00 
100000000.0         0.0101826095228     0.00123760367226    0.989813602106      -0.00284246230501   0.989813602106      -0.00284246230501   0.0101826095228     0.00123760367226    
200000000.0         0.0102594809397     0.00247461277208    0.989731357775      -0.00568432816223   0.989731357775      -0.00568432816223   0.0102594809397     0.00247461277208    
300000000.0         0.0103255780775     0.0037112043052     0.989657303029      -0.008525775673     0.989657303029      -0.008525775673     0.0103255780775     0.0037112043052     
400000000.0         0.010389672458      0.00494741037594    0.989582666206      -0.0113668375955    0.989582666206      -0.0113668375955    0.010389672458      0.00494741037594    
500000000.0         0.0104551440299     0.00618322949457    0.989504067208      -0.0142075128735    0.989504067208      -0.0142075128735    0.0104551440299     0.00618322949457    
600000000.0         0.0105237168633     0.00741864533972    0.989419781804      -0.0170477854764    0.989419781804      -0.0170477854764    0.0105237168633     0.00741864533972    
700000000.0         0.0105964091203     0.00865363348638    0.989328791656      -0.0198876311664    0.989328791656      -0.0198876311664    0.0105964091203     0.00865363348638    
800000000.0         0.0106738798668     0.00988816452199    0.989230437508      -0.022727020638     0.989230437508      -0.022727020638     0.0106738798668     0.00988816452199    
900000000.0         0.0107565835316     0.0111222057178     0.98912426472       -0.0255659212053    0.98912426472       -0.0255659212053    0.0107565835316     0.0111222057178     
1000000000.0        0.0108448482195     0.0123557220174     0.989009944965      -0.0284042978004    0.989009944965      -0.0284042978004    0.0108448482195     0.0123557220174     
1100000000.0        0.0109389192545     0.0135886766639     0.988887232675      -0.0312421136092    0.988887232675      -0.0312421136092    0.0109389192545     0.0135886766639     
1200000000.0        0.0110389851325     0.0148210316201     0.988755939095      -0.0340793304973    0.988755939095      -0.0340793304973    0.0110389851325     0.0148210316201     
1300000000.0        0.0111451938528     0.0160527478616     0.988615915948      -0.0369159093078    0.988615915948      -0.0369159093078    0.0111451938528     0.0160527478616     
1400000000.0        0.0112576636556     0.0172837855887     0.9884670447        -0.039751810077     0.9884670447        -0.039751810077     0.0112576636556     0.0172837855887     
1500000000.0        0.0113764903401     0.0185141043842     0.988309229239      -0.0425869921951    0.988309229239      -0.0425869921951    0.0113764903401     0.0185141043842     
1600000000.0        0.0115017524049     0.0197436633334     0.988142390738      -0.0454214145291    0.988142390738      -0.0454214145291    0.0115017524049     0.0197436633334     
1700000000.0        0.0116335147544     0.0209724211177     0.987966463945      -0.048255035518     0.987966463945      -0.048255035518     0.0116335147544     0.0209724211177     
1800000000.0        0.011771831429      0.0222003360885     0.987781394454      -0.0510878132491    0.987781394454      -0.0510878132491    0.011771831429      0.0222003360885     
1900000000.0        0.0119167476576     0.023427366327      0.987587136657      -0.0539197055186    0.987587136657      -0.0539197055186    0.0119167476576     0.023427366327      
2000000000.0        0.0120683014251     0.024653469693      0.987383652167      -0.0567506698823    0.987383652167      -0.0567506698823    0.0120683014251     0.024653469693      
2100000000.0        0.0122265246897     0.025878603865      0.987170908611      -0.0595806636968    0.987170908611      -0.0595806636968    0.0122265246897     0.025878603865      
2200000000.0        0.0123914443389     0.0271027263743     0.986948878667      -0.0624096441544    0.986948878667      -0.0624096441544    0.0123914443389     0.0271027263743     
2300000000.0        0.0125630829516     0.0283257946336     0.986717539305      -0.0652375683128    0.986717539305      -0.0652375683128    0.0125630829516     0.0283257946336     
2400000000.0        0.0127414594105     0.0295477659616     0.986476871173      -0.06806439312      0.986476871173      -0.06806439312      0.0127414594105     0.0295477659616     
2500000000.0        0.0129265894003     0.0307685976041     0.986226858103      -0.0708900754368    0.986226858103      -0.0708900754368    0.0129265894003     0.0307685976041     
2600000000.0        0.0131184858158     0.0319882467524     0.985967486695      -0.0737145720555    0.985967486695      -0.0737145720555    0.0131184858158     0.0319882467524     
2700000000.0        0.0133171590998     0.0332066705598     0.985698745988      -0.0765378397169    0.985698745988      -0.0765378397169    0.0133171590998     0.0332066705598     
2800000000.0        0.0135226175247     0.0344238261557     0.985420627172      -0.079359835125     0.985420627172      -0.079359835125     0.0135226175247     0.0344238261557     
2900000000.0        0.0137348674285     0.0356396706589     0.985133123355      -0.0821805149606    0.985133123355      -0.0821805149606    0.0137348674285     0.0356396706589     
3000000000.0        0.0139539134145     0.0368541611885     0.984836229364      -0.084999835893     0.984836229364      -0.084999835893     0.0139539134145     0.0368541611885     
3100000000.0        0.014179758521      0.0380672548749     0.984529941571      -0.087817754591     0.984529941571      -0.087817754591     0.014179758521      0.0380672548749     
3200000000.0        0.014412404366      0.0392789088691     0.984214257754      -0.0906342277323    0.984214257754      -0.0906342277323    0.014412404366      0.0392789088691     
3300000000.0        0.0146518512722     0.0404890803511     0.983889176968      -0.0934492120134    0.983889176968      -0.0934492120134    0.0146518512722     0.0404890803511     
3400000000.0        0.0148980983745     0.0416977265385     0.983554699441      -0.0962626641569    0.983554699441      -0.0962626641569    0.0148980983745     0.0416977265385     
3500000000.0        0.0151511437134     0.0429048046933     0.983210826477      -0.0990745409198    0.983210826477      -0.0990745409198    0.0151511437134     0.0429048046933     
3600000000.0        0.0154109843168     0.0441102721292     0.982857560376      -0.1018847991       0.982857560376      -0.1018847991       0.0154109843168     0.0441102721292     
3700000000.0        0.0156776162708     0.0453140862177     0.982494904362      -0.104693395544     0.982494904362      -0.104693395544     0.0156776162708     0.0453140862177     
3800000000.0        0.0159510347833     0.0465162043943     0.982122862523      -0.107500287152     0.982122862523      -0.107500287152     0.0159510347833     0.0465162043943     
3900000000.0        0.0162312342383     0.0477165841641     0.981741439752      -0.110305430884     0.981741439752      -0.110305430884     0.0162312342383     0.0477165841641     
4000000000.0        0.0165182082459     0.0489151831072     0.9813506417        -0.113108783766     0.9813506417        -0.113108783766     0.0165182082459     0.0489151831072     
4100000000.0        0.0168119496854     0.0501119588837     0.980950474734      -0.115910302895     0.980950474734      -0.115910302895     0.0168119496854     0.0501119588837     
4200000000.0        0.0171124507447     0.0513068692386     0.980540945893      -0.118709945442     0.980540945893      -0.118709945442     0.0171124507447     0.0513068692386     
4300000000.0        0.0174197029544     0.0524998720061     0.980122062858      -0.12150766866      0.980122062858      -0.12150766866      0.0174197029544     0.0524998720061     
4400000000.0        0.0177336972198     0.0536909251145     0.979693833919      -0.124303429886     0.979693833919      -0.124303429886     0.0177336972198     0.0536909251145     
4500000000.0        0.0180544238489     0.0548799865901     0.979256267947      -0.127097186548     0.979256267947      -0.127097186548     0.0180544238489     0.0548799865901     
4600000000.0        0.0183818725777     0.0560670145612     0.978809374367      -0.129888896166     0.978809374367      -0.129888896166     0.0183818725777     0.0560670145612     
4700000000.0        0.0187160325934     0.0572519672622     0.978353163139      -0.132678516356     0.978353163139      -0.132678516356     0.0187160325934     0.0572519672622     
4800000000.0        0.0190568925556     0.0584348030371     0.977887644732      -0.135466004838     0.977887644732      -0.135466004838     0.0190568925556     0.0584348030371     
4900000000.0        0.0194044406151     0.0596154803436     0.977412830108      -0.138251319436     0.977412830108      -0.138251319436     0.0194044406151     0.0596154803436     
5000000000.0        0.0197586644315     0.060793957756      0.976928730704      -0.141034418082     0.976928730704      -0.141034418082     0.0197586644315     0.060793957756      
5100000000.0        0.0201195511895     0.0619701939693     0.976435358417      -0.143815258821     0.976435358417      -0.143815258821     0.0201195511895     0.0619701939693     
5200000000.0        0.0204870876132     0.0631441478019     0.975932725585      -0.146593799813     0.975932725585      -0.146593799813     0.0204870876132     0.0631441478019     
5300000000.0        0.02086125998       0.0643157781994     0.97542084498       -0.149369999335     0.97542084498       -0.149369999335     0.02086125998       0.0643157781994     
5400000000.0        0.0212420541332     0.0654850442373     0.974899729789      -0.15214381579      0.974899729789      -0.15214381579      0.0212420541332     0.0654850442373     
5500000000.0        0.0216294554932     0.0666519051242     0.974369393607      -0.154915207703     0.974369393607      -0.154915207703     0.0216294554932     0.0666519051242     
5600000000.0        0.0220234490688     0.0678163202052     0.973829850426      -0.157684133727     0.973829850426      -0.157684133727     0.0220234490688     0.0678163202052     
5700000000.0        0.0224240194668     0.0689782489641     0.97328111462       -0.160450552648     0.97328111462       -0.160450552648     0.0224240194668     0.0689782489641     
5800000000.0        0.022831150902      0.0701376510269     0.972723200942      -0.163214423385     0.972723200942      -0.163214423385     0.022831150902      0.0701376510269     
5900000000.0        0.0232448272051     0.0712944861643     0.972156124513      -0.165975704994     0.972156124513      -0.165975704994     0.0232448272051     0.0712944861643     
6000000000.0        0.0236650318319     0.0724487142946     0.971579900809      -0.16873435667      0.971579900809      -0.16873435667      0.0236650318319     0.0724487142946     
6100000000.0        0.0240917478702     0.0736002954862     0.970994545663      -0.171490337752     0.970994545663      -0.171490337752     0.0240917478702     0.0736002954862     
6200000000.0        0.0245249580476     0.0747491899605     0.97040007525       -0.174243607722     0.97040007525       -0.174243607722     0.0245249580476     0.0747491899605     
6300000000.0        0.0249646447383     0.0758953580944     0.96979650608       -0.17699412621      0.96979650608       -0.17699412621      0.0249646447383     0.0758953580944     
6400000000.0        0.0254107899695     0.0770387604226     0.969183854998      -0.179741852998     0.969183854998      -0.179741852998     0.0254107899695     0.0770387604226     
6500000000.0        0.0258633754277     0.0781793576404     0.96856213917       -0.182486748019     0.96856213917       -0.182486748019     0.0258633754277     0.0781793576404     
6600000000.0        0.0263223824646     0.0793171106063     0.967931376085      -0.185228771361     0.967931376085      -0.185228771361     0.0263223824646     0.0793171106063     
6700000000.0        0.0267877921026     0.0804519803438     0.96729158354       -0.187967883271     0.96729158354       -0.187967883271     0.0267877921026     0.0804519803438     
6800000000.0        0.0272595850404     0.0815839280444     0.966642779645      -0.190704044155     0.966642779645      -0.190704044155     0.0272595850404     0.0815839280444     
6900000000.0        0.0277377416576     0.0827129150696     0.96598498281       -0.19343721458      0.96598498281       -0.19343721458      0.0277377416576     0.0827129150696     
7000000000.0        0.0282222420205     0.0838389029534     0.965318211743      -0.196167355281     0.965318211743      -0.196167355281     0.0282222420205     0.0838389029534     
7100000000.0        0.028713065886      0.0849618534043     0.964642485446      -0.198894427157     0.964642485446      -0.198894427157     0.028713065886      0.0849618534043     
7200000000.0        0.0292101927064     0.0860817283077     0.963957823209      -0.201618391277     0.963957823209      -0.201618391277     0.0292101927064     0.0860817283077     
7300000000.0        0.0297136016342     0.0871984897281     0.963264244606      -0.20433920888      0.963264244606      -0.20433920888      0.0297136016342     0.0871984897281     
7400000000.0        0.0302232715258     0.0883120999111     0.962561769491      -0.207056841382     0.962561769491      -0.207056841382     0.0302232715258     0.0883120999111     
7500000000.0        0.0307391809458     0.0894225212857     0.961850417996      -0.209771250369     0.961850417996      -0.209771250369     0.0307391809458     0.0894225212857     
7600000000.0        0.0312613081713     0.0905297164662     0.961130210522      -0.21248239761      0.961130210522      -0.21248239761      0.0312613081713     0.0905297164662     
7700000000.0        0.0317896311952     0.0916336482545     0.96040116774       -0.21519024505      0.96040116774       -0.21519024505      0.0317896311952     0.0916336482545     
7800000000.0        0.0323241277303     0.0927342796418     0.959663310584      -0.217894754817     0.959663310584      -0.217894754817     0.0323241277303     0.0927342796418     
7900000000.0        0.0328647752132     0.0938315738108     0.95891666025       -0.220595889222     0.95891666025       -0.220595889222     0.0328647752132     0.0938315738108     
8000000000.0        0.0334115508075     0.0949254941375     0.958161238189      -0.223293610763     0.958161238189      -0.223293610763     0.0334115508075     0.0949254941375     
8100000000.0        0.0339644314073     0.0960160041934     0.957397066109      -0.225987882122     0.957397066109      -0.225987882122     0.0339644314073     0.0960160041934     
8200000000.0        0.0345233936409     0.097103067747      0.956624165964      -0.228678666174     0.956624165964      -0.228678666174     0.0345233936409     0.097103067747      
8300000000.0        0.0350884138741     0.0981866487661     0.955842559959      -0.231365925983     0.955842559959      -0.231365925983     0.0350884138741     0.0981866487661     
8400000000.0        0.0356594682134     0.0992667114192     0.955052270539      -0.234049624807     0.955052270539      -0.234049624807     0.0356594682134     0.0992667114192     
8500000000.0        0.0362365325091     0.100343220078      0.95425332039       -0.236729726097     0.95425332039       -0.236729726097     0.0362365325091     0.100343220078      
8600000000.0        0.0368195823588     0.101416139317      0.953445732439      -0.239406193503     0.953445732439      -0.239406193503     0.0368195823588     0.101416139317      
8700000000.0        0.0374085931104     0.102485433919      0.952629529841      -0.242078990871     0.952629529841      -0.242078990871     0.0374085931104     0.102485433919      
8800000000.0        0.038003539865      0.103551068874      0.951804735985      -0.244748082247     0.951804735985      -0.244748082247     0.038003539865      0.103551068874      
8900000000.0        0.0386043974805     0.104613009382      0.95097137449       -0.24741343188      0.95097137449       -0.24741343188      0.0386043974805     0.104613009382      
9000000000.0        0.0392111405738     0.105671220852      0.950129469196      -0.250075004221     0.950129469196      -0.250075004221     0.0392111405738     0.105671220852      
9100000000.0        0.0398237435243     0.106725668909      0.949279044166      -0.252732763926     0.949279044166      -0.252732763926     0.0398237435243     0.106725668909      
9200000000.0        0.0404421804769     0.107776319391      0.948420123684      -0.255386675858     0.948420123684      -0.255386675858     0.0404421804769     0.107776319391      
9300000000.0        0.0410664253446     0.108823138352      0.947552732249      -0.258036705085     0.947552732249      -0.258036705085     0.0410664253446     0.108823138352      
9400000000.0        0.0416964518115     0.109866092064      0.946676894572      -0.260682816888     0.946676894572      -0.260682816888     0.0416964518115     0.109866092064      
9500000000.0        0.0423322333356     0.110905147018      0.945792635575      -0.263324976756     0.945792635575      -0.263324976756     0.0423322333356     0.110905147018      
9600000000.0        0.0429737431518     0.111940269924      0.944899980389      -0.265963150393     0.944899980389      -0.265963150393     0.0429737431518     0.111940269924      
9700000000.0        0.0436209542745     0.112971427718      0.943998954349      -0.268597303714     0.943998954349      -0.268597303714     0.0436209542745     0.112971427718      
9800000000.0        0.0442738395004     0.113998587555      0.943089582992      -0.271227402851     0.943089582992      -0.271227402851     0.0442738395004     0.113998587555      
9900000000.0        0.0449323714115     0.115021716819      0.942171892054      -0.273853414151     0.942171892054      -0.273853414151     0.0449323714115     0.115021716819      
10000000000.0       0.0455965223773     0.116040783116      0.941245907468      -0.27647530418      0.941245907468      -0.27647530418      0.0455965223773     0.116040783116      
