# Hz S RI R 50.00 
100000000.0         -0.00197450528323   -0.0446136010974    0.997851570948      -0.0450997328154    0.997851570948      -0.0450997328154    -0.00197450528323   -0.0446136010974    
200000000.0         -0.00801781237173   -0.0886798494109    0.991806721593      -0.0896521858047    0.991806721593      -0.0896521858047    -0.00801781237173   -0.0886798494109    
300000000.0         -0.0179002739375    -0.131681614949     0.981922778583      -0.133140272401     0.981922778583      -0.133140272401     -0.0179002739375    -0.131681614949     
400000000.0         -0.0313924352054    -0.173143182814     0.968429046867      -0.175088313221     0.968429046867      -0.175088313221     -0.0313924352054    -0.173143182814     
500000000.0         -0.0481924580508    -0.212646439941     0.951627306921      -0.215078226744     0.951627306921      -0.215078226744     -0.0481924580508    -0.212646439941     
600000000.0         -0.0679422383805    -0.249842742632     0.931875633363      -0.252761398198     0.931875633363      -0.252761398198     -0.0679422383805    -0.249842742632     
700000000.0         -0.0902452063794    -0.284459919072     0.909570578473      -0.287865682748     0.909570578473      -0.287865682748     -0.0902452063794    -0.284459919072     
800000000.0         -0.114684270541     -0.31630442827      0.885129222254      -0.320197564851     0.885129222254      -0.320197564851     -0.114684270541     -0.31630442827      
900000000.0         -0.140838579236     -0.34525916644      0.858972408237      -0.349639964905     0.858972408237      -0.349639964905     -0.140838579236     -0.34525916644      
1000000000.0        -0.168298100855     -0.371277741671     0.831510162012      -0.376146514111     0.831510162012      -0.376146514111     -0.168298100855     -0.371277741671     
1100000000.0        -0.196675403601     -0.394376208672     0.803129910698      -0.399733289354     0.803129910698      -0.399733289354     -0.196675403601     -0.394376208672     
1200000000.0        -0.225614384943     -0.414623278531     0.774187753053      -0.420469023081     0.774187753053      -0.420469023081     -0.225614384943     -0.414623278531     
1300000000.0        -0.254796011481     -0.432129926485     0.745002719339      -0.438464711152     0.745002719339      -0.438464711152     -0.254796011481     -0.432129926485     
1400000000.0        -0.283941357515     -0.447039155545     0.715853732566      -0.453863376535     0.715853732566      -0.453863376535     -0.283941357515     -0.447039155545     
1500000000.0        -0.312812369608     -0.459516476501     0.686978843817      -0.466830549379     0.686978843817      -0.466830549379     -0.312812369608     -0.459516476501     
1600000000.0        -0.34121084428      -0.469741468287     0.658576254456      -0.477545827421     0.658576254456      -0.477545827421     -0.34121084428      -0.469741468287     
1700000000.0        -0.36897610407      -0.477900609203     0.63080664002       -0.486195707257     0.63080664002       -0.486195707257     -0.36897610407      -0.477900609203     
1800000000.0        -0.395981813247     -0.484181430747     0.603796334451      -0.492967738208     0.603796334451      -0.492967738208     -0.395981813247     -0.484181430747     
1900000000.0        -0.422132306982     -0.488767945047     0.577641000896      -0.498045949794     0.577641000896      -0.498045949794     -0.422132306982     -0.488767945047     
2000000000.0        -0.447358731251     -0.491837231399     0.552409491781      -0.501607438294     0.552409491781      -0.501607438294     -0.447358731251     -0.491837231399     
2100000000.0        -0.471615215738     -0.493557031503     0.528147675882      -0.503819962011     0.528147675882      -0.503819962011     -0.471615215738     -0.493557031503     
2200000000.0        -0.49487523477      -0.494084189662     0.50488207738       -0.504840381501     0.50488207738       -0.504840381501     -0.49487523477      -0.494084189662     
2300000000.0        -0.517128255086     -0.493563776682     0.482623228077      -0.50481378349      0.482623228077      -0.50481378349      -0.517128255086     -0.493563776682     
2400000000.0        -0.538376724772     -0.492128748688     0.461368678457      -0.503873139715     0.461368678457      -0.503873139715     -0.538376724772     -0.492128748688     
2500000000.0        -0.558633424395     -0.489900009998     0.441105646534      -0.502139369813     0.441105646534      -0.502139369813     -0.558633424395     -0.489900009998     
2600000000.0        -0.577919177788     -0.486986769211     0.421813307071      -0.499721697435     0.421813307071      -0.499721697435     -0.577919177788     -0.486986769211     
2700000000.0        -0.596260904259     -0.48348709758      0.403464739359      -0.496718208626     0.403464739359      -0.496718208626     -0.596260904259     -0.48348709758      
2800000000.0        -0.613689984577     -0.479488617182     0.386028561232      -0.493216540019     0.386028561232      -0.493216540019     -0.613689984577     -0.479488617182     
2900000000.0        -0.630240908214     -0.475069262644     0.369470281816      -0.48929464057      0.369470281816      -0.48929464057      -0.630240908214     -0.475069262644     
3000000000.0        -0.645950167762     -0.470298074002     0.353753407114      -0.485021564438     0.353753407114      -0.485021564438     -0.645950167762     -0.470298074002     
3100000000.0        -0.660855367043     -0.465235989646     0.338840331891      -0.480458263935     0.338840331891      -0.480458263935     -0.660855367043     -0.465235989646     
3200000000.0        -0.674994511454     -0.459936617448     0.324693049326      -0.475658360674     0.324693049326      -0.475658360674     -0.674994511454     -0.459936617448     
3300000000.0        -0.688405451847     -0.454446969352     0.311273707133      -0.470668880169     0.311273707133      -0.470668880169     -0.688405451847     -0.454446969352     
3400000000.0        -0.701125456392     -0.448808150222     0.298545035694      -0.465530940689     0.298545035694      -0.465530940689     -0.701125456392     -0.448808150222     
3500000000.0        -0.713190888079     -0.443055995866     0.286470670555      -0.460280391303     0.286470670555      -0.460280391303     -0.713190888079     -0.443055995866     
3600000000.0        -0.724636968589     -0.437221658215     0.275015388558      -0.454948397062     0.275015388558      -0.454948397062     -0.724636968589     -0.437221658215     
3700000000.0        -0.735497612136     -0.431332137776     0.264145273994      -0.449561971463     0.264145273994      -0.449561971463     -0.735497612136     -0.431332137776     
3800000000.0        -0.745805315456     -0.425410764963     0.253827828613      -0.444144457794     0.253827828613      -0.444144457794     -0.745805315456     -0.425410764963     
3900000000.0        -0.755591092406     -0.419477632901     0.244032037027      -0.438715961944     0.244032037027      -0.438715961944     -0.755591092406     -0.419477632901     
4000000000.0        -0.764884443604     -0.413549984857     0.234728397066      -0.43329373984      0.234728397066      -0.43329373984      -0.764884443604     -0.413549984857     
4100000000.0        -0.773713353255     -0.407642559769     0.225888922956      -0.427892542994     0.225888922956      -0.427892542994     -0.773713353255     -0.407642559769     
4200000000.0        -0.782104306734     -0.401767899467     0.21748712773       -0.422524925718     0.21748712773       -0.422524925718     -0.782104306734     -0.401767899467     
4300000000.0        -0.790082323721     -0.395936621092     0.209497990093      -0.417201517567     0.209497990093      -0.417201517567     -0.790082323721     -0.395936621092     
4400000000.0        -0.797671002702     -0.390157658152     0.201897909926      -0.41193126439      0.201897909926      -0.41193126439      -0.797671002702     -0.390157658152     
4500000000.0        -0.804892573456     -0.384438473409     0.194664655792      -0.406721641233     0.194664655792      -0.406721641233     -0.804892573456     -0.384438473409     
4600000000.0        -0.811767954887     -0.378785246607     0.187777307107      -0.401578840067     0.187777307107      -0.401578840067     -0.811767954887     -0.378785246607     
4700000000.0        -0.81831681609      -0.373203039778     0.181216193071      -0.396507935107     0.181216193071      -0.396507935107     -0.81831681609      -0.373203039778     
4800000000.0        -0.824557639024     -0.367695942643     0.17496283          -0.391513028216     0.17496283          -0.391513028216     -0.824557639024     -0.367695942643     
4900000000.0        -0.830507781521     -0.362267200381     0.168999858309      -0.386597376683     0.168999858309      -0.386597376683     -0.830507781521     -0.362267200381     
5000000000.0        -0.836183539687     -0.356919325799     0.163310980116      -0.381763505397     0.163310980116      -0.381763505397     -0.836183539687     -0.356919325799     
5100000000.0        -0.841600208972     -0.351654197734     0.157880898169      -0.377013305256     0.157880898169      -0.377013305256     -0.841600208972     -0.351654197734     
5200000000.0        -0.846772143399     -0.346473147317     0.152695256619      -0.372348119439     0.152695256619      -0.372348119439     -0.846772143399     -0.346473147317     
5300000000.0        -0.851712812572     -0.341377033554     0.147740584007      -0.367768818988     0.147740584007      -0.367768818988     -0.851712812572     -0.341377033554     
5400000000.0        -0.856434856242     -0.336366309494     0.143004238704      -0.363275868987     0.143004238704      -0.363275868987     -0.856434856242     -0.336366309494     
5500000000.0        -0.860950136258     -0.331441080137     0.138474356953      -0.358869386473     0.138474356953      -0.358869386473     -0.860950136258     -0.331441080137     
5600000000.0        -0.865269785853     -0.326601153075     0.134139803589      -0.354549191079     0.134139803589      -0.354549191079     -0.865269785853     -0.326601153075     
5700000000.0        -0.869404256232     -0.321846082748     0.129990125445      -0.350314849303     0.129990125445      -0.350314849303     -0.869404256232     -0.321846082748     
5800000000.0        -0.873363360488     -0.317175209113     0.126015507437      -0.346165713173     0.126015507437      -0.346165713173     -0.873363360488     -0.317175209113     
5900000000.0        -0.87715631492      -0.312587691385     0.12220673125       -0.342100953999     0.12220673125       -0.342100953999     -0.87715631492      -0.312587691385     
6000000000.0        -0.880791777809     -0.308082537474     0.118555136554      -0.338119591813     0.118555136554      -0.338119591813     -0.880791777809     -0.308082537474     
6100000000.0        -0.884277885773     -0.30365862964      0.115052584657      -0.334220521029     0.115052584657      -0.334220521029     -0.884277885773     -0.30365862964      
6200000000.0        -0.887622287785     -0.29931474683      0.111691424477      -0.330402532783     0.111691424477      -0.330402532783     -0.887622287785     -0.29931474683      
6300000000.0        -0.89083217699      -0.29504958411      0.108464460733      -0.326664334369     0.108464460733      -0.326664334369     -0.89083217699      -0.29504958411      
6400000000.0        -0.893914320426     -0.290861769541     0.10536492422       -0.323004566124     0.10536492422       -0.323004566124     -0.893914320426     -0.290861769541     
6500000000.0        -0.896875086759     -0.286749878832     0.102386444072      -0.319421816079     0.102386444072      -0.319421816079     -0.896875086759     -0.286749878832     
6600000000.0        -0.899720472173     -0.282712448022     0.0995230218755     -0.315914632649     0.0995230218755     -0.315914632649     -0.899720472173     -0.282712448022     
6700000000.0        -0.902456124501     -0.278747984456     0.0967690075344     -0.31248153561      0.0967690075344     -0.31248153561      -0.902456124501     -0.278747984456     
6800000000.0        -0.905087365725     -0.274854976251     0.0941190767705     -0.309121025574     0.0941190767705     -0.309121025574     -0.905087365725     -0.274854976251     
6900000000.0        -0.907619212945     -0.271031900449     0.0915682101545     -0.305831592139     0.0915682101545     -0.305831592139     -0.907619212945     -0.271031900449     
7000000000.0        -0.910056397921     -0.267277230014     0.089111673566      -0.302611720897     0.089111673566      -0.302611720897     -0.910056397921     -0.267277230014     
7100000000.0        -0.91240338527      -0.263589439824     0.0867449999882     -0.299459899422     0.0867449999882     -0.299459899422     -0.91240338527      -0.263589439824     
7200000000.0        -0.914664389438     -0.259967011774     0.0844639725458     -0.296374622382     0.0844639725458     -0.296374622382     -0.914664389438     -0.259967011774     
7300000000.0        -0.916843390495     -0.256408439107     0.0822646087001     -0.293354395874     0.0822646087001     -0.293354395874     -0.916843390495     -0.256408439107     
7400000000.0        -0.918944148867     -0.252912230076     0.0801431455225     -0.290397741085     0.0801431455225     -0.290397741085     -0.918944148867     -0.252912230076     
7500000000.0        -0.920970219058     -0.249476911011     0.0780960259697     -0.287503197364     0.0780960259697     -0.287503197364     -0.920970219058     -0.249476911011     
7600000000.0        -0.922924962442     -0.246101028868     0.0761198860918     -0.284669324777     0.0761198860918     -0.284669324777     -0.922924962442     -0.246101028868     
7700000000.0        -0.924811559188     -0.242783153332     0.0742115431059     -0.281894706213     0.0742115431059     -0.281894706213     -0.924811559188     -0.242783153332     
7800000000.0        -0.926633019378     -0.239521878532     0.0723679842757     -0.279177949098     0.0723679842757     -0.279177949098     -0.926633019378     -0.239521878532     
7900000000.0        -0.928392193386     -0.23631582441      0.0705863565387     -0.276517686769     0.0705863565387     -0.276517686769     -0.928392193386     -0.23631582441      
8000000000.0        -0.930091781546     -0.233163637791     0.0688639568285     -0.273912579552     0.0688639568285     -0.273912579552     -0.930091781546     -0.233163637791     
8100000000.0        -0.931734343189     -0.230063993208     0.0671982230439     -0.271361315581     0.0671982230439     -0.271361315581     -0.931734343189     -0.230063993208     
8200000000.0        -0.933322305072     -0.227015593488     0.0655867256165     -0.268862611397     0.0655867256165     -0.268862611397     -0.933322305072     -0.227015593488     
8300000000.0        -0.934857969253     -0.22401717016      0.0640271596373     -0.266415212351     0.0640271596373     -0.266415212351     -0.934857969253     -0.22401717016      
8400000000.0        -0.93634352044      -0.221067483686     0.0625173375005     -0.264017892844     0.0625173375005     -0.264017892844     -0.93634352044      -0.221067483686     
8500000000.0        -0.937781032875     -0.218165323559     0.0610551820296     -0.261669456421     0.0610551820296     -0.261669456421     -0.937781032875     -0.218165323559     
8600000000.0        -0.93917247675      -0.215309508268     0.0596387200505     -0.259368735746     0.0596387200505     -0.259368735746     -0.93917247675      -0.215309508268     
8700000000.0        -0.940519724222     -0.212498885166     0.0582660763815     -0.257114592472     0.0582660763815     -0.257114592472     -0.940519724222     -0.212498885166     
8800000000.0        -0.941824555035     -0.209732330249     0.0569354682098     -0.254905917016     0.0569354682098     -0.254905917016     -0.941824555035     -0.209732330249     
8900000000.0        -0.943088661779     -0.207008747855     0.0556451998285     -0.252741628268     0.0556451998285     -0.252741628268     -0.943088661779     -0.207008747855     
9000000000.0        -0.944313654822     -0.204327070304     0.0543936577088     -0.250620673233     0.0543936577088     -0.250620673233     -0.944313654822     -0.204327070304     
9100000000.0        -0.945501066924     -0.201686257483     0.0531793058838     -0.248542026616     0.0531793058838     -0.248542026616     -0.945501066924     -0.201686257483     
9200000000.0        -0.946652357557     -0.19908529639      0.0520006816228     -0.246504690371     0.0520006816228     -0.246504690371     -0.946652357557     -0.19908529639      
9300000000.0        -0.947768916968     -0.196523200643     0.0508563913762     -0.244507693211     0.0508563913762     -0.244507693211     -0.947768916968     -0.196523200643     
9400000000.0        -0.948852069972     -0.193999009955     0.0497451069723     -0.242550090088     0.0497451069723     -0.242550090088     -0.948852069972     -0.193999009955     
9500000000.0        -0.949903079529     -0.191511789594     0.0486655620491     -0.240630961654     0.0486655620491     -0.240630961654     -0.949903079529     -0.191511789594     
9600000000.0        -0.950923150084     -0.189060629823     0.0476165487048     -0.238749413705     0.0476165487048     -0.238749413705     -0.950923150084     -0.189060629823     
9700000000.0        -0.951913430717     -0.186644645326     0.0465969143527     -0.236904576608     0.0465969143527     -0.236904576608     -0.951913430717     -0.186644645326     
9800000000.0        -0.952875018093     -0.184262974629     0.0456055587669     -0.235095604729     0.0456055587669     -0.235095604729     -0.952875018093     -0.184262974629     
9900000000.0        -0.95380895924      -0.181914779512     0.0446414313057     -0.233321675842     0.0446414313057     -0.233321675842     -0.95380895924      -0.181914779512     
10000000000.0       -0.954716254159     -0.179599244425     0.0437035283005     -0.231581990552     0.0437035283005     -0.231581990552     -0.954716254159     -0.179599244425     
