# Hz S RI R 50.00 
100000000.0         0.000301786670933   -0.0064311841321    0.999574054173      -0.00832216463371   0.999574054173      -0.00832216463371   0.000301786670933   -0.0064311841321    
200000000.0         0.000136528394537   -0.0128601033786    0.999398508878      -0.0166421151157    0.999398508878      -0.0166421151157    0.000136528394537   -0.0128601033786    
300000000.0         -0.00013630534025   -0.0192845693899    0.999113065474      -0.024957713841     0.999113065474      -0.024957713841     -0.00013630534025   -0.0192845693899    
400000000.0         -0.000516256791714  -0.0257023695547    0.998717554274      -0.0332667880294    0.998717554274      -0.0332667880294    -0.000516256791713  -0.0257023695547    
500000000.0         -0.00100300140609   -0.0321112820021    0.998212058036      -0.041567151474     0.998212058036      -0.041567151474     -0.00100300140609   -0.0321112820021    
600000000.0         -0.00159621350771   -0.0385090825775    0.997596778578      -0.049856613215     0.997596778578      -0.049856613215     -0.00159621350771   -0.0385090825775    
700000000.0         -0.00229553216472   -0.0448935494814    0.996872002969      -0.0581329829496    0.996872002969      -0.0581329829496    -0.00229553216472   -0.0448935494814    
800000000.0         -0.00310054885212   -0.0512624669051    0.996038091116      -0.066394075099     0.996038091116      -0.066394075099     -0.00310054885212   -0.0512624669051    
900000000.0         -0.00401080215251   -0.0576136281394    0.995095470051      -0.0746377121886    0.995095470051      -0.0746377121886    -0.00401080215251   -0.0576136281394    
1000000000.0        -0.00502577531262   -0.0639448383706    0.994044630813      -0.0828617278288    0.994044630813      -0.0828617278288    -0.00502577531262   -0.0639448383706    
1100000000.0        -0.00614489516183   -0.0702539172679    0.992886126437      -0.0910639694351    0.992886126437      -0.0910639694351    -0.00614489516183   -0.0702539172679    
1200000000.0        -0.00736753176897   -0.0765387014213    0.99162057046       -0.0992423007655    0.99162057046       -0.0992423007655    -0.00736753176897   -0.0765387014213    
1300000000.0        -0.0086929985456    -0.0827970466613    0.990248635664      -0.107394604317     0.990248635664      -0.107394604317     -0.0086929985456    -0.0827970466613    
1400000000.0        -0.0101205526461    -0.089026830282     0.988771052921      -0.115518783612     0.988771052921      -0.115518783612     -0.0101205526461    -0.089026830282     
1500000000.0        -0.0116493955818    -0.0952259531771    0.987188610063      -0.123612765378     0.987188610063      -0.123612765378     -0.0116493955818    -0.0952259531771    
1600000000.0        -0.013278674001     -0.101392341897     0.985502150745      -0.131674501655     0.985502150745      -0.131674501655     -0.013278674001     -0.101392341897     
1700000000.0        -0.0150074806027    -0.107523950631     0.983712573267      -0.139701971804     0.983712573267      -0.139701971804     -0.0150074806027    -0.107523950631     
1800000000.0        -0.0168348551658    -0.113618763116     0.98182082936       -0.147693184449     0.98182082936       -0.147693184449     -0.0168348551658    -0.113618763116     
1900000000.0        -0.0187597856765    -0.11967479447      0.979827922911      -0.155646179336     0.979827922911      -0.155646179336     -0.0187597856765    -0.11967479447      
2000000000.0        -0.0207812095458    -0.125690092961     0.977734908643      -0.16355902912      0.977734908643      -0.16355902912      -0.0207812095458    -0.125690092961     
2100000000.0        -0.0228980149062    -0.131662741691     0.975542890729      -0.171429841073     0.975542890729      -0.171429841073     -0.0228980149062    -0.131662741691     
2200000000.0        -0.0251090419817    -0.137590860216     0.97325302136       -0.17925675872      0.97325302136       -0.17925675872      -0.0251090419817    -0.137590860216     
2300000000.0        -0.027413084524     -0.143472606085     0.970866499253      -0.187037963389     0.970866499253      -0.187037963389     -0.027413084524     -0.143472606085     
2400000000.0        -0.0298088913098    -0.149306176307     0.968384568115      -0.194771675695     0.968384568115      -0.194771675695     -0.0298088913098    -0.149306176307     
2500000000.0        -0.0322951676933    -0.155089808733     0.965808515055      -0.202456156938     0.965808515055      -0.202456156938     -0.0322951676933    -0.155089808733     
2600000000.0        -0.0348705772098    -0.160821783374     0.963139668955      -0.210089710421     0.963139668955      -0.210089710421     -0.0348705772098    -0.160821783374     
2700000000.0        -0.0375337432245    -0.166500423622     0.960379398793      -0.217670682692     0.960379398793      -0.217670682692     -0.0375337432245    -0.166500423622     
2800000000.0        -0.0402832506225    -0.172124097402     0.95752911194       -0.2251974647       0.95752911194       -0.2251974647       -0.0402832506225    -0.172124097402     
2900000000.0        -0.0431176475351    -0.177691218243     0.954590252415      -0.232668492874     0.954590252415      -0.232668492874     -0.0431176475351    -0.177691218243     
3000000000.0        -0.0460354470988    -0.18320024626      0.95156429911       -0.240082250115     0.95156429911       -0.240082250115     -0.0460354470988    -0.18320024626      
3100000000.0        -0.0490351292406    -0.188649689063     0.948452763999      -0.247437266711     0.948452763999      -0.247437266711     -0.0490351292406    -0.188649689063     
3200000000.0        -0.0521151424883    -0.194038102576     0.945257190313      -0.254732121162     0.945257190313      -0.254732121162     -0.0521151424883    -0.194038102576     
3300000000.0        -0.0552739057984    -0.19936409178      0.941979150706      -0.261965440931     0.941979150706      -0.261965440931     -0.0552739057984    -0.19936409178      
3400000000.0        -0.0585098103994    -0.204626311372     0.938620245402      -0.269135903106     0.938620245402      -0.269135903106     -0.0585098103994    -0.204626311372     
3500000000.0        -0.0618212216463    -0.20982346634      0.935182100337      -0.276242234982     0.935182100337      -0.276242234982     -0.0618212216463    -0.20982346634      
3600000000.0        -0.0652064808812    -0.214954312458     0.931666365293      -0.283283214562     0.931666365293      -0.283283214562     -0.0652064808812    -0.214954312458     
3700000000.0        -0.0686639072971    -0.220017656707     0.928074712024      -0.290257670981     0.928074712024      -0.290257670981     -0.0686639072971    -0.220017656707     
3800000000.0        -0.0721917998011    -0.225012357605     0.924408832394      -0.297164484841     0.924408832394      -0.297164484841     -0.0721917998011    -0.225012357605     
3900000000.0        -0.0757884388719    -0.22993732547      0.920670436514      -0.304002588477     0.920670436514      -0.304002588477     -0.0757884388719    -0.22993732547      
4000000000.0        -0.0794520884104    -0.234791522596     0.916861250886      -0.310770966141     0.916861250886      -0.310770966141     -0.0794520884104    -0.234791522596     
4100000000.0        -0.0831809975774    -0.239573963363     0.912983016563      -0.31746865411      0.912983016563      -0.31746865411      -0.0831809975774    -0.239573963363     
4200000000.0        -0.0869734026172    -0.244283714265     0.909037487324      -0.324094740721     0.909037487324      -0.324094740721     -0.0869734026172    -0.244283714265     
4300000000.0        -0.090827528662     -0.248919893871     0.905026427865      -0.330648366334     0.905026427865      -0.330648366334     -0.090827528662     -0.248919893871     
4400000000.0        -0.0947415915158    -0.25348167271      0.900951612012      -0.337128723223     0.900951612012      -0.337128723223     -0.0947415915158    -0.25348167271      
4500000000.0        -0.0987137994135    -0.257968273093     0.896814820961      -0.343535055397     0.896814820961      -0.343535055397     -0.0987137994135    -0.257968273093     
4600000000.0        -0.102742354753     -0.262378968867     0.892617841542      -0.349866658359     0.892617841542      -0.349866658359     -0.102742354753     -0.262378968867     
4700000000.0        -0.106825455798     -0.266713085099     0.888362464518      -0.356122878792     0.888362464518      -0.356122878792     -0.106825455798     -0.266713085099     
4800000000.0        -0.110961298346     -0.270969997709     0.884050482909      -0.362303114196     0.884050482909      -0.362303114196     -0.110961298346     -0.270969997709     
4900000000.0        -0.11514807737      -0.27514913303      0.879683690353      -0.368406812449     0.879683690353      -0.368406812449     -0.11514807737      -0.27514913303      
5000000000.0        -0.119383988611     -0.279249967322     0.875263879511      -0.374433471324     0.875263879511      -0.374433471324     -0.119383988611     -0.279249967322     
5100000000.0        -0.123667230141     -0.283272026227     0.870792840499      -0.380382637944     0.870792840499      -0.380382637944     -0.123667230141     -0.283272026227     
5200000000.0        -0.127996003883     -0.287214884167     0.866272359369      -0.386253908189     0.866272359369      -0.386253908189     -0.127996003883     -0.287214884167     
5300000000.0        -0.132368517092     -0.291078163702     0.861704216629      -0.392046926047     0.861704216629      -0.392046926047     -0.132368517092     -0.291078163702     
5400000000.0        -0.136782983783     -0.294861534831     0.857090185806      -0.397761382925     0.857090185806      -0.397761382925     -0.136782983783     -0.294861534831     
5500000000.0        -0.141237626123     -0.298564714259     0.852432032058      -0.403397016909     0.852432032058      -0.403397016909     -0.141237626123     -0.298564714259     
5600000000.0        -0.145730675777     -0.30218746461      0.847731510826      -0.40895361199      0.847731510826      -0.40895361199      -0.145730675777     -0.30218746461      
5700000000.0        -0.150260375198     -0.305729593612     0.842990366542      -0.414430997242     0.842990366542      -0.414430997242     -0.150260375198     -0.305729593612     
5800000000.0        -0.154824978877     -0.309190953241     0.838210331373      -0.419829045972     0.838210331373      -0.419829045972     -0.154824978877     -0.309190953241     
5900000000.0        -0.159422754542     -0.312571438831     0.833393124028      -0.425147674827     0.833393124028      -0.425147674827     -0.159422754542     -0.312571438831     
6000000000.0        -0.164051984305     -0.315870988153     0.828540448602      -0.430386842883     0.828540448602      -0.430386842883     -0.164051984305     -0.315870988153     
6100000000.0        -0.168710965763     -0.319089580468     0.823653993483      -0.435546550689     0.823653993483      -0.435546550689     -0.168710965763     -0.319089580468     
6200000000.0        -0.173398013045     -0.32222723555      0.818735430291      -0.440626839301     0.818735430291      -0.440626839301     -0.173398013045     -0.32222723555      
6300000000.0        -0.178111457807     -0.325284012691     0.813786412891      -0.445627789282     0.813786412891      -0.445627789282     -0.178111457807     -0.325284012691     
6400000000.0        -0.182849650185     -0.328260009681     0.808808576434      -0.450549519686     0.808808576434      -0.450549519686     -0.182849650185     -0.328260009681     
6500000000.0        -0.187610959689     -0.331155361773     0.803803536466      -0.455392187025     0.803803536466      -0.455392187025     -0.187610959689     -0.331155361773     
6600000000.0        -0.192393776047     -0.333970240631     0.798772888074      -0.460155984214     0.798772888074      -0.460155984214     -0.192393776047     -0.333970240631     
6700000000.0        -0.197196510003     -0.33670485326      0.793718205095      -0.464841139508     0.793718205095      -0.464841139508     -0.197196510003     -0.33670485326      
6800000000.0        -0.202017594065     -0.339359440935     0.788641039362      -0.46944791543      0.788641039362      -0.46944791543      -0.202017594065     -0.339359440935     
6900000000.0        -0.206855483198     -0.341934278113     0.783542920009      -0.473976607681     0.783542920009      -0.473976607681     -0.206855483198     -0.341934278113     
7000000000.0        -0.211708655476     -0.344429671339     0.778425352821      -0.478427544051     0.778425352821      -0.478427544051     -0.211708655476     -0.344429671339     
7100000000.0        -0.216575612679     -0.346845958152     0.77328981963       -0.482801083325     0.77328981963       -0.482801083325     -0.216575612679     -0.346845958152     
7200000000.0        -0.221454880849     -0.349183505983     0.768137777762      -0.487097614181     0.768137777762      -0.487097614181     -0.221454880849     -0.349183505983     
7300000000.0        -0.226345010795     -0.351442711055     0.762970659528      -0.491317554092     0.762970659528      -0.491317554092     -0.226345010795     -0.351442711055     
7400000000.0        -0.231244578552     -0.353623997288     0.757789871764      -0.495461348231     0.757789871764      -0.495461348231     -0.231244578552     -0.353623997288     
7500000000.0        -0.236152185798     -0.355727815194     0.75259679541       -0.49952946837      0.75259679541       -0.49952946837      -0.236152185798     -0.355727815194     
7600000000.0        -0.241066460229     -0.357754640795     0.747392785137      -0.503522411791     0.747392785137      -0.503522411791     -0.241066460229     -0.357754640795     
7700000000.0        -0.245986055885     -0.359704974533     0.742179169017      -0.507440700207     0.742179169017      -0.507440700207     -0.245986055885     -0.359704974533     
7800000000.0        -0.250909653439     -0.36157934019      0.73695724823       -0.511284878675     0.73695724823       -0.511284878675     -0.250909653439     -0.36157934019      
7900000000.0        -0.255835960447     -0.363378283825     0.73172829682       -0.51505551454      0.73172829682       -0.51505551454      -0.255835960447     -0.363378283825     
8000000000.0        -0.260763711553     -0.365102372714     0.726493561478      -0.518753196368     0.726493561478      -0.518753196368     -0.260763711553     -0.365102372714     
8100000000.0        -0.265691668661     -0.366752194302     0.721254261372      -0.522378532906     0.721254261372      -0.522378532906     -0.265691668661     -0.366752194302     
8200000000.0        -0.270618621071     -0.368328355173     0.716011588014      -0.525932152049     0.716011588014      -0.525932152049     -0.270618621071     -0.368328355173     
8300000000.0        -0.275543385572     -0.36983148003      0.710766705157      -0.529414699819     0.710766705157      -0.529414699819     -0.275543385572     -0.36983148003      
8400000000.0        -0.280464806511     -0.371262210688     0.70552074873       -0.532826839368     0.70552074873       -0.532826839368     -0.280464806511     -0.371262210688     
8500000000.0        -0.285381755821     -0.372621205095     0.700274826806      -0.536169249982     0.700274826806      -0.536169249982     -0.285381755821     -0.372621205095     
8600000000.0        -0.290293133021     -0.37390913635      0.695030019597      -0.539442626121     0.695030019597      -0.539442626121     -0.290293133021     -0.37390913635      
8700000000.0        -0.295197865184     -0.37512669176      0.689787379489      -0.542647676457     0.689787379489      -0.542647676457     -0.295197865184     -0.37512669176      
8800000000.0        -0.300094906879     -0.376274571899     0.684547931095      -0.545785122948     0.684547931095      -0.545785122948     -0.300094906879     -0.376274571899     
8900000000.0        -0.304983240081     -0.377353489697     0.679312671344      -0.548855699917     0.679312671344      -0.548855699917     -0.304983240081     -0.377353489697     
9000000000.0        -0.309861874056     -0.378364169541     0.67408256959       -0.55186015316      0.67408256959       -0.55186015316      -0.309861874056     -0.378364169541     
9100000000.0        -0.314729845224     -0.379307346402     0.668858567754      -0.554799239074     0.668858567754      -0.554799239074     -0.314729845224     -0.379307346402     
9200000000.0        -0.319586216993     -0.38018376498      0.663641580483      -0.557673723794     0.663641580483      -0.557673723794     -0.319586216993     -0.38018376498      
9300000000.0        -0.324430079572     -0.380994178867     0.658432495332      -0.560484382369     0.658432495332      -0.560484382369     -0.324430079572     -0.380994178867     
9400000000.0        -0.329260549765     -0.381739349742     0.653232172974      -0.563231997945     0.653232172974      -0.563231997945     -0.329260549765     -0.381739349742     
9500000000.0        -0.334076770744     -0.382420046574     0.648041447423      -0.565917360977     0.648041447423      -0.565917360977     -0.334076770744     -0.382420046574     
9600000000.0        -0.338877911797     -0.383037044855     0.642861126277      -0.568541268456     0.642861126277      -0.568541268456     -0.338877911797     -0.383037044855     
9700000000.0        -0.34366316807      -0.383591125854     0.637691990986      -0.571104523172     0.637691990986      -0.571104523172     -0.34366316807      -0.383591125854     
9800000000.0        -0.348431760279     -0.384083075894     0.632534797125      -0.573607932979     0.632534797125      -0.573607932979     -0.348431760279     -0.384083075894     
9900000000.0        -0.353182934417     -0.384513685645     0.627390274693      -0.5760523101       0.627390274693      -0.5760523101       -0.353182934417     -0.384513685645     
10000000000.0       -0.357915961439     -0.384883749451     0.622259128421      -0.578438470446     0.622259128421      -0.578438470446     -0.357915961439     -0.384883749451     
