# Hz S RI R 50.00 
100000000.0         0.00153806010481    0.000680570011462   0.998458551255      -0.00212110677235   0.998458551255      -0.00212110677235   0.00153806010481    0.000680570011462   
200000000.0         0.00155199022316    0.00136107058536    0.998440156162      -0.00424216489411   0.998440156162      -0.00424216489411   0.00155199022316    0.00136107058536    
300000000.0         0.00156610630414    0.00204151130132    0.998419498575      -0.0063631957549    0.998419498575      -0.0063631957549    0.00156610630414    0.00204151130132    
400000000.0         0.00158174087381    0.00272188696811    0.998395245713      -0.00848420282901   0.998395245713      -0.00848420282901   0.00158174087381    0.0027218869681     
500000000.0         0.00159940675622    0.0034021890629     0.99836688445       -0.0106051846585    0.99836688445       -0.0106051846585    0.00159940675622    0.0034021890629     
600000000.0         0.00161936524173    0.00408240764032    0.998334153151      -0.0127261373075    0.998334153151      -0.0127261373075    0.00161936524173    0.00408240764032    
700000000.0         0.00164177047866    0.00476253201051    0.998296897286      -0.0148470553188    0.998296897286      -0.0148470553188    0.00164177047866    0.00476253201051    
800000000.0         0.00166672215613    0.00544255104974    0.998255016748      -0.0169679321926    0.998255016748      -0.0169679321926    0.00166672215613    0.00544255104974    
900000000.0         0.0016942889542     0.0061224533648     0.998208442408      -0.0190887606613    0.998208442408      -0.0190887606613    0.0016942889542     0.0061224533648     
1000000000.0        0.0017245204266     0.0068022273887     0.998157124232      -0.0212095328641    0.998157124232      -0.0212095328641    0.0017245204266     0.0068022273887     
1100000000.0        0.00175745360426    0.00748186144049    0.998101024682      -0.0233302404647    0.998101024682      -0.0233302404647    0.00175745360426    0.00748186144049    
1200000000.0        0.00179311692884    0.00816134376431    0.998040114781      -0.0254508747351    0.998040114781      -0.0254508747351    0.00179311692884    0.00816134376431    
1300000000.0        0.0018315327268     0.00884066255618    0.997974371645      -0.0275714266176    0.997974371645      -0.0275714266176    0.0018315327268     0.00884066255618    
1400000000.0        0.00187271883503    0.00951980598273    0.997903776855      -0.029691886772     0.997903776855      -0.029691886772     0.00187271883503    0.00951980598273    
1500000000.0        0.0019166897083     0.0101987621948     0.997828315352      -0.031812245613     0.997828315352      -0.031812245613     0.0019166897083     0.0101987621948     
1600000000.0        0.00196345719676    0.0108775193374     0.99774797466       -0.0339324933393    0.99774797466       -0.0339324933393    0.00196345719676    0.0108775193374     
1700000000.0        0.00201303110615    0.0115560655571     0.997662744327      -0.0360526199584    0.997662744327      -0.0360526199584    0.00201303110615    0.0115560655571     
1800000000.0        0.00206541961035    0.0122343890079     0.997572615517      -0.0381726153066    0.997572615517      -0.0381726153066    0.00206541961035    0.0122343890079     
1900000000.0        0.00212062956129    0.0129124778553     0.997477580694      -0.0402924690655    0.997477580694      -0.0402924690655    0.00212062956129    0.0129124778553     
2000000000.0        0.00217866672562    0.0135903202798     0.997377633393      -0.0424121707764    0.997377633393      -0.0424121707764    0.00217866672562    0.0135903202798     
2100000000.0        0.00223953596824    0.0142679044793     0.997272768031      -0.0445317098531    0.997272768031      -0.0445317098531    0.00223953596824    0.0142679044793     
2200000000.0        0.00230324139659    0.0149452186717     0.997162979771      -0.0466510755916    0.997162979771      -0.0466510755916    0.00230324139659    0.0149452186717     
2300000000.0        0.00236978647538    0.0156222510955     0.997048264401      -0.0487702571805    0.997048264401      -0.0487702571805    0.00236978647538    0.0156222510955     
2400000000.0        0.00243917411891    0.0162989900122     0.996928618244      -0.0508892437085    0.996928618244      -0.0508892437085    0.00243917411891    0.0162989900122     
2500000000.0        0.00251140676607    0.0169754237063     0.996804038088      -0.0530080241717    0.996804038088      -0.0530080241717    0.00251140676607    0.0169754237063     
2600000000.0        0.00258648644174    0.0176515404865     0.996674521118      -0.0551265874805    0.996674521118      -0.0551265874805    0.00258648644174    0.0176515404865     
2700000000.0        0.00266441480766    0.0183273286864     0.996540064874      -0.0572449224651    0.996540064874      -0.0572449224651    0.00266441480766    0.0183273286864     
2800000000.0        0.00274519320471    0.0190027766646     0.996400667201      -0.0593630178807    0.996400667201      -0.0593630178807    0.00274519320471    0.0190027766646     
2900000000.0        0.00282882268839    0.0196778728053     0.996256326219      -0.0614808624128    0.996256326219      -0.0614808624128    0.00282882268839    0.0196778728053     
3000000000.0        0.00291530405882    0.0203526055184     0.996107040293      -0.0635984446807    0.996107040293      -0.0635984446807    0.00291530405882    0.0203526055184     
3100000000.0        0.00300463788615    0.0210269632395     0.995952808007      -0.0657157532422    0.995952808007      -0.0657157532422    0.00300463788615    0.0210269632395     
3200000000.0        0.00309682453238    0.0217009344306     0.995793628143      -0.0678327765969    0.995793628143      -0.0678327765969    0.00309682453238    0.0217009344306     
3300000000.0        0.00319186416995    0.0223745075793     0.995629499662      -0.0699495031893    0.995629499662      -0.0699495031893    0.00319186416995    0.0223745075793     
3400000000.0        0.00328975679794    0.0230476711997     0.995460421691      -0.0720659214127    0.995460421691      -0.0720659214127    0.00328975679794    0.0230476711997     
3500000000.0        0.003390502256      0.0237204138315     0.995286393505      -0.0741820196111    0.995286393505      -0.0741820196111    0.003390502256      0.0237204138315     
3600000000.0        0.00349410023656    0.0243927240409     0.995107414519      -0.0762977860824    0.995107414519      -0.0762977860824    0.00349410023656    0.0243927240409     
3700000000.0        0.00360055029548    0.0250645904195     0.994923484278      -0.078413209081     0.994923484278      -0.078413209081     0.00360055029548    0.0250645904195     
3800000000.0        0.00370985186138    0.0257360015853     0.994734602442      -0.0805282768195    0.994734602442      -0.0805282768195    0.00370985186138    0.0257360015853     
3900000000.0        0.00382200424393    0.0264069461815     0.994540768788      -0.0826429774716    0.994540768788      -0.0826429774716    0.00382200424393    0.0264069461815     
4000000000.0        0.00393700664108    0.0270774128774     0.994341983192      -0.0847572991736    0.994341983192      -0.0847572991736    0.00393700664108    0.0270774128774     
4100000000.0        0.0040548581456     0.0277473903676     0.994138245633      -0.0868712300265    0.994138245633      -0.0868712300265    0.00405485814561    0.0277473903676     
4200000000.0        0.00417555775083    0.0284168673721     0.993929556179      -0.0889847580977    0.993929556179      -0.0889847580977    0.00417555775083    0.0284168673721     
4300000000.0        0.00429910435579    0.0290858326362     0.99371591499       -0.0910978714231    0.99371591499       -0.0910978714231    0.00429910435579    0.0290858326362     
4400000000.0        0.00442549676984    0.0297542749305     0.993497322305      -0.0932105580078    0.993497322305      -0.0932105580078    0.00442549676984    0.0297542749305     
4500000000.0        0.00455473371678    0.0304221830504     0.993273778447      -0.0953228058287    0.993273778447      -0.0953228058287    0.00455473371678    0.0304221830504     
4600000000.0        0.00468681383865    0.0310895458163     0.993045283814      -0.0974346028353    0.993045283814      -0.0974346028353    0.00468681383865    0.0310895458163     
4700000000.0        0.00482173569904    0.0317563520732     0.992811838875      -0.0995459369509    0.992811838875      -0.0995459369509    0.00482173569904    0.0317563520732     
4800000000.0        0.00495949778616    0.0324225906909     0.992573444172      -0.101656796075     0.992573444172      -0.101656796075     0.00495949778616    0.0324225906909     
4900000000.0        0.00510009851563    0.0330882505636     0.992330100314      -0.103767168082     0.992330100314      -0.103767168082     0.00510009851562    0.0330882505636     
5000000000.0        0.00524353623298    0.0337533206097     0.992081807976      -0.105877040826     0.992081807976      -0.105877040826     0.00524353623298    0.0337533206097     
5100000000.0        0.00538980921598    0.034417789772      0.991828567895      -0.107986402138     0.991828567895      -0.107986402138     0.00538980921598    0.034417789772      
5200000000.0        0.00553891567671    0.0350816470173     0.991570380872      -0.110095239833     0.991570380872      -0.110095239833     0.00553891567671    0.0350816470173     
5300000000.0        0.00569085376349    0.0357448813364     0.991307247765      -0.112203541701     0.991307247765      -0.112203541701     0.00569085376349    0.0357448813364     
5400000000.0        0.00584562156267    0.0364074817439     0.991039169493      -0.114311295519     0.991039169493      -0.114311295519     0.00584562156267    0.0364074817439     
5500000000.0        0.00600321710023    0.037069437278      0.99076614703       -0.116418489045     0.99076614703       -0.116418489045     0.00600321710023    0.037069437278      
5600000000.0        0.0061636383433     0.0377307370008     0.990488181406      -0.11852511002      0.990488181406      -0.11852511002      0.0061636383433     0.0377307370008     
5700000000.0        0.0063268832015     0.0383913699977     0.990205273707      -0.120631146172     0.990205273707      -0.120631146172     0.0063268832015     0.0383913699977     
5800000000.0        0.00649294952829    0.0390513253773     0.989917425069      -0.122736585212     0.989917425069      -0.122736585212     0.00649294952829    0.0390513253773     
5900000000.0        0.00666183512208    0.0397105922718     0.989624636683      -0.12484141484      0.989624636683      -0.12484141484      0.00666183512208    0.0397105922718     
6000000000.0        0.00683353772738    0.0403691598363     0.98932690979       -0.12694562274      0.98932690979       -0.12694562274      0.00683353772738    0.0403691598363     
6100000000.0        0.00700805503581    0.0410270172492     0.989024245683      -0.129049196587     0.989024245683      -0.129049196587     0.00700805503581    0.0410270172492     
6200000000.0        0.00718538468702    0.0416841537117     0.988716645703      -0.131152124043     0.988716645703      -0.131152124043     0.00718538468702    0.0416841537117     
6300000000.0        0.00736552426963    0.0423405584479     0.98840411124       -0.133254392758     0.98840411124       -0.133254392758     0.00736552426963    0.0423405584479     
6400000000.0        0.00754847132204    0.0429962207047     0.988086643733      -0.135355990375     0.988086643733      -0.135355990375     0.00754847132204    0.0429962207047     
6500000000.0        0.0077342233332     0.0436511297517     0.987764244669      -0.137456904525     0.987764244669      -0.137456904525     0.0077342233332     0.0436511297517     
6600000000.0        0.00792277774335    0.0443052748811     0.987436915581      -0.139557122832     0.987436915581      -0.139557122832     0.00792277774335    0.0443052748811     
6700000000.0        0.00811413194467    0.0449586454077     0.987104658049      -0.141656632911     0.987104658049      -0.141656632911     0.00811413194467    0.0449586454077     
6800000000.0        0.00830828328198    0.0456112306687     0.986767473699      -0.143755422369     0.986767473699      -0.143755422369     0.00830828328198    0.0456112306687     
6900000000.0        0.00850522905332    0.0462630200236     0.986425364202      -0.145853478806     0.986425364202      -0.145853478806     0.00850522905332    0.0462630200236     
7000000000.0        0.00870496651049    0.0469140028543     0.986078331275      -0.147950789817     0.986078331275      -0.147950789817     0.00870496651049    0.0469140028543     
7100000000.0        0.00890749285964    0.0475641685651     0.98572637668       -0.15004734299      0.98572637668       -0.15004734299      0.00890749285964    0.0475641685651     
7200000000.0        0.00911280526177    0.0482135065821     0.985369502221      -0.152143125907     0.985369502221      -0.152143125907     0.00911280526177    0.0482135065821     
7300000000.0        0.00932090083316    0.0488620063539     0.985007709748      -0.154238126146     0.985007709748      -0.154238126146     0.00932090083316    0.0488620063539     
7400000000.0        0.00953177664592    0.049509657351      0.984641001154      -0.156332331281     0.984641001154      -0.156332331281     0.00953177664592    0.049509657351      
7500000000.0        0.00974542972832    0.0501564490658     0.984269378375      -0.158425728881     0.984269378375      -0.158425728881     0.00974542972832    0.0501564490658     
7600000000.0        0.00996185706531    0.0508023710129     0.98389284339       -0.160518306512     0.98389284339       -0.160518306512     0.00996185706531    0.0508023710129     
7700000000.0        0.0101810555988     0.0514474127285     0.983511398221      -0.162610051737     0.983511398221      -0.162610051737     0.0101810555988     0.0514474127285     
7800000000.0        0.0104030222282     0.052091563771      0.983125044931      -0.164700952116     0.983125044931      -0.164700952116     0.0104030222282     0.052091563771      
7900000000.0        0.0106277538106     0.0527348137202     0.982733785628      -0.166790995208     0.982733785628      -0.166790995208     0.0106277538106     0.0527348137202     
8000000000.0        0.0108552471611     0.053377152178      0.98233762246       -0.168880168569     0.98233762246       -0.168880168569     0.0108552471611     0.053377152178      
8100000000.0        0.0110854990534     0.0540185687679     0.981936557615      -0.170968459754     0.981936557615      -0.170968459754     0.0110854990534     0.0540185687679     
8200000000.0        0.0113185062199     0.0546590531351     0.981530593325      -0.173055856318     0.981530593325      -0.173055856318     0.0113185062199     0.0546590531351     
8300000000.0        0.0115542653519     0.0552985949465     0.981119731864      -0.175142345813     0.981119731864      -0.175142345813     0.0115542653519     0.0552985949465     
8400000000.0        0.0117927731001     0.0559371838905     0.980703975543      -0.177227915795     0.980703975543      -0.177227915795     0.0117927731001     0.0559371838905     
8500000000.0        0.0120340260749     0.0565748096771     0.980283326717      -0.179312553816     0.980283326717      -0.179312553816     0.0120340260749     0.0565748096771     
8600000000.0        0.0122780208464     0.0572114620381     0.979857787782      -0.181396247431     0.979857787782      -0.181396247431     0.0122780208464     0.0572114620381     
8700000000.0        0.012524753945      0.0578471307265     0.979427361172      -0.183478984195     0.979427361172      -0.183478984195     0.012524753945      0.0578471307265     
8800000000.0        0.0127742218613     0.0584818055171     0.978992049364      -0.185560751664     0.978992049364      -0.185560751664     0.0127742218613     0.0584818055171     
8900000000.0        0.0130264210466     0.0591154762059     0.978551854873      -0.187641537396     0.978551854873      -0.187641537396     0.0130264210466     0.0591154762059     
9000000000.0        0.0132813479131     0.0597481326106     0.978106780255      -0.189721328952     0.978106780255      -0.189721328952     0.0132813479131     0.0597481326106     
9100000000.0        0.0135389988339     0.0603797645703     0.977656828106      -0.191800113894     0.977656828106      -0.191800113894     0.0135389988339     0.0603797645703     
9200000000.0        0.0137993701434     0.0610103619454     0.977202001061      -0.193877879786     0.977202001061      -0.193877879786     0.0137993701434     0.0610103619454     
9300000000.0        0.0140624581377     0.0616399146178     0.976742301795      -0.195954614196     0.976742301795      -0.195954614196     0.0140624581377     0.0616399146178     
9400000000.0        0.0143282590743     0.062268412491      0.976277733023      -0.198030304694     0.976277733023      -0.198030304694     0.0143282590743     0.062268412491      
9500000000.0        0.0145967691727     0.0628958454896     0.975808297499      -0.200104938855     0.975808297499      -0.200104938855     0.0145967691727     0.0628958454896     
9600000000.0        0.0148679846145     0.0635222035597     0.975333998016      -0.202178504257     0.975333998016      -0.202178504257     0.0148679846145     0.0635222035597     
9700000000.0        0.0151419015435     0.0641474766687     0.974854837405      -0.204250988482     0.974854837405      -0.204250988482     0.0151419015435     0.0641474766687     
9800000000.0        0.015418516066      0.0647716548056     0.974370818539      -0.206322379116     0.974370818539      -0.206322379116     0.015418516066      0.0647716548056     
9900000000.0        0.0156978242509     0.0653947279804     0.973881944326      -0.20839266375      0.973881944326      -0.20839266375      0.0156978242509     0.0653947279804     
10000000000.0       0.0159798221297     0.0660166862248     0.973388217716      -0.210461829979     0.973388217716      -0.210461829979     0.0159798221297     0.0660166862248     
