# Hz S RI R 50.00 
100000000.0         0.00824300185071    0.000991523552407   0.991745732465      -0.00467413332079   0.991745732465      -0.00467413332079   0.00824300185071    0.000991523552407   
200000000.0         0.00830989602613    0.00198234315732    0.991654972802      -0.0093475147649    0.991654972802      -0.0093475147649    0.00830989602613    0.00198234315732    
300000000.0         0.00837175673249    0.00297261486672    0.991555646219      -0.0140202712999    0.991555646219      -0.0140202712999    0.00837175673249    0.00297261486672    
400000000.0         0.00843568302542    0.00396233235946    0.991440653109      -0.0186923658976    0.991440653109      -0.0186923658976    0.00843568302542    0.00396233235946    
500000000.0         0.00850440591594    0.0049514518311     0.991307261884      -0.0233637232315    0.991307261884      -0.0233637232315    0.00850440591594    0.0049514518311     
600000000.0         0.00857931517742    0.00593991300318    0.991154082155      -0.0280342509684    0.991154082155      -0.0280342509684    0.00857931517742    0.00593991300318    
700000000.0         0.00866122874277    0.00692764664758    0.990980295321      -0.0327038474357    0.990980295321      -0.0327038474357    0.00866122874277    0.00692764664758    
800000000.0         0.00875067348509    0.00791457806859    0.990785373794      -0.0373724051877    0.990785373794      -0.0373724051877    0.00875067348509    0.00791457806859    
900000000.0         0.00884801022224    0.00890062897034    0.990568955985      -0.0420398129286    0.990568955985      -0.0420398129286    0.00884801022224    0.00890062897034    
1000000000.0        0.00895349707151    0.00988571856202    0.990330782957      -0.0467059566559    0.990330782957      -0.0467059566559    0.00895349707151    0.00988571856202    
1100000000.0        0.00906732466292    0.0108697642603     0.990070663208      -0.0513707203904    0.990070663208      -0.0513707203904    0.00906732466292    0.0108697642603     
1200000000.0        0.00918963711912    0.0118526821608     0.989788451692      -0.0560339866689    0.989788451692      -0.0560339866689    0.00918963711912    0.0118526821608     
1300000000.0        0.00932054525304    0.0128343873691     0.989484036622      -0.0606956368908    0.989484036622      -0.0606956368908    0.00932054525304    0.0128343873691     
1400000000.0        0.00946013524153    0.0138147942408     0.989157330799      -0.0653555515708    0.989157330799      -0.0653555515708    0.00946013524153    0.0138147942408     
1500000000.0        0.00960847453515    0.0147938165619     0.988808265699      -0.0700136105296    0.988808265699      -0.0700136105296    0.00960847453515    0.0147938165619     
1600000000.0        0.00976561600848    0.0157713676873     0.98843678733       -0.0746696930405    0.98843678733       -0.0746696930405    0.00976561600848    0.0157713676873     
1700000000.0        0.00993160095089    0.0167473606499     0.988042853234      -0.0793236779446    0.988042853234      -0.0793236779446    0.00993160095089    0.0167473606499     
1800000000.0        0.0101064612702     0.017721708248      0.987626430293      -0.0839754437447    0.987626430293      -0.0839754437447    0.0101064612702     0.017721708248      
1900000000.0        0.0102902211484     0.0186943231176     0.987187493064      -0.0886248686806    0.987187493064      -0.0886248686806    0.0102902211484     0.0186943231176     
2000000000.0        0.0104828983063     0.0196651177917     0.986726022526      -0.0932718307936    0.986726022526      -0.0932718307936    0.0104828983063     0.0196651177917     
2100000000.0        0.0106845049859     0.0206340047505     0.98624200509       -0.0979162079791    0.98624200509       -0.0979162079791    0.0106845049859     0.0206340047505     
2200000000.0        0.0108950487219     0.0216008964653     0.985735431832      -0.102557878033     0.985735431832      -0.102557878033     0.0108950487219     0.0216008964653     
2300000000.0        0.0111145329566     0.0225657054357     0.98520629788       -0.107196718691     0.98520629788       -0.107196718691     0.0111145329566     0.0225657054357     
2400000000.0        0.0113429575348     0.0235283442224     0.984654601915      -0.111832607665     0.984654601915      -0.111832607665     0.0113429575348     0.0235283442224     
2500000000.0        0.0115803191066     0.0244887254772     0.984080345776      -0.11646542267      0.984080345776      -0.11646542267      0.0115803191066     0.0244887254772     
2600000000.0        0.0118266114576     0.0254467619685     0.983483534124      -0.121095041457     0.983483534124      -0.121095041457     0.0118266114576     0.0254467619685     
2700000000.0        0.0120818257827     0.026402366606      0.982864174174      -0.125721341833     0.982864174174      -0.125721341833     0.0120818257827     0.026402366606      
2800000000.0        0.0123459509145     0.027355452462      0.982222275463      -0.130344201688     0.982222275463      -0.130344201688     0.0123459509145     0.027355452462      
2900000000.0        0.0126189735155     0.0283059327916     0.981557849661      -0.13496349901      0.981557849661      -0.13496349901      0.0126189735155     0.0283059327916     
3000000000.0        0.012900878241      0.0292537210515     0.980870910411      -0.139579111911     0.980870910411      -0.139579111911     0.012900878241      0.0292537210515     
3100000000.0        0.0131916478775     0.0301987309174     0.980161473186      -0.14419091864      0.980161473186      -0.14419091864      0.0131916478775     0.0301987309174     
3200000000.0        0.0134912634622     0.0311408763004     0.979429555175      -0.148798797599     0.979429555175      -0.148798797599     0.0134912634622     0.0311408763004     
3300000000.0        0.0137997043854     0.0320800713624     0.978675175178      -0.153402627363     0.978675175178      -0.153402627363     0.0137997043854     0.0320800713624     
3400000000.0        0.01411694848       0.0330162305307     0.977898353519      -0.15800228669      0.977898353519      -0.15800228669      0.01411694848       0.0330162305307     
3500000000.0        0.0144429720992     0.0339492685123     0.97709911197       -0.162597654538     0.97709911197       -0.162597654538     0.0144429720992     0.0339492685123     
3600000000.0        0.0147777501853     0.0348791003071     0.976277473681      -0.167188610078     0.976277473681      -0.167188610078     0.0147777501853     0.0348791003071     
3700000000.0        0.0151212563292     0.0358056412207     0.975433463121      -0.171775032702     0.975433463121      -0.171775032702     0.0151212563292     0.0358056412207     
3800000000.0        0.0154734628251     0.036728806877      0.974567106027      -0.176356802043     0.974567106027      -0.176356802043     0.0154734628251     0.036728806877      
3900000000.0        0.0158343407169     0.0376485132301     0.973678429352      -0.18093379798      0.973678429352      -0.18093379798      0.0158343407169     0.0376485132301     
4000000000.0        0.0162038598419     0.0385646765759     0.972767461232      -0.185505900652     0.972767461232      -0.185505900652     0.0162038598419     0.0385646765759     
4100000000.0        0.0165819888687     0.0394772135631     0.971834230939      -0.190072990469     0.971834230939      -0.190072990469     0.0165819888687     0.0394772135631     
4200000000.0        0.0169686953322     0.0403860412047     0.970878768852      -0.194634948121     0.970878768852      -0.194634948121     0.0169686953322     0.0403860412047     
4300000000.0        0.017363945665      0.0412910768882     0.969901106426      -0.199191654588     0.969901106426      -0.199191654588     0.017363945665      0.0412910768882     
4400000000.0        0.0177677052261     0.0421922383861     0.968901276161      -0.203742991153     0.968901276161      -0.203742991153     0.0177677052261     0.0421922383861     
4500000000.0        0.0181799383276     0.0430894438662     0.967879311581      -0.208288839406     0.967879311581      -0.208288839406     0.0181799383276     0.0430894438662     
4600000000.0        0.0186006082586     0.0439826119014     0.966835247205      -0.212829081259     0.966835247205      -0.212829081259     0.0186006082586     0.0439826119014     
4700000000.0        0.019029677308      0.0448716614794     0.965769118532      -0.217363598952     0.965769118532      -0.217363598952     0.019029677308      0.0448716614794     
4800000000.0        0.019467106785      0.0457565120123     0.964680962013      -0.22189227506      0.964680962013      -0.22189227506      0.019467106785      0.0457565120123     
4900000000.0        0.0199128570389     0.0466370833462     0.963570815039      -0.226414992508     0.963570815039      -0.226414992508     0.0199128570389     0.0466370833462     
5000000000.0        0.0203668874769     0.0475132957699     0.96243871592       -0.230931634571     0.96243871592       -0.230931634571     0.0203668874769     0.0475132957699     
5100000000.0        0.0208291565816     0.048385070024      0.96128470387       -0.235442084889     0.96128470387       -0.235442084889     0.0208291565816     0.048385070024      
5200000000.0        0.0212996219267     0.0492523273102     0.960108818991      -0.239946227473     0.960108818991      -0.239946227473     0.0212996219267     0.0492523273102     
5300000000.0        0.0217782401927     0.0501149892995     0.958911102259      -0.244443946709     0.958911102259      -0.244443946709     0.0217782401927     0.0501149892995     
5400000000.0        0.022264967181      0.0509729781411     0.957691595509      -0.248935127374     0.957691595509      -0.248935127374     0.022264967181      0.0509729781411     
5500000000.0        0.022759757828      0.0518262164705     0.956450341424      -0.253419654634     0.956450341424      -0.253419654634     0.022759757828      0.0518262164705     
5600000000.0        0.0232625662185     0.0526746274179     0.955187383522      -0.25789741406      0.955187383522      -0.25789741406      0.0232625662185     0.0526746274179     
5700000000.0        0.0237733455981     0.0535181346168     0.953902766142      -0.262368291629     0.953902766142      -0.262368291629     0.0237733455981     0.0535181346168     
5800000000.0        0.0242920483855     0.0543566622111     0.952596534434      -0.266832173735     0.952596534434      -0.266832173735     0.0242920483855     0.0543566622111     
5900000000.0        0.0248186261844     0.0551901348639     0.95126873435       -0.271288947193     0.95126873435       -0.271288947193     0.0248186261844     0.0551901348639     
6000000000.0        0.0253530297952     0.0560184777648     0.94991941263       -0.275738499248     0.94991941263       -0.275738499248     0.0253530297952     0.0560184777648     
6100000000.0        0.0258952092258     0.0568416166376     0.948548616792      -0.280180717582     0.948548616792      -0.280180717582     0.0258952092258     0.0568416166376     
6200000000.0        0.0264451137023     0.0576594777481     0.947156395125      -0.284615490319     0.947156395125      -0.284615490319     0.0264451137023     0.0576594777481     
6300000000.0        0.0270026916802     0.058471987911      0.945742796676      -0.289042706032     0.945742796676      -0.289042706032     0.0270026916802     0.058471987911      
6400000000.0        0.0275678908541     0.0592790744978     0.944307871243      -0.29346225375      0.944307871243      -0.29346225375      0.0275678908541     0.0592790744978     
6500000000.0        0.0281406581682     0.0600806654438     0.942851669362      -0.297874022965     0.942851669362      -0.297874022965     0.0281406581682     0.0600806654438     
6600000000.0        0.0287209398259     0.060876689255      0.941374242303      -0.302277903634     0.941374242303      -0.302277903634     0.0287209398259     0.060876689255      
6700000000.0        0.0293086812999     0.0616670750152     0.939875642057      -0.30667378619      0.939875642057      -0.30667378619      0.0293086812999     0.0616670750152     
6800000000.0        0.0299038273419     0.0624517523929     0.938355921329      -0.311061561546     0.938355921329      -0.311061561546     0.0299038273419     0.0624517523929     
6900000000.0        0.0305063219917     0.0632306516482     0.93681513353       -0.3154411211       0.93681513353       -0.3154411211       0.0305063219917     0.0632306516482     
7000000000.0        0.0311161085866     0.0640037036391     0.935253332766      -0.319812356742     0.935253332766      -0.319812356742     0.0311161085866     0.0640037036391     
7100000000.0        0.0317331297714     0.0647708398283     0.933670573831      -0.324175160857     0.933670573831      -0.324175160857     0.0317331297714     0.0647708398283     
7200000000.0        0.0323573275064     0.0655319922896     0.9320669122        -0.328529426336     0.9320669122        -0.328529426336     0.0323573275064     0.0655319922896     
7300000000.0        0.0329886430777     0.0662870937144     0.93044240402       -0.332875046573     0.93044240402       -0.332875046573     0.0329886430777     0.0662870937144     
7400000000.0        0.0336270171054     0.0670360774174     0.9287971061        -0.337211915479     0.9287971061        -0.337211915479     0.0336270171054     0.0670360774174     
7500000000.0        0.0342723895529     0.0677788773433     0.927131075905      -0.34153992748      0.927131075905      -0.34153992748      0.0342723895529     0.0677788773433     
7600000000.0        0.0349246997356     0.0685154280727     0.925444371548      -0.345858977527     0.925444371548      -0.345858977527     0.0349246997356     0.0685154280727     
7700000000.0        0.0355838863303     0.0692456648276     0.923737051781      -0.350168961098     0.923737051781      -0.350168961098     0.0355838863303     0.0692456648276     
7800000000.0        0.0362498873834     0.0699695234777     0.922009175987      -0.354469774204     0.922009175987      -0.354469774204     0.0362498873834     0.0699695234777     
7900000000.0        0.0369226403198     0.0706869405461     0.920260804173      -0.358761313393     0.920260804173      -0.358761313393     0.0369226403198     0.0706869405461     
8000000000.0        0.0376020819522     0.0713978532143     0.918491996964      -0.363043475755     0.918491996964      -0.363043475755     0.0376020819522     0.0713978532143     
8100000000.0        0.038288148489      0.0721021993285     0.91670281559       -0.367316158927     0.91670281559       -0.367316158927     0.038288148489      0.0721021993285     
8200000000.0        0.0389807755436     0.0727999174044     0.914893321884      -0.371579261096     0.914893321884      -0.371579261096     0.0389807755436     0.0727999174044     
8300000000.0        0.0396798981431     0.0734909466329     0.913063578269      -0.375832681006     0.913063578269      -0.375832681006     0.0396798981431     0.0734909466329     
8400000000.0        0.0403854507365     0.0741752268849     0.911213647757      -0.380076317957     0.911213647757      -0.380076317957     0.0403854507365     0.0741752268849     
8500000000.0        0.0410973672036     0.0748526987166     0.909343593934      -0.384310071815     0.909343593934      -0.384310071815     0.0410973672036     0.0748526987166     
8600000000.0        0.0418155808639     0.0755233033746     0.907453480956      -0.388533843012     0.907453480956      -0.388533843012     0.0418155808639     0.0755233033746     
8700000000.0        0.042540024485      0.0761869828005     0.905543373543      -0.392747532552     0.905543373543      -0.392747532552     0.042540024485      0.0761869828005     
8800000000.0        0.0432706302909     0.0768436796359     0.903613336969      -0.396951042013     0.903613336969      -0.396951042013     0.0432706302909     0.0768436796359     
8900000000.0        0.0440073299712     0.0774933372269     0.901663437054      -0.401144273552     0.901663437054      -0.401144273552     0.0440073299712     0.0774933372269     
9000000000.0        0.0447500546895     0.0781358996288     0.899693740158      -0.405327129907     0.899693740158      -0.405327129907     0.0447500546895     0.0781358996288     
9100000000.0        0.0454987350918     0.0787713116105     0.897704313173      -0.409499514403     0.897704313173      -0.409499514403     0.0454987350918     0.0787713116105     
9200000000.0        0.0462533013154     0.0793995186588     0.895695223515      -0.413661330953     0.895695223515      -0.413661330953     0.0462533013154     0.0793995186588     
9300000000.0        0.0470136829973     0.0800204669829     0.893666539116      -0.417812484061     0.893666539116      -0.417812484061     0.0470136829973     0.0800204669829     
9400000000.0        0.047779809283      0.0806341035181     0.891618328418      -0.421952878829     0.891618328418      -0.421952878829     0.047779809283      0.0806341035181     
9500000000.0        0.0485516088347     0.0812403759305     0.889550660366      -0.426082420953     0.889550660366      -0.426082420953     0.0485516088347     0.0812403759305     
9600000000.0        0.0493290098406     0.0818392326203     0.887463604397      -0.430201016735     0.887463604397      -0.430201016735     0.0493290098406     0.0818392326203     
9700000000.0        0.0501119400228     0.0824306227261     0.885357230436      -0.434308573076     0.885357230436      -0.434308573076     0.0501119400228     0.0824306227261     
9800000000.0        0.0509003266462     0.0830144961284     0.883231608887      -0.438404997487     0.883231608887      -0.438404997487     0.0509003266462     0.0830144961284     
9900000000.0        0.0516940965272     0.0835908034533     0.881086810625      -0.442490198086     0.881086810625      -0.442490198086     0.0516940965272     0.0835908034533     
10000000000.0       0.0524931760422     0.0841594960762     0.878922906991      -0.446564083606     0.878922906991      -0.446564083606     0.0524931760422     0.0841594960762     
