# Hz S RI R 50.00 
100000000.0         0.000198261193888   -0.0094399158335    0.999569788268      -0.0110958735065    0.999569788268      -0.0110958735065    0.000198261193888   -0.0094399158335    
200000000.0         -0.000123812246078  -0.0188734662565    0.99923934269       -0.0221854462644    0.99923934269       -0.0221854462644    -0.000123812246079  -0.0188734662565    
300000000.0         -0.000655479502355  -0.0282945169115    0.998697641296      -0.0332626402196    0.998697641296      -0.0332626402196    -0.000655479502355  -0.0282945169115    
400000000.0         -0.00139587163102   -0.0376969134834    0.997945011106      -0.0443213470842    0.997945011106      -0.0443213470842    -0.00139587163102   -0.0376969134834    
500000000.0         -0.00234404686429   -0.0470745138931    0.996982184974      -0.0553554666402    0.996982184974      -0.0553554666402    -0.00234404686429   -0.0470745138931    
600000000.0         -0.00349887590238   -0.0564212074836    0.99581018509       -0.0663589275636    0.99581018509       -0.0663589275636    -0.00349887590238   -0.0564212074836    
700000000.0         -0.00485901458426   -0.065730930495     0.994430291646      -0.0773257036635    0.994430291646      -0.0773257036635    -0.00485901458426   -0.065730930495     
800000000.0         -0.00642289612125   -0.0749976798417    0.992844029216      -0.0882498280946    0.992844029216      -0.0882498280946    -0.00642289612125   -0.0749976798417    
900000000.0         -0.00818873008042   -0.0842155258806    0.991053158277      -0.0991254064024    0.991053158277      -0.0991254064024    -0.00818873008042   -0.0842155258806    
1000000000.0        -0.01015450446      -0.0933786244468    0.989059668327      -0.10994662875      0.989059668327      -0.10994662875      -0.01015450446      -0.0933786244468    
1100000000.0        -0.0123179895274    -0.102481228282     0.986865771377      -0.120707781484     0.986865771377      -0.120707781484     -0.0123179895274    -0.102481228282     
1200000000.0        -0.0146767428449    -0.1115176979       0.984473895341      -0.131403258106     0.984473895341      -0.131403258106     -0.0146767428449    -0.1115176979       
1300000000.0        -0.0172281151949    -0.120482511918     0.981886677117      -0.142027569684     0.981886677117      -0.142027569684     -0.0172281151949    -0.120482511918     
1400000000.0        -0.0199692572388    -0.129370276832     0.979106955273      -0.152575354692     0.979106955273      -0.152575354692     -0.0199692572388    -0.129370276832     
1500000000.0        -0.0228971268007    -0.138175736252     0.976137762321      -0.163041388304     0.976137762321      -0.163041388304     -0.0228971268007    -0.138175736252     
1600000000.0        -0.026008496695     -0.146893779562     0.97298231658       -0.17342059109      0.97298231658       -0.17342059109      -0.026008496695     -0.146893779562     
1700000000.0        -0.0292999630322    -0.155519450003     0.969644013645      -0.183708037143     0.969644013645      -0.183708037143     -0.0292999630322    -0.155519450003     
1800000000.0        -0.0327679539435    -0.164047952154     0.966126417498      -0.193898961592     0.966126417498      -0.193898961592     -0.0327679539435    -0.164047952154     
1900000000.0        -0.0364087386719    -0.172474658814     0.962433251295      -0.203988767506     0.962433251295      -0.203988767506     -0.0364087386719    -0.172474658814     
2000000000.0        -0.0402184369768    -0.180795117253     0.958568387869      -0.213973032176     0.958568387869      -0.213973032176     -0.0402184369768    -0.180795117253     
2100000000.0        -0.0441930288045    -0.189005054842     0.954535839985      -0.223847512762     0.954535839985      -0.223847512762     -0.0441930288045    -0.189005054842     
2200000000.0        -0.0483283641751    -0.197100384042     0.950339750398      -0.233608151305     0.950339750398      -0.233608151305     -0.0483283641751    -0.197100384042     
2300000000.0        -0.0526201732391    -0.205077206766     0.94598438175       -0.243251079101     0.94598438175       -0.243251079101     -0.0526201732391    -0.205077206766     
2400000000.0        -0.0570640764576    -0.212931818094     0.941474106354      -0.252772620438     0.941474106354      -0.252772620438     -0.0570640764576    -0.212931818094     
2500000000.0        -0.0616555948619    -0.220660709363     0.936813395906      -0.262169295694     0.936813395906      -0.262169295694     -0.0616555948619    -0.220660709363     
2600000000.0        -0.0663901603483    -0.228260570628     0.932006811165      -0.271437823813     0.932006811165      -0.271437823813     -0.0663901603483    -0.228260570628     
2700000000.0        -0.0712631259663    -0.235728292501     0.927058991645      -0.280575124159     0.927058991645      -0.280575124159     -0.0712631259663    -0.235728292501     
2800000000.0        -0.0762697761603    -0.243060967395     0.921974645359      -0.289578317764     0.921974645359      -0.289578317764     -0.0762697761603    -0.243060967395     
2900000000.0        -0.0814053369251    -0.250255890166     0.916758538645      -0.298444727988     0.916758538645      -0.298444727988     -0.0814053369251    -0.250255890166     
3000000000.0        -0.0866649858403    -0.257310558189     0.911415486125      -0.307171880598     0.911415486125      -0.307171880598     -0.0866649858403    -0.257310558189     
3100000000.0        -0.0920438619469    -0.264222670877     0.905950340814      -0.315757503296     0.905950340814      -0.315757503296     -0.0920438619469    -0.264222670877     
3200000000.0        -0.0975370754357    -0.270990128663     0.900367984425      -0.324199524716     0.900367984425      -0.324199524716     -0.0975370754357    -0.270990128663     
3300000000.0        -0.103139717116     -0.277611031475     0.894673317893      -0.332496072899     0.894673317893      -0.332496072899     -0.103139717116     -0.277611031475     
3400000000.0        -0.108846867637     -0.28408367673      0.888871252146      -0.340645473294     0.888871252146      -0.340645473294     -0.108846867637     -0.28408367673      
3500000000.0        -0.11465360644      -0.290406556851     0.882966699148      -0.348646246292     0.882966699148      -0.348646246292     -0.11465360644      -0.290406556851     
3600000000.0        -0.120555020408     -0.296578356374     0.876964563243      -0.356497104325     0.876964563243      -0.356497104325     -0.120555020408     -0.296578356374     
3700000000.0        -0.126546212212     -0.302597948626     0.870869732806      -0.364196948562     0.870869732806      -0.364196948562     -0.126546212212     -0.302597948626     
3800000000.0        -0.13262230831      -0.308464392049     0.864687072236      -0.371744865229     0.864687072236      -0.371744865229     -0.13262230831      -0.308464392049     
3900000000.0        -0.13877846661      -0.314176926154     0.858421414295      -0.379140121578     0.858421414295      -0.379140121578     -0.13877846661      -0.314176926154     
4000000000.0        -0.145009883764     -0.319734967175     0.852077552805      -0.386382161541     0.852077552805      -0.386382161541     -0.145009883764     -0.319734967175     
4100000000.0        -0.15131180209      -0.325138103425     0.845660235726      -0.393470601089     0.845660235726      -0.393470601089     -0.15131180209      -0.325138103425     
4200000000.0        -0.157679516117     -0.330386090393     0.839174158607      -0.400405223339     0.839174158607      -0.400405223339     -0.157679516117     -0.330386090393     
4300000000.0        -0.164108378742     -0.335478845612     0.832623958426      -0.407185973423     0.832623958426      -0.407185973423     -0.164108378742     -0.335478845612     
4400000000.0        -0.170593806995     -0.340416443323     0.826014207825      -0.413812953159     0.826014207825      -0.413812953159     -0.170593806995     -0.340416443323     
4500000000.0        -0.177131287412     -0.34519910897      0.819349409728      -0.420286415546     0.819349409728      -0.420286415546     -0.177131287412     -0.34519910897      
4600000000.0        -0.183716381017     -0.349827213541     0.812633992365      -0.426606759115     0.812633992365      -0.426606759115     -0.183716381017     -0.349827213541     
4700000000.0        -0.190344727913     -0.354301267796     0.805872304672      -0.432774522155     0.805872304672      -0.432774522155     -0.190344727913     -0.354301267796     
4800000000.0        -0.197012051483     -0.358621916395     0.79906861209       -0.438790376851     0.79906861209       -0.438790376851     -0.197012051483     -0.358621916395     
4900000000.0        -0.203714162213     -0.362789931959     0.792227092743      -0.444655123344     0.792227092743      -0.444655123344     -0.203714162213     -0.362789931959     
5000000000.0        -0.210446961139     -0.366806209085     0.785351833984      -0.450369683748     0.785351833984      -0.450369683748     -0.210446961139     -0.366806209085     
5100000000.0        -0.217206442919     -0.370671758332     0.778446829322      -0.455935096147     0.778446829322      -0.455935096147     -0.217206442919     -0.370671758332     
5200000000.0        -0.223988698556     -0.374387700213     0.771515975701      -0.461352508584     0.771515975701      -0.461352508584     -0.223988698556     -0.374387700213     
5300000000.0        -0.230789917767     -0.377955259194     0.764563071123      -0.466623173065     0.764563071123      -0.466623173065     -0.230789917767     -0.377955259194     
5400000000.0        -0.237606391012     -0.381375757734     0.757591812622      -0.471748439602     0.757591812622      -0.471748439602     -0.237606391012     -0.381375757734     
5500000000.0        -0.244434511198     -0.384650610376     0.750605794554      -0.476729750309     0.750605794554      -0.476729750309     -0.244434511198     -0.384650610376     
5600000000.0        -0.251270775072     -0.38778131791      0.743608507205      -0.481568633564     0.743608507205      -0.481568633564     -0.251270775072     -0.38778131791      
5700000000.0        -0.258111784311     -0.390769461613     0.736603335698      -0.486266698256     0.736603335698      -0.486266698256     -0.258111784311     -0.390769461613     
5800000000.0        -0.264954246316     -0.393616697589     0.729593559196      -0.490825628127     0.729593559196      -0.490825628127     -0.264954246316     -0.393616697589     
5900000000.0        -0.271794974749     -0.396324751224     0.722582350367      -0.495247176228     0.722582350367      -0.495247176228     -0.271794974749     -0.396324751224     
6000000000.0        -0.278630889789     -0.398895411748     0.715572775116      -0.499533159484     0.715572775116      -0.499533159484     -0.278630889789     -0.398895411748     
6100000000.0        -0.28545901816      -0.401330526942     0.70856779257       -0.503685453407     0.70856779257       -0.503685453407     -0.28545901816      -0.401330526942     
6200000000.0        -0.292276492917     -0.403631997968     0.701570255276      -0.507705986923     0.701570255276      -0.507705986923     -0.292276492917     -0.403631997968     
6300000000.0        -0.299080553013     -0.405801774358     0.69458290964       -0.51159673737      0.69458290964       -0.51159673737      -0.299080553013     -0.405801774358     
6400000000.0        -0.30586854267      -0.407841849149     0.687608396552      -0.51535972563      0.687608396552      -0.51535972563      -0.30586854267      -0.407841849149     
6500000000.0        -0.312637910552     -0.409754254171     0.680649252207      -0.518997011422     0.680649252207      -0.518997011422     -0.312637910552     -0.409754254171     
6600000000.0        -0.31938620877      -0.41154105551      0.673707909106      -0.522510688767     0.673707909106      -0.522510688767     -0.31938620877      -0.41154105551      
6700000000.0        -0.326111091713     -0.41320434912      0.666786697214      -0.525902881605     0.666786697214      -0.525902881605     -0.326111091713     -0.41320434912      
6800000000.0        -0.332810314744     -0.414746256619     0.659887845269      -0.529175739587     0.659887845269      -0.529175739587     -0.332810314744     -0.414746256619     
6900000000.0        -0.339481732745     -0.416168921241     0.653013482229      -0.532331434035     0.653013482229      -0.532331434035     -0.339481732745     -0.416168921241     
7000000000.0        -0.346123298551     -0.417474503968     0.646165638839      -0.535372154074     0.646165638839      -0.535372154074     -0.346123298551     -0.417474503968     
7100000000.0        -0.35273306126      -0.418665179826     0.639346249318      -0.538300102933     0.639346249318      -0.538300102933     -0.35273306126      -0.418665179826     
7200000000.0        -0.359309164453     -0.419743134361     0.632557153139      -0.541117494418     0.632557153139      -0.541117494418     -0.359309164453     -0.419743134361     
7300000000.0        -0.365849844315     -0.420710560274     0.625800096898      -0.543826549551     0.625800096898      -0.543826549551     -0.365849844315     -0.420710560274     
7400000000.0        -0.372353427686     -0.42156965423      0.619076736268      -0.546429493386     0.619076736268      -0.546429493386     -0.372353427686     -0.42156965423      
7500000000.0        -0.37881833004      -0.422322613832     0.612388638018      -0.548928551978     0.612388638018      -0.548928551978     -0.37881833004      -0.422322613832     
7600000000.0        -0.385243053402     -0.422971634762     0.605737282087      -0.551325949529     0.605737282087      -0.551325949529     -0.385243053402     -0.422971634762     
7700000000.0        -0.391626184221     -0.423518908074     0.599124063712      -0.553623905686     0.599124063712      -0.553623905686     -0.391626184221     -0.423518908074     
7800000000.0        -0.397966391199     -0.423966617655     0.592550295599      -0.555824632999     0.592550295599      -0.555824632999     -0.397966391199     -0.423966617655     
7900000000.0        -0.404262423093     -0.424316937833     0.586017210116      -0.557930334534     0.586017210116      -0.557930334534     -0.404262423093     -0.424316937833     
8000000000.0        -0.410513106478     -0.424572031139     0.579525961523      -0.559943201635     0.579525961523      -0.559943201635     -0.410513106478     -0.424572031139     
8100000000.0        -0.416717343513     -0.424734046211     0.573077628212      -0.561865411833     0.573077628212      -0.561865411833     -0.416717343513     -0.424734046211     
8200000000.0        -0.422874109679     -0.424805115849     0.566673214958      -0.563699126899     0.566673214958      -0.563699126899     -0.422874109679     -0.424805115849     
8300000000.0        -0.428982451521     -0.424787355195     0.560313655179      -0.565446491029     0.560313655179      -0.565446491029     -0.428982451521     -0.424787355195     
8400000000.0        -0.435041484391     -0.424682860057     0.553999813191      -0.56710962917      0.553999813191      -0.56710962917      -0.435041484391     -0.424682860057     
8500000000.0        -0.441050390195     -0.424493705359     0.547732486453      -0.568690645465     0.547732486453      -0.568690645465     -0.441050390195     -0.424493705359     
8600000000.0        -0.447008415154     -0.424221943706     0.541512407806      -0.570191621833     0.541512407806      -0.570191621833     -0.447008415154     -0.424221943706     
8700000000.0        -0.452914867579     -0.423869604086     0.535340247696      -0.57161461666      0.535340247696      -0.57161461666      -0.452914867579     -0.423869604086     
8800000000.0        -0.458769115675     -0.423438690668     0.529216616367      -0.572961663604     0.529216616367      -0.572961663604     -0.458769115675     -0.423438690668     
8900000000.0        -0.464570585354     -0.422931181721     0.523142066039      -0.574234770519     0.523142066039      -0.574234770519     -0.464570585354     -0.422931181721     
9000000000.0        -0.470318758094     -0.422349028635     0.517117093055      -0.575435918469     0.517117093055      -0.575435918469     -0.470318758094     -0.422349028635     
9100000000.0        -0.476013168813     -0.42169415504      0.511142139997      -0.57656706086      0.511142139997      -0.57656706086      -0.476013168813     -0.42169415504      
9200000000.0        -0.481653403789     -0.420968456025     0.505217597767      -0.577630122651     0.505217597767      -0.577630122651     -0.481653403789     -0.420968456025     
9300000000.0        -0.487239098608     -0.420173797443     0.49934380763       -0.578626999664     0.49934380763       -0.578626999664     -0.487239098608     -0.420173797443     
9400000000.0        -0.492769936155     -0.419312015308     0.493521063225      -0.579559557986     0.493521063225      -0.579559557986     -0.492769936155     -0.419312015308     
9500000000.0        -0.498245644643     -0.418384915268     0.487749612529      -0.580429633438     0.487749612529      -0.580429633438     -0.498245644643     -0.418384915268     
9600000000.0        -0.503665995688     -0.41739427216      0.482029659785      -0.581239031136     0.482029659785      -0.581239031136     -0.503665995688     -0.41739427216      
9700000000.0        -0.509030802419     -0.416341829638     0.476361367377      -0.581989525119     0.476361367377      -0.581989525119     -0.509030802419     -0.416341829638     
9800000000.0        -0.514339917643     -0.415229299869     0.470744857673      -0.582682858045     0.470744857673      -0.582682858045     -0.514339917643     -0.415229299869     
9900000000.0        -0.519593232044     -0.414058363295     0.465180214811      -0.583320740958     0.465180214811      -0.583320740958     -0.519593232044     -0.414058363295     
10000000000.0       -0.524790672443     -0.412830668458     0.459667486448      -0.583904853109     0.459667486448      -0.583904853109     -0.524790672443     -0.412830668458     
