# Hz S RI R 50.00 
100000000.0         0.240709084483      0.00218545845184    0.759287864912      -0.00345003952326   0.759287864912      -0.00345003952326   0.240709084483      0.00218545845184    
200000000.0         0.241930298582      0.00435270494615    0.758062829822      -0.00688187019624   0.758062829822      -0.00688187019624   0.241930298582      0.00435270494615    
300000000.0         0.242839240002      0.00650907117321    0.757148295022      -0.0103028289859    0.757148295022      -0.0103028289859    0.242839240002      0.00650907117321    
400000000.0         0.243597234242      0.00865699550886    0.75638293362       -0.0137153592811    0.75638293362       -0.0137153592811    0.243597234242      0.00865699550886    
500000000.0         0.244266621734      0.0107977760548     0.755704404059      -0.0171207640642    0.755704404059      -0.0171207640642    0.244266621734      0.0107977760548     
600000000.0         0.244879292307      0.0129322052748     0.75508081553       -0.0205198405935    0.75508081553       -0.0205198405935    0.244879292307      0.0129322052748     
700000000.0         0.245454135924      0.0150607980945     0.754493277184      -0.0239131085264    0.754493277184      -0.0239131085264    0.245454135924      0.0150607980945     
800000000.0         0.246003421072      0.0171838977552     0.753929519709      -0.0273009157879    0.753929519709      -0.0273009157879    0.246003421072      0.0171838977552     
900000000.0         0.246535638727      0.0193017326972     0.753381051342      -0.0306834954631    0.753381051342      -0.0306834954631    0.246535638727      0.0193017326972     
1000000000.0        0.247056945848      0.0214144502554     0.752841714357      -0.0340609994992    0.752841714357      -0.0340609994992    0.247056945848      0.0214144502554     
1100000000.0        0.24757196885       0.023522138071      0.752306881591      -0.0374335201224    0.752306881591      -0.0374335201224    0.24757196885       0.023522138071      
1200000000.0        0.248084282982      0.0256248384408     0.751772977049      -0.0408011041908    0.751772977049      -0.0408011041908    0.248084282982      0.0256248384408     
1300000000.0        0.248596714306      0.0277225583463     0.751237173918      -0.0441637632259    0.751237173918      -0.0441637632259    0.248596714306      0.0277225583463     
1400000000.0        0.249111538436      0.0298152767037     0.750697195832      -0.0475214806664    0.750697195832      -0.0475214806664    0.249111538436      0.0298152767037     
1500000000.0        0.249630616123      0.0319029497576     0.750151181276      -0.0508742172619    0.750151181276      -0.0508742172619    0.249630616123      0.0319029497576     
1600000000.0        0.250155488597      0.0339855151867     0.749597588243      -0.0542219151817    0.749597588243      -0.0542219151817    0.250155488597      0.0339855151867     
1700000000.0        0.250687446364      0.0360628952966     0.749035125436      -0.0575645012084    0.749035125436      -0.0575645012084    0.250687446364      0.0360628952966     
1800000000.0        0.251227579943      0.0381349995449     0.748462701521      -0.060901889264     0.748462701521      -0.060901889264     0.251227579943      0.0381349995449     
1900000000.0        0.251776818042      0.0402017265708     0.74787938696       -0.0642339824408    0.74787938696       -0.0642339824408    0.251776818042      0.0402017265708     
2000000000.0        0.252335956751      0.0422629658489     0.747284384812      -0.0675606746558    0.747284384812      -0.0675606746558    0.252335956751      0.0422629658489     
2100000000.0        0.252905682215      0.0443185990527     0.746677008054      -0.0708818520153    0.746677008054      -0.0708818520153    0.252905682215      0.0443185990527     
2200000000.0        0.253486588486      0.0463685011928     0.746056661734      -0.0741973939534    0.746056661734      -0.0741973939534    0.253486588486      0.0463685011928     
2300000000.0        0.25407919174       0.0484125415759     0.745422828748      -0.0775071741915    0.745422828748      -0.0775071741915    0.25407919174       0.0484125415759     
2400000000.0        0.254683941738      0.0504505846199     0.744775058384      -0.0808110615547    0.744775058384      -0.0808110615547    0.254683941738      0.0504505846199     
2500000000.0        0.255301231136      0.0524824905538     0.744112957004      -0.0841089206713    0.744112957004      -0.0841089206713    0.255301231136      0.0524824905538     
2600000000.0        0.255931403148      0.0545081160225     0.743436180387      -0.0874006125784    0.743436180387      -0.0874006125784    0.255931403148      0.0545081160225     
2700000000.0        0.256574757872      0.0565273146133     0.742744427398      -0.0906859952488    0.742744427398      -0.0906859952488    0.256574757872      0.0565273146133     
2800000000.0        0.25723155758       0.0585399373182     0.742037434697      -0.0939649240533    0.742037434697      -0.0939649240533    0.25723155758       0.0585399373182     
2900000000.0        0.257902031159      0.0605458329406     0.7413149723        -0.0972372521685    0.7413149723        -0.0972372521685    0.257902031159      0.0605458329406     
3000000000.0        0.258586377871      0.0625448484576     0.74057683982       -0.100502830939     0.74057683982       -0.100502830939     0.258586377871      0.0625448484576     
3100000000.0        0.259284770547      0.0645368293421     0.739822863265      -0.103761510198     0.739822863265      -0.103761510198     0.259284770547      0.0645368293421     
3200000000.0        0.259997358329      0.0665216198526     0.739052892304      -0.107013138561     0.739052892304      -0.107013138561     0.259997358329      0.0665216198526     
3300000000.0        0.260724269025      0.0684990632939     0.738266797907      -0.110257563685     0.738266797907      -0.110257563685     0.260724269025      0.0684990632939     
3400000000.0        0.261465611152      0.070469002253      0.737464470303      -0.113494632502     0.737464470303      -0.113494632502     0.261465611152      0.070469002253      
3500000000.0        0.262221475707      0.0724312788141     0.736645817208      -0.116724191438     0.736645817208      -0.116724191438     0.262221475707      0.0724312788141     
3600000000.0        0.262991937721      0.0743857347539     0.735810762272      -0.119946086608     0.735810762272      -0.119946086608     0.262991937721      0.0743857347539     
3700000000.0        0.263777057613      0.0763322117217     0.734959243722      -0.123160163992     0.734959243722      -0.123160163992     0.263777057613      0.0763322117217     
3800000000.0        0.264576882393      0.0782705514037     0.734091213162      -0.126366269607     0.734091213162      -0.126366269607     0.264576882393      0.0782705514037     
3900000000.0        0.265391446722      0.0802005956754     0.733206634511      -0.129564249652     0.733206634511      -0.129564249652     0.265391446722      0.0802005956754     
4000000000.0        0.266220773851      0.0821221867419     0.732305483063      -0.132753950652     0.732305483063      -0.132753950652     0.266220773851      0.0821221867419     
4100000000.0        0.267064876464      0.0840351672685     0.731387744647      -0.13593521959      0.731387744647      -0.13593521959      0.267064876464      0.0840351672685     
4200000000.0        0.267923757427      0.0859393805016     0.730453414872      -0.139107904025     0.730453414872      -0.139107904025     0.267923757427      0.0859393805016     
4300000000.0        0.268797410463      0.0878346703819     0.729502498457      -0.142271852207     0.729502498457      -0.142271852207     0.268797410463      0.0878346703819     
4400000000.0        0.269685820764      0.0897208816494     0.72853500862       -0.145426913183     0.72853500862       -0.145426913183     0.269685820764      0.0897208816494     
4500000000.0        0.270588965533      0.0915978599426     0.727550966528      -0.148572936894     0.727550966528      -0.148572936894     0.270588965533      0.0915978599426     
4600000000.0        0.27150681449       0.0934654518902     0.7265504008        -0.151709774266     0.7265504008        -0.151709774266     0.27150681449       0.0934654518902     
4700000000.0        0.272439330319      0.0953235051982     0.72553334705       -0.154837277303     0.72553334705       -0.154837277303     0.272439330319      0.0953235051982     
4800000000.0        0.273386469087      0.0971718687317     0.724499847479      -0.157955299163     0.724499847479      -0.157955299163     0.273386469087      0.0971718687317     
4900000000.0        0.27434818062       0.0990103925909     0.723449950491      -0.161063694235     0.723449950491      -0.161063694235     0.27434818062       0.0990103925909     
5000000000.0        0.275324408852      0.100838928184      0.722383710345      -0.164162318214     0.722383710345      -0.164162318214     0.275324408852      0.100838928184      
5100000000.0        0.276315092145      0.102657328296      0.721301186838      -0.167251028168     0.721301186838      -0.167251028168     0.276315092145      0.102657328296      
5200000000.0        0.277320163581      0.10446544715       0.72020244501       -0.170329682604     0.72020244501       -0.170329682604     0.277320163581      0.10446544715       
5300000000.0        0.278339551241      0.106263140473      0.719087554862      -0.173398141523     0.719087554862      -0.173398141523     0.278339551241      0.106263140473      
5400000000.0        0.279373178457      0.108050265548      0.717956591115      -0.176456266486     0.717956591115      -0.176456266486     0.279373178457      0.108050265548      
5500000000.0        0.280420964047      0.109826681272      0.71680963296       -0.179503920661     0.71680963296       -0.179503920661     0.280420964047      0.109826681272      
5600000000.0        0.281482822536      0.111592248206      0.715646763849      -0.18254096888      0.715646763849      -0.18254096888      0.281482822536      0.111592248206      
5700000000.0        0.282558664363      0.113346828623      0.714468071279      -0.185567277682     0.714468071279      -0.185567277682     0.282558664363      0.113346828623      
5800000000.0        0.283648396074      0.115090286555      0.713273646607      -0.188582715362     0.713273646607      -0.188582715362     0.283648396074      0.115090286555      
5900000000.0        0.284751920505      0.116822487835      0.712063584861      -0.191587152017     0.712063584861      -0.191587152017     0.284751920505      0.116822487835      
6000000000.0        0.285869136949      0.118543300138      0.710837984571      -0.19458045958      0.710837984571      -0.19458045958      0.285869136949      0.118543300138      
6100000000.0        0.286999941325      0.120252593021      0.709596947611      -0.197562511866     0.709596947611      -0.197562511866     0.286999941325      0.120252593021      
6200000000.0        0.288144226325      0.121950237959      0.708340579039      -0.200533184602     0.708340579039      -0.200533184602     0.288144226325      0.121950237959      
6300000000.0        0.28930188156       0.123636108377      0.707068986958      -0.203492355467     0.707068986958      -0.203492355467     0.28930188156       0.123636108377      
6400000000.0        0.290472793699      0.125310079687      0.705782282373      -0.206439904119     0.705782282373      -0.206439904119     0.290472793699      0.125310079687      
6500000000.0        0.291656846602      0.126972029315      0.704480579064      -0.209375712232     0.704480579064      -0.209375712232     0.291656846602      0.126972029315      
6600000000.0        0.292853921442      0.128621836727      0.703163993457      -0.212299663519     0.703163993457      -0.212299663519     0.292853921442      0.128621836727      
6700000000.0        0.294063896826      0.130259383464      0.701832644506      -0.215211643758     0.701832644506      -0.215211643758     0.294063896826      0.130259383464      
6800000000.0        0.29528664891       0.13188455316       0.70048665358       -0.218111540824     0.70048665358       -0.218111540824     0.29528664891       0.13188455316       
6900000000.0        0.296522051506      0.133497231565      0.699126144349      -0.220999244706     0.699126144349      -0.220999244706     0.296522051506      0.133497231565      
7000000000.0        0.297769976194      0.135097306573      0.697751242682      -0.223874647531     0.697751242682      -0.223874647531     0.297769976194      0.135097306573      
7100000000.0        0.299030292416      0.136684668237      0.696362076544      -0.226737643585     0.696362076544      -0.226737643585     0.299030292416      0.136684668237      
7200000000.0        0.300302867576      0.138259208789      0.694958775898      -0.229588129328     0.694958775898      -0.229588129328     0.300302867576      0.138259208789      
7300000000.0        0.301587567139      0.139820822657      0.693541472612      -0.232426003417     0.693541472612      -0.232426003417     0.301587567139      0.139820822657      
7400000000.0        0.302884254714      0.141369406483      0.692110300365      -0.235251166718     0.692110300365      -0.235251166718     0.302884254714      0.141369406483      
7500000000.0        0.304192792149      0.142904859132      0.690665394562      -0.238063522321     0.690665394562      -0.238063522321     0.304192792149      0.142904859132      
7600000000.0        0.305513039611      0.144427081712      0.689206892248      -0.240862975552     0.689206892248      -0.240862975552     0.305513039611      0.144427081712      
7700000000.0        0.306844855672      0.14593597758       0.687734932026      -0.243649433988     0.687734932026      -0.243649433988     0.306844855672      0.14593597758       
7800000000.0        0.308188097387      0.147431452357      0.686249653972      -0.246422807463     0.686249653972      -0.246422807463     0.308188097387      0.147431452357      
7900000000.0        0.309542620372      0.148913413933      0.684751199564      -0.249183008083     0.684751199564      -0.249183008083     0.309542620372      0.148913413933      
8000000000.0        0.310908278882      0.150381772477      0.683239711604      -0.251929950227     0.683239711604      -0.251929950227     0.310908278882      0.150381772477      
8100000000.0        0.312284925881      0.151836440445      0.681715334141      -0.25466355056      0.681715334141      -0.25466355056      0.312284925881      0.151836440445      
8200000000.0        0.313672413114      0.153277332582      0.680178212404      -0.257383728033     0.680178212404      -0.257383728033     0.313672413114      0.153277332582      
8300000000.0        0.315070591178      0.154704365932      0.678628492731      -0.260090403894     0.678628492731      -0.260090403894     0.315070591178      0.154704365932      
8400000000.0        0.316479309591      0.156117459836      0.677066322498      -0.262783501684     0.677066322498      -0.262783501684     0.316479309591      0.156117459836      
8500000000.0        0.317898416854      0.157516535937      0.675491850058      -0.265462947248     0.675491850058      -0.265462947248     0.317898416854      0.157516535937      
8600000000.0        0.319327760519      0.158901518181      0.673905224672      -0.268128668726     0.673905224672      -0.268128668726     0.319327760519      0.158901518181      
8700000000.0        0.320767187251      0.160272332817      0.672306596448      -0.270780596563     0.672306596448      -0.270780596563     0.320767187251      0.160272332817      
8800000000.0        0.322216542889      0.161628908396      0.67069611628       -0.273418663501     0.67069611628       -0.273418663501     0.322216542889      0.161628908396      
8900000000.0        0.323675672508      0.16297117577       0.669073935784      -0.276042804583     0.669073935784      -0.276042804583     0.323675672508      0.16297117577       
9000000000.0        0.325144420473      0.164299068091      0.667440207244      -0.278652957145     0.667440207244      -0.278652957145     0.325144420473      0.164299068091      
9100000000.0        0.326622630504      0.165612520801      0.665795083551      -0.281249060817     0.665795083551      -0.281249060817     0.326622630504      0.165612520801      
9200000000.0        0.328110145723      0.166911471637      0.66413871815       -0.283831057516     0.66413871815       -0.283831057516     0.328110145723      0.166911471637      
9300000000.0        0.329606808718      0.168195860617      0.662471264981      -0.286398891439     0.662471264981      -0.286398891439     0.329606808718      0.168195860617      
9400000000.0        0.331112461589      0.169465630039      0.660792878428      -0.288952509062     0.660792878428      -0.288952509062     0.331112461589      0.169465630039      
9500000000.0        0.332626946006      0.170720724472      0.659103713267      -0.291491859128     0.659103713267      -0.291491859128     0.332626946006      0.170720724472      
9600000000.0        0.334150103256      0.171961090748      0.65740392461       -0.294016892642     0.65740392461       -0.294016892642     0.334150103256      0.171961090748      
9700000000.0        0.335681774297      0.173186677957      0.65569366786       -0.296527562861     0.65569366786       -0.296527562861     0.335681774297      0.173186677957      
9800000000.0        0.337221799806      0.17439743743       0.65397309866       -0.299023825285     0.65397309866       -0.299023825285     0.337221799806      0.17439743743       
9900000000.0        0.338770020225      0.175593322736      0.652242372842      -0.301505637646     0.652242372842      -0.301505637646     0.338770020225      0.175593322736      
10000000000.0       0.340326275811      0.176774289669      0.650501646383      -0.303972959898     0.650501646383      -0.303972959898     0.340326275811      0.176774289669      
