# Hz S RI R 50.00 
100000000.0         0.00423640446069    0.00113438897396    0.995750618432      -0.00517424310286   0.995750618432      -0.00517424310286   0.00423640446069    0.00113438897396    
200000000.0         0.00428044123668    0.00226830354712    0.995678260206      -0.0103479839673    0.995678260206      -0.0103479839673    0.00428044123668    0.00226830354712    
300000000.0         0.00432888175425    0.00340175585416    0.995585152789      -0.0155212131811    0.995585152789      -0.0155212131811    0.00432888175425    0.00340175585416    
400000000.0         0.00438537985112    0.00453466608172    0.995467640969      -0.020693823435     0.995467640969      -0.020693823435     0.00438537985112    0.00453466608172    
500000000.0         0.00445133790547    0.00566693346256    0.995324320739      -0.0258656834502    0.995324320739      -0.0258656834502    0.00445133790547    0.00566693346256    
600000000.0         0.00452746661711    0.00679844815667    0.995154479532      -0.0310366508898    0.995154479532      -0.0310366508898    0.00452746661711    0.00679844815667    
700000000.0         0.00461418138143    0.00792909549141    0.994957699866      -0.0362065771222    0.994957699866      -0.0362065771222    0.00461418138143    0.00792909549141    
800000000.0         0.00471174690169    0.0090587579191     0.994733714744      -0.0413753094924    0.994733714744      -0.0413753094924    0.00471174690169    0.0090587579191     
900000000.0         0.00482034155437    0.0101873160657     0.994482343302      -0.0465426925758    0.994482343302      -0.0465426925758    0.00482034155437    0.0101873160657     
1000000000.0        0.00494009000268    0.011314649352      0.994203458209      -0.0517085689437    0.994203458209      -0.0517085689437    0.00494009000268    0.011314649352      
1100000000.0        0.00507108131961    0.01244063639       0.993896967547      -0.0568727796647    0.993896967547      -0.0568727796647    0.00507108131961    0.01244063639       
1200000000.0        0.0052133797833     0.0135651552501     0.99356280403       -0.0620351646529    0.99356280403       -0.0620351646529    0.0052133797833     0.0135651552501     
1300000000.0        0.00536703166709    0.0146880836506     0.993200918216      -0.0671955629195    0.993200918216      -0.0671955629195    0.00536703166709    0.0146880836506     
1400000000.0        0.00553206970156    0.0158092990976     0.992811274059      -0.0723538127629    0.992811274059      -0.0723538127629    0.00553206970156    0.0158092990976     
1500000000.0        0.0057085161148     0.0169286789908     0.992393845866      -0.077509751915     0.992393845866      -0.077509751915     0.0057085161148     0.0169286789908     
1600000000.0        0.00589638476769    0.0180461007072     0.991948616176      -0.082663217659     0.991948616176      -0.082663217659     0.00589638476769    0.0180461007072     
1700000000.0        0.00609568269308    0.0191614416686     0.991475574221      -0.0878140469245    0.991475574221      -0.0878140469245    0.00609568269308    0.0191614416686     
1800000000.0        0.00630641123039    0.0202745793975     0.990974714797      -0.092962076367     0.990974714797      -0.092962076367     0.00630641123039    0.0202745793975     
1900000000.0        0.00652856687853    0.0213853915639     0.990446037419      -0.0981071424356    0.990446037419      -0.0981071424356    0.00652856687853    0.0213853915639     
2000000000.0        0.0067621419484     0.0224937560261     0.989889545669      -0.10324908143      0.989889545669      -0.10324908143      0.0067621419484     0.0224937560261     
2100000000.0        0.0070071250698     0.0235995508663     0.989305246697      -0.108387729554     0.989305246697      -0.108387729554     0.0070071250698     0.0235995508663     
2200000000.0        0.00726350159083    0.0247026544224     0.98869315082       -0.113522922955     0.98869315082       -0.113522922955     0.00726350159083    0.0247026544224     
2300000000.0        0.00753125389656    0.0258029453169     0.988053271216      -0.118654497771     0.988053271216      -0.118654497771     0.00753125389656    0.0258029453169     
2400000000.0        0.00781036166641    0.0269003024831     0.98738562366       -0.123782290162     0.98738562366       -0.123782290162     0.00781036166641    0.0269003024831     
2500000000.0        0.00810080208417    0.0279946051891     0.986690226327      -0.128906136344     0.986690226327      -0.128906136344     0.00810080208417    0.0279946051891     
2600000000.0        0.00840255001117    0.0290857330611     0.985967099616      -0.134025872623     0.985967099616      -0.134025872623     0.00840255001117    0.0290857330611     
2700000000.0        0.0087155781304     0.0301735661045     0.98521626601       -0.139141335419     0.98521626601       -0.139141335419     0.0087155781304     0.0301735661045     
2800000000.0        0.00903985706762    0.0312579847243     0.984437749961      -0.144252361295     0.984437749961      -0.144252361295     0.00903985706762    0.0312579847243     
2900000000.0        0.00937535549391    0.0323388697442     0.983631577787      -0.149358786981     0.983631577787      -0.149358786981     0.00937535549391    0.0323388697442     
3000000000.0        0.00972204021327    0.0334161024258     0.982797777591      -0.1544604494       0.982797777591      -0.1544604494       0.00972204021327    0.0334161024258     
3100000000.0        0.0100798762381     0.034489564486      0.981936379185      -0.159557185686     0.981936379185      -0.159557185686     0.0100798762381     0.034489564486      
3200000000.0        0.0104488268546     0.0355591381143     0.981047414028      -0.164648833208     0.981047414028      -0.164648833208     0.0104488268546     0.0355591381143     
3300000000.0        0.01082885368       0.0366247059902     0.980130915173      -0.169735229593     0.980130915173      -0.169735229593     0.01082885368       0.0366247059902     
3400000000.0        0.0112199167131     0.0376861512989     0.979186917218      -0.17481621274      0.979186917218      -0.17481621274      0.0112199167131     0.0376861512989     
3500000000.0        0.0116219743788     0.0387433577477     0.978215456266      -0.179891620843     0.978215456266      -0.179891620843     0.0116219743788     0.0387433577477     
3600000000.0        0.0120349835682     0.0397962095814     0.977216569883      -0.184961292406     0.977216569883      -0.184961292406     0.0120349835682     0.0397962095814     
3700000000.0        0.0124588996746     0.0408445915977     0.976190297068      -0.190025066265     0.976190297068      -0.190025066265     0.0124588996746     0.0408445915977     
3800000000.0        0.0128936766259     0.0418883891622     0.975136678225      -0.195082781601     0.975136678225      -0.195082781601     0.0128936766259     0.0418883891622     
3900000000.0        0.0133392669143     0.042927488223      0.974055755129      -0.200134277959     0.974055755129      -0.200134277959     0.0133392669143     0.042927488223      
4000000000.0        0.0137956216237     0.0439617753254     0.972947570907      -0.205179395261     0.972947570907      -0.205179395261     0.0137956216237     0.0439617753254     
4100000000.0        0.0142626904549     0.0449911376256     0.971812170012      -0.210217973826     0.971812170012      -0.210217973826     0.0142626904549     0.0449911376256     
4200000000.0        0.0147404217488     0.0460154629055     0.970649598205      -0.215249854383     0.970649598205      -0.215249854383     0.0147404217488     0.0460154629055     
4300000000.0        0.0152287625086     0.0470346395858     0.969459902531      -0.220274878085     0.969459902531      -0.220274878085     0.0152287625086     0.0470346395858     
4400000000.0        0.0157276584199     0.0480485567399     0.968243131303      -0.225292886524     0.968243131303      -0.225292886524     0.0157276584199     0.0480485567399     
4500000000.0        0.0162370538706     0.0490571041074     0.966999334086      -0.230303721748     0.966999334086      -0.230303721748     0.0162370538706     0.0490571041074     
4600000000.0        0.0167568919691     0.0500601721069     0.965728561678      -0.235307226271     0.965728561678      -0.235307226271     0.0167568919691     0.0500601721069     
4700000000.0        0.0172871145621     0.0510576518495     0.964430866096      -0.240303243089     0.964430866096      -0.240303243089     0.0172871145621     0.0510576518495     
4800000000.0        0.0178276622514     0.0520494351513     0.963106300561      -0.245291615691     0.963106300561      -0.245291615691     0.0178276622514     0.0520494351513     
4900000000.0        0.0183784744101     0.0530354145464     0.961754919484      -0.250272188076     0.961754919484      -0.250272188076     0.0183784744101     0.0530354145464     
5000000000.0        0.0189394891986     0.054015483299      0.960376778451      -0.255244804763     0.960376778451      -0.255244804763     0.0189394891986     0.054015483299      
5100000000.0        0.0195106435797     0.0549895354162     0.958971934211      -0.260209310803     0.958971934211      -0.260209310803     0.0195106435797     0.0549895354162     
5200000000.0        0.0200918733335     0.0559574656597     0.957540444663      -0.265165551793     0.957540444663      -0.265165551793     0.0200918733335     0.0559574656597     
5300000000.0        0.020683113072      0.0569191695584     0.956082368843      -0.270113373888     0.956082368843      -0.270113373888     0.020683113072      0.0569191695584     
5400000000.0        0.0212842962533     0.0578745434197     0.954597766914      -0.27505262381      0.954597766914      -0.27505262381      0.0212842962533     0.0578745434197     
5500000000.0        0.0218953551956     0.0588234843413     0.953086700148      -0.279983148865     0.953086700148      -0.279983148865     0.0218953551956     0.0588234843413     
5600000000.0        0.022516221091      0.0597658902233     0.951549230921      -0.28490479695      0.951549230921      -0.28490479695      0.022516221091      0.0597658902233     
5700000000.0        0.0231468240188     0.0607016597787     0.949985422698      -0.289817416565     0.949985422698      -0.289817416565     0.0231468240188     0.0607016597787     
5800000000.0        0.0237870929595     0.0616306925452     0.948395340021      -0.294720856823     0.948395340021      -0.294720856823     0.0237870929595     0.0616306925452     
5900000000.0        0.0244369558076     0.0625528888962     0.946779048501      -0.299614967466     0.946779048501      -0.299614967466     0.0244369558076     0.0625528888962     
6000000000.0        0.0250963393848     0.0634681500516     0.945136614801      -0.304499598868     0.945136614801      -0.304499598868     0.0250963393848     0.0634681500516     
6100000000.0        0.0257651694535     0.0643763780884     0.94346810663       -0.309374602051     0.94346810663       -0.309374602051     0.0257651694535     0.0643763780884     
6200000000.0        0.0264433707294     0.0652774759516     0.941773592731      -0.314239828692     0.941773592731      -0.314239828692     0.0264433707294     0.0652774759516     
6300000000.0        0.0271308668946     0.0661713474645     0.940053142867      -0.319095131135     0.940053142867      -0.319095131135     0.0271308668946     0.0661713474645     
6400000000.0        0.0278275806104     0.0670578973386     0.938306827813      -0.323940362398     0.938306827813      -0.323940362398     0.0278275806104     0.0670578973386     
6500000000.0        0.0285334335304     0.0679370311845     0.936534719343      -0.328775376188     0.936534719343      -0.328775376188     0.0285334335304     0.0679370311845     
6600000000.0        0.0292483463133     0.0688086555211     0.934736890222      -0.333600026902     0.934736890222      -0.333600026902     0.0292483463133     0.0688086555211     
6700000000.0        0.0299722386353     0.0696726777858     0.932913414191      -0.338414169643     0.932913414191      -0.338414169643     0.0299722386353     0.0696726777858     
6800000000.0        0.0307050292036     0.0705290063439     0.931064365958      -0.343217660229     0.931064365958      -0.343217660229     0.0307050292036     0.0705290063439     
6900000000.0        0.0314466357687     0.0713775504983     0.92918982119       -0.348010355195     0.92918982119       -0.348010355195     0.0314466357687     0.0713775504983     
7000000000.0        0.0321969751373     0.0722182204984     0.927289856496      -0.352792111809     0.927289856496      -0.352792111809     0.0321969751373     0.0722182204984     
7100000000.0        0.0329559631855     0.0730509275498     0.92536454942       -0.357562788078     0.92536454942       -0.357562788078     0.0329559631855     0.0730509275498     
7200000000.0        0.033723514871      0.0738755838228     0.923413978431      -0.362322242752     0.923413978431      -0.362322242752     0.033723514871      0.0738755838228     
7300000000.0        0.0344995442465     0.0746921024616     0.921438222908      -0.367070335341     0.921438222908      -0.367070335341     0.0344995442465     0.0746921024616     
7400000000.0        0.0352839644722     0.0755003975925     0.919437363134      -0.371806926112     0.919437363134      -0.371806926112     0.0352839644722     0.0755003975925     
7500000000.0        0.0360766878289     0.0763003843327     0.917411480278      -0.376531876105     0.917411480278      -0.376531876105     0.0360766878289     0.0763003843327     
7600000000.0        0.0368776257308     0.0770919787987     0.915360656394      -0.381245047139     0.915360656394      -0.381245047139     0.0368776257308     0.0770919787987     
7700000000.0        0.0376866887385     0.0778750981141     0.913284974399      -0.385946301814     0.913284974399      -0.385946301814     0.0376866887385     0.0778750981141     
7800000000.0        0.038503786572      0.0786496604181     0.911184518071      -0.390635503524     0.911184518071      -0.390635503524     0.038503786572      0.0786496604181     
7900000000.0        0.0393288281234     0.0794155848726     0.909059372031      -0.395312516462     0.909059372031      -0.395312516462     0.0393288281234     0.0794155848726     
8000000000.0        0.0401617214702     0.0801727916708     0.906909621739      -0.399977205627     0.906909621739      -0.399977205627     0.0401617214702     0.0801727916708     
8100000000.0        0.0410023738884     0.0809212020437     0.904735353474      -0.404629436827     0.904735353474      -0.404629436827     0.0410023738884     0.0809212020437     
8200000000.0        0.0418506918653     0.0816607382682     0.90253665433       -0.409269076691     0.90253665433       -0.409269076691     0.0418506918653     0.0816607382682     
8300000000.0        0.0427065811127     0.0823913236739     0.900313612205      -0.413895992672     0.900313612205      -0.413895992672     0.0427065811127     0.0823913236739     
8400000000.0        0.0435699465799     0.0831128826501     0.898066315782      -0.418510053053     0.898066315782      -0.418510053053     0.0435699465799     0.0831128826501     
8500000000.0        0.0444406924673     0.0838253406527     0.895794854528      -0.423111126953     0.895794854528      -0.423111126953     0.0444406924673     0.0838253406527     
8600000000.0        0.0453187222389     0.0845286242109     0.893499318675      -0.427699084334     0.893499318675      -0.427699084334     0.0453187222389     0.0845286242109     
8700000000.0        0.046203938636      0.0852226609336     0.891179799213      -0.432273796004     0.891179799213      -0.432273796004     0.046203938636      0.0852226609336     
8800000000.0        0.0470962436904     0.0859073795158     0.888836387875      -0.436835133623     0.888836387875      -0.436835133623     0.0470962436904     0.0859073795158     
8900000000.0        0.0479955387372     0.0865827097445     0.886469177132      -0.441382969712     0.886469177132      -0.441382969712     0.0479955387372     0.0865827097445     
9000000000.0        0.0489017244286     0.0872485825051     0.884078260174      -0.445917177649     0.884078260174      -0.445917177649     0.0489017244286     0.0872485825051     
9100000000.0        0.0498147007469     0.0879049297869     0.881663730905      -0.450437631685     0.881663730905      -0.450437631685     0.0498147007469     0.0879049297869     
9200000000.0        0.0507343670178     0.0885516846889     0.879225683927      -0.454944206938     0.879225683927      -0.454944206938     0.0507343670178     0.0885516846889     
9300000000.0        0.0516606219239     0.0891887814253     0.876764214533      -0.459436779405     0.876764214533      -0.459436779405     0.0516606219239     0.0891887814253     
9400000000.0        0.052593363518      0.0898161553306     0.874279418691      -0.463915225961     0.874279418691      -0.463915225961     0.052593363518      0.0898161553306     
9500000000.0        0.0535324892361     0.090433742865      0.871771393037      -0.468379424368     0.871771393037      -0.468379424368     0.0535324892361     0.090433742865      
9600000000.0        0.0544778959114     0.0910414816192     0.869240234862      -0.472829253273     0.869240234862      -0.472829253273     0.0544778959114     0.0910414816192     
9700000000.0        0.0554294797873     0.0916393103195     0.866686042099      -0.477264592217     0.866686042099      -0.477264592217     0.0554294797873     0.0916393103195     
9800000000.0        0.0563871365307     0.092227168832      0.864108913313      -0.481685321636     0.864108913313      -0.481685321636     0.0563871365307     0.092227168832      
9900000000.0        0.0573507612457     0.0928049981675     0.861508947691      -0.486091322863     0.861508947691      -0.486091322863     0.0573507612457     0.0928049981675     
10000000000.0       0.0583202484868     0.0933727404855     0.85888624503       -0.490482478134     0.85888624503       -0.490482478134     0.0583202484868     0.0933727404855     
