# Hz S RI R 50.00 
100000000.0         -0.0082894967488    -0.0901912847888    0.991683189013      -0.0902942107825    0.991683189013      -0.0902942107825    -0.0082894967488    -0.0901912847888    
200000000.0         -0.0322149499968    -0.176004695244     0.967757532859      -0.176210572632     0.967757532859      -0.176210572632     -0.0322149499968    -0.176004695244     
300000000.0         -0.0695612954427    -0.253775890062     0.930411020651      -0.254084757474     0.930411020651      -0.254084757474     -0.0695612954427    -0.253775890062     
400000000.0         -0.117208223452     -0.320979441388     0.882763938547      -0.321391347523     0.882763938547      -0.321391347523     -0.117208223452     -0.320979441388     
500000000.0         -0.171704159928     -0.376378236411     0.82826785164       -0.37689323831      0.82826785164       -0.37689323831      -0.171704159928     -0.376378236411     
600000000.0         -0.229780916061     -0.419892091315     0.770190944159      -0.420510253158     0.770190944159      -0.420510253158     -0.229780916061     -0.419892091315     
700000000.0         -0.288689780484     -0.452299363486     0.711281924771      -0.45302075565      0.711281924771      -0.45302075565      -0.288689780484     -0.452299363486     
800000000.0         -0.346343819783     -0.474896467939     0.65362772514       -0.475721166217     0.65362772514       -0.475721166217     -0.346343819783     -0.474896467939     
900000000.0         -0.401310948996     -0.489202219951     0.598660429013      -0.490130304897     0.598660429013      -0.490130304897     -0.401310948996     -0.489202219951     
1000000000.0        -0.452720729907     -0.496744685        0.547250473724      -0.49777624135      0.547250473724      -0.49777624135      -0.452720729907     -0.496744685        
1100000000.0        -0.50013860119      -0.498931639038     0.499832419932      -0.500066755198     0.499832419932      -0.500066755198     -0.50013860119      -0.498931639038     
1200000000.0        -0.543442127334     -0.496987542386     0.45652870263       -0.498226309983     0.45652870263       -0.498226309983     -0.543442127334     -0.496987542386     
1300000000.0        -0.582716257319     -0.491935595088     0.41725437242       -0.493278108557     0.41725437242       -0.493278108557     -0.582716257319     -0.491935595088     
1400000000.0        -0.618172637755     -0.484606314681     0.381797782351      -0.4860526709       0.381797782351      -0.4860526709       -0.618172637755     -0.484606314681     
1500000000.0        -0.650091564194     -0.475659239223     0.349878636586      -0.477209537179     0.349878636586      -0.477209537179     -0.650091564194     -0.475659239223     
1600000000.0        -0.678782515322     -0.465609240064     0.321187456201      -0.467263580555     0.321187456201      -0.467263580555     -0.678782515322     -0.465609240064     
1700000000.0        -0.70455873714      -0.454852623599     0.295410994985      -0.456611108961     0.295410994985      -0.456611108961     -0.70455873714      -0.454852623599     
1800000000.0        -0.727721860663     -0.443690656232     0.272247621745      -0.445553390095     0.272247621745      -0.445553390095     -0.727721860663     -0.443690656232     
1900000000.0        -0.748553372806     -0.432349624728     0.251415849405      -0.434316711796     0.251415849405      -0.434316711796     -0.748553372806     -0.432349624728     
2000000000.0        -0.767310587552     -0.420997352746     0.23265836384       -0.423068898596     0.23265836384       -0.423068898596     -0.767310587552     -0.420997352746     
2100000000.0        -0.784225455618     -0.409756485588     0.215743214208      -0.411932596491     0.215743214208      -0.411932596491     -0.784225455618     -0.409756485588     
2200000000.0        -0.799505079621     -0.398715005547     0.200463297775      -0.400995788306     0.200463297775      -0.400995788306     -0.799505079621     -0.398715005547     
2300000000.0        -0.813333185005     -0.387934462332     0.186634888991      -0.390320024143     0.186634888991      -0.390320024143     -0.813333185005     -0.387934462332     
2400000000.0        -0.825872064499     -0.377456364044     0.174095695034      -0.379946812367     0.174095695034      -0.379946812367     -0.825872064499     -0.377456364044     
2500000000.0        -0.837264695627     -0.367307111453     0.162702738286      -0.369902553897     0.162702738286      -0.369902553897     -0.837264695627     -0.367307111453     
2600000000.0        -0.84763685137      -0.357501791546     0.152330245685      -0.36020233577      0.152330245685      -0.36020233577      -0.84763685137      -0.357501791546     
2700000000.0        -0.857099102389     -0.348047084614     0.142867646492      -0.350852838245     0.142867646492      -0.350852838245     -0.857099102389     -0.348047084614     
2800000000.0        -0.865748659082     -0.338943486061     0.134217730235      -0.341854556612     0.134217730235      -0.341854556612     -0.865748659082     -0.338943486061     
2900000000.0        -0.873671032537     -0.330187000295     0.126294985758      -0.333203495105     0.126294985758      -0.333203495105     -0.873671032537     -0.330187000295     
3000000000.0        -0.880941511914     -0.321770428942     0.119024123835      -0.324892455117     0.119024123835      -0.324892455117     -0.880941511914     -0.321770428942     
3100000000.0        -0.88762646627      -0.313684347721     0.112338775347      -0.316912012091     0.112338775347      -0.316912012091     -0.88762646627      -0.313684347721     
3200000000.0        -0.893784484282     -0.3059178447       0.106180351557      -0.309251253778     0.106180351557      -0.309251253778     -0.893784484282     -0.3059178447       
3300000000.0        -0.899467367661     -0.298459075739     0.100497050697      -0.301898335692     0.100497050697      -0.301898335692     -0.899467367661     -0.298459075739     
3400000000.0        -0.904720994525     -0.291295680014     0.0952429945971     -0.294840896638     0.0952429945971     -0.294840896638     -0.904720994525     -0.291295680014     
3500000000.0        -0.909586068412     -0.284415088489     0.0903774796639     -0.288066367191     0.0903774796639     -0.288066367191     -0.909586068412     -0.284415088489     
3600000000.0        -0.914098767471     -0.277804750581     0.0858643276981     -0.281562196364     0.0858643276981     -0.281562196364     -0.914098767471     -0.277804750581     
3700000000.0        -0.918291306954     -0.271452298375     0.0816713233995     -0.275316015836     0.0816713233995     -0.275316015836     -0.918291306954     -0.271452298375     
3800000000.0        -0.922192426679     -0.265345663264     0.0777697269015     -0.269315756587     0.0777697269015     -0.269315756587     -0.922192426679     -0.265345663264     
3900000000.0        -0.925827813719     -0.25947315643      0.0741338510861     -0.263549729388     0.0741338510861     -0.263549729388     -0.925827813719     -0.25947315643      
4000000000.0        -0.929220469224     -0.253823521932     0.0707406947558     -0.258006677894     0.0707406947558     -0.258006677894     -0.929220469224     -0.253823521932     
4100000000.0        -0.932391027127     -0.248385969158     0.067569623936      -0.252675811094     0.067569623936      -0.252675811094     -0.932391027127     -0.248385969158     
4200000000.0        -0.935358031367     -0.243150189803     0.0646020946424     -0.247546820299     0.0646020946424     -0.247546820299     -0.935358031367     -0.243150189803     
4300000000.0        -0.938138177395     -0.238106363374     0.0618214113829     -0.242609884643     0.0618214113829     -0.242609884643     -0.938138177395     -0.238106363374     
4400000000.0        -0.940746522854     -0.233245154251     0.0592125164729     -0.237855668151     0.0592125164729     -0.237855668151     -0.940746522854     -0.233245154251     
4500000000.0        -0.943196671671     -0.228557702667     0.0567618059442     -0.233275310718     0.0567618059442     -0.233275310718     -0.943196671671     -0.228557702667     
4600000000.0        -0.945500935174     -0.22403561138      0.054456968428      -0.228860414785     0.054456968428      -0.228860414785     -0.945500935174     -0.22403561138      
4700000000.0        -0.947670473336     -0.219670929413     0.0522868439126     -0.224603029078     0.0522868439126     -0.224603029078     -0.947670473336     -0.219670929413     
4800000000.0        -0.949715418802     -0.215456133886     0.0502412997133     -0.220495630449     0.0502412997133     -0.220495630449     -0.949715418802     -0.215456133886     
4900000000.0        -0.95164498599      -0.211384110742     0.0483111213734     -0.216531104588     0.0483111213734     -0.216531104588     -0.95164498599      -0.211384110742     
5000000000.0        -0.953467567218     -0.207448134928     0.0464879165351     -0.212702726222     0.0464879165351     -0.212702726222     -0.953467567218     -0.207448134928     
5100000000.0        -0.955190817553     -0.203641850489     0.0447640300945     -0.209004139199     0.0447640300945     -0.209004139199     -0.955190817553     -0.203641850489     
5200000000.0        -0.956821729819     -0.199959250886     0.0431324691894     -0.205429336809     0.0431324691894     -0.205429336809     -0.956821729819     -0.199959250886     
5300000000.0        -0.958366701028     -0.196394659758     0.0415868367697     -0.201972642548     0.0415868367697     -0.201972642548     -0.958366701028     -0.196394659758     
5400000000.0        -0.959831591307     -0.192942712308     0.040121272671      -0.198628691506     0.040121272671      -0.198628691506     -0.959831591307     -0.192942712308     
5500000000.0        -0.961221776255     -0.189598337404     0.038730401257      -0.195392412461     0.038730401257      -0.195392412461     -0.961221776255     -0.189598337404     
5600000000.0        -0.962542193536     -0.186356740468     0.0374092848257     -0.192259010779     0.0374092848257     -0.192259010779     -0.962542193536     -0.186356740468     
5700000000.0        -0.963797384414     -0.183213387201     0.036153382076      -0.189223952131     0.036153382076      -0.189223952131     -0.963797384414     -0.183213387201     
5800000000.0        -0.964991530829     -0.180163988142     0.0349585110302     -0.186282947052     0.0349585110302     -0.186282947052     -0.964991530829     -0.180163988142     
5900000000.0        -0.966128488552     -0.177204484066     0.033820815881      -0.183431936345     0.033820815881      -0.183431936345     -0.966128488552     -0.177204484066     
6000000000.0        -0.967211816868     -0.174331032222     0.0327367373042     -0.180667077315     0.0327367373042     -0.180667077315     -0.967211816868     -0.174331032222     
6100000000.0        -0.968244805205     -0.171539993359     0.0317029858354     -0.177984730792     0.0317029858354     -0.177984730792     -0.968244805205     -0.171539993359     
6200000000.0        -0.969230497042     -0.168827919537     0.0307165179589     -0.17538144895      0.0307165179589     -0.17538144895      -0.969230497042     -0.168827919537     
6300000000.0        -0.970171711411     -0.16619154268      0.0297745146027     -0.172853963852     0.0297745146027     -0.172853963852     -0.970171711411     -0.16619154268      
6400000000.0        -0.971071062273     -0.163627763834     0.0288743617702     -0.17039917671      0.0288743617702     -0.17039917671      -0.971071062273     -0.163627763834     
6500000000.0        -0.971930975977     -0.161133643096     0.0280136330724     -0.168014147816     0.0280136330724     -0.168014147816     -0.971930975977     -0.161133643096     
6600000000.0        -0.972753707042     -0.158706390182     0.027190073953      -0.165696087107     0.027190073953      -0.165696087107     -0.972753707042     -0.158706390182     
6700000000.0        -0.973541352418     -0.156343355587     0.0264015874238     -0.163442345326     0.0264015874238     -0.163442345326     -0.973541352418     -0.156343355587     
6800000000.0        -0.974295864401     -0.154042022312     0.0256462211488     -0.161250405748     0.0256462211488     -0.161250405748     -0.974295864401     -0.154042022312     
6900000000.0        -0.975019062346     -0.151799998116     0.0249221557351     -0.159117876433     0.0249221557351     -0.159117876433     -0.975019062346     -0.151799998116     
7000000000.0        -0.975712643291     -0.149615008269     0.0242276941049     -0.157042482977     0.0242276941049     -0.157042482977     -0.975712643291     -0.149615008269     
7100000000.0        -0.976378191619     -0.147484888758     0.0235612518369     -0.155022061717     0.0235612518369     -0.155022061717     -0.976378191619     -0.147484888758     
7200000000.0        -0.977017187841     -0.145407579938     0.0229213483777     -0.153054553384     0.0229213483777     -0.153054553384     -0.977017187841     -0.145407579938     
7300000000.0        -0.977631016609     -0.143381120577     0.0223065990373     -0.151137997146     0.0223065990373     -0.151137997146     -0.977631016609     -0.143381120577     
7400000000.0        -0.978220974009     -0.14140364229      0.0217157076883     -0.149270525041     0.0217157076883     -0.149270525041     -0.978220974009     -0.14140364229      
7500000000.0        -0.978788274229     -0.139473364316     0.0211474601017     -0.147450356756     0.0211474601017     -0.147450356756     -0.978788274229     -0.139473364316     
7600000000.0        -0.979334055649     -0.137588588631     0.0206007178552     -0.145675794737     0.0206007178552     -0.145675794737     -0.979334055649     -0.137588588631     
7700000000.0        -0.979859386418     -0.135747695369     0.0200744127604     -0.14394521961      0.0200744127604     -0.14394521961      -0.979859386418     -0.135747695369     
7800000000.0        -0.98036526955      -0.13394913852      0.019567541759      -0.142257085882     0.019567541759      -0.142257085882     -0.98036526955      -0.13394913852      
7900000000.0        -0.980852647613     -0.132191441912     0.0190791622428     -0.140609917915     0.0190791622428     -0.140609917915     -0.980852647613     -0.132191441912     
8000000000.0        -0.981322407013     -0.130473195424     0.0186083877598     -0.139002306149     0.0186083877598     -0.139002306149     -0.981322407013     -0.130473195424     
8100000000.0        -0.98177538195      -0.128793051449     0.0181543840693     -0.137432903553     0.0181543840693     -0.137432903553     -0.98177538195      -0.128793051449     
8200000000.0        -0.982212358036     -0.127149721559     0.0177163655142     -0.135900422299     0.0177163655142     -0.135900422299     -0.982212358036     -0.127149721559     
8300000000.0        -0.982634075638     -0.125541973382     0.017293591683      -0.134403630636     0.017293591683      -0.134403630636     -0.982634075638     -0.125541973382     
8400000000.0        -0.983041232953     -0.123968627668     0.0168853643342     -0.132941349953     0.0168853643342     -0.132941349953     -0.983041232953     -0.123968627668     
8500000000.0        -0.983434488843     -0.122428555525     0.0164910245611     -0.131512452015     0.0164910245611     -0.131512452015     -0.983434488843     -0.122428555525     
8600000000.0        -0.983814465451     -0.120920675826     0.0161099501746     -0.130115856373     0.0161099501746     -0.130115856373     -0.983814465451     -0.120920675826     
8700000000.0        -0.984181750619     -0.119443952766     0.0157415532865     -0.128750527919     0.0157415532865     -0.128750527919     -0.984181750619     -0.119443952766     
8800000000.0        -0.984536900121     -0.117997393566     0.015385278075      -0.127415474589     0.015385278075      -0.127415474589     -0.984536900121     -0.117997393566     
8900000000.0        -0.984880439733     -0.116580046311     0.0150405987177     -0.126109745197     0.0150405987177     -0.126109745197     -0.984880439733     -0.116580046311     
9000000000.0        -0.985212867145     -0.115190997907     0.0147070174774     -0.124832427402     0.0147070174774     -0.124832427402     -0.985212867145     -0.115190997907     
9100000000.0        -0.985534653733     -0.113829372168     0.0143840629281     -0.123582645783     0.0143840629281     -0.123582645783     -0.985534653733     -0.113829372168     
9200000000.0        -0.985846246208     -0.112494328002     0.0140712883106     -0.12235956003      0.0140712883106     -0.12235956003      -0.985846246208     -0.112494328002     
9300000000.0        -0.986148068141     -0.111185057701     0.0137682700047     -0.121162363239     0.0137682700047     -0.121162363239     -0.986148068141     -0.111185057701     
9400000000.0        -0.98644052138      -0.109900785339     0.0134746061122     -0.119990280298     0.0134746061122     -0.119990280298     -0.98644052138      -0.109900785339     
9500000000.0        -0.98672398737      -0.108640765242     0.0131899151375     -0.118842566366     0.0131899151375     -0.118842566366     -0.98672398737      -0.108640765242     
9600000000.0        -0.986998828377     -0.107404280557     0.0129138347626     -0.117718505438     0.0129138347626     -0.117718505438     -0.986998828377     -0.107404280557     
9700000000.0        -0.987265388633     -0.106190641896     0.0126460207047     -0.116617408988     0.0126460207047     -0.116617408988     -0.987265388633     -0.106190641896     
9800000000.0        -0.987523995395     -0.104999186048     0.0123861456535     -0.115538614686     0.0123861456535     -0.115538614686     -0.987523995395     -0.104999186048     
9900000000.0        -0.987774959939     -0.103829274774     0.0121338982802     -0.114481485184     0.0121338982802     -0.114481485184     -0.987774959939     -0.103829274774     
10000000000.0       -0.988018578484     -0.102680293655     0.0118889823125     -0.113445406972     0.0118889823125     -0.113445406972     -0.988018578484     -0.102680293655     
