# Hz S RI R 50.00 
100000000.0         0.00349184583595    0.000146600672064   0.996507114614      -0.000188358317865  0.996507114614      -0.000188358317865  0.00349184583595    0.000146600672064   
200000000.0         0.00351476506097    0.000293186331369   0.996484154092      -0.00037670188645   0.996484154092      -0.00037670188645   0.00351476506097    0.000293186331369   
300000000.0         0.00353148121512    0.000439763463509   0.996467394894      -0.000565037329048  0.996467394894      -0.000565037329048  0.00353148121512    0.000439763463509   
400000000.0         0.00354503892372    0.000586334418752   0.996453792396      -0.000753367102679  0.996453792396      -0.000753367102679  0.00354503892373    0.000586334418752   
500000000.0         0.00355661485652    0.000732900573597   0.996442169926      -0.000941692675087  0.996442169926      -0.000941692675087  0.00355661485652    0.000732900573596   
600000000.0         0.00356681115737    0.000879462869131   0.996431925342      -0.00113001506854   0.996431925342      -0.00113001506854   0.00356681115737    0.000879462869131   
700000000.0         0.00357598473805    0.00102602200562    0.99642270173       -0.00131833505711   0.99642270173       -0.00131833505711   0.00357598473805    0.00102602200562    
800000000.0         0.00358436762596    0.00117257853325    0.996414267064      -0.00150665325912   0.996414267064      -0.00150665325912   0.00358436762596    0.00117257853325    
900000000.0         0.0035921206209     0.00131913290113    0.996406460544      -0.00169497018722   0.996406460544      -0.00169497018722   0.0035921206209     0.00131913290113    
1000000000.0        0.00359936052854    0.00146568548649    0.996399165363      -0.00188328627828   0.996399165363      -0.00188328627828   0.00359936052854    0.00146568548649    
1100000000.0        0.0036061753191     0.00161223661323    0.996392293551      -0.00207160191267   0.996392293551      -0.00207160191267   0.0036061753191     0.00161223661323    
1200000000.0        0.00361263317177    0.00175878656458    0.996385776928      -0.00225991742707   0.996385776928      -0.00225991742707   0.00361263317177    0.00175878656458    
1300000000.0        0.00361878817228    0.00190533559173    0.99637956141       -0.00244823312369   0.99637956141       -0.00244823312369   0.00361878817229    0.00190533559174    
1400000000.0        0.00362468406309    0.00205188392036    0.996373603252      -0.00263654927686   0.996373603252      -0.00263654927686   0.00362468406309    0.00205188392036    
1500000000.0        0.00363035680182    0.00219843175522    0.996367866498      -0.00282486613809   0.996367866498      -0.00282486613809   0.00363035680182    0.00219843175522    
1600000000.0        0.00363583636082    0.00234497928388    0.996362321174      -0.00301318393976   0.996362321174      -0.00301318393976   0.00363583636082    0.00234497928388    
1700000000.0        0.00364114802547    0.00249152667957    0.996356941995      -0.00320150289814   0.996356941995      -0.00320150289814   0.00364114802547    0.00249152667957    
1800000000.0        0.00364631335211    0.0026380741033     0.996351707405      -0.00338982321582   0.996351707405      -0.00338982321582   0.00364631335211    0.0026380741033     
1900000000.0        0.00365135088856    0.00278462170576    0.996346598854      -0.00357814508352   0.996346598854      -0.00357814508352   0.00365135088856    0.00278462170576    
2000000000.0        0.00365627672542    0.00293116962871    0.996341600254      -0.00376646868174   0.996341600254      -0.00376646868174   0.00365627672542    0.00293116962871    
2100000000.0        0.00366110492406    0.00307771800626    0.996336697541      -0.00395479418197   0.996336697541      -0.00395479418197   0.00366110492406    0.00307771800626    
2200000000.0        0.00366584785372    0.00322426696581    0.996331878346      -0.00414312174781   0.996331878346      -0.00414312174781   0.00366584785372    0.0032242669658     
2300000000.0        0.00367051646004    0.00337081662886    0.996327131724      -0.00433145153591   0.996327131724      -0.00433145153591   0.00367051646004    0.00337081662886    
2400000000.0        0.00367512048112    0.00351736711189    0.996322447936      -0.00451978369662   0.996322447936      -0.00451978369662   0.00367512048112    0.00351736711189    
2500000000.0        0.00367966862365    0.00366391852673    0.996317818275      -0.00470811837486   0.996317818275      -0.00470811837486   0.00367966862365    0.00366391852673    
2600000000.0        0.00368416870716    0.00381047098123    0.996313234921      -0.00489645571048   0.996313234921      -0.00489645571048   0.00368416870716    0.00381047098123    
2700000000.0        0.00368862778359    0.00395702457975    0.996308690822      -0.00508479583883   0.996308690822      -0.00508479583883   0.00368862778359    0.00395702457975    
2800000000.0        0.00369305223691    0.00410357942336    0.996304179594      -0.00527313889131   0.996304179594      -0.00527313889131   0.00369305223691    0.00410357942336    
2900000000.0        0.00369744786685    0.00425013561043    0.996299695437      -0.00546148499549   0.996299695437      -0.00546148499549   0.00369744786686    0.00425013561043    
3000000000.0        0.00370181995958    0.0043966932367     0.996295233064      -0.00564983427577   0.996295233064      -0.00564983427577   0.00370181995958    0.0043966932367     
3100000000.0        0.00370617334784    0.00454325239572    0.996290787642      -0.00583818685335   0.996290787642      -0.00583818685335   0.00370617334784    0.00454325239572    
3200000000.0        0.00371051246248    0.00468981317898    0.996286354741      -0.00602654284677   0.996286354741      -0.00602654284677   0.00371051246248    0.00468981317898    
3300000000.0        0.00371484137655    0.00483637567615    0.996281930286      -0.00621490237193   0.996281930286      -0.00621490237193   0.00371484137655    0.00483637567615    
3400000000.0        0.00371916384353    0.00498293997526    0.996277510525      -0.00640326554249   0.996277510525      -0.00640326554249   0.00371916384353    0.00498293997526    
3500000000.0        0.00372348333052    0.0051295061629     0.996273091989      -0.00659163246988   0.996273091989      -0.00659163246988   0.00372348333052    0.0051295061629     
3600000000.0        0.00372780304694    0.00527607432435    0.996268671469      -0.00678000326357   0.996268671469      -0.00678000326357   0.00372780304694    0.00527607432435    
3700000000.0        0.00373212597003    0.00542264454366    0.996264245987      -0.00696837803126   0.996264245987      -0.00696837803126   0.00373212597003    0.00542264454366    
3800000000.0        0.00373645486682    0.00556921690384    0.996259812776      -0.00715675687895   0.996259812776      -0.00715675687895   0.00373645486682    0.00556921690384    
3900000000.0        0.00374079231381    0.00571579148698    0.99625536926       -0.00734513991105   0.99625536926       -0.00734513991105   0.00374079231381    0.00571579148698    
4000000000.0        0.00374514071423    0.00586236837427    0.996250913034      -0.00753352723057   0.996250913034      -0.00753352723057   0.00374514071423    0.00586236837427    
4100000000.0        0.00374950231341    0.00600894764618    0.996246441853      -0.00772191893919   0.996246441853      -0.00772191893919   0.00374950231341    0.00600894764618    
4200000000.0        0.00375387921234    0.00615552938244    0.996241953616      -0.00791031513737   0.996241953616      -0.00791031513737   0.00375387921234    0.00615552938244    
4300000000.0        0.00375827338004    0.00630211366222    0.996237446353      -0.0080987159244    0.996237446353      -0.0080987159244    0.00375827338004    0.00630211366222    
4400000000.0        0.00376268666425    0.00644870056417    0.996232918216      -0.00828712139853   0.996232918216      -0.00828712139853   0.00376268666425    0.00644870056417    
4500000000.0        0.00376712080142    0.00659529016647    0.996228367469      -0.00847553165699   0.996228367469      -0.00847553165699   0.00376712080142    0.00659529016647    
4600000000.0        0.0037715774254     0.0067418825468     0.996223792478      -0.00866394679618   0.996223792478      -0.00866394679618   0.0037715774254     0.0067418825468     
4700000000.0        0.00377605807539    0.00688847778261    0.996219191702      -0.00885236691155   0.996219191702      -0.00885236691155   0.00377605807539    0.00688847778261    
4800000000.0        0.0037805642032     0.00703507595091    0.99621456369       -0.00904079209785   0.99621456369       -0.00904079209785   0.0037805642032     0.00703507595091    
4900000000.0        0.00378509717962    0.00718167712853    0.99620990707       -0.00922922244904   0.99620990707       -0.00922922244904   0.00378509717962    0.00718167712853    
5000000000.0        0.00378965830046    0.00732828139203    0.996205220547      -0.00941765805843   0.996205220547      -0.00941765805843   0.00378965830046    0.00732828139203    
5100000000.0        0.0037942487918     0.00747488881784    0.996200502894      -0.00960609901866   0.996200502894      -0.00960609901866   0.0037942487918     0.00747488881784    
5200000000.0        0.00379886981495    0.00762149948215    0.996195752949      -0.00979454542183   0.996195752949      -0.00979454542183   0.00379886981495    0.00762149948215    
5300000000.0        0.0038035224709     0.00776811346111    0.996190969612      -0.00998299735945   0.996190969612      -0.00998299735945   0.0038035224709     0.00776811346111    
5400000000.0        0.00380820780438    0.00791473083076    0.996186151836      -0.0101714549225    0.996186151836      -0.0101714549225    0.00380820780438    0.00791473083076    
5500000000.0        0.00381292680765    0.00806135166704    0.99618129863       -0.0103599182017    0.99618129863       -0.0103599182017    0.00381292680765    0.00806135166704    
5600000000.0        0.00381768042385    0.00820797604592    0.996176409049      -0.010548387287     0.996176409049      -0.010548387287     0.00381768042385    0.00820797604592    
5700000000.0        0.00382246955025    0.00835460404331    0.996171482197      -0.0107368622681    0.996171482197      -0.0107368622681    0.00382246955025    0.00835460404331    
5800000000.0        0.00382729504106    0.00850123573519    0.996166517219      -0.0109253432343    0.996166517219      -0.0109253432343    0.00382729504106    0.00850123573519    
5900000000.0        0.00383215771019    0.00864787119749    0.9961615133        -0.0111138302748    0.9961615133        -0.0111138302748    0.00383215771019    0.00864787119749    
6000000000.0        0.00383705833365    0.00879451050629    0.996156469664      -0.0113023234781    0.996156469664      -0.0113023234781    0.00383705833365    0.00879451050629    
6100000000.0        0.00384199765187    0.00894115373768    0.996151385571      -0.0114908229325    0.996151385571      -0.0114908229325    0.00384199765187    0.00894115373768    
6200000000.0        0.00384697637182    0.00908780096787    0.996146260312      -0.0116793287263    0.996146260312      -0.0116793287263    0.00384697637182    0.00908780096787    
6300000000.0        0.00385199516891    0.00923445227316    0.996141093213      -0.0118678409471    0.996141093213      -0.0118678409471    0.00385199516891    0.00923445227316    
6400000000.0        0.00385705468887    0.00938110772999    0.996135883627      -0.0120563596827    0.996135883627      -0.0120563596827    0.00385705468887    0.00938110772999    
6500000000.0        0.00386215554943    0.00952776741491    0.996130630937      -0.0122448850204    0.996130630937      -0.0122448850204    0.00386215554943    0.00952776741491    
6600000000.0        0.00386729834184    0.00967443140462    0.99612533455       -0.0124334170475    0.99612533455       -0.0124334170475    0.00386729834184    0.00967443140462    
6700000000.0        0.00387248363237    0.00982109977602    0.996119993899      -0.0126219558509    0.996119993899      -0.0126219558509    0.00387248363237    0.00982109977602    
6800000000.0        0.00387771196368    0.00996777260615    0.996114608443      -0.0128105015175    0.996114608443      -0.0128105015175    0.00387771196368    0.00996777260615    
6900000000.0        0.00388298385603    0.0101144499722     0.99610917766       -0.0129990541341    0.99610917766       -0.0129990541341    0.00388298385603    0.0101144499722     
7000000000.0        0.00388829980856    0.0102611319517     0.996103701051      -0.0131876137873    0.996103701051      -0.0131876137873    0.00388829980856    0.0102611319517     
7100000000.0        0.00389366030032    0.0104078186222     0.996098178136      -0.0133761805635    0.996098178136      -0.0133761805635    0.00389366030032    0.0104078186222     
7200000000.0        0.00389906579132    0.0105545100615     0.996092608456      -0.0135647545491    0.996092608456      -0.0135647545491    0.00389906579132    0.0105545100615     
7300000000.0        0.00390451672355    0.0107012063477     0.996086991567      -0.0137533358305    0.996086991567      -0.0137533358305    0.00390451672355    0.0107012063477     
7400000000.0        0.00391001352183    0.010847907559      0.996081327045      -0.0139419244938    0.996081327045      -0.0139419244938    0.00391001352183    0.010847907559      
7500000000.0        0.0039155565947     0.010994613774      0.99607561448       -0.0141305206251    0.99607561448       -0.0141305206251    0.0039155565947     0.010994613774      
7600000000.0        0.0039211463352     0.0111413250715     0.99606985348       -0.0143191243106    0.99606985348       -0.0143191243106    0.0039211463352     0.0111413250715     
7700000000.0        0.00392678312166    0.0112880415304     0.996064043665      -0.0145077356364    0.996064043665      -0.0145077356364    0.00392678312166    0.0112880415304     
7800000000.0        0.00393246731837    0.01143476323       0.996058184671      -0.0146963546884    0.996058184671      -0.0146963546884    0.00393246731837    0.01143476323       
7900000000.0        0.00393819927626    0.0115814902498     0.996052276147      -0.0148849815525    0.996052276147      -0.0148849815525    0.00393819927626    0.0115814902498     
8000000000.0        0.00394397933355    0.0117282226695     0.996046317754      -0.0150736163149    0.996046317754      -0.0150736163149    0.00394397933355    0.0117282226695     
8100000000.0        0.00394980781632    0.0118749605693     0.996040309166      -0.0152622590613    0.996040309166      -0.0152622590613    0.00394980781632    0.0118749605693     
8200000000.0        0.00395568503907    0.0120217040294     0.996034250068      -0.0154509098779    0.996034250068      -0.0154509098779    0.00395568503907    0.0120217040294     
8300000000.0        0.00396161130524    0.0121684531304     0.996028140155      -0.0156395688504    0.996028140155      -0.0156395688504    0.00396161130524    0.0121684531304     
8400000000.0        0.00396758690776    0.0123152079531     0.996021979136      -0.015828236065     0.996021979136      -0.015828236065     0.00396758690776    0.0123152079531     
8500000000.0        0.00397361212944    0.0124619685789     0.996015766726      -0.0160169116075    0.996015766726      -0.0160169116075    0.00397361212944    0.0124619685789     
8600000000.0        0.0039796872435     0.012608735089      0.996009502652      -0.016205595564     0.996009502652      -0.016205595564     0.0039796872435     0.012608735089      
8700000000.0        0.00398581251392    0.0127555075652     0.99600318665       -0.0163942880204    0.99600318665       -0.0163942880204    0.00398581251392    0.0127555075652     
8800000000.0        0.00399198819589    0.0129022860895     0.995996818464      -0.016582989063     0.995996818464      -0.016582989063     0.00399198819589    0.0129022860895     
8900000000.0        0.00399821453617    0.0130490707443     0.995990397847      -0.0167716987778    0.995990397847      -0.0167716987778    0.00399821453617    0.0130490707443     
9000000000.0        0.00400449177345    0.0131958616122     0.99598392456       -0.016960417251     0.99598392456       -0.016960417251     0.00400449177345    0.0131958616122     
9100000000.0        0.00401082013868    0.013342658776      0.995977398372      -0.0171491445687    0.995977398372      -0.0171491445687    0.00401082013868    0.013342658776      
9200000000.0        0.00401719985543    0.0134894623191     0.995970819059      -0.0173378808174    0.995970819059      -0.0173378808174    0.00401719985543    0.0134894623191     
9300000000.0        0.00402363114015    0.0136362723249     0.995964186404      -0.0175266260832    0.995964186404      -0.0175266260832    0.00402363114015    0.0136362723249     
9400000000.0        0.00403011420251    0.0137830888773     0.995957500197      -0.0177153804526    0.995957500197      -0.0177153804526    0.00403011420251    0.0137830888773     
9500000000.0        0.00403664924562    0.0139299120604     0.995950760234      -0.017904144012     0.995950760234      -0.017904144012     0.00403664924562    0.0139299120604     
9600000000.0        0.00404323646637    0.0140767419587     0.995943966319      -0.0180929168481    0.995943966319      -0.0180929168481    0.00404323646637    0.0140767419587     
9700000000.0        0.0040498760556     0.0142235786569     0.99593711826       -0.0182816990474    0.99593711826       -0.0182816990474    0.0040498760556     0.0142235786569     
9800000000.0        0.00405656819842    0.0143704222401     0.995930215872      -0.0184704906966    0.995930215872      -0.0184704906966    0.00405656819841    0.0143704222401     
9900000000.0        0.00406331307436    0.0145172727937     0.995923258974      -0.0186592918825    0.995923258974      -0.0186592918825    0.00406331307436    0.0145172727937     
10000000000.0       0.00407011085766    0.0146641304034     0.995916247393      -0.018848102692     0.995916247393      -0.018848102692     0.00407011085766    0.0146641304034     
