# Hz S RI R 50.00 
100000000.0         -0.000618045082161  -0.0255987855165    0.999219329026      -0.0262733408532    0.999219329026      -0.0262733408532    -0.000618045082161  -0.0255987855165    
200000000.0         -0.00265682080848   -0.0510913522216    0.997178763063      -0.0524405858222    0.997178763063      -0.0524405858222    -0.00265682080848   -0.0510913522216    
300000000.0         -0.00602012087548   -0.0763752738645    0.993813495964      -0.0783993780143    0.993813495964      -0.0783993780143    -0.00602012087548   -0.0763752738645    
400000000.0         -0.010681389183     -0.101350791655     0.989149943433      -0.104050013875     0.989149943433      -0.104050013875     -0.010681389183     -0.101350791655     
500000000.0         -0.0166043327777    -0.125922108541     0.983224344119      -0.129296744406     0.983224344119      -0.129296744406     -0.0166043327777    -0.125922108541     
600000000.0         -0.0237435807062    -0.149998556276     0.976082040955      -0.154048944619     0.976082040955      -0.154048944619     -0.0237435807062    -0.149998556276     
700000000.0         -0.0320455215613    -0.173495622216     0.967776628436      -0.178222141558     0.967776628436      -0.178222141558     -0.0320455215613    -0.173495622216     
800000000.0         -0.0414492725967    -0.196335816905     0.958368977989      -0.201738882617     0.958368977989      -0.201738882617     -0.0414492725967    -0.196335816905     
900000000.0         -0.0518877448577    -0.218449368114     0.947926170391      -0.224529430069     0.947926170391      -0.224529430069     -0.0518877448577    -0.218449368114     
1000000000.0        -0.0632887698998    -0.239774733388     0.936520367812      -0.246532273956     0.936520367812      -0.246532273956     -0.0632887698998    -0.239774733388     
1100000000.0        -0.075576254525     -0.260258929728     0.924227658393      -0.267694462036     0.924227658393      -0.267694462036     -0.075576254525     -0.260258929728     
1200000000.0        -0.0886713318268    -0.279857685291     0.911126904793      -0.287971751682     0.911126904793      -0.287971751682     -0.0886713318268    -0.279857685291     
1300000000.0        -0.102493479772     -0.298535423485     0.89729862536       -0.307328594144     0.89729862536       -0.307328594144     -0.102493479772     -0.298535423485     
1400000000.0        -0.116961582362     -0.31626509439      0.882823932797      -0.3257379661       0.882823932797      -0.3257379661       -0.116961582362     -0.31626509439      
1500000000.0        -0.131994912839     -0.333027871838     0.867783550845      -0.343181066849     0.867783550845      -0.343181066849     -0.131994912839     -0.333027871838     
1600000000.0        -0.147514023156     -0.348812736773     0.85225692474       -0.359646901769     0.85225692474       -0.359646901769     -0.147514023156     -0.348812736773     
1700000000.0        -0.163441528669     -0.363615968684     0.83632143646       -0.375131773833     0.83632143646       -0.375131773833     -0.163441528669     -0.363615968684     
1800000000.0        -0.179702781625     -0.377440567034     0.820051731198      -0.38963870511      0.820051731198      -0.38963870511      -0.179702781625     -0.377440567034     
1900000000.0        -0.196226431167     -0.39029562391      0.803519157325      -0.403176809482     0.803519157325      -0.403176809482     -0.196226431167     -0.39029562391      
2000000000.0        -0.212944871247     -0.402195667687     0.786791318461      -0.415760636366     0.786791318461      -0.415760636366     -0.212944871247     -0.402195667687     
2100000000.0        -0.22979458087      -0.413159995576     0.769931733209      -0.427409503313     0.769931733209      -0.427409503313     -0.22979458087      -0.413159995576     
2200000000.0        -0.246716363502     -0.423212010632     0.752999595728      -0.438146833072     0.752999595728      -0.438146833072     -0.246716363502     -0.423212010632     
2300000000.0        -0.26365549424      -0.432378576374     0.736049628569      -0.447999508242     0.736049628569      -0.447999508242     -0.26365549424      -0.432378576374     
2400000000.0        -0.280561784478     -0.440689399626     0.719132017981      -0.456997254162     0.719132017981      -0.456997254162     -0.280561784478     -0.440689399626     
2500000000.0        -0.297389574497     -0.448176449809     0.70229242133       -0.465172058241     0.70229242133       -0.465172058241     -0.297389574497     -0.448176449809     
2600000000.0        -0.314097664516     -0.454873420618     0.685572036037      -0.472557631664     0.685572036037      -0.472557631664     -0.314097664516     -0.454873420618     
2700000000.0        -0.330649194593     -0.460815237982     0.669007719668      -0.479188917393     0.669007719668      -0.479188917393     -0.330649194593     -0.460815237982     
2800000000.0        -0.347011483267     -0.466037616423     0.652632151299      -0.485101646548     0.652632151299      -0.485101646548     -0.347011483267     -0.466037616423     
2900000000.0        -0.363155834104     -0.47057666439      0.636474024958      -0.490331943774     0.636474024958      -0.490331943774     -0.363155834104     -0.47057666439      
3000000000.0        -0.379057318518     -0.474468537925     0.620558266807      -0.494915980936     0.620558266807      -0.494915980936     -0.379057318518     -0.474468537925     
3100000000.0        -0.39469454226      -0.477749141009     0.604906268648      -0.498889677484     0.604906268648      -0.498889677484     -0.39469454226      -0.477749141009     
3200000000.0        -0.410049402068     -0.480453870209     0.589536131271      -0.502288445132     0.589536131271      -0.502288445132     -0.410049402068     -0.480453870209     
3300000000.0        -0.425106837976     -0.482617400701     0.574462912151      -0.505146973894     0.574462912151      -0.505146973894     -0.425106837976     -0.482617400701     
3400000000.0        -0.439854585905     -0.484273510407     0.559698872842      -0.507499056252     0.559698872842      -0.507499056252     -0.439854585905     -0.484273510407     
3500000000.0        -0.454282934322     -0.485454938803     0.545253722333      -0.509377445976     0.545253722333      -0.509377445976     -0.454282934322     -0.485454938803     
3600000000.0        -0.468384487929     -0.486193276854     0.531134853343      -0.510813748086     0.531134853343      -0.510813748086     -0.468384487929     -0.486193276854     
3700000000.0        -0.482153940734     -0.486518884636     0.517347569262      -0.511838336483     0.517347569262      -0.511838336483     -0.482153940734     -0.486518884636     
3800000000.0        -0.49558786017      -0.486460833249     0.503895300019      -0.512480295888     0.503895300019      -0.512480295888     -0.49558786017      -0.486460833249     
3900000000.0        -0.508684483475     -0.48604686785      0.490779805715      -0.512767384887     0.490779805715      -0.512767384887     -0.508684483475     -0.48604686785      
4000000000.0        -0.521443527054     -0.485303388824     0.478001367247      -0.512726017118     0.478001367247      -0.512726017118     -0.521443527054     -0.485303388824     
4100000000.0        -0.533866009209     -0.484255448347     0.465558963588      -0.51238125785      0.465558963588      -0.51238125785      -0.533866009209     -0.484255448347     
4200000000.0        -0.545954086313     -0.482926759839     0.453450435605      -0.511756833449     0.453450435605      -0.511756833449     -0.545954086313     -0.482926759839     
4300000000.0        -0.557710902255     -0.481339718075     0.441672636618      -0.510875151502     0.441672636618      -0.510875151502     -0.557710902255     -0.481339718075     
4400000000.0        -0.569140450824     -0.479515427927     0.430221570013      -0.509757329576     0.430221570013      -0.509757329576     -0.569140450824     -0.479515427927     
4500000000.0        -0.580247450518     -0.477473739995     0.419092514434      -0.508423230854     0.419092514434      -0.508423230854     -0.580247450518     -0.477473739995     
4600000000.0        -0.591037231215     -0.475233291558     0.408280137111      -0.506891505108     0.408280137111      -0.506891505108     -0.591037231215     -0.475233291558     
4700000000.0        -0.601515632016     -0.472811551531     0.397778596016      -0.505179633654     0.397778596016      -0.505179633654     -0.601515632016     -0.472811551531     
4800000000.0        -0.611688909583     -0.470224868245     0.387581631526      -0.503303977157     0.387581631526      -0.503303977157     -0.611688909583     -0.470224868245     
4900000000.0        -0.621563656224     -0.467488519106     0.377682648334      -0.501279825287     0.377682648334      -0.501279825287     -0.621563656224     -0.467488519106     
5000000000.0        -0.631146727022     -0.464616761282     0.368074788325      -0.499121447427     0.368074788325      -0.499121447427     -0.631146727022     -0.464616761282     
5100000000.0        -0.640445175262     -0.461622882741     0.35875099514       -0.496842143711     0.35875099514       -0.496842143711     -0.640445175262     -0.461622882741     
5200000000.0        -0.649466195492     -0.458519253074     0.349704071128      -0.494454295863     0.349704071128      -0.494454295863     -0.649466195492     -0.458519253074     
5300000000.0        -0.658217073511     -0.45531737364      0.340926727342      -0.491969417348     0.340926727342      -0.491969417348     -0.658217073511     -0.45531737364      
5400000000.0        -0.666705142686     -0.45202792666      0.332411627233      -0.489398202471     0.332411627233      -0.489398202471     -0.666705142686     -0.45202792666      
5500000000.0        -0.674937745965     -0.44866082298      0.32415142463       -0.486750574153     0.32415142463       -0.486750574153     -0.674937745965     -0.44866082298      
5600000000.0        -0.682922203048     -0.445225248275     0.316138796572      -0.48403573014      0.316138796572      -0.48403573014      -0.682922203048     -0.445225248275     
5700000000.0        -0.690665782181     -0.44172970753      0.308366471511      -0.481262187491     0.308366471511      -0.481262187491     -0.690665782181     -0.44172970753      
5800000000.0        -0.698175676099     -0.438182067691     0.30082725337       -0.478437825237     0.30082725337       -0.478437825237     -0.698175676099     -0.438182067691     
5900000000.0        -0.705458981671     -0.434589598401     0.293514041898      -0.475569925121     0.293514041898      -0.475569925121     -0.705458981671     -0.434589598401     
6000000000.0        -0.712522682831     -0.430959010793     0.286419849735      -0.472665210402     0.286419849735      -0.472665210402     -0.712522682831     -0.430959010793     
6100000000.0        -0.719373636449     -0.427296494322     0.279537816545      -0.469729882686     0.279537816545      -0.469729882686     -0.719373636449     -0.427296494322     
6200000000.0        -0.726018560776     -0.423607751643     0.272861220567      -0.466769656816     0.272861220567      -0.466769656816     -0.726018560776     -0.423607751643     
6300000000.0        -0.732464026177     -0.419898031572     0.266383487882      -0.463789793838     0.266383487882      -0.463789793838     -0.732464026177     -0.419898031572     
6400000000.0        -0.738716447869     -0.416172160171     0.260098199675      -0.460795132089     0.260098199675      -0.460795132089     -0.738716447869     -0.416172160171     
6500000000.0        -0.744782080418     -0.412434570008     0.253999097738      -0.457790116461     0.253999097738      -0.457790116461     -0.744782080418     -0.412434570008     
6600000000.0        -0.750667013767     -0.408689327652     0.248080088441      -0.454778825905     0.248080088441      -0.454778825905     -0.750667013767     -0.408689327652     
6700000000.0        -0.756377170601     -0.404940159486     0.242335245363      -0.451764999244     0.242335245363      -0.451764999244     -0.756377170601     -0.404940159486     
6800000000.0        -0.761918304869     -0.401190475886     0.236758810774      -0.448752059362     0.236758810774      -0.448752059362     -0.761918304869     -0.401190475886     
6900000000.0        -0.767296001299     -0.39744339387      0.231345196116      -0.445743135854     0.231345196116      -0.445743135854     -0.767296001299     -0.39744339387      
7000000000.0        -0.772515675772     -0.393701758265     0.226088981633      -0.442741086196     0.226088981633      -0.442741086196     -0.772515675772     -0.393701758265     
7100000000.0        -0.777582576418     -0.38996816149      0.220984915268      -0.439748515534     0.220984915268      -0.439748515534     -0.777582576418     -0.38996816149      
7200000000.0        -0.782501785335     -0.386244962019     0.216027910945      -0.436767795152     0.216027910945      -0.436767795152     -0.782501785335     -0.386244962019     
7300000000.0        -0.787278220828     -0.382534301596     0.211213046335      -0.433801079689     0.211213046335      -0.433801079689     -0.787278220828     -0.382534301596     
7400000000.0        -0.791916640072     -0.37883812129      0.206535560184      -0.430850323197     0.206535560184      -0.430850323197     -0.791916640072     -0.37883812129      
7500000000.0        -0.796421642136     -0.375158176436     0.201990849291      -0.427917294087     0.201990849291      -0.427917294087     -0.796421642136     -0.375158176436     
7600000000.0        -0.800797671297     -0.371496050554     0.197574465196      -0.425003589052     0.197574465196      -0.425003589052     -0.800797671297     -0.371496050554     
7700000000.0        -0.80504902058      -0.367853168287     0.193282110638      -0.422110646006     0.193282110638      -0.422110646006     -0.80504902058      -0.367853168287     
7800000000.0        -0.809179835475     -0.364230807443     0.189109635836      -0.41923975613      0.189109635836      -0.41923975613      -0.809179835475     -0.364230807443     
7900000000.0        -0.813194117793     -0.360630110178     0.185053034632      -0.41639207506      0.185053034632      -0.41639207506      -0.813194117793     -0.360630110178     
8000000000.0        -0.817095729613     -0.357052093392     0.181108440542      -0.413568633283     0.181108440542      -0.413568633283     -0.817095729613     -0.357052093392     
8100000000.0        -0.820888397292     -0.35349765838      0.17727212275       -0.410770345794     0.17727212275       -0.410770345794     -0.820888397292     -0.35349765838      
8200000000.0        -0.82457571551      -0.349967599794     0.173540482058      -0.407998021057     0.173540482058      -0.407998021057     -0.82457571551      -0.349967599794     
8300000000.0        -0.828161151319     -0.34646261396      0.169910046836      -0.405252369331     0.169910046836      -0.405252369331     -0.828161151319     -0.34646261396      
8400000000.0        -0.831648048185     -0.342983306596     0.166377468982      -0.402534010382     0.166377468982      -0.402534010382     -0.831648048185     -0.342983306596     
8500000000.0        -0.835039629993     -0.339530199969     0.162939519913      -0.399843480648     0.162939519913      -0.399843480648     -0.835039629993     -0.339530199969     
8600000000.0        -0.838339005013     -0.336103739529     0.1595930866        -0.397181239878     0.1595930866        -0.397181239878     -0.838339005013     -0.336103739529     
8700000000.0        -0.841549169804     -0.332704300068     0.156335167662      -0.394547677287     0.156335167662      -0.394547677287     -0.841549169804     -0.332704300068     
8800000000.0        -0.84467301305      -0.329332191421     0.153162869531      -0.391943117264     0.153162869531      -0.391943117264     -0.84467301305      -0.329332191421     
8900000000.0        -0.847713319321     -0.325987663749     0.150073402687      -0.389367824656     0.150073402687      -0.389367824656     -0.847713319321     -0.325987663749     
9000000000.0        -0.850672772751     -0.322670912442     0.147064077982      -0.386822009673     0.147064077982      -0.386822009673     -0.850672772751     -0.322670912442     
9100000000.0        -0.853553960622     -0.319382082647     0.144132303051      -0.38430583242      0.144132303051      -0.38430583242      -0.853553960622     -0.319382082647     
9200000000.0        -0.856359376862     -0.316121273473     0.14127557882       -0.381819407102     0.14127557882       -0.381819407102     -0.856359376862     -0.316121273473     
9300000000.0        -0.859091425443     -0.312888541883     0.138491496098      -0.379362805917     0.138491496098      -0.379362805917     -0.859091425443     -0.312888541883     
9400000000.0        -0.861752423679     -0.309683906285     0.135777732284      -0.376936062657     0.135777732284      -0.376936062657     -0.861752423679     -0.309683906285     
9500000000.0        -0.864344605434     -0.306507349875     0.133132048159      -0.374539176042     0.133132048159      -0.374539176042     -0.864344605434     -0.306507349875     
9600000000.0        -0.866870124217     -0.303358823714     0.130552284785      -0.372172112806     0.130552284785      -0.372172112806     -0.866870124217     -0.303358823714     
9700000000.0        -0.869331056187     -0.300238249582     0.128036360501      -0.369834810555     0.128036360501      -0.369834810555     -0.869331056187     -0.300238249582     
9800000000.0        -0.871729403056     -0.297145522618     0.125582268021      -0.367527180402     0.125582268021      -0.367527180402     -0.871729403056     -0.297145522618     
9900000000.0        -0.874067094892     -0.294080513758     0.123188071628      -0.365249109413     0.123188071628      -0.365249109413     -0.874067094892     -0.294080513758     
10000000000.0       -0.876345992826     -0.291043071993     0.120851904463      -0.363000462864     0.120851904463      -0.363000462864     -0.876345992826     -0.291043071993     
