# Hz S RI R 50.00 
100000000.0         0.253123854247      0.00234285703623    0.746871928413      -0.0040567717371    0.746871928413      -0.0040567717371    0.253123854247      0.00234285703623    
200000000.0         0.254396043955      0.00466377686113    0.745593247621      -0.00809160973453   0.745593247621      -0.00809160973453   0.254396043955      0.00466377686113    
300000000.0         0.255350830627      0.00697147555931    0.744628692152      -0.0121132386118    0.744628692152      -0.0121132386118    0.255350830627      0.00697147555931    
400000000.0         0.256155037617      0.00926879978068    0.743811435855      -0.0161245133114    0.743811435855      -0.0161245133114    0.256155037617      0.00926879978068    
500000000.0         0.256873094502      0.0115572296461     0.743077046847      -0.0201269221221    0.743077046847      -0.0201269221221    0.256873094502      0.0115572296461     
600000000.0         0.257537937357      0.0138376398764     0.742392587016      -0.0241213478499    0.742392587016      -0.0241213478499    0.257537937357      0.0138376398764     
700000000.0         0.258169059174      0.0161105732746     0.741738561482      -0.0281083413224    0.741738561482      -0.0281083413224    0.258169059174      0.0161105732746     
800000000.0         0.258779106447      0.0183763676117     0.741102321957      -0.0320882482877    0.741102321957      -0.0320882482877    0.258779106447      0.0183763676117     
900000000.0         0.259376819957      0.0206352238014     0.740475125913      -0.036061277598     0.740475125913      -0.036061277598     0.259376819957      0.0206352238014     
1000000000.0        0.259968527157      0.0228872462837     0.739850644165      -0.0400275415986    0.739850644165      -0.0400275415986    0.259968527157      0.0228872462837     
1100000000.0        0.26055897272       0.0251324686879     0.739224130308      -0.043987081797     0.739224130308      -0.043987081797     0.26055897272       0.0251324686879     
1200000000.0        0.261151813986      0.0273708710374     0.73859192525       -0.0479398860696    0.73859192525       -0.0479398860696    0.261151813986      0.0273708710374     
1300000000.0        0.261749933009      0.0296023917789     0.737951145158      -0.0518859006946    0.737951145158      -0.0518859006946    0.261749933009      0.0296023917789     
1400000000.0        0.262355641877      0.0318269364856     0.737299476121      -0.0558250390575    0.737299476121      -0.0558250390575    0.262355641877      0.0318269364856     
1500000000.0        0.262970822776      0.0340443843375     0.736635034083      -0.0597571881323    0.736635034083      -0.0597571881323    0.262970822776      0.0340443843375     
1600000000.0        0.26359702646       0.036254593061      0.735956266367      -0.0636822134235    0.735956266367      -0.0636822134235    0.26359702646       0.036254593061      
1700000000.0        0.26423554329       0.0384574027757     0.735261880629      -0.0675999628137    0.735261880629      -0.0675999628137    0.26423554329       0.0384574027757     
1800000000.0        0.264887455632      0.0406526390429     0.734550792456      -0.0715102696133    0.734550792456      -0.0715102696133    0.264887455632      0.0406526390429     
1900000000.0        0.265553677264      0.0428401153214     0.733822085954      -0.0754129550167    0.733822085954      -0.0754129550167    0.265553677264      0.0428401153214     
2000000000.0        0.266234983519      0.0450196349726     0.733074983605      -0.079307830109     0.733074983605      -0.079307830109     0.266234983519      0.0450196349726     
2100000000.0        0.266932034696      0.0471909929204     0.73230882285       -0.0831946975257    0.73230882285       -0.0831946975257    0.266932034696      0.0471909929204     
2200000000.0        0.267645394487      0.0493539770395     0.731523037659      -0.0870733528421    0.731523037659      -0.0870733528421    0.267645394487      0.0493539770395     
2300000000.0        0.268375544663      0.0515083693302     0.730717143846      -0.0909435857484    0.730717143846      -0.0909435857484    0.268375544663      0.0515083693302     
2400000000.0        0.269122896909      0.0536539469207     0.729890727231      -0.0948051810523    0.729890727231      -0.0948051810523    0.269122896909      0.0536539469207     
2500000000.0        0.269887802446      0.0557904829312     0.729043434012      -0.0986579195437    0.729043434012      -0.0986579195437    0.269887802446      0.0557904829312     
2600000000.0        0.270670559952      0.0579177472236     0.72817496285       -0.102501578744     0.72817496285       -0.102501578744     0.270670559952      0.0579177472236     
2700000000.0        0.271471422108      0.0600355070581     0.727285058317      -0.106335933565     0.727285058317      -0.106335933565     0.271471422108      0.0600355070581     
2800000000.0        0.272290601069      0.0621435276706     0.726373505419      -0.110160756883     0.726373505419      -0.110160756883     0.272290601069      0.0621435276706     
2900000000.0        0.273128273076      0.0642415727859     0.725440124995      -0.113975820056     0.725440124995      -0.113975820056     0.273128273076      0.0642415727859     
3000000000.0        0.273984582345      0.0663294050743     0.724484769815      -0.117780893377     0.724484769815      -0.117780893377     0.273984582345      0.0663294050743     
3100000000.0        0.274859644395      0.0684067865614     0.723507321258      -0.121575746488     0.723507321258      -0.121575746488     0.274859644395      0.0684067865614     
3200000000.0        0.275753548898      0.0704734789978     0.722507686459      -0.125360148745     0.722507686459      -0.125360148745     0.275753548898      0.0704734789978     
3300000000.0        0.276666362137      0.0725292441936     0.721485795849      -0.129133869556     0.721485795849      -0.129133869556     0.276666362137      0.0725292441936     
3400000000.0        0.277598129138      0.0745738443223     0.720441601024      -0.132896678684     0.720441601024      -0.132896678684     0.277598129138      0.0745738443223     
3500000000.0        0.278548875531      0.0766070421986     0.719375072881      -0.136648346526     0.719375072881      -0.136648346526     0.278548875531      0.0766070421986     
3600000000.0        0.279518609177      0.0786286015332     0.718286199994      -0.140388644364     0.718286199994      -0.140388644364     0.279518609177      0.0786286015332     
3700000000.0        0.280507321604      0.0806382871665     0.717174987174      -0.144117344603     0.717174987174      -0.144117344603     0.280507321604      0.0806382871665     
3800000000.0        0.281514989273      0.0826358652841     0.716041454202      -0.147834220987     0.716041454202      -0.147834220987     0.281514989273      0.0826358652841     
3900000000.0        0.28254157471       0.0846211036168     0.714885634699      -0.151539048792     0.714885634699      -0.151539048792     0.28254157471       0.0846211036168     
4000000000.0        0.283587027509      0.0865937716252     0.713707575123      -0.155231605021     0.713707575123      -0.155231605021     0.283587027509      0.0865937716252     
4100000000.0        0.284651285232      0.0885536406714     0.712507333864      -0.158911668566     0.712507333864      -0.158911668566     0.284651285232      0.0885536406714     
4200000000.0        0.285734274224      0.0905004841785     0.71128498043       -0.162579020373     0.71128498043       -0.162579020373     0.285734274224      0.0905004841785     
4300000000.0        0.286835910345      0.0924340777804     0.710040594721      -0.16623344359      0.710040594721      -0.16623344359      0.286835910345      0.0924340777804     
4400000000.0        0.28795609963       0.0943541994597     0.708774266356      -0.169874723707     0.708774266356      -0.169874723707     0.28795609963       0.0943541994597     
4500000000.0        0.289094738902      0.0962606296785     0.707486094072      -0.173502648684     0.707486094072      -0.173502648684     0.289094738902      0.0962606296785     
4600000000.0        0.290251716319      0.0981531514995     0.706176185168      -0.177117009072     0.706176185168      -0.177117009072     0.290251716319      0.0981531514995     
4700000000.0        0.291426911881      0.1000315507        0.704844655002      -0.180717598127     0.704844655002      -0.180717598127     0.291426911881      0.1000315507        
4800000000.0        0.2926201979        0.101895615877      0.703491626517      -0.184304211921     0.703491626517      -0.184304211921     0.2926201979        0.101895615877      
4900000000.0        0.29383143943       0.103745138551      0.702117229818      -0.187876649434     0.702117229818      -0.187876649434     0.29383143943       0.103745138551      
5000000000.0        0.295060494662      0.105579913253      0.700721601764      -0.191434712654     0.700721601764      -0.191434712654     0.295060494662      0.105579913253      
5100000000.0        0.2963072153        0.107399737619      0.699304885604      -0.194978206658     0.699304885604      -0.194978206658     0.2963072153        0.107399737619      
5200000000.0        0.297571446906      0.109204412466      0.697867230626      -0.198506939701     0.697867230626      -0.198506939701     0.297571446906      0.109204412466      
5300000000.0        0.298853029218      0.110993741873      0.696408791835      -0.202020723287     0.696408791835      -0.202020723287     0.298853029218      0.110993741873      
5400000000.0        0.300151796461      0.11276753325       0.694929729649      -0.205519372244     0.694929729649      -0.205519372244     0.300151796461      0.11276753325       
5500000000.0        0.301467577628      0.114525597405      0.693430209615      -0.209002704787     0.693430209615      -0.209002704787     0.301467577628      0.114525597405      
5600000000.0        0.30280019675       0.116267748609      0.691910402137      -0.212470542585     0.691910402137      -0.212470542585     0.30280019675       0.116267748609      
5700000000.0        0.304149473147      0.117993804651      0.690370482221      -0.215922710813     0.690370482221      -0.215922710813     0.304149473147      0.117993804651      
5800000000.0        0.305515221675      0.119703586893      0.688810629237      -0.219359038212     0.688810629237      -0.219359038212     0.305515221675      0.119703586893      
5900000000.0        0.306897252951      0.121396920319      0.687231026687      -0.222779357134     0.687231026687      -0.222779357134     0.306897252951      0.121396920319      
6000000000.0        0.308295373573      0.123073633584      0.685631861987      -0.226183503591     0.685631861987      -0.226183503591     0.308295373573      0.123073633584      
6100000000.0        0.309709386325      0.124733559051      0.684013326259      -0.229571317293     0.684013326259      -0.229571317293     0.309709386325      0.124733559051      
6200000000.0        0.311139090379      0.126376532837      0.68237561413       -0.232942641694     0.68237561413       -0.232942641694     0.311139090379      0.126376532837      
6300000000.0        0.312584281485      0.128002394841      0.680718923545      -0.236297324019     0.680718923545      -0.236297324019     0.312584281485      0.128002394841      
6400000000.0        0.314044752152      0.129610988781      0.679043455579      -0.2396352153       0.679043455579      -0.2396352153       0.314044752152      0.129610988781      
6500000000.0        0.315520291826      0.131202162223      0.677349414265      -0.242956170407     0.677349414265      -0.242956170407     0.315520291826      0.131202162223      
6600000000.0        0.317010687058      0.132775766602      0.67563700642       -0.246260048069     0.67563700642       -0.246260048069     0.317010687058      0.132775766602      
6700000000.0        0.318515721666      0.134331657252      0.673906441486      -0.249546710898     0.673906441486      -0.249546710898     0.318515721666      0.134331657252      
6800000000.0        0.320035176895      0.13586969342       0.672157931371      -0.252816025412     0.672157931371      -0.252816025412     0.320035176895      0.13586969342       
6900000000.0        0.321568831569      0.137389738285      0.670391690294      -0.256067862048     0.670391690294      -0.256067862048     0.321568831569      0.137389738285      
7000000000.0        0.323116462233      0.138891658973      0.66860793464       -0.259302095177     0.66860793464       -0.259302095177     0.323116462233      0.138891658973      
7100000000.0        0.324677843304      0.14037532657       0.666806882814      -0.262518603118     0.666806882814      -0.262518603118     0.324677843304      0.14037532657       
7200000000.0        0.326252747203      0.141840616126      0.664988755108      -0.265717268144     0.664988755108      -0.265717268144     0.326252747203      0.141840616126      
7300000000.0        0.327840944491      0.14328740667       0.663153773559      -0.268897976488     0.663153773559      -0.268897976488     0.327840944491      0.14328740667       
7400000000.0        0.329442204         0.144715581205      0.661302161824      -0.272060618352     0.661302161824      -0.272060618352     0.329442204         0.144715581205      
7500000000.0        0.331056292959      0.146125026717      0.659434145051      -0.275205087902     0.659434145051      -0.275205087902     0.331056292959      0.146125026717      
7600000000.0        0.332682977117      0.14751563417       0.657549949754      -0.278331283272     0.657549949754      -0.278331283272     0.332682977117      0.14751563417       
7700000000.0        0.334322020863      0.148887298508      0.655649803694      -0.281439106561     0.655649803694      -0.281439106561     0.334322020863      0.148887298508      
7800000000.0        0.335973187345      0.150239918645      0.653733935763      -0.284528463825     0.653733935763      -0.284528463825     0.335973187345      0.150239918645      
7900000000.0        0.33763623858       0.15157339746       0.651802575869      -0.28759926507      0.651802575869      -0.28759926507      0.33763623858       0.15157339746       
8000000000.0        0.339310935564      0.152887641792      0.649855954822      -0.290651424248     0.649855954822      -0.290651424248     0.339310935564      0.152887641792      
8100000000.0        0.340997038385      0.154182562421      0.647894304232      -0.29368485924      0.647894304232      -0.29368485924      0.340997038385      0.154182562421      
8200000000.0        0.342694306326      0.155458074064      0.645917856397      -0.296699491844     0.645917856397      -0.296699491844     0.342694306326      0.155458074064      
8300000000.0        0.344402497962      0.156714095354      0.643926844203      -0.299695247764     0.643926844203      -0.299695247764     0.344402497962      0.156714095354      
8400000000.0        0.346121371271      0.157950548825      0.641921501026      -0.302672056587     0.641921501026      -0.302672056587     0.346121371271      0.157950548825      
8500000000.0        0.347850683721      0.159167360895      0.639902060627      -0.30562985177      0.639902060627      -0.30562985177      0.347850683721      0.159167360895      
8600000000.0        0.34959019237       0.160364461846      0.637868757064      -0.308568570617     0.637868757064      -0.308568570617     0.34959019237       0.160364461846      
8700000000.0        0.351339653959      0.1615417858        0.635821824594      -0.311488154257     0.635821824594      -0.311488154257     0.351339653959      0.1615417858        
8800000000.0        0.353098825003      0.162699270699      0.633761497583      -0.314388547622     0.633761497583      -0.314388547622     0.353098825003      0.162699270699      
8900000000.0        0.354867461875      0.163836858279      0.63168801042       -0.317269699421     0.63168801042       -0.317269699421     0.354867461875      0.163836858279      
9000000000.0        0.356645320896      0.164954494043      0.629601597427      -0.320131562113     0.629601597427      -0.320131562113     0.356645320896      0.164954494043      
9100000000.0        0.358432158418      0.166052127232      0.627502492774      -0.322974091881     0.627502492774      -0.322974091881     0.358432158418      0.166052127232      
9200000000.0        0.360227730907      0.167129710803      0.625390930403      -0.3257972486       0.625390930403      -0.3257972486       0.360227730907      0.167129710803      
9300000000.0        0.362031795019      0.168187201389      0.623267143939      -0.328600995811     0.623267143939      -0.328600995811     0.362031795019      0.168187201389      
9400000000.0        0.363844107681      0.169224559275      0.621131366619      -0.331385300682     0.621131366619      -0.331385300682     0.363844107681      0.169224559275      
9500000000.0        0.365664426166      0.170241748361      0.618983831212      -0.334150133982     0.618983831212      -0.334150133982     0.365664426166      0.170241748361      
9600000000.0        0.367492508164      0.171238736129      0.616824769946      -0.336895470043     0.616824769946      -0.336895470043     0.367492508164      0.171238736129      
9700000000.0        0.36932811186       0.172215493612      0.614654414437      -0.339621286725     0.614654414437      -0.339621286725     0.36932811186       0.172215493612      
9800000000.0        0.371170995997      0.173171995349      0.612472995614      -0.34232756538      0.612472995614      -0.34232756538      0.371170995997      0.173171995349      
9900000000.0        0.373020919948      0.174108219357      0.610280743658      -0.345014290814     0.610280743658      -0.345014290814     0.373020919948      0.174108219357      
10000000000.0       0.374877643779      0.175024147088      0.608077887927      -0.34768145125      0.608077887927      -0.34768145125      0.374877643779      0.175024147088      
