# Hz S RI R 50.00 
100000000.0         -0.000123073853893  -0.0125352657082    0.999767495099      -0.0131244123959    0.999767495099      -0.0131244123959    -0.000123073853893  -0.0125352657082    
200000000.0         -0.000628703584759  -0.0250580835845    0.999260601008      -0.0262364867826    0.999260601008      -0.0262364867826    -0.000628703584759  -0.0250580835845    
300000000.0         -0.00146232574764   -0.0375562983554    0.998425555416      -0.0393241262473    0.998425555416      -0.0393241262473    -0.00146232574764   -0.0375562983554    
400000000.0         -0.00262238830724   -0.0500177271503    0.997263815846      -0.0523751929649    0.997263815846      -0.0523751929649    -0.00262238830724   -0.0500177271503    
500000000.0         -0.00410676352453   -0.062430244253     0.995777473451      -0.0653775994176    0.995777473451      -0.0653775994176    -0.00410676352453   -0.062430244253     
600000000.0         -0.00591273293135   -0.0747818356018    0.993969227804      -0.0783193651509    0.993969227804      -0.0783193651509    -0.00591273293135   -0.0747818356018    
700000000.0         -0.00803699133519   -0.0870606446374    0.991842372681      -0.0911886637767    0.991842372681      -0.0911886637767    -0.00803699133519   -0.0870606446374    
800000000.0         -0.0104756574889    -0.0992550138354    0.989400781679      -0.103973865206     0.989400781679      -0.103973865206     -0.0104756574889    -0.0992550138354    
900000000.0         -0.0132242888663    -0.111353523294     0.986648891794      -0.116663574701     0.986648891794      -0.116663574701     -0.0132242888663    -0.111353523294     
1000000000.0        -0.0162778996556    -0.123345026852     0.983591684595      -0.129246669332     0.983591684595      -0.129246669332     -0.0162778996556    -0.123345026852     
1100000000.0        -0.0196309815119    -0.135218685888     0.980234665009      -0.141712332022     0.980234665009      -0.141712332022     -0.0196309815119    -0.135218685888     
1200000000.0        -0.0232775267504    -0.146964000804     0.976583837858      -0.154050083228     0.976583837858      -0.154050083228     -0.0232775267504    -0.146964000804     
1300000000.0        -0.0272110537066    -0.158570840131     0.972645682328      -0.166249810208     0.972645682328      -0.166249810208     -0.0272110537066    -0.158570840131     
1400000000.0        -0.0314246340083    -0.170029467207     0.968427124585      -0.178301793825     0.968427124585      -0.178301793825     -0.0314246340083    -0.170029467207     
1500000000.0        -0.0359109215098    -0.18133056432      0.963935508767      -0.190196732802     0.963935508767      -0.190196732802     -0.0359109215098    -0.18133056432      
1600000000.0        -0.0406621826365    -0.192465254276     0.959178566585      -0.201925765384     0.959178566585      -0.201925765384     -0.0406621826365    -0.192465254276     
1700000000.0        -0.0456703278928    -0.203425119323     0.954164385781      -0.213480488347     0.954164385781      -0.213480488347     -0.0456703278928    -0.203425119323     
1800000000.0        -0.0509269442816    -0.214202217413     0.948901377683      -0.224852973323     0.948901377683      -0.224852973323     -0.0509269442816    -0.214202217413     
1900000000.0        -0.0564233283921    -0.224789095769     0.943398244092      -0.236035780441     0.943398244092      -0.236035780441     -0.0564233283921    -0.224789095769     
2000000000.0        -0.0621505199129    -0.235178801782     0.937663943758      -0.24702196928      0.937663943758      -0.24702196928      -0.0621505199129    -0.235178801782     
2100000000.0        -0.0680993353371    -0.245364891263     0.931707658663      -0.257805107164     0.931707658663      -0.257805107164     -0.0680993353371    -0.245364891263     
2200000000.0        -0.0742604016315    -0.255341434084     0.925538760343      -0.268379274864     0.925538760343      -0.268379274864     -0.0742604016315    -0.255341434084     
2300000000.0        -0.0806241896564    -0.2651030173       0.919166776462      -0.278739069748     0.919166776462      -0.278739069748     -0.0806241896564    -0.2651030173       
2400000000.0        -0.0871810471315    -0.274644745809     0.912601357839      -0.288879606494     0.912601357839      -0.288879606494     -0.0871810471315    -0.274644745809     
2500000000.0        -0.0939212309585    -0.283962240674     0.905852246124      -0.29879651544      0.905852246124      -0.29879651544      -0.0939212309585    -0.283962240674     
2600000000.0        -0.100834938726     -0.293051635207     0.898929242287      -0.308485938704     0.898929242287      -0.308485938704     -0.100834938726     -0.293051635207     
2700000000.0        -0.107912339235     -0.301909568947     0.891842176092      -0.317944524195     0.891842176092      -0.317944524195     -0.107912339235     -0.301909568947     
2800000000.0        -0.115143601912     -0.310533179669     0.884600876681      -0.32716941765      0.884600876681      -0.32716941765      -0.115143601912     -0.310533179669     
2900000000.0        -0.122518924967     -0.318920093572     0.877215144414      -0.336158252847     0.877215144414      -0.336158252847     -0.122518924967     -0.318920093572     
3000000000.0        -0.130028562207     -0.327068413792     0.869694724055      -0.344909140146     0.869694724055      -0.344909140146     -0.130028562207     -0.327068413792     
3100000000.0        -0.137662848403     -0.334976707398     0.862049279402      -0.35342065351      0.862049279402      -0.35342065351      -0.137662848403     -0.334976707398     
3200000000.0        -0.14541222314      -0.342643991039     0.85428836944       -0.361691816167     0.85428836944       -0.361691816167     -0.14541222314      -0.342643991039     
3300000000.0        -0.153267253089     -0.35006971538      0.846421426063      -0.369722085077     0.846421426063      -0.369722085077     -0.153267253089     -0.35006971538      
3400000000.0        -0.161218652664     -0.357253748513     0.838457733418      -0.377511334354     0.838457733418      -0.377511334354     -0.161218652664     -0.357253748513     
3500000000.0        -0.169257303041     -0.364196358474     0.830406408891      -0.385059837808     0.830406408891      -0.385059837808     -0.169257303041     -0.364196358474     
3600000000.0        -0.177374269515     -0.370898195038     0.82227638574       -0.39236825075      0.82227638574       -0.39236825075      -0.177374269515     -0.370898195038     
3700000000.0        -0.185560817208     -0.377360270924     0.814076397395      -0.39943759122      0.814076397395      -0.39943759122      -0.185560817208     -0.377360270924     
3800000000.0        -0.193808425134     -0.383583942562     0.805814963387      -0.406269220767     0.805814963387      -0.406269220767     -0.193808425134     -0.383583942562     
3900000000.0        -0.202108798656     -0.389570890558     0.797500376892      -0.412864824928     0.797500376892      -0.412864824928     -0.202108798656     -0.389570890558     
4000000000.0        -0.210453880359     -0.395323099969     0.789140693862      -0.419226393515     0.789140693862      -0.419226393515     -0.210453880359     -0.395323099969     
4100000000.0        -0.218835859385     -0.400842840528     0.780743723684      -0.425356200856     0.780743723684      -0.425356200856     -0.218835859385     -0.400842840528     
4200000000.0        -0.227247179293     -0.406132646916     0.772317021323      -0.431256786077     0.772317021323      -0.431256786077     -0.227247179293     -0.406132646916     
4300000000.0        -0.23568054448      -0.411195299181     0.763867880898      -0.436930933535     0.763867880898      -0.436930933535     -0.23568054448      -0.411195299181     
4400000000.0        -0.244128925258     -0.416033803415     0.75540333061       -0.442381653501     0.75540333061       -0.442381653501     -0.244128925258     -0.416033803415     
4500000000.0        -0.252585561622     -0.420651372744     0.746930128966      -0.447612163165     0.746930128966      -0.447612163165     -0.252585561622     -0.420651372744     
4600000000.0        -0.261043965805     -0.425051408733     0.738454762234      -0.452625868048     0.738454762234      -0.452625868048     -0.261043965805     -0.425051408733     
4700000000.0        -0.269497923683     -0.429237483257     0.729983443026      -0.457426343884     0.729983443026      -0.457426343884     -0.269497923683     -0.429237483257     
4800000000.0        -0.27794149511      -0.4332133209       0.721522109973      -0.462017319023     0.721522109973      -0.462017319023     -0.27794149511      -0.4332133209       
4900000000.0        -0.286369013261     -0.436982781927     0.713076428379      -0.466402657419     0.713076428379      -0.466402657419     -0.286369013261     -0.436982781927     
5000000000.0        -0.29477508305      -0.440549845879     0.704651791798      -0.470586342223     0.704651791798      -0.470586342223     -0.29477508305      -0.440549845879     
5100000000.0        -0.303154578712     -0.443918595813     0.696253324455      -0.474572460038     0.696253324455      -0.474572460038     -0.303154578712     -0.443918595813     
5200000000.0        -0.311502640626     -0.447093203225     0.687885884428      -0.478365185847     0.687885884428      -0.478365185847     -0.311502640626     -0.447093203225     
5300000000.0        -0.319814671428     -0.450077913671     0.679554067527      -0.481968768636     0.679554067527      -0.481968768636     -0.319814671428     -0.450077913671     
5400000000.0        -0.328086331522     -0.452877033092     0.671262211785      -0.485387517731     0.671262211785      -0.485387517731     -0.328086331522     -0.452877033092     
5500000000.0        -0.336313534028     -0.455494914871     0.663014402513      -0.488625789856     0.663014402513      -0.488625789856     -0.336313534028     -0.455494914871     
5600000000.0        -0.344492439248     -0.457935947602     0.65481447783       -0.49168797691      0.65481447783       -0.49168797691      -0.344492439248     -0.457935947602     
5700000000.0        -0.352619448713     -0.460204543587     0.646666034621      -0.49457849447      0.646666034621      -0.49457849447      -0.352619448713     -0.460204543587     
5800000000.0        -0.36069119886      -0.462305128049     0.63857243485       -0.497301771006     0.63857243485       -0.497301771006     -0.36069119886      -0.462305128049     
5900000000.0        -0.368704554417     -0.464242129047     0.630536812187      -0.4998622378       0.630536812187      -0.4998622378       -0.368704554417     -0.464242129047     
6000000000.0        -0.376656601522     -0.466019968089     0.622562078879      -0.502264319567     0.622562078879      -0.502264319567     -0.376656601522     -0.466019968089     
6100000000.0        -0.384544640656     -0.467643051418     0.614650932824      -0.504512425742     0.614650932824      -0.504512425742     -0.384544640656     -0.467643051418     
6200000000.0        -0.392366179407     -0.469115761965     0.606805864799      -0.506610942439     0.606805864799      -0.506610942439     -0.392366179407     -0.469115761965     
6300000000.0        -0.400118925136     -0.470442451935     0.599029165804      -0.508564225036     0.599029165804      -0.508564225036     -0.400118925136     -0.470442451935     
6400000000.0        -0.407800777556     -0.471627436018     0.591322934473      -0.510376591395     0.591322934473      -0.510376591395     -0.407800777556     -0.471627436018     
6500000000.0        -0.415409821293     -0.472674985188     0.583689084519      -0.512052315661     0.583689084519      -0.512052315661     -0.415409821293     -0.472674985188     
6600000000.0        -0.422944318428     -0.473589321079     0.576129352188      -0.513595622641     0.576129352188      -0.513595622641     -0.422944318428     -0.473589321079     
6700000000.0        -0.43040270108      -0.474374610902     0.56864530368       -0.515010682725     0.56864530368       -0.515010682725     -0.43040270108      -0.474374610902     
6800000000.0        -0.437783564037     -0.475034962891     0.561238342514      -0.516301607332     0.561238342514      -0.516301607332     -0.437783564037     -0.475034962891     
6900000000.0        -0.445085657465     -0.475574422231     0.553909716819      -0.517472444845     0.553909716819      -0.517472444845     -0.445085657465     -0.475574422231     
7000000000.0        -0.452307879725     -0.475996967467     0.546660526522      -0.518527177018     0.546660526522      -0.518527177018     -0.452307879725     -0.475996967467     
7100000000.0        -0.459449270301     -0.476306507352     0.539491730412      -0.519469715827     0.539491730412      -0.519469715827     -0.459449270301     -0.476306507352     
7200000000.0        -0.466509002869     -0.476506878108     0.532404153076      -0.520303900733     0.532404153076      -0.520303900733     -0.466509002869     -0.476506878108     
7300000000.0        -0.473486378516     -0.476601841086     0.525398491678      -0.521033496349     0.525398491678      -0.521033496349     -0.473486378516     -0.476601841086     
7400000000.0        -0.480380819122     -0.476595080794     0.518475322579      -0.521662190459     0.518475322579      -0.521662190459     -0.480380819122     -0.476595080794     
7500000000.0        -0.48719186091      -0.476490203262     0.511635107783      -0.522193592395     0.511635107783      -0.522193592395     -0.48719186091      -0.476490203262     
7600000000.0        -0.493919148184     -0.476290734732     0.504878201203      -0.522631231725     0.504878201203      -0.522631231725     -0.493919148184     -0.476290734732     
7700000000.0        -0.500562427247     -0.476000120651     0.498204854736      -0.522978557243     0.498204854736      -0.522978557243     -0.500562427247     -0.476000120651     
7800000000.0        -0.507121540525     -0.475621724926     0.491615224151      -0.523238936233     0.491615224151      -0.523238936233     -0.507121540525     -0.475621724926     
7900000000.0        -0.513596420868     -0.475158829449     0.485109374773      -0.52341565399      0.485109374773      -0.52341565399      -0.513596420868     -0.475158829449     
8000000000.0        -0.519987086071     -0.474614633846     0.478687286973      -0.523511913573     0.478687286973      -0.523511913573     -0.519987086071     -0.474614633846     
8100000000.0        -0.526293633582     -0.473992255449     0.472348861456      -0.523530835774     0.472348861456      -0.523530835774     -0.526293633582     -0.473992255449     
8200000000.0        -0.532516235416     -0.473294729458     0.466093924344      -0.523475459286     0.466093924344      -0.523475459286     -0.532516235416     -0.473294729458     
8300000000.0        -0.538655133272     -0.472525009291     0.459922232065      -0.52334874105      0.459922232065      -0.52334874105      -0.538655133272     -0.472525009291     
8400000000.0        -0.544710633843     -0.471685967088     0.453833476036      -0.523153556765     0.453833476036      -0.523153556765     -0.544710633843     -0.471685967088     
8500000000.0        -0.550683104328     -0.470780394373     0.447827287157      -0.522892701545     0.447827287157      -0.522892701545     -0.550683104328     -0.470780394373     
8600000000.0        -0.556572968139     -0.46981100284      0.441903240099      -0.522568890708     0.441903240099      -0.522568890708     -0.556572968139     -0.46981100284      
8700000000.0        -0.562380700795     -0.468780425267     0.436060857411      -0.52218476069      0.436060857411      -0.52218476069      -0.562380700795     -0.468780425267     
8800000000.0        -0.56810682601      -0.467691216527     0.430299613435      -0.521742870061     0.430299613435      -0.521742870061     -0.56810682601      -0.467691216527     
8900000000.0        -0.573751911957     -0.466545854698     0.424618938037      -0.521245700629     0.424618938037      -0.521245700629     -0.573751911957     -0.466545854698     
9000000000.0        -0.579316567718     -0.46534674226      0.419018220161      -0.520695658644     0.419018220161      -0.520695658644     -0.579316567718     -0.46534674226      
9100000000.0        -0.584801439901     -0.464096207355     0.413496811207      -0.520095076052     0.413496811207      -0.520095076052     -0.584801439901     -0.464096207355     
9200000000.0        -0.590207209435     -0.462796505119     0.408054028242      -0.51944621183      0.408054028242      -0.51944621183      -0.590207209435     -0.462796505119     
9300000000.0        -0.595534588524     -0.461449819056     0.40268915704       -0.518751253368     0.40268915704       -0.518751253368     -0.595534588524     -0.461449819056     
9400000000.0        -0.600784317757     -0.460058262471     0.397401454976      -0.518012317887     0.397401454976      -0.518012317887     -0.600784317757     -0.460058262471     
9500000000.0        -0.60595716338      -0.458623879926     0.39219015375       -0.51723145391      0.39219015375       -0.51723145391      -0.60595716338      -0.458623879926     
9600000000.0        -0.61105391471      -0.457148648737     0.387054461979      -0.51641064275      0.387054461979      -0.51641064275      -0.61105391471      -0.457148648737     
9700000000.0        -0.616075381692     -0.455634480485     0.381993567629      -0.515551800027     0.381993567629      -0.515551800027     -0.616075381692     -0.455634480485     
9800000000.0        -0.621022392597     -0.454083222553     0.377006640329      -0.514656777201     0.377006640329      -0.514656777201     -0.621022392597     -0.454083222553     
9900000000.0        -0.625895791851     -0.452496659666     0.372092833535      -0.513727363117     0.372092833535      -0.513727363117     -0.625895791851     -0.452496659666     
10000000000.0       -0.630696437986     -0.450876515446     0.36725128658       -0.512765285554     0.36725128658       -0.512765285554     -0.630696437986     -0.450876515446     
