# Hz S RI R 50.00 
100000000.0         0.00211083327245    0.000145205401948   0.997888099038      -0.000214677912633  0.997888099038      -0.000214677912633  0.00211083327245    0.000145205401948   
200000000.0         0.0021247896958     0.000290401053698   0.997874070095      -0.000429346458904  0.997874070095      -0.000429346458904  0.0021247896958     0.000290401053698   
300000000.0         0.00213503703414    0.000435591163097   0.997863745406      -0.000644010049525  0.997863745406      -0.000644010049525  0.00213503703414    0.000435591163097   
400000000.0         0.00214341501696    0.000580777250924   0.997855285241      -0.000858670362834  0.997855285241      -0.000858670362834  0.00214341501696    0.000580777250923   
500000000.0         0.00215063399364    0.00072596020506    0.997847979251      -0.00107332842135   0.997847979251      -0.00107332842135   0.00215063399364    0.00072596020506    
600000000.0         0.00215705714677    0.000871140630296   0.997841464253      -0.00128798494974   0.997841464253      -0.00128798494974   0.00215705714677    0.000871140630296   
700000000.0         0.00216289955264    0.00101631897486    0.997835525169      -0.00150264050534   0.997835525169      -0.00150264050534   0.00216289955264    0.00101631897486    
800000000.0         0.00216830090441    0.00116149558942    0.997830022307      -0.00171729553958   0.997830022307      -0.00171729553958   0.00216830090441    0.00116149558942    
900000000.0         0.00217335792295    0.00130667075887    0.997824858944      -0.00193195043158   0.997824858944      -0.00193195043158   0.00217335792295    0.00130667075887    
1000000000.0        0.0021781408012     0.00145184472159    0.997819964889      -0.00214660550796   0.997819964889      -0.00214660550796   0.0021781408012     0.00145184472159    
1100000000.0        0.00218270235376    0.00159701768115    0.997815287325      -0.0023612610562    0.997815287325      -0.0023612610562    0.00218270235376    0.00159701768115    
1200000000.0        0.00218708347402    0.00174218981491    0.997810785359      -0.00257591733294   0.997810785359      -0.00257591733294   0.00218708347402    0.00174218981491    
1300000000.0        0.00219131657072    0.00188736127936    0.997806426581      -0.00279057457059   0.997806426581      -0.00279057457059   0.00219131657072    0.00188736127936    
1400000000.0        0.00219542782901    0.00203253221441    0.997802184806      -0.00300523298172   0.997802184806      -0.00300523298172   0.00219542782901    0.00203253221441    
1500000000.0        0.00219943875239    0.00217770274668    0.99779803853       -0.00321989276236   0.99779803853       -0.00321989276236   0.00219943875239    0.00217770274668    
1600000000.0        0.0022033672469     0.00232287299156    0.997793969846      -0.0034345540948    0.997793969846      -0.0034345540948    0.0022033672469     0.00232287299156    
1700000000.0        0.00220722840306    0.00246804305518    0.997789963664      -0.00364921714963   0.997789963664      -0.00364921714963   0.00220722840306    0.00246804305518    
1800000000.0        0.00221103507254    0.00261321303586    0.99778600713       -0.00386388208733   0.99778600713       -0.00386388208733   0.00221103507254    0.00261321303586    
1900000000.0        0.00221479830179    0.00275838302525    0.997782089198      -0.00407854905969   0.997782089198      -0.00407854905969   0.00221479830179    0.00275838302525    
2000000000.0        0.00221852766356    0.00290355310946    0.997778200295      -0.00429321821068   0.997778200295      -0.00429321821068   0.00221852766356    0.00290355310946    
2100000000.0        0.00222223151453    0.00304872336947    0.997774332064      -0.00450788967776   0.997774332064      -0.00450788967776   0.00222223151453    0.00304872336947    
2200000000.0        0.00222591719762    0.00319389388221    0.99777047716       -0.00472256359223   0.99777047716       -0.00472256359223   0.00222591719762    0.00319389388221    
2300000000.0        0.00222959120359    0.00333906472075    0.997766629092      -0.00493724008017   0.997766629092      -0.00493724008017   0.00222959120359    0.00333906472075    
2400000000.0        0.00223325930069    0.00348423595501    0.997762782092      -0.00515191926283   0.997762782092      -0.00515191926283   0.00223325930069    0.00348423595501    
2500000000.0        0.00223692664042    0.00362940765205    0.997758931008      -0.00536660125716   0.997758931008      -0.00536660125716   0.00223692664042    0.00362940765205    
2600000000.0        0.00224059784419    0.00377457987639    0.997755071216      -0.00558128617626   0.997755071216      -0.00558128617626   0.00224059784419    0.00377457987639    
2700000000.0        0.00224427707492    0.00391975269038    0.997751198555      -0.00579597412963   0.997751198555      -0.00579597412963   0.00224427707492    0.00391975269038    
2800000000.0        0.00224796809691    0.00406492615432    0.997747309259      -0.00601066522365   0.997747309259      -0.00601066522365   0.00224796809691    0.00406492615432    
2900000000.0        0.00225167432591    0.00421010032689    0.99774339991       -0.00622535956164   0.99774339991       -0.00622535956164   0.00225167432591    0.00421010032689    
3000000000.0        0.00225539887156    0.00435527526515    0.9977394674        -0.00644005724433   0.9977394674        -0.00644005724433   0.00225539887156    0.00435527526515    
3100000000.0        0.00225914457342    0.00450045102478    0.997735508888      -0.00665475836994   0.997735508888      -0.00665475836994   0.00225914457342    0.00450045102478    
3200000000.0        0.00226291403173    0.0046456276603     0.997731521773      -0.00686946303437   0.997731521773      -0.00686946303437   0.00226291403173    0.0046456276603     
3300000000.0        0.00226670963389    0.00479080522511    0.997727503667      -0.00708417133144   0.997727503667      -0.00708417133144   0.00226670963389    0.00479080522511    
3400000000.0        0.00227053357728    0.00493598377167    0.997723452371      -0.00729888335301   0.997723452371      -0.00729888335301   0.00227053357728    0.00493598377167    
3500000000.0        0.00227438788912    0.00508116335149    0.997719365858      -0.0075135991892    0.997719365858      -0.0075135991892    0.00227438788912    0.00508116335149    
3600000000.0        0.00227827444366    0.00522634401548    0.997715242253      -0.00772831892832   0.997715242253      -0.00772831892832   0.00227827444366    0.00522634401548    
3700000000.0        0.00228219497735    0.00537152581371    0.997711079818      -0.00794304265725   0.997711079818      -0.00794304265725   0.00228219497735    0.00537152581371    
3800000000.0        0.002286151102      0.0055167087958     0.997706876942      -0.00815777046129   0.997706876942      -0.00815777046129   0.002286151102      0.0055167087958     
3900000000.0        0.00229014431655    0.00566189301074    0.997702632123      -0.00837250242449   0.997702632123      -0.00837250242449   0.00229014431655    0.00566189301074    
4000000000.0        0.00229417601732    0.00580707850711    0.997698343967      -0.00858723862958   0.997698343967      -0.00858723862958   0.00229417601732    0.00580707850711    
4100000000.0        0.0022982475072     0.0059522653331     0.997694011167      -0.00880197915807   0.997694011167      -0.00880197915807   0.0022982475072     0.0059522653331     
4200000000.0        0.00230236000376    0.0060974535365     0.997689632507      -0.00901672409042   0.997689632507      -0.00901672409042   0.00230236000376    0.0060974535365     
4300000000.0        0.00230651464656    0.00624264316485    0.997685206846      -0.00923147350599   0.997685206846      -0.00923147350599   0.00230651464656    0.00624264316485    
4400000000.0        0.0023107125036     0.00638783426542    0.997680733115      -0.00944622748319   0.997680733115      -0.00944622748319   0.00231071250359    0.00638783426542    
4500000000.0        0.00231495457718    0.00653302688526    0.997676210312      -0.0096609860995    0.997676210312      -0.0096609860995    0.00231495457718    0.00653302688526    
4600000000.0        0.00231924180916    0.00667822107128    0.997671637492      -0.00987574943149   0.997671637492      -0.00987574943149   0.00231924180916    0.00667822107128    
4700000000.0        0.00232357508563    0.00682341687015    0.99766701377       -0.010090517555     0.99766701377       -0.010090517555     0.00232357508563    0.00682341687015    
4800000000.0        0.00232795524121    0.00696861432853    0.997662338311      -0.0103052905451    0.997662338311      -0.0103052905451    0.00232795524121    0.00696861432853    
4900000000.0        0.00233238306292    0.00711381349296    0.997657610325      -0.010520068476     0.997657610325      -0.010520068476     0.00233238306292    0.00711381349296    
5000000000.0        0.0023368592937     0.00725901440986    0.99765282907       -0.0107348514213    0.99765282907       -0.0107348514213    0.0023368592937     0.00725901440986    
5100000000.0        0.00234138463553    0.00740421712576    0.997647993843      -0.0109496394541    0.997647993843      -0.0109496394541    0.00234138463553    0.00740421712576    
5200000000.0        0.0023459597524     0.00754942168703    0.997643103979      -0.0111644326466    0.997643103979      -0.0111644326466    0.0023459597524     0.00754942168703    
5300000000.0        0.00235058527295    0.00769462814015    0.997638158848      -0.0113792310707    0.997638158848      -0.0113792310707    0.00235058527295    0.00769462814015    
5400000000.0        0.00235526179285    0.0078398365316     0.997633157854      -0.0115940347976    0.997633157854      -0.0115940347976    0.00235526179285    0.0078398365316     
5500000000.0        0.00235998987707    0.00798504690788    0.997628100432      -0.0118088438981    0.997628100432      -0.0118088438981    0.00235998987707    0.00798504690788    
5600000000.0        0.00236477006186    0.00813025931558    0.997622986043      -0.0120236584423    0.997622986043      -0.0120236584423    0.00236477006186    0.00813025931558    
5700000000.0        0.00236960285667    0.0082754738014     0.997617814178      -0.0122384785       0.997617814178      -0.0122384785       0.00236960285667    0.0082754738014     
5800000000.0        0.00237448874582    0.00842069041208    0.997612584352      -0.0124533041406    0.997612584352      -0.0124533041406    0.00237448874582    0.00842069041208    
5900000000.0        0.00237942819013    0.00856590919447    0.997607296102      -0.0126681354331    0.997607296102      -0.0126681354331    0.00237942819013    0.00856590919447    
6000000000.0        0.00238442162833    0.00871113019562    0.99760194899       -0.0128829724458    0.99760194899       -0.0128829724458    0.00238442162833    0.00871113019562    
6100000000.0        0.00238946947844    0.00885635346259    0.997596542597      -0.013097815247     0.997596542597      -0.013097815247     0.00238946947844    0.00885635346259    
6200000000.0        0.00239457213902    0.00900157904268    0.997591076522      -0.0133126639046    0.997591076522      -0.0133126639046    0.00239457213902    0.00900157904268    
6300000000.0        0.00239972999031    0.00914680698329    0.997585550385      -0.0135275184859    0.997585550385      -0.0135275184859    0.00239972999031    0.00914680698329    
6400000000.0        0.00240494339532    0.009292037332      0.997579963823      -0.0137423790581    0.997579963823      -0.0137423790581    0.00240494339532    0.009292037332      
6500000000.0        0.00241021270079    0.00943727013655    0.997574316486      -0.0139572456882    0.997574316486      -0.0139572456882    0.00241021270079    0.00943727013655    
6600000000.0        0.00241553823815    0.00958250544487    0.997568608044      -0.0141721184426    0.997568608044      -0.0141721184426    0.00241553823815    0.00958250544487    
6700000000.0        0.00242092032438    0.00972774330505    0.997562838178      -0.0143869973878    0.997562838178      -0.0143869973878    0.00242092032438    0.00972774330505    
6800000000.0        0.0024263592628     0.00987298376541    0.997557006585      -0.0146018825896    0.997557006585      -0.0146018825896    0.0024263592628     0.00987298376541    
6900000000.0        0.00243185534378    0.0100182268744     0.997551112972      -0.014816774114     0.997551112972      -0.014816774114     0.00243185534378    0.0100182268744     
7000000000.0        0.00243740884554    0.0101634726808     0.99754515706       -0.0150316720266    0.99754515706       -0.0150316720266    0.00243740884554    0.0101634726808     
7100000000.0        0.00244302003467    0.0103087212335     0.997539138583      -0.0152465763926    0.997539138583      -0.0152465763926    0.00244302003467    0.0103087212335     
7200000000.0        0.00244868916685    0.0104539725816     0.997533057284      -0.0154614872774    0.997533057284      -0.0154614872774    0.00244868916685    0.0104539725816     
7300000000.0        0.00245441648737    0.0105992267744     0.997526912916      -0.0156764047457    0.997526912916      -0.0156764047457    0.00245441648737    0.0105992267744     
7400000000.0        0.00246020223168    0.0107444838615     0.997520705243      -0.0158913288625    0.997520705243      -0.0158913288625    0.00246020223168    0.0107444838615     
7500000000.0        0.00246604662584    0.0108897438927     0.997514434039      -0.0161062596923    0.997514434039      -0.0161062596923    0.00246604662584    0.0108897438927     
7600000000.0        0.00247194988711    0.0110350069181     0.997508099084      -0.0163211972996    0.997508099084      -0.0163211972996    0.00247194988711    0.0110350069181     
7700000000.0        0.00247791222424    0.0111802729879     0.99750170017       -0.0165361417487    0.99750170017       -0.0165361417487    0.00247791222424    0.0111802729879     
7800000000.0        0.00248393383801    0.0113255421526     0.997495237094      -0.0167510931037    0.997495237094      -0.0167510931037    0.00248393383801    0.0113255421526     
7900000000.0        0.00249001492157    0.0114708144629     0.997488709664      -0.0169660514287    0.997488709664      -0.0169660514287    0.00249001492157    0.0114708144629     
8000000000.0        0.00249615566079    0.0116160899698     0.99748211769       -0.0171810167874    0.99748211769       -0.0171810167874    0.00249615566079    0.0116160899698     
8100000000.0        0.00250235623464    0.0117613687247     0.997475460995      -0.0173959892438    0.997475460995      -0.0173959892438    0.00250235623464    0.0117613687247     
8200000000.0        0.0025086168155     0.0119066507788     0.997468739405      -0.0176109688613    0.997468739405      -0.0176109688613    0.0025086168155     0.0119066507788     
8300000000.0        0.00251493756949    0.0120519361841     0.997461952752      -0.0178259557036    0.997461952752      -0.0178259557036    0.00251493756949    0.0120519361841     
8400000000.0        0.00252131865673    0.0121972249925     0.997455100876      -0.018040949834     0.997455100876      -0.018040949834     0.00252131865673    0.0121972249925     
8500000000.0        0.00252776023162    0.0123425172562     0.997448183622      -0.0182559513159    0.997448183622      -0.0182559513159    0.00252776023162    0.0123425172562     
8600000000.0        0.00253426244315    0.0124878130277     0.997441200838      -0.0184709602126    0.997441200838      -0.0184709602126    0.00253426244315    0.0124878130277     
8700000000.0        0.00254082543506    0.0126331123599     0.997434152382      -0.0186859765872    0.997434152382      -0.0186859765872    0.00254082543506    0.0126331123599     
8800000000.0        0.00254744934615    0.0127784153057     0.997427038113      -0.0189010005028    0.997427038113      -0.0189010005028    0.00254744934615    0.0127784153057     
8900000000.0        0.00255413431046    0.0129237219184     0.997419857895      -0.0191160320224    0.997419857895      -0.0191160320224    0.00255413431046    0.0129237219184     
9000000000.0        0.00256088045749    0.0130690322515     0.9974126116        -0.019331071209     0.9974126116        -0.019331071209     0.00256088045749    0.0130690322515     
9100000000.0        0.0025676879124     0.013214346359      0.9974052991        -0.0195461181254    0.9974052991        -0.0195461181254    0.0025676879124     0.013214346359      
9200000000.0        0.00257455679619    0.0133596642948     0.997397920274      -0.0197611728344    0.997397920274      -0.0197611728344    0.00257455679619    0.0133596642948     
9300000000.0        0.00258148722591    0.0135049861134     0.997390475003      -0.0199762353988    0.997390475003      -0.0199762353988    0.00258148722591    0.0135049861134     
9400000000.0        0.00258847931477    0.0136503118692     0.997382963175      -0.0201913058813    0.997382963175      -0.0201913058813    0.00258847931477    0.0136503118692     
9500000000.0        0.00259553317236    0.0137956416173     0.997375384677      -0.0204063843447    0.997375384677      -0.0204063843447    0.00259553317236    0.0137956416173     
9600000000.0        0.00260264890476    0.0139409754128     0.997367739403      -0.0206214708514    0.997367739403      -0.0206214708514    0.00260264890476    0.0139409754128     
9700000000.0        0.00260982661473    0.014086313311      0.99736002725       -0.0208365654642    0.99736002725       -0.0208365654642    0.00260982661473    0.014086313311      
9800000000.0        0.00261706640182    0.0142316553677     0.997352248117      -0.0210516682455    0.997352248117      -0.0210516682455    0.00261706640182    0.0142316553677     
9900000000.0        0.00262436836248    0.0143770016388     0.997344401907      -0.021266779258     0.997344401907      -0.021266779258     0.00262436836248    0.0143770016388     
10000000000.0       0.00263173259024    0.0145223521805     0.997336488525      -0.021481898564     0.997336488525      -0.021481898564     0.00263173259024    0.0145223521805     
