# Hz S RI R 50.00 
100000000.0         0.000909426128895   -0.000911876751156  0.999070323941      -0.00441047465055   0.999070323941      -0.00441047465055   0.000909426128894   -0.000911876751156  
200000000.0         0.00090098687122    -0.00182376444579   0.999031175386      -0.00882091338955   0.999031175386      -0.00882091338955   0.00090098687122    -0.00182376444579   
300000000.0         0.000882905098814   -0.00273560752266   0.998973328862      -0.0132312994383    0.998973328862      -0.0132312994383    0.000882905098814   -0.00273560752266   
400000000.0         0.000855972680563   -0.00364735308556   0.998895989624      -0.0176415883185    0.998895989624      -0.0176415883185    0.000855972680563   -0.00364735308556   
500000000.0         0.0008204937764     -0.00455894637899   0.998798850666      -0.02205172455      0.998798850666      -0.02205172455      0.000820493776401   -0.00455894637899   
600000000.0         0.000776623235025   -0.00547033078481   0.99868175452       -0.0264616459592    0.99868175452       -0.0264616459592    0.000776623235024   -0.00547033078481   
700000000.0         0.000724452577177   -0.00638144804929   0.998544607411      -0.0308712856625    0.998544607411      -0.0308712856625    0.000724452577177   -0.00638144804929   
800000000.0         0.000664041373545   -0.00729223849641   0.998387347987      -0.035280573188     0.998387347987      -0.035280573188     0.000664041373545   -0.00729223849641   
900000000.0         0.000595431220625   -0.00820264120294   0.998209933432      -0.0396894351876    0.998209933432      -0.0396894351876    0.000595431220625   -0.00820264120294   
1000000000.0        0.000518652831249   -0.00911259414047   0.998012332447      -0.0440977959266    0.998012332447      -0.0440977959266    0.000518652831249   -0.00911259414047   
1100000000.0        0.000433729982394   -0.0100220342913    0.997794521369      -0.0485055776382    0.997794521369      -0.0485055776382    0.000433729982394   -0.0100220342913    
1200000000.0        0.000340681873255   -0.0109308977447    0.997556481869      -0.0529127007924    0.997556481869      -0.0529127007924    0.000340681873255   -0.0109308977447    
1300000000.0        0.000239524613815   -0.0118391197783    0.997298199508      -0.0573190843057    0.997298199508      -0.0573190843057    0.000239524613815   -0.0118391197783    
1400000000.0        0.00013027220763    -0.0127466349277    0.997019662806      -0.0617246457098    0.997019662806      -0.0617246457098    0.000130272207629   -0.0127466349277    
1500000000.0        1.29372253097e-05   -0.0136533770472    0.996720862606      -0.0661293012902    0.996720862606      -0.0661293012902    1.29372253099e-05   -0.0136533770472    
1600000000.0        -0.000112468719157  -0.014559279363     0.996401791632      -0.0705329662021    0.996401791632      -0.0705329662021    -0.000112468719157  -0.014559279363     
1700000000.0        -0.000245934622262  -0.0154642745206    0.99606244418       -0.0749355545686    0.99606244418       -0.0749355545686    -0.000245934622262  -0.0154642745206    
1800000000.0        -0.000387449833397  -0.0163682946279    0.995702815891      -0.0793369795656    0.995702815891      -0.0793369795656    -0.000387449833397  -0.0163682946279    
1900000000.0        -0.000537003859128  -0.0172712712941    0.995322903584      -0.0837371534961    0.995322903584      -0.0837371534961    -0.000537003859128  -0.0172712712941    
2000000000.0        -0.000694586211696  -0.018173135665     0.994922705132      -0.0881359878553    0.994922705132      -0.0881359878553    -0.000694586211696  -0.018173135665     
2100000000.0        -0.000860186289757  -0.0190738184561    0.994502219364      -0.0925333933885    0.994502219364      -0.0925333933885    -0.000860186289757  -0.0190738184561    
2200000000.0        -0.0010337932831    -0.0199732499831    0.994061446         -0.0969292801438    0.994061446         -0.0969292801438    -0.0010337932831    -0.0199732499831    
2300000000.0        -0.00121539609548   -0.0208713601905    0.993600385588      -0.101323557519     0.993600385588      -0.101323557519     -0.00121539609548   -0.0208713601905    
2400000000.0        -0.00140498328131   -0.0217680786787    0.993119039466      -0.105716134304     0.993119039466      -0.105716134304     -0.00140498328131   -0.0217680786787    
2500000000.0        -0.00160254299318   -0.0226633347289    0.992617409727      -0.110106918722     0.992617409727      -0.110106918722     -0.00160254299318   -0.0226633347289    
2600000000.0        -0.00180806293789   -0.0235570573274    0.992095499194      -0.114495818465     0.992095499194      -0.114495818465     -0.00180806293789   -0.0235570573274    
2700000000.0        -0.00202153033929   -0.0244491751887    0.991553311398      -0.118882740725     0.991553311398      -0.118882740725     -0.00202153033929   -0.0244491751887    
2800000000.0        -0.00224293190651   -0.0253396167774    0.99099085056       -0.123267592232     0.99099085056       -0.123267592232     -0.00224293190651   -0.0253396167774    
2900000000.0        -0.00247225380677   -0.026228310329     0.990408121586      -0.127650279276     0.990408121586      -0.127650279276     -0.00247225380677   -0.026228310329     
3000000000.0        -0.0027094816418    -0.0271151838705    0.989805130047      -0.132030707739     0.989805130047      -0.132030707739     -0.0027094816418    -0.0271151838705    
3100000000.0        -0.00295460042728   -0.0280001652395    0.989181882181      -0.136408783122     0.989181882181      -0.136408783122     -0.00295460042728   -0.0280001652395    
3200000000.0        -0.00320759457495   -0.0288831821037    0.98853838488       -0.140784410564     0.98853838488       -0.140784410564     -0.00320759457495   -0.0288831821037    
3300000000.0        -0.00346844787676   -0.0297641619786    0.987874645689      -0.145157494874     0.987874645689      -0.145157494874     -0.00346844787676   -0.0297641619786    
3400000000.0        -0.00373714349097   -0.0306430322456    0.987190672802      -0.149527940545     0.987190672802      -0.149527940545     -0.00373714349097   -0.0306430322456    
3500000000.0        -0.00401366392979   -0.0315197201696    0.986486475059      -0.153895651781     0.986486475059      -0.153895651781     -0.00401366392979   -0.0315197201696    
3600000000.0        -0.00429799104843   -0.032394152915     0.985762061944      -0.158260532516     0.985762061944      -0.158260532516     -0.00429799104843   -0.032394152915     
3700000000.0        -0.0045901060353    -0.0332662575632    0.985017443586      -0.162622486431     0.985017443586      -0.162622486431     -0.0045901060353    -0.0332662575632    
3800000000.0        -0.00488998940336   -0.0341359611278    0.984252630753      -0.166981416977     0.984252630753      -0.166981416977     -0.00488998940336   -0.0341359611278    
3900000000.0        -0.00519762098229   -0.035003190571     0.983467634859      -0.17133722739      0.983467634859      -0.17133722739      -0.00519762098229   -0.035003190571     
4000000000.0        -0.00551297991164   -0.0358678728184    0.982662467955      -0.175689820711     0.982662467955      -0.175689820711     -0.00551297991164   -0.0358678728184    
4100000000.0        -0.0058360446346    -0.0367299347748    0.981837142737      -0.1800390998       0.981837142737      -0.1800390998       -0.0058360446346    -0.0367299347748    
4200000000.0        -0.00616679289253   -0.0375893033384    0.980991672539      -0.184384967356     0.980991672539      -0.184384967356     -0.00616679289253   -0.0375893033384    
4300000000.0        -0.00650520172006   -0.0384459054157    0.980126071339      -0.188727325928     0.980126071339      -0.188727325928     -0.00650520172006   -0.0384459054157    
4400000000.0        -0.00685124744078   -0.039299667936     0.979240353754      -0.193066077937     0.979240353754      -0.193066077937     -0.00685124744078   -0.039299667936     
4500000000.0        -0.00720490566345   -0.0401505178648    0.978334535045      -0.197401125686     0.978334535045      -0.197401125686     -0.00720490566345   -0.0401505178648    
4600000000.0        -0.00756615127864   -0.0409983822186    0.977408631114      -0.201732371375     0.977408631114      -0.201732371375     -0.00756615127864   -0.0409983822186    
4700000000.0        -0.0079349584559    -0.0418431880777    0.976462658502      -0.206059717117     0.976462658502      -0.206059717117     -0.0079349584559    -0.0418431880777    
4800000000.0        -0.00831130064122   -0.0426848626002    0.975496634396      -0.210383064951     0.975496634396      -0.210383064951     -0.00831130064122   -0.0426848626002    
4900000000.0        -0.00869515055497   -0.0435233330349    0.974510576623      -0.214702316858     0.974510576623      -0.214702316858     -0.00869515055497   -0.0435233330349    
5000000000.0        -0.0090864801902    -0.0443585267348    0.97350450365       -0.219017374767     0.97350450365       -0.219017374767     -0.0090864801902    -0.0443585267348    
5100000000.0        -0.00948526081119   -0.0451903711695    0.972478434589      -0.223328140579     0.972478434589      -0.223328140579     -0.00948526081119   -0.0451903711695    
5200000000.0        -0.00989146295242   -0.0460187939383    0.971432389189      -0.227634516167     0.971432389189      -0.227634516167     -0.00989146295242   -0.0460187939383    
5300000000.0        -0.0103050564178    -0.0468437227827    0.970366387842      -0.231936403401     0.970366387842      -0.231936403401     -0.0103050564178    -0.0468437227827    
5400000000.0        -0.0107260102801    -0.0476650855987    0.969280451581      -0.236233704149     0.969280451581      -0.236233704149     -0.0107260102801    -0.0476650855987    
5500000000.0        -0.011154292881     -0.0484828104489    0.968174602077      -0.240526320297     0.968174602077      -0.240526320297     -0.011154292881     -0.0484828104489    
5600000000.0        -0.0115898718309    -0.0492968255751    0.96704886164       -0.244814153756     0.96704886164       -0.244814153756     -0.0115898718309    -0.0492968255751    
5700000000.0        -0.0120327140092    -0.0501070594098    0.965903253218      -0.249097106474     0.965903253218      -0.249097106474     -0.0120327140092    -0.0501070594098    
5800000000.0        -0.0124827855651    -0.0509134405881    0.964737800397      -0.253375080451     0.964737800397      -0.253375080451     -0.0124827855651    -0.0509134405881    
5900000000.0        -0.0129400519182    -0.0517158979595    0.963552527397      -0.257647977743     0.963552527397      -0.257647977743     -0.0129400519182    -0.0517158979595    
6000000000.0        -0.0134044777598    -0.0525143605996    0.962347459074      -0.26191570048      0.962347459074      -0.26191570048      -0.0134044777598    -0.0525143605996    
6100000000.0        -0.0138760270535    -0.0533087578209    0.961122620917      -0.266178150872     0.961122620917      -0.266178150872     -0.0138760270535    -0.0533087578209    
6200000000.0        -0.0143546630373    -0.0540990191848    0.959878039045      -0.27043523122      0.959878039045      -0.27043523122      -0.0143546630373    -0.0540990191848    
6300000000.0        -0.014840348225     -0.0548850745121    0.958613740209      -0.274686843927     0.958613740209      -0.274686843927     -0.014840348225     -0.0548850745121    
6400000000.0        -0.0153330444079    -0.0556668538947    0.957329751788      -0.278932891509     0.957329751788      -0.278932891509     -0.0153330444079    -0.0556668538947    
6500000000.0        -0.015832712657     -0.0564442877059    0.956026101786      -0.283173276603     0.956026101786      -0.283173276603     -0.015832712657     -0.0564442877059    
6600000000.0        -0.0163393133253    -0.0572173066114    0.954702818835      -0.287407901976     0.954702818835      -0.287407901976     -0.0163393133253    -0.0572173066114    
6700000000.0        -0.0168528060498    -0.0579858415801    0.953359932184      -0.291636670537     0.953359932184      -0.291636670537     -0.0168528060498    -0.0579858415801    
6800000000.0        -0.0173731497545    -0.0587498238943    0.951997471706      -0.295859485346     0.951997471706      -0.295859485346     -0.0173731497545    -0.0587498238943    
6900000000.0        -0.0179003026529    -0.0595091851606    0.950615467892      -0.30007624962      0.950615467892      -0.30007624962      -0.0179003026529    -0.0595091851606    
7000000000.0        -0.018434222251     -0.0602638573195    0.949213951845      -0.304286866746     0.949213951845      -0.304286866746     -0.018434222251     -0.0602638573195    
7100000000.0        -0.0189748653504    -0.0610137726563    0.947792955283      -0.308491240287     0.947792955283      -0.308491240287     -0.0189748653504    -0.0610137726563    
7200000000.0        -0.0195221880514    -0.0617588638107    0.946352510534      -0.312689273993     0.946352510534      -0.312689273993     -0.0195221880514    -0.0617588638107    
7300000000.0        -0.0200761457564    -0.062499063787     0.944892650533      -0.316880871806     0.944892650533      -0.316880871806     -0.0200761457564    -0.062499063787     
7400000000.0        -0.0206366931735    -0.0632343059637    0.943413408818      -0.321065937874     0.943413408818      -0.321065937874     -0.0206366931735    -0.0632343059637    
7500000000.0        -0.0212037843203    -0.0639645241033    0.941914819529      -0.325244376552     0.941914819529      -0.325244376552     -0.0212037843203    -0.0639645241033    
7600000000.0        -0.0217773725273    -0.0646896523621    0.940396917403      -0.329416092418     0.940396917403      -0.329416092418     -0.0217773725273    -0.0646896523621    
7700000000.0        -0.0223574104424    -0.0654096252994    0.938859737775      -0.333580990275     0.938859737775      -0.333580990275     -0.0223574104424    -0.0654096252994    
7800000000.0        -0.0229438500346    -0.066124377887     0.937303316567      -0.337738975161     0.937303316567      -0.337738975161     -0.0229438500346    -0.066124377887     
7900000000.0        -0.0235366425985    -0.0668338455186    0.935727690291      -0.341889952356     0.935727690291      -0.341889952356     -0.0235366425985    -0.0668338455186    
8000000000.0        -0.0241357387582    -0.0675379640186    0.934132896045      -0.346033827391     0.934132896045      -0.346033827391     -0.0241357387582    -0.0675379640186    
8100000000.0        -0.0247410884726    -0.0682366696516    0.932518971503      -0.350170506054     0.932518971503      -0.350170506054     -0.0247410884726    -0.0682366696516    
8200000000.0        -0.0253526410392    -0.0689298991309    0.930885954921      -0.354299894397     0.930885954921      -0.354299894397     -0.0253526410392    -0.0689298991309    
8300000000.0        -0.0259703450994    -0.0696175896275    0.929233885125      -0.358421898747     0.929233885125      -0.358421898747     -0.0259703450994    -0.0696175896275    
8400000000.0        -0.026594148643     -0.070299678779     0.92756280151       -0.362536425706     0.92756280151       -0.362536425706     -0.026594148643     -0.070299678779     
8500000000.0        -0.0272239990134    -0.0709761046977    0.925872744039      -0.366643382164     0.925872744039      -0.366643382164     -0.0272239990134    -0.0709761046977    
8600000000.0        -0.0278598429127    -0.0716468059796    0.924163753232      -0.370742675302     0.924163753232      -0.370742675302     -0.0278598429127    -0.0716468059796    
8700000000.0        -0.0285016264068    -0.0723117217125    0.922435870168      -0.374834212602     0.922435870168      -0.374834212602     -0.0285016264068    -0.0723117217125    
8800000000.0        -0.0291492949307    -0.0729707914842    0.920689136479      -0.37891790185      0.920689136479      -0.37891790185      -0.0291492949307    -0.0729707914842    
8900000000.0        -0.0298027932941    -0.0736239553909    0.918923594343      -0.382993651146     0.918923594343      -0.382993651146     -0.0298027932941    -0.0736239553909    
9000000000.0        -0.0304620656868    -0.074271154045     0.917139286483      -0.387061368905     0.917139286483      -0.387061368905     -0.0304620656868    -0.074271154045     
9100000000.0        -0.0311270556843    -0.074912328583     0.91533625616       -0.391120963869     0.91533625616       -0.391120963869     -0.0311270556843    -0.074912328583     
9200000000.0        -0.0317977062537    -0.0755474206736    0.913514547172      -0.395172345109     0.913514547172      -0.395172345109     -0.0317977062537    -0.0755474206736    
9300000000.0        -0.0324739597593    -0.0761763725251    0.911674203844      -0.399215422033     0.911674203844      -0.399215422033     -0.0324739597593    -0.0761763725251    
9400000000.0        -0.033155757969     -0.0767991268931    0.909815271027      -0.40325010439      0.909815271027      -0.40325010439      -0.0331557579689    -0.0767991268931    
9500000000.0        -0.0338430420595    -0.0774156270882    0.907937794092      -0.407276302277     0.907937794092      -0.407276302277     -0.0338430420595    -0.0774156270882    
9600000000.0        -0.0345357526234    -0.0780258169827    0.906041818925      -0.411293926143     0.906041818925      -0.411293926143     -0.0345357526234    -0.0780258169827    
9700000000.0        -0.0352338296747    -0.0786296410187    0.904127391925      -0.415302886797     0.904127391925      -0.415302886797     -0.0352338296747    -0.0786296410187    
9800000000.0        -0.0359372126553    -0.0792270442147    0.902194559991      -0.419303095409     0.902194559991      -0.419303095409     -0.0359372126553    -0.0792270442147    
9900000000.0        -0.0366458404416    -0.0798179721728    0.900243370528      -0.42329446352      0.900243370528      -0.42329446352      -0.0366458404416    -0.0798179721728    
10000000000.0       -0.0373596513506    -0.0804023710856    0.898273871433      -0.427276903043     0.898273871433      -0.427276903043     -0.0373596513506    -0.0804023710856    
