# Hz S RI R 50.00 
100000000.0         0.00366152167094    0.000715402208436   0.99633636604       -0.00153949092087   0.99633636604       -0.00153949092087   0.00366152167094    0.000715402208436   
200000000.0         0.00368871448298    0.0014306883844     0.996307380959      -0.00307886927065   0.996307380959      -0.00307886927065   0.00368871448298    0.0014306883844     
300000000.0         0.00371164884756    0.00214589531835    0.996281974314      -0.00461817424515   0.996281974314      -0.00461817424515   0.00371164884756    0.00214589531835    
400000000.0         0.00373349834568    0.00286103097866    0.99625697249       -0.00615741565779   0.99625697249       -0.00615741565779   0.00373349834568    0.00286103097866    
500000000.0         0.00375548593873    0.00357609663822    0.996231152484      -0.00769659634585   0.996231152484      -0.00769659634585   0.00375548593873    0.00357609663822    
600000000.0         0.00377823564611    0.00429109060935    0.996203890232      -0.00923571600318   0.996203890232      -0.00923571600318   0.00377823564611    0.00429109060935    
700000000.0         0.00380211623558    0.00500600958432    0.996174816918      -0.0107747725707    0.996174816918      -0.0107747725707    0.00380211623558    0.00500600958432    
800000000.0         0.00382736668486    0.00572084925659    0.996143693511      -0.0123137628875    0.996143693511      -0.0123137628875    0.00382736668487    0.00572084925659    
900000000.0         0.00385415205418    0.00643560465424    0.996110354892      -0.0138526830438    0.996110354892      -0.0138526830438    0.00385415205418    0.00643560465424    
1000000000.0        0.00388259181192    0.00715027033709    0.996074681532      -0.0153915285917    0.996074681532      -0.0153915285917    0.00388259181192    0.00715027033709    
1100000000.0        0.00391277558326    0.00786484052178    0.99603658374       -0.0169302946809    0.99603658374       -0.0169302946809    0.00391277558326    0.00786484052178    
1200000000.0        0.00394477253588    0.00857930916543    0.995995992279      -0.0184689761495    0.995995992279      -0.0184689761495    0.00394477253588    0.00857930916543    
1300000000.0        0.00397863728599    0.00929367002394    0.99595285246       -0.020007567589     0.99595285246       -0.020007567589     0.00397863728599    0.00929367002394    
1400000000.0        0.0040144137808     0.0100079166941     0.995907120259      -0.0215460633906    0.995907120259      -0.0215460633906    0.0040144137808     0.0100079166941     
1500000000.0        0.00405213794466    0.0107220426448     0.995858759673      -0.0230844577811    0.995858759673      -0.0230844577811    0.00405213794466    0.0107220426448     
1600000000.0        0.00409183953773    0.0114360412407     0.995807740858      -0.0246227448493    0.995807740858      -0.0246227448493    0.00409183953773    0.0114360412407     
1700000000.0        0.00413354349556    0.0121499057604     0.995754038791      -0.0261609185675    0.995754038791      -0.0261609185675    0.00413354349556    0.0121499057604     
1800000000.0        0.00417727091632    0.0128636294111     0.995697632286      -0.0276989728083    0.995697632286      -0.0276989728083    0.00417727091632    0.0128636294111     
1900000000.0        0.00422303980243    0.0135772053401     0.995638503248      -0.0292369013582    0.995638503248      -0.0292369013582    0.00422303980243    0.0135772053401     
2000000000.0        0.00427086562727    0.0142906266442     0.995576636106      -0.0307746979287    0.995576636106      -0.0307746979287    0.00427086562727    0.0142906266442     
2100000000.0        0.00432076177482    0.0150038863772     0.995512017378      -0.0323123561655    0.995512017378      -0.0323123561655    0.00432076177482    0.0150038863772     
2200000000.0        0.00437273988526    0.0157169775566     0.995444635323      -0.0338498696567    0.995444635323      -0.0338498696567    0.00437273988526    0.0157169775566     
2300000000.0        0.00442681013006    0.0164298931684     0.995374479664      -0.0353872319388    0.995374479664      -0.0353872319388    0.00442681013006    0.0164298931684     
2400000000.0        0.00448298143321    0.0171426261723     0.99530154137       -0.0369244365025    0.99530154137       -0.0369244365025    0.00448298143321    0.0171426261723     
2500000000.0        0.00454126165096    0.0178551695048     0.995225812475      -0.0384614767981    0.995225812475      -0.0384614767981    0.00454126165096    0.0178551695048     
2600000000.0        0.00460165771925    0.0185675160832     0.99514728593       -0.0399983462386    0.99514728593       -0.0399983462386    0.00460165771925    0.0185675160832     
2700000000.0        0.0046641757755     0.0192796588077     0.995065955483      -0.0415350382043    0.995065955483      -0.0415350382043    0.0046641757755     0.0192796588077     
2800000000.0        0.00472882126007    0.0199915905646     0.994981815574      -0.0430715460457    0.994981815574      -0.0430715460457    0.00472882126007    0.0199915905646     
2900000000.0        0.00479559900138    0.0207033042278     0.994894861255      -0.0446078630863    0.994894861255      -0.0446078630863    0.00479559900138    0.0207033042278     
3000000000.0        0.00486451328774    0.0214147926612     0.994805088114      -0.046143982625     0.994805088114      -0.046143982625     0.00486451328774    0.0214147926612     
3100000000.0        0.00493556792837    0.0221260487199     0.994712492217      -0.0476798979386    0.994712492217      -0.0476798979386    0.00493556792838    0.0221260487199     
3200000000.0        0.00500876630552    0.0228370652522     0.994617070054      -0.0492156022837    0.994617070054      -0.0492156022837    0.00500876630552    0.0228370652522     
3300000000.0        0.00508411141916    0.0235478351005     0.994518818493      -0.0507510888986    0.994518818493      -0.0507510888986    0.00508411141916    0.0235478351005     
3400000000.0        0.00516160592566    0.0242583511027     0.994417734746      -0.0522863510049    0.994417734746      -0.0522863510049    0.00516160592566    0.0242583511027     
3500000000.0        0.00524125217116    0.0249686060931     0.994313816331      -0.0538213818088    0.994313816331      -0.0538213818088    0.00524125217116    0.0249686060931     
3600000000.0        0.00532305222071    0.0256785929036     0.994207061046      -0.0553561745028    0.994207061046      -0.0553561745028    0.00532305222071    0.0256785929036     
3700000000.0        0.00540700788374    0.0263883043642     0.994097466942      -0.0568907222669    0.994097466942      -0.0568907222669    0.00540700788374    0.0263883043642     
3800000000.0        0.00549312073632    0.0270977333044     0.9939850323        -0.0584250182694    0.9939850323        -0.0584250182694    0.00549312073631    0.0270977333044     
3900000000.0        0.00558139214086    0.027806872553      0.993869755615      -0.0599590556684    0.993869755615      -0.0599590556684    0.00558139214086    0.027806872553      
4000000000.0        0.00567182326346    0.0285157149399     0.993751635573      -0.0614928276125    0.993751635573      -0.0614928276125    0.00567182326346    0.0285157149399     
4100000000.0        0.00576441508928    0.0292242532957     0.993630671041      -0.0630263272417    0.993630671041      -0.0630263272417    0.00576441508928    0.0292242532957     
4200000000.0        0.00585916843624    0.0299324804528     0.99350686105       -0.0645595476885    0.99350686105       -0.0645595476885    0.00585916843624    0.0299324804528     
4300000000.0        0.00595608396721    0.0306403892457     0.993380204786      -0.0660924820784    0.993380204786      -0.0660924820784    0.00595608396721    0.0306403892457     
4400000000.0        0.00605516220088    0.0313479725118     0.993250701573      -0.0676251235308    0.993250701573      -0.0676251235308    0.00605516220088    0.0313479725118     
4500000000.0        0.0061564035216     0.0320552230915     0.993118350872      -0.0691574651595    0.993118350872      -0.0691574651595    0.0061564035216     0.0320552230915     
4600000000.0        0.00625980818811    0.0327621338285     0.992983152265      -0.0706895000736    0.992983152265      -0.0706895000736    0.00625980818811    0.0327621338285     
4700000000.0        0.00636537634149    0.0334686975709     0.992845105449      -0.0722212213778    0.992845105449      -0.0722212213778    0.00636537634149    0.0334686975709     
4800000000.0        0.00647310801231    0.0341749071706     0.992704210232      -0.0737526221735    0.992704210232      -0.0737526221735    0.00647310801231    0.0341749071706     
4900000000.0        0.00658300312704    0.0348807554844     0.992560466521      -0.0752836955586    0.992560466521      -0.0752836955586    0.00658300312704    0.0348807554844     
5000000000.0        0.00669506151401    0.0355862353741     0.992413874323      -0.0768144346285    0.992413874323      -0.0768144346285    0.00669506151401    0.0355862353741     
5100000000.0        0.00680928290869    0.0362913397065     0.992264433733      -0.0783448324765    0.992264433733      -0.0783448324765    0.00680928290869    0.0362913397065     
5200000000.0        0.00692566695852    0.0369960613543     0.992112144933      -0.0798748821943    0.992112144933      -0.0798748821943    0.00692566695852    0.0369960613543     
5300000000.0        0.0070442132274     0.0377003931958     0.991957008188      -0.0814045768724    0.991957008188      -0.0814045768724    0.0070442132274     0.0377003931958     
5400000000.0        0.00716492119972    0.0384043281154     0.991799023837      -0.0829339096002    0.991799023837      -0.0829339096002    0.00716492119972    0.0384043281154     
5500000000.0        0.00728779028405    0.0391078590038     0.991638192298      -0.084462873467     0.991638192298      -0.084462873467     0.00728779028405    0.0391078590038     
5600000000.0        0.00741281981656    0.0398109787584     0.991474514055      -0.085991461562     0.991474514055      -0.085991461562     0.00741281981656    0.0398109787584     
5700000000.0        0.00754000906413    0.0405136802833     0.991307989663      -0.0875196669746    0.991307989663      -0.0875196669746    0.00754000906413    0.0405136802833     
5800000000.0        0.00766935722726    0.0412159564896     0.99113861974       -0.0890474827951    0.99113861974       -0.0890474827951    0.00766935722726    0.0412159564896     
5900000000.0        0.00780086344266    0.0419178002958     0.990966404966      -0.0905749021145    0.990966404966      -0.0905749021145    0.00780086344266    0.0419178002958     
6000000000.0        0.00793452678578    0.0426192046275     0.990791346081      -0.0921019180255    0.990791346081      -0.0921019180255    0.00793452678578    0.0426192046275     
6100000000.0        0.008070346273      0.0433201624183     0.990613443881      -0.0936285236222    0.990613443881      -0.0936285236222    0.008070346273      0.0433201624183     
6200000000.0        0.00820832086376    0.0440206666092     0.99043269922       -0.0951547120008    0.99043269922       -0.0951547120008    0.00820832086376    0.0440206666092     
6300000000.0        0.00834844946249    0.0447207101495     0.990249113002      -0.0966804762597    0.990249113002      -0.0966804762597    0.00834844946249    0.0447207101495     
6400000000.0        0.00849073092044    0.0454202859966     0.990062686186      -0.0982058094998    0.990062686186      -0.0982058094998    0.00849073092044    0.0454202859966     
6500000000.0        0.0086351640373     0.046119387116      0.989873419778      -0.0997307048249    0.989873419778      -0.0997307048249    0.0086351640373     0.046119387116      
6600000000.0        0.00878174756281    0.0468180064819     0.989681314833      -0.101255155342     0.989681314833      -0.101255155342     0.00878174756281    0.0468180064819     
6700000000.0        0.00893048019822    0.0475161370772     0.989486372455      -0.10277915416      0.989486372455      -0.10277915416      0.00893048019822    0.0475161370772     
6800000000.0        0.0090813605976     0.0482137718935     0.989288593791      -0.104302694395     0.989288593791      -0.104302694395     0.0090813605976     0.0482137718935     
6900000000.0        0.00923438736913    0.0489109039312     0.989087980033      -0.105825769162     0.989087980033      -0.105825769162     0.00923438736913    0.0489109039312     
7000000000.0        0.00938955907632    0.0496075262        0.988884532417      -0.107348371583     0.988884532417      -0.107348371583     0.00938955907632    0.0496075262        
7100000000.0        0.00954687423905    0.050303631719      0.988678252219      -0.108870494786     0.988678252219      -0.108870494786     0.00954687423905    0.050303631719      
7200000000.0        0.00970633133468    0.0509992135162     0.988469140759      -0.110392131898     0.988469140759      -0.110392131898     0.00970633133468    0.0509992135162     
7300000000.0        0.00986792879901    0.0516942646295     0.988257199395      -0.111913276056     0.988257199395      -0.111913276056     0.00986792879901    0.0516942646295     
7400000000.0        0.0100316650271     0.0523887781065     0.988042429524      -0.1134339204       0.988042429524      -0.1134339204       0.0100316650271     0.0523887781065     
7500000000.0        0.0101975383744     0.0530827470042     0.987824832582      -0.114954058075     0.987824832582      -0.114954058075     0.0101975383744     0.0530827470042     
7600000000.0        0.0103655471573     0.0537761643899     0.987604410043      -0.11647368223      0.987604410043      -0.11647368223      0.0103655471573     0.0537761643899     
7700000000.0        0.0105356896538     0.0544690233408     0.987381163416      -0.117992786022     0.987381163416      -0.117992786022     0.0105356896538     0.0544690233408     
7800000000.0        0.0107079641048     0.0551613169442     0.987155094248      -0.119511362613     0.987155094248      -0.119511362613     0.0107079641048     0.0551613169442     
7900000000.0        0.010882368714      0.0558530382977     0.986926204121      -0.121029405169     0.986926204121      -0.121029405169     0.010882368714      0.0558530382977     
8000000000.0        0.0110589016493     0.0565441805094     0.986694494649      -0.122546906866     0.986694494649      -0.122546906866     0.0110589016493     0.0565441805094     
8100000000.0        0.0112375610429     0.0572347366979     0.986459967484      -0.124063860881     0.986459967484      -0.124063860881     0.0112375610429     0.0572347366979     
8200000000.0        0.011418344992      0.0579246999924     0.986222624308      -0.125580260403     0.986222624308      -0.125580260403     0.011418344992      0.0579246999924     
8300000000.0        0.0116012515595     0.0586140635329     0.98598246684       -0.127096098623     0.98598246684       -0.127096098623     0.0116012515595     0.0586140635329     
8400000000.0        0.0117862787744     0.0593028204701     0.985739496828      -0.128611368742     0.985739496828      -0.128611368742     0.0117862787744     0.0593028204701     
8500000000.0        0.0119734246323     0.0599909639659     0.985493716054      -0.130126063966     0.985493716054      -0.130126063966     0.0119734246323     0.0599909639659     
8600000000.0        0.0121626870959     0.0606784871933     0.98524512633       -0.13164017751      0.98524512633       -0.13164017751      0.0121626870959     0.0606784871933     
8700000000.0        0.0123540640954     0.0613653833362     0.984993729499      -0.133153702593     0.984993729499      -0.133153702593     0.0123540640954     0.0613653833362     
8800000000.0        0.0125475535292     0.0620516455902     0.984739527438      -0.134666632446     0.984739527438      -0.134666632446     0.0125475535292     0.0620516455902     
8900000000.0        0.0127431532638     0.062737267162      0.984482522049      -0.136178960303     0.984482522049      -0.136178960303     0.0127431532638     0.062737267162      
9000000000.0        0.0129408611347     0.06342224127       0.984222715269      -0.13769067941      0.984222715269      -0.13769067941      0.0129408611347     0.06342224127       
9100000000.0        0.0131406749464     0.064106561144      0.983960109061      -0.139201783018     0.983960109061      -0.139201783018     0.0131406749464     0.064106561144      
9200000000.0        0.0133425924731     0.0647902200258     0.983694705419      -0.140712264387     0.983694705419      -0.140712264387     0.0133425924731     0.0647902200258     
9300000000.0        0.0135466114586     0.0654732111689     0.983426506364      -0.142222116785     0.983426506364      -0.142222116785     0.0135466114586     0.0654732111689     
9400000000.0        0.0137527296171     0.0661555278387     0.983155513948      -0.143731333489     0.983155513948      -0.143731333489     0.0137527296171     0.0661555278387     
9500000000.0        0.0139609446334     0.0668371633126     0.982881730249      -0.145239907783     0.982881730249      -0.145239907783     0.0139609446334     0.0668371633126     
9600000000.0        0.0141712541628     0.0675181108801     0.982605157374      -0.146747832962     0.982605157374      -0.146747832962     0.0141712541628     0.0675181108801     
9700000000.0        0.014383655832      0.068198363843      0.982325797459      -0.148255102328     0.982325797459      -0.148255102328     0.014383655832      0.068198363843      
9800000000.0        0.014598147239      0.0688779155155     0.982043652663      -0.149761709193     0.982043652663      -0.149761709193     0.014598147239      0.0688779155155     
9900000000.0        0.0148147259533     0.0695567592239     0.981758725177      -0.151267646876     0.981758725177      -0.151267646876     0.0148147259533     0.0695567592239     
10000000000.0       0.0150333895167     0.0702348883074     0.981471017216      -0.152772908708     0.981471017216      -0.152772908708     0.0150333895167     0.0702348883074     
