# Hz S RI R 50.00 
100000000.0         0.00240303937305    0.00156821536491    0.997592294964      -0.00350323186897   0.997592294964      -0.00350323186897   0.00240303937305    0.00156821536491    
200000000.0         0.00243467798227    0.00313619133916    0.997553243119      -0.00700625970571   0.997553243119      -0.00700625970571   0.00243467798227    0.00313619133916    
300000000.0         0.00247311756489    0.00470391010175    0.997503642249      -0.0105090864653    0.997503642249      -0.0105090864653    0.00247311756489    0.00470391010175    
400000000.0         0.00252043329139    0.0062713112622     0.997441416558      -0.0140116672272    0.997441416558      -0.0140116672272    0.00252043329139    0.0062713112622     
500000000.0         0.00257742224952    0.0078383246016     0.997365768205      -0.0175139445211    0.997365768205      -0.0175139445211    0.00257742224952    0.0078383246016     
600000000.0         0.00264448896921    0.00940487562102    0.997276291792      -0.0210158547898    0.997276291792      -0.0210158547898    0.00264448896921    0.00940487562102    
700000000.0         0.00272187045061    0.0109708875389     0.997172749347      -0.0245173308568    0.997172749347      -0.0245173308568    0.00272187045061    0.0109708875389     
800000000.0         0.00280971826154    0.0125362822193     0.997054988229      -0.0280183031385    0.997054988229      -0.0280183031385    0.00280971826154    0.0125362822193     
900000000.0         0.0029081350773     0.0141009806728     0.996922904601      -0.0315187003324    0.996922904601      -0.0315187003324    0.0029081350773     0.0141009806728     
1000000000.0        0.00301719319443    0.0156649033529     0.996776424917      -0.0350184498486    0.996776424917      -0.0350184498486    0.00301719319443    0.0156649033529     
1100000000.0        0.00313694481817    0.017227970347      0.996615495642      -0.0385174780984    0.996615495642      -0.0385174780984    0.00313694481817    0.017227970347      
1200000000.0        0.00326742819003    0.0187901015039     0.996440077125      -0.0420157106998    0.996440077125      -0.0420157106998    0.00326742819003    0.0187901015039     
1300000000.0        0.00340867144147    0.0203512165247     0.996250139752      -0.0455130726284    0.996250139752      -0.0455130726284    0.00340867144147    0.0203512165247     
1400000000.0        0.00356069512609    0.0219112350294     0.996045661418      -0.0490094883332    0.996045661418      -0.0490094883332    0.00356069512609    0.0219112350294     
1500000000.0        0.00372351394462    0.0234700766067     0.995826625799      -0.0525048818278    0.995826625799      -0.0525048818278    0.00372351394462    0.0234700766067     
1600000000.0        0.00389713795627    0.0250276608532     0.995593021151      -0.0559991767633    0.995593021151      -0.0559991767633    0.00389713795627    0.0250276608532     
1700000000.0        0.00408157345164    0.0265839074051     0.995344839435      -0.0594922964892    0.995344839435      -0.0594922964892    0.00408157345164    0.0265839074051     
1800000000.0        0.00427682359594    0.028138735963      0.995082075675      -0.0629841641041    0.995082075675      -0.0629841641041    0.00427682359594    0.028138735963      
1900000000.0        0.00448288891239    0.0296920663133     0.994804727481      -0.0664747024985    0.994804727481      -0.0664747024985    0.00448288891239    0.0296920663133     
2000000000.0        0.00469976765174    0.0312438183468     0.994512794679      -0.0699638343924    0.994512794679      -0.0699638343924    0.00469976765174    0.0312438183468     
2100000000.0        0.00492745607918    0.0327939120733     0.994206279025      -0.0734514823678    0.994206279025      -0.0734514823678    0.00492745607918    0.0327939120733     
2200000000.0        0.00516594870025    0.0343422676361     0.993885183982      -0.0769375688978    0.993885183982      -0.0769375688978    0.00516594870025    0.0343422676361     
2300000000.0        0.00541523844085    0.0358888053237     0.993549514542      -0.0804220163724    0.993549514542      -0.0804220163724    0.00541523844085    0.0358888053237     
2400000000.0        0.00567531679247    0.0374334455811     0.99319927708       -0.0839047471216    0.99319927708       -0.0839047471216    0.00567531679247    0.0374334455811     
2500000000.0        0.00594617393047    0.0389761090193     0.992834479243      -0.0873856834369    0.992834479243      -0.0873856834369    0.00594617393047    0.0389761090193     
2600000000.0        0.0062277988115     0.0405167164252     0.992455129844      -0.0908647475905    0.992455129844      -0.0908647475905    0.0062277988115     0.0405167164252     
2700000000.0        0.00652017925436    0.0420551887697     0.992061238794      -0.0943418618536    0.992061238794      -0.0943418618536    0.00652017925436    0.0420551887697     
2800000000.0        0.00682330200775    0.0435914472158     0.991652817024      -0.0978169485126    0.991652817024      -0.0978169485126    0.00682330200775    0.0435914472158     
2900000000.0        0.00713715280751    0.0451254131266     0.991229876441      -0.101289929885     0.991229876441      -0.101289929885     0.00713715280751    0.0451254131266     
3000000000.0        0.00746171642532    0.0466570080722     0.990792429867      -0.104760728334     0.990792429867      -0.104760728334     0.00746171642532    0.0466570080722     
3100000000.0        0.00779697671047    0.0481861538368     0.990340491011      -0.108229266281     0.990340491011      -0.108229266281     0.00779697671047    0.0481861538368     
3200000000.0        0.00814291662598    0.0497127724252     0.989874074424      -0.11169546622      0.989874074424      -0.11169546622      0.00814291662598    0.0497127724252     
3300000000.0        0.00849951827991    0.0512367860695     0.989393195476      -0.115159250732     0.989393195476      -0.115159250732     0.00849951827991    0.0512367860695     
3400000000.0        0.0088667629529     0.0527581172352     0.988897870324      -0.11862054249      0.988897870324      -0.11862054249      0.0088667629529     0.0527581172352     
3500000000.0        0.00924463112237    0.0542766886274     0.988388115891      -0.122079264278     0.988388115891      -0.122079264278     0.00924463112237    0.0542766886274     
3600000000.0        0.00963310248399    0.0557924231965     0.987863949845      -0.125535338996     0.987863949845      -0.125535338996     0.00963310248399    0.0557924231965     
3700000000.0        0.0100321559709     0.0573052441442     0.987325390581      -0.128988689673     0.987325390581      -0.128988689673     0.0100321559709     0.0573052441442     
3800000000.0        0.0104417697709     0.0588150749293     0.986772457205      -0.132439239479     0.986772457205      -0.132439239479     0.0104417697709     0.0588150749293     
3900000000.0        0.0108619213421     0.0603218392726     0.986205169516      -0.135886911727     0.986205169516      -0.135886911727     0.0108619213421     0.0603218392726     
4000000000.0        0.0112925874269     0.0618254611632     0.985623547997      -0.139331629892     0.985623547997      -0.139331629892     0.0112925874269     0.0618254611632     
4100000000.0        0.0117337440652     0.0633258648635     0.9850276138        -0.142773317612     0.9850276138        -0.142773317612     0.0117337440652     0.0633258648635     
4200000000.0        0.012185366606      0.0648229749142     0.984417388734      -0.146211898702     0.984417388734      -0.146211898702     0.012185366606      0.0648229749142     
4300000000.0        0.0126474297186     0.0663167161399     0.983792895258      -0.149647297159     0.983792895258      -0.149647297159     0.0126474297186     0.0663167161399     
4400000000.0        0.013119907403      0.0678070136544     0.983154156468      -0.153079437172     0.983154156468      -0.153079437172     0.013119907403      0.0678070136544     
4500000000.0        0.013602772999      0.0692937928651     0.982501196088      -0.156508243129     0.982501196088      -0.156508243129     0.013602772999      0.0692937928651     
4600000000.0        0.0140959991956     0.0707769794786     0.981834038466      -0.159933639626     0.981834038466      -0.159933639626     0.0140959991956     0.0707769794786     
4700000000.0        0.0145995580391     0.0722564995054     0.981152708559      -0.163355551472     0.981152708559      -0.163355551472     0.0145995580391     0.0722564995054     
4800000000.0        0.0151134209418     0.0737322792648     0.980457231933      -0.166773903701     0.980457231933      -0.166773903701     0.0151134209418     0.0737322792648     
4900000000.0        0.0156375586888     0.0752042453899     0.979747634749      -0.170188621572     0.979747634749      -0.170188621572     0.0156375586888     0.0752042453899     
5000000000.0        0.016171941446      0.076672324832      0.97902394376       -0.173599630585     0.97902394376       -0.173599630585     0.016171941446      0.076672324832      
5100000000.0        0.0167165387667     0.0781364448655     0.978286186306      -0.177006856479     0.978286186306      -0.177006856479     0.0167165387667     0.0781364448655     
5200000000.0        0.0172713195986     0.0795965330928     0.977534390301      -0.180410225246     0.977534390301      -0.180410225246     0.0172713195986     0.0795965330928     
5300000000.0        0.0178362522903     0.0810525174485     0.976768584234      -0.183809663132     0.976768584234      -0.183809663132     0.0178362522903     0.0810525174485     
5400000000.0        0.0184113045978     0.0825043262042     0.975988797161      -0.187205096649     0.975988797161      -0.187205096649     0.0184113045978     0.0825043262042     
5500000000.0        0.0189964436901     0.083951887973      0.975195058696      -0.190596452574     0.975195058696      -0.190596452574     0.0189964436901     0.083951887973      
5600000000.0        0.0195916361561     0.0853951317136     0.974387399009      -0.193983657963     0.974387399009      -0.193983657963     0.0195916361561     0.0853951317136     
5700000000.0        0.0201968480098     0.0868339867355     0.973565848819      -0.197366640152     0.973565848819      -0.197366640152     0.0201968480098     0.0868339867355     
5800000000.0        0.0208120446965     0.0882683827022     0.972730439389      -0.200745326763     0.972730439389      -0.200745326763     0.0208120446965     0.0882683827022     
5900000000.0        0.0214371910981     0.0896982496366     0.971881202519      -0.204119645714     0.971881202519      -0.204119645714     0.0214371910981     0.0896982496366     
6000000000.0        0.0220722515391     0.0911235179246     0.971018170543      -0.207489525219     0.971018170543      -0.207489525219     0.0220722515391     0.0911235179246     
6100000000.0        0.0227171897919     0.0925441183194     0.970141376325      -0.210854893798     0.970141376325      -0.210854893798     0.0227171897919     0.0925441183194     
6200000000.0        0.0233719690822     0.0939599819458     0.969250853248      -0.21421568028      0.969250853248      -0.21421568028      0.0233719690822     0.0939599819458     
6300000000.0        0.0240365520945     0.095371040304      0.968346635215      -0.217571813811     0.968346635215      -0.217571813811     0.0240365520945     0.095371040304      
6400000000.0        0.0247109009776     0.0967772252742     0.967428756641      -0.220923223856     0.967428756641      -0.220923223856     0.0247109009776     0.0967772252742     
6500000000.0        0.0253949773495     0.0981784691197     0.966497252449      -0.224269840206     0.966497252449      -0.224269840206     0.0253949773495     0.0981784691197     
6600000000.0        0.026088742303      0.0995747044919     0.965552158063      -0.227611592982     0.965552158063      -0.227611592982     0.026088742303      0.0995747044919     
6700000000.0        0.0267921564107     0.100965864433      0.964593509406      -0.230948412642     0.964593509406      -0.230948412642     0.0267921564107     0.100965864433      
6800000000.0        0.0275051797306     0.102351882381      0.963621342893      -0.234280229986     0.963621342893      -0.234280229986     0.0275051797306     0.102351882381      
6900000000.0        0.0282277718109     0.103732692173      0.962635695427      -0.237606976155     0.962635695427      -0.237606976155     0.0282277718109     0.103732692173      
7000000000.0        0.0289598916951     0.105108228048      0.961636604394      -0.240928582646     0.961636604394      -0.240928582646     0.0289598916951     0.105108228048      
7100000000.0        0.0297014979275     0.106478424652      0.960624107656      -0.244244981306     0.960624107656      -0.244244981306     0.0297014979275     0.106478424652      
7200000000.0        0.0304525485583     0.107843217042      0.959598243549      -0.247556104343     0.959598243549      -0.247556104343     0.0304525485583     0.107843217042      
7300000000.0        0.0312130011485     0.109202540687      0.958559050877      -0.25086188433      0.958559050877      -0.25086188433      0.0312130011485     0.109202540687      
7400000000.0        0.031982812775      0.110556331473      0.957506568908      -0.254162254206     0.957506568908      -0.254162254206     0.031982812775      0.110556331473      
7500000000.0        0.0327619400361     0.111904525709      0.956440837365      -0.257457147284     0.956440837365      -0.257457147284     0.0327619400361     0.111904525709      
7600000000.0        0.0335503390562     0.113247060124      0.955361896427      -0.260746497253     0.955361896427      -0.260746497253     0.0335503390562     0.113247060124      
7700000000.0        0.0343479654912     0.114583871879      0.954269786719      -0.264030238182     0.954269786719      -0.264030238182     0.0343479654912     0.114583871879      
7800000000.0        0.0351547745333     0.115914898562      0.953164549311      -0.267308304526     0.953164549311      -0.267308304526     0.0351547745333     0.115914898562      
7900000000.0        0.0359707209166     0.117240078195      0.952046225711      -0.270580631127     0.952046225711      -0.270580631127     0.0359707209166     0.117240078195      
8000000000.0        0.0367957589218     0.11855934924       0.950914857859      -0.273847153221     0.950914857859      -0.273847153221     0.0367957589218     0.11855934924       
8100000000.0        0.0376298423812     0.119872650595      0.949770488124      -0.277107806439     0.949770488124      -0.277107806439     0.0376298423812     0.119872650595      
8200000000.0        0.0384729246845     0.121179921605      0.948613159299      -0.280362526814     0.948613159299      -0.280362526814     0.0384729246845     0.121179921605      
8300000000.0        0.0393249587832     0.122481102058      0.947442914596      -0.28361125078      0.947442914596      -0.28361125078      0.0393249587832     0.122481102058      
8400000000.0        0.040185897196      0.123776132194      0.946259797637      -0.28685391518      0.946259797637      -0.28685391518      0.040185897196      0.123776132194      
8500000000.0        0.0410556920141     0.125064952702      0.945063852456      -0.290090457266     0.945063852456      -0.290090457266     0.0410556920141     0.125064952702      
8600000000.0        0.0419342949061     0.126347504729      0.94385512349       -0.293320814706     0.94385512349       -0.293320814706     0.0419342949061     0.126347504729      
8700000000.0        0.0428216571232     0.127623729877      0.942633655572      -0.296544925583     0.942633655572      -0.296544925583     0.0428216571232     0.127623729877      
8800000000.0        0.0437177295043     0.12889357021       0.941399493931      -0.299762728403     0.941399493931      -0.299762728403     0.0437177295043     0.12889357021       
8900000000.0        0.0446224624814     0.130156968254      0.940152684184      -0.302974162093     0.940152684184      -0.302974162093     0.0446224624814     0.130156968254      
9000000000.0        0.0455358060846     0.131413867001      0.938893272328      -0.306179166009     0.938893272328      -0.306179166009     0.0455358060846     0.131413867001      
9100000000.0        0.0464577099469     0.132664209912      0.937621304744      -0.309377679936     0.937621304744      -0.309377679936     0.0464577099469     0.132664209912      
9200000000.0        0.04738812331       0.133907940917      0.93633682818       -0.312569644092     0.93633682818       -0.312569644092     0.04738812331       0.133907940917      
9300000000.0        0.0483269950291     0.13514500442       0.935039889758      -0.315754999129     0.935039889758      -0.315754999129     0.0483269950291     0.13514500442       
9400000000.0        0.0492742735781     0.136375345302      0.933730536958      -0.318933686139     0.933730536958      -0.318933686139     0.0492742735781     0.136375345302      
9500000000.0        0.0502299070549     0.137598908918      0.93240881762       -0.322105646655     0.93240881762       -0.322105646655     0.0502299070549     0.137598908918      
9600000000.0        0.0511938431864     0.138815641107      0.931074779939      -0.325270822655     0.931074779939      -0.325270822655     0.0511938431864     0.138815641107      
9700000000.0        0.0521660293338     0.140025488188      0.929728472455      -0.32842915656      0.929728472455      -0.32842915656      0.0521660293338     0.140025488188      
9800000000.0        0.0531464124979     0.141228396965      0.92836994405       -0.331580591242     0.92836994405       -0.331580591242     0.0531464124979     0.141228396965      
9900000000.0        0.0541349393239     0.142424314727      0.926999243946      -0.334725070025     0.926999243946      -0.334725070025     0.0541349393239     0.142424314727      
10000000000.0       0.0551315561072     0.143613189255      0.925616421697      -0.337862536686     0.925616421697      -0.337862536686     0.0551315561072     0.143613189255      
