# Hz S RI R 50.00 
100000000.0         0.0478919128286     0.00100446234288    0.952106686448      -0.00136367003983   0.952106686448      -0.00136367003983   0.0478919128286     0.00100446234288    
200000000.0         0.0481943402459     0.00200742877196    0.951803727082      -0.00272584547908   0.951803727082      -0.00272584547908   0.0481943402459     0.00200742877196    
300000000.0         0.0484172407003     0.00300950633343    0.951580163425      -0.00408713421643   0.951580163425      -0.00408713421643   0.0484172407003     0.00300950633343    
400000000.0         0.0486006189607     0.00401090264695    0.951395990688      -0.00544774455545   0.951395990688      -0.00544774455545   0.0486006189607     0.00401090264695    
500000000.0         0.0487599451279     0.00501173207591    0.951235738751      -0.00680779145941   0.951235738751      -0.00680779145941   0.0487599451279     0.00501173207591    
600000000.0         0.0489031402653     0.00601206755206    0.951091486534      -0.00816734840554   0.951091486534      -0.00816734840554   0.0489031402653     0.00601206755206    
700000000.0         0.0490349020108     0.00701195921719    0.950958536385      -0.00952646604172   0.950958536385      -0.00952646604172   0.0490349020108     0.00701195921719    
800000000.0         0.0491582858883     0.00801144308062    0.950833832763      -0.0108851808529    0.950833832763      -0.0108851808529    0.0491582858883     0.00801144308062    
900000000.0         0.0492754105112     0.00901054567447    0.950715257042      -0.0122435198223    0.950715257042      -0.0122435198223    0.0492754105112     0.00901054567447    
1000000000.0        0.0493878155969     0.0100092868127     0.950601269488      -0.0136015031945    0.950601269488      -0.0136015031945    0.0493878155969     0.0100092868127     
1100000000.0        0.0494966612914     0.0110076813448     0.950490709942      -0.0149591462325    0.950490709942      -0.0149591462325    0.0494966612914     0.0110076813448     
1200000000.0        0.0496028471255     0.0120057403315     0.950382678857      -0.0163164603949    0.950382678857      -0.0163164603949    0.0496028471255     0.0120057403315     
1300000000.0        0.0497070869712     0.0130034718656     0.950276462348      -0.0176734541598    0.950276462348      -0.0176734541598    0.0497070869712     0.0130034718656     
1400000000.0        0.0498099583856     0.0140008816661     0.950171482841      -0.0190301336191    0.950171482841      -0.0190301336191    0.0498099583856     0.0140008816661     
1500000000.0        0.0499119362871     0.0149979735188     0.950067265405      -0.0203865029211    0.950067265405      -0.0203865029211    0.0499119362871     0.0149979735188     
1600000000.0        0.0500134166436     0.0159947496117     0.949963414054      -0.0217425646067    0.949963414054      -0.0217425646067    0.0500134166436     0.0159947496117     
1700000000.0        0.0501147335688     0.0169912107952     0.949859594661      -0.0230983198705    0.949859594661      -0.0230983198705    0.0501147335688     0.0169912107952     
1800000000.0        0.0502161719392     0.0179873567877     0.949755522332      -0.0244537687667    0.949755522332      -0.0244537687667    0.0502161719392     0.0179873567877     
1900000000.0        0.0503179768852     0.0189831863398     0.949650951921      -0.0258089103742    0.949650951921      -0.0258089103742    0.0503179768852     0.0189831863398     
2000000000.0        0.0504203610549     0.019978697368      0.949545670764      -0.0271637429312    0.949545670764      -0.0271637429312    0.0504203610549     0.019978697368      
2100000000.0        0.0505235102562     0.0209738870644     0.949439493035      -0.0285182639445    0.949439493035      -0.0285182639445    0.0505235102562     0.0209738870644     
2200000000.0        0.0506275878987     0.0219687519877     0.949332255309      -0.0298724702818    0.949332255309      -0.0298724702818    0.0506275878987     0.0219687519877     
2300000000.0        0.0507327385346     0.0229632881394     0.949223813015      -0.0312263582476    0.949223813015      -0.0312263582476    0.0507327385346     0.0229632881394     
2400000000.0        0.0508390907099     0.0239574910284     0.94911403759       -0.0325799236485    0.94911403759       -0.0325799236485    0.0508390907099     0.0239574910284     
2500000000.0        0.0509467592852     0.0249513557258     0.949002814155      -0.0339331618482    0.949002814155      -0.0339331618482    0.0509467592852     0.0249513557258     
2600000000.0        0.0510558473409     0.025944876912      0.948890039611      -0.0352860678147    0.948890039611      -0.0352860678147    0.0510558473409     0.025944876912      
2700000000.0        0.0511664477536     0.0269380489172     0.948775621063      -0.0366386361612    0.948775621063      -0.0366386361612    0.0511664477536     0.0269380489172     
2800000000.0        0.051278644512      0.0279308657566     0.948659474503      -0.0379908611818    0.948659474503      -0.0379908611818    0.051278644512      0.0279308657566     
2900000000.0        0.0513925138216     0.0289233211616     0.948541523706      -0.039342736882     0.948541523706      -0.039342736882     0.0513925138216     0.0289233211616     
3000000000.0        0.0515081250389     0.0299154086062     0.948421699296      -0.0406942570065    0.948421699296      -0.0406942570065    0.0515081250389     0.0299154086062     
3100000000.0        0.0516255414654     0.0309071213316     0.948299937951      -0.0420454150626    0.948299937951      -0.0420454150626    0.0516255414654     0.0309071213316     
3200000000.0        0.0517448210278     0.0318984523664     0.948176181724      -0.0433962043421    0.948176181724      -0.0433962043421    0.0517448210278     0.0318984523664     
3300000000.0        0.0518660168613     0.0328893945459     0.948050377459      -0.0447466179395    0.948050377459      -0.0447466179395    0.0518660168613     0.0328893945459     
3400000000.0        0.0519891778151     0.033879940529      0.947922476287      -0.0460966487692    0.947922476287      -0.0460966487692    0.0519891778151     0.033879940529      
3500000000.0        0.0521143488898     0.0348700828127     0.947792433183      -0.047446289581     0.947792433183      -0.047446289581     0.0521143488898     0.0348700828127     
3600000000.0        0.0522415716196     0.035859813746      0.947660206594      -0.0487955329728    0.947660206594      -0.0487955329728    0.0522415716196     0.035859813746      
3700000000.0        0.052370884406      0.0368491255416     0.947525758094      -0.0501443714039    0.947525758094      -0.0501443714039    0.052370884406      0.0368491255416     
3800000000.0        0.052502322812      0.0378380102876     0.947389052099      -0.0514927972054    0.947389052099      -0.0514927972054    0.052502322812      0.0378380102876     
3900000000.0        0.05263591982       0.038826459957      0.947250055603      -0.0528408025905    0.947250055603      -0.0528408025905    0.05263591982       0.038826459957      
4000000000.0        0.0527717060616     0.0398144664167     0.947108737952      -0.0541883796637    0.947108737952      -0.0541883796637    0.0527717060616     0.0398144664167     
4100000000.0        0.0529097100202     0.0408020214364     0.946965070638      -0.0555355204291    0.946965070638      -0.0555355204291    0.0529097100202     0.0408020214364     
4200000000.0        0.053049958212      0.0417891166953     0.946819027122      -0.0568822167984    0.946819027122      -0.0568822167984    0.053049958212      0.0417891166953     
4300000000.0        0.0531924753479     0.0427757437899     0.946670582668      -0.0582284605974    0.946670582668      -0.0582284605974    0.0531924753479     0.0427757437899     
4400000000.0        0.0533372844773     0.04376189424       0.946519714203      -0.0595742435727    0.946519714203      -0.0595742435727    0.0533372844773     0.04376189424       
4500000000.0        0.0534844071187     0.0447475594945     0.946366400183      -0.0609195573979    0.946366400183      -0.0609195573979    0.0534844071187     0.0447475594945     
4600000000.0        0.053633863376      0.0457327309369     0.94621062048       -0.0622643936786    0.94621062048       -0.0622643936786    0.053633863376      0.0457327309369     
4700000000.0        0.0537856720437     0.0467173998906     0.946052356272      -0.0636087439581    0.946052356272      -0.0636087439581    0.0537856720437     0.0467173998906     
4800000000.0        0.0539398507027     0.0477015576231     0.945891589954      -0.0649525997214    0.945891589954      -0.0649525997214    0.0539398507027     0.0477015576231     
4900000000.0        0.0540964158061     0.0486851953508     0.945728305047      -0.0662959524002    0.945728305047      -0.0662959524002    0.0540964158061     0.0486851953508     
5000000000.0        0.054255382758      0.0496683042427     0.945562486119      -0.0676387933765    0.945562486119      -0.0676387933765    0.054255382758      0.0496683042427     
5100000000.0        0.0544167659842     0.0506508754239     0.945394118718      -0.0689811139868    0.945394118718      -0.0689811139868    0.0544167659842     0.0506508754239     
5200000000.0        0.0545805789976     0.0516328999799     0.945223189305      -0.0703229055254    0.945223189305      -0.0703229055254    0.0545805789976     0.0516328999799     
5300000000.0        0.0547468344577     0.0526143689592     0.945049685192      -0.0716641592476    0.945049685192      -0.0716641592476    0.0547468344577     0.0526143689592     
5400000000.0        0.0549155442245     0.0535952733763     0.944873594491      -0.0730048663732    0.944873594491      -0.0730048663732    0.0549155442245     0.0535952733763     
5500000000.0        0.0550867194083     0.0545756042151     0.944694906065      -0.0743450180889    0.944694906065      -0.0743450180889    0.0550867194083     0.0545756042151     
5600000000.0        0.0552603704157     0.0555553524311     0.944513609478      -0.0756846055516    0.944513609478      -0.0756846055516    0.0552603704157     0.0555553524311     
5700000000.0        0.0554365069913     0.0565345089544     0.944329694957      -0.0770236198903    0.944329694957      -0.0770236198903    0.0554365069913     0.0565345089544     
5800000000.0        0.0556151382565     0.0575130646914     0.944143153352      -0.0783620522092    0.944143153352      -0.0783620522092    0.0556151382565     0.0575130646914     
5900000000.0        0.0557962727453     0.0584910105277     0.9439539761        -0.0796998935894    0.9439539761        -0.0796998935894    0.0557962727453     0.0584910105277     
6000000000.0        0.0559799184368     0.05946833733       0.943762155192      -0.0810371350914    0.943762155192      -0.0810371350914    0.0559799184368     0.05946833733       
6100000000.0        0.0561660827861     0.0604450359479     0.943567683142      -0.0823737677572    0.943567683142      -0.0823737677572    0.0561660827861     0.0604450359479     
6200000000.0        0.0563547727525     0.061421097216      0.943370552962      -0.0837097826118    0.943370552962      -0.0837097826118    0.0563547727525     0.061421097216      
6300000000.0        0.0565459948253     0.0623965119559     0.943170758132      -0.0850451706654    0.943170758132      -0.0850451706654    0.0565459948253     0.0623965119559     
6400000000.0        0.0567397550484     0.0633712709773     0.942968292576      -0.0863799229152    0.942968292576      -0.0863799229152    0.0567397550484     0.0633712709773     
6500000000.0        0.0569360590428     0.0643453650803     0.942763150644      -0.0877140303466    0.942763150644      -0.0877140303466    0.0569360590428     0.0643453650803     
6600000000.0        0.0571349120276     0.0653187850563     0.942555327085      -0.0890474839351    0.942555327085      -0.0890474839351    0.0571349120276     0.0653187850563     
6700000000.0        0.0573363188395     0.0662915216901     0.94234481703       -0.0903802746479    0.94234481703       -0.0903802746479    0.0573363188395     0.0662915216901     
6800000000.0        0.0575402839513     0.0672635657609     0.942131615974      -0.0917123934451    0.942131615974      -0.0917123934451    0.0575402839513     0.0672635657609     
6900000000.0        0.0577468114886     0.0682349080435     0.94191571976       -0.0930438312808    0.94191571976       -0.0930438312808    0.0577468114886     0.0682349080435     
7000000000.0        0.057955905246      0.06920553931       0.941697124561      -0.0943745791051    0.941697124561      -0.0943745791051    0.057955905246      0.06920553931       
7100000000.0        0.058167568702      0.0701754503307     0.941475826866      -0.0957046278647    0.941475826866      -0.0957046278647    0.058167568702      0.0701754503307     
7200000000.0        0.0583818050329     0.0711446318754     0.941251823465      -0.0970339685043    0.941251823465      -0.0970339685043    0.0583818050329     0.0711446318754     
7300000000.0        0.0585986171257     0.0721130747145     0.941025111437      -0.098362591968     0.941025111437      -0.098362591968     0.0585986171257     0.0721130747145     
7400000000.0        0.0588180075909     0.0730807696198     0.940795688139      -0.0996904891997    0.940795688139      -0.0996904891997    0.0588180075909     0.0730807696198     
7500000000.0        0.0590399787736     0.074047707366      0.940563551192      -0.101017651145     0.940563551192      -0.101017651145     0.0590399787736     0.074047707366      
7600000000.0        0.0592645327646     0.0750138787313     0.94032869847       -0.102344068751     0.94032869847       -0.102344068751     0.0592645327646     0.0750138787313     
7700000000.0        0.0594916714103     0.0759792744984     0.940091128094      -0.10366973297      0.940091128094      -0.10366973297      0.0594916714103     0.0759792744984     
7800000000.0        0.0597213963228     0.0769438854558     0.939850838415      -0.104994634755     0.939850838415      -0.104994634755     0.0597213963228     0.0769438854558     
7900000000.0        0.0599537088886     0.0779077023978     0.939607828013      -0.106318765068     0.939607828013      -0.106318765068     0.0599537088886     0.0779077023978     
8000000000.0        0.0601886102773     0.0788707161263     0.939362095683      -0.107642114874     0.939362095683      -0.107642114874     0.0601886102773     0.0788707161263     
8100000000.0        0.0604261014496     0.0798329174511     0.939113640428      -0.108964675145     0.939113640428      -0.108964675145     0.0604261014496     0.0798329174511     
8200000000.0        0.0606661831651     0.0807942971906     0.938862461454      -0.110286436863     0.938862461454      -0.110286436863     0.0606661831651     0.0807942971906     
8300000000.0        0.0609088559893     0.0817548461729     0.938608558158      -0.111607391014     0.938608558158      -0.111607391014     0.0609088559893     0.0817548461729     
8400000000.0        0.0611541203006     0.0827145552361     0.938351930126      -0.112927528598     0.938351930126      -0.112927528598     0.0611541203006     0.0827145552361     
8500000000.0        0.0614019762967     0.0836734152295     0.938092577123      -0.114246840621     0.938092577123      -0.114246840621     0.0614019762967     0.0836734152295     
8600000000.0        0.0616524240008     0.0846314170139     0.93783049909       -0.1155653181       0.93783049909       -0.1155653181       0.0616524240008     0.0846314170139     
8700000000.0        0.0619054632672     0.0855885514622     0.937565696136      -0.116882952064     0.937565696136      -0.116882952064     0.0619054632672     0.0855885514622     
8800000000.0        0.0621610937871     0.0865448094605     0.937298168531      -0.118199733554     0.937298168531      -0.118199733554     0.0621610937871     0.0865448094605     
8900000000.0        0.0624193150938     0.0875001819082     0.937027916704      -0.119515653623     0.937027916704      -0.119515653623     0.0624193150938     0.0875001819082     
9000000000.0        0.0626801265676     0.0884546597188     0.936754941239      -0.120830703336     0.936754941239      -0.120830703336     0.0626801265676     0.0884546597188     
9100000000.0        0.0629435274405     0.0894082338206     0.936479242863      -0.122144873772     0.936479242863      -0.122144873772     0.0629435274405     0.0894082338206     
9200000000.0        0.0632095168007     0.0903608951571     0.936200822452      -0.123458156025     0.936200822452      -0.123458156025     0.0632095168007     0.0903608951571     
9300000000.0        0.0634780935972     0.0913126346876     0.935919681016      -0.124770541203     0.935919681016      -0.124770541203     0.0634780935972     0.0913126346876     
9400000000.0        0.0637492566435     0.0922634433876     0.935635819705      -0.12608202043      0.935635819705      -0.12608202043      0.0637492566435     0.0922634433876     
9500000000.0        0.0640230046216     0.0932133122496     0.935349239796      -0.127392584844     0.935349239796      -0.127392584844     0.0640230046216     0.0932133122496     
9600000000.0        0.0642993360861     0.0941622322832     0.935059942697      -0.128702225602     0.935059942697      -0.128702225602     0.0642993360861     0.0941622322832     
9700000000.0        0.0645782494671     0.095110194516      0.934767929936      -0.130010933874     0.934767929936      -0.130010933874     0.0645782494671     0.095110194516      
9800000000.0        0.0648597430744     0.0960571899939     0.934473203165      -0.131318700851     0.934473203165      -0.131318700851     0.0648597430744     0.0960571899939     
9900000000.0        0.0651438150998     0.0970032097814     0.934175764151      -0.132625517739     0.934175764151      -0.132625517739     0.0651438150998     0.0970032097814     
10000000000.0       0.0654304636211     0.0979482449622     0.933875614777      -0.133931375764     0.933875614777      -0.133931375764     0.0654304636211     0.0979482449622     
