# Hz S RI R 50.00 
100000000.0         -5.85225894845e-05  -0.00805255790946   0.999911151903      -0.00809057310026   0.999911151903      -0.00809057310026   -5.85225894844e-05  -0.00805255790946   
200000000.0         -0.000261852961493  -0.0161015877324    0.999707612537      -0.0161776198654    0.999707612537      -0.0161776198654    -0.000261852961493  -0.0161015877324    
300000000.0         -0.000595287897114  -0.0241438819749    0.999374019435      -0.0242579337245    0.999374019435      -0.0242579337245    -0.000595287897115  -0.0241438819749    
400000000.0         -0.00105853977511   -0.0321762558854    0.998910634135      -0.0323283306403    0.998910634135      -0.0323283306403    -0.0010585397751    -0.0321762558854    
500000000.0         -0.00165122590565   -0.0401955448881    0.998317829335      -0.0403856466478    0.998317829335      -0.0403856466478    -0.00165122590566   -0.0401955448881    
600000000.0         -0.00237286402546   -0.0481986063811    0.997596082227      -0.0484267396883    0.997596082227      -0.0484267396883    -0.00237286402546   -0.0481986063811    
700000000.0         -0.00322287205512   -0.0561823226138    0.996745971909      -0.0564484925048    0.996745971909      -0.0564484925048    -0.00322287205512   -0.0561823226138    
800000000.0         -0.00420056890285   -0.0641436039812    0.995768177551      -0.0644478159476    0.995768177551      -0.0644478159476    -0.00420056890285   -0.0641436039812    
900000000.0         -0.00530517570838   -0.0720793924876    0.994663476695      -0.0724216524444    0.994663476695      -0.0724216524444    -0.00530517570838   -0.0720793924876    
1000000000.0        -0.00653581736262   -0.0799866652649    0.993432743499      -0.0803669795247    0.993432743499      -0.0803669795247    -0.00653581736262   -0.0799866652649    
1100000000.0        -0.00789152424122   -0.0878624380758    0.992076946878      -0.0882808133258    0.992076946878      -0.0882808133258    -0.00789152424122   -0.0878624380758    
1200000000.0        -0.00937123412329   -0.0957037687705    0.990597148506      -0.0961602120522    0.990597148506      -0.0961602120522    -0.00937123412329   -0.0957037687705    
1300000000.0        -0.0109737942799    -0.103507760675     0.988994500686      -0.104002279367     0.988994500686      -0.104002279367     -0.0109737942799    -0.103507760675     
1400000000.0        -0.0126979637212    -0.111271565881     0.987270244064      -0.111804167681     0.987270244064      -0.111804167681     -0.0126979637212    -0.111271565881     
1500000000.0        -0.0145424155903    -0.118992388423     0.985425705216      -0.119563081339     0.985425705216      -0.119563081339     -0.0145424155903    -0.118992388423     
1600000000.0        -0.0165057396985    -0.12666748735      0.983462294101      -0.127276279677     0.983462294101      -0.127276279677     -0.0165057396985    -0.12666748735      
1700000000.0        -0.0185864451899    -0.134294179651     0.981381501381      -0.134941079969     0.981381501381      -0.134941079969     -0.0185864451899    -0.134294179651     
1800000000.0        -0.0207829633256    -0.141869843047     0.979184895633      -0.142554860202     0.979184895633      -0.142554860202     -0.0207829633256    -0.141869843047     
1900000000.0        -0.0230936503828    -0.149391918642     0.976874120441      -0.150115061739     0.976874120441      -0.150115061739     -0.0230936503828    -0.149391918642     
2000000000.0        -0.025516790654     -0.156857913413     0.974450891392      -0.157619191807     0.974450891392      -0.157619191807     -0.025516790654     -0.156857913413     
2100000000.0        -0.0280505995399    -0.16426540255      0.971916992983      -0.165064825831     0.971916992983      -0.165064825831     -0.0280505995399    -0.16426540255      
2200000000.0        -0.0306932267253    -0.171612031626     0.96927427544       -0.172449609615     0.96927427544       -0.172449609615     -0.0306932267253    -0.171612031626     
2300000000.0        -0.0334427594283    -0.178895518612     0.966524651464      -0.17977126135      0.966524651464      -0.17977126135      -0.0334427594283    -0.178895518612     
2400000000.0        -0.0362972257126    -0.18611365571      0.963670092924      -0.187027573453     0.963670092924      -0.187027573453     -0.0362972257126    -0.18611365571      
2500000000.0        -0.0392545978537    -0.193264311033     0.960712627482      -0.19421641424      0.960712627482      -0.19421641424      -0.0392545978537    -0.193264311033     
2600000000.0        -0.0423127957476    -0.200345430098     0.957654335187      -0.201335729425     0.957654335187      -0.201335729425     -0.0423127957476    -0.200345430098     
2700000000.0        -0.0454696903548    -0.207355037157     0.954497345031      -0.20838354345      0.954497345031      -0.20838354345      -0.0454696903548    -0.207355037157     
2800000000.0        -0.0487231071666    -0.214291236352     0.951243831477      -0.215357960643     0.951243831477      -0.215357960643     -0.0487231071666    -0.214291236352     
2900000000.0        -0.0520708296868    -0.221152212701     0.947896010984      -0.222257166198     0.947896010984      -0.222257166198     -0.0520708296868    -0.221152212701     
3000000000.0        -0.0555106029187    -0.227936232917     0.944456138511      -0.229079426997     0.944456138511      -0.229079426997     -0.0555106029187    -0.227936232917     
3100000000.0        -0.059040136848     -0.23464164605      0.940926504042      -0.235823092256     0.940926504042      -0.235823092256     -0.059040136848     -0.23464164605      
3200000000.0        -0.062657109912     -0.241266883978     0.93730942911       -0.242486594011     0.93730942911       -0.242486594011     -0.062657109912     -0.241266883978     
3300000000.0        -0.0663591724486    -0.24781046172      0.93360726335       -0.249068447434     0.93360726335       -0.249068447434     -0.0663591724486    -0.24781046172      
3400000000.0        -0.0701439501162    -0.254270977606     0.92982238108       -0.255567251003     0.92982238108       -0.255567251003     -0.0701439501162    -0.254270977606     
3500000000.0        -0.0740090472742    -0.260647113281     0.925957177917      -0.261981686503     0.925957177917      -0.261981686503     -0.0740090472742    -0.260647113281     
3600000000.0        -0.0779520503204    -0.26693763356      0.922014067445      -0.26831051889      0.922014067445      -0.26831051889      -0.0779520503204    -0.26693763356      
3700000000.0        -0.0819705309761    -0.273141386147     0.917995477922      -0.274552595995     0.917995477922      -0.274552595995     -0.0819705309761    -0.273141386147     
3800000000.0        -0.0860620495122    -0.279257301196     0.913903849061      -0.280706848103     0.913903849061      -0.280706848103     -0.0860620495122    -0.279257301196     
3900000000.0        -0.0902241579103    -0.285284390752     0.909741628864      -0.28677228738      0.909741628864      -0.28677228738      -0.0902241579103    -0.285284390752     
4000000000.0        -0.0944544029536    -0.291221748057     0.905511270534      -0.292748007184     0.905511270534      -0.292748007184     -0.0944544029536    -0.291221748057     
4100000000.0        -0.0987503292414    -0.297068546727     0.901215229456      -0.298633181246     0.901215229456      -0.298633181246     -0.0987503292414    -0.297068546727     
4200000000.0        -0.103109482123     -0.302824039815     0.896855960271      -0.30442706273      0.896855960271      -0.30442706273      -0.103109482123     -0.302824039815     
4300000000.0        -0.107529410543     -0.308487558768     0.89243591402       -0.310128983185     0.89243591402       -0.310128983185     -0.107529410543     -0.308487558768     
4400000000.0        -0.112007669806     -0.314058512266     0.887957535389      -0.315738351391     0.887957535389      -0.315738351391     -0.112007669806     -0.314058512266     
4500000000.0        -0.116541824232     -0.31953638497      0.883423260047      -0.321254652109     0.883423260047      -0.321254652109     -0.116541824232     -0.31953638497      
4600000000.0        -0.121129449735     -0.324920736178     0.878835512071      -0.326677444727     0.878835512071      -0.326677444727     -0.121129449735     -0.324920736178     
4700000000.0        -0.125768136286     -0.330211198387     0.874196701481      -0.332006361833     0.874196701481      -0.332006361833     -0.125768136286     -0.330211198387     
4800000000.0        -0.130455490285     -0.335407475786     0.869509221869      -0.337241107701     0.869509221869      -0.337241107701     -0.130455490285     -0.335407475786     
4900000000.0        -0.135189136822     -0.340509342669     0.864775448136      -0.342381456707     0.864775448136      -0.342381456707     -0.135189136822     -0.340509342669     
5000000000.0        -0.139966721844     -0.34551664178      0.859997734329      -0.347427251672     0.859997734329      -0.347427251672     -0.139966721844     -0.34551664178      
5100000000.0        -0.144785914201     -0.350429282601     0.85517841159       -0.352378402154     0.85517841159       -0.352378402154     -0.144785914201     -0.350429282601     
5200000000.0        -0.149644407601     -0.355247239589     0.850319786206      -0.357234882682     0.850319786206      -0.357234882682     -0.149644407601     -0.355247239589     
5300000000.0        -0.154539922446     -0.359970550355     0.845424137767      -0.361996730937     0.845424137767      -0.361996730937     -0.154539922446     -0.359970550355     
5400000000.0        -0.159470207571     -0.364599313815     0.840493717434      -0.366664045897     0.840493717434      -0.366664045897     -0.159470207571     -0.364599313815     
5500000000.0        -0.164433041866     -0.369133688291     0.83553074631       -0.371236985948     0.83553074631       -0.371236985948     -0.164433041866     -0.369133688291     
5600000000.0        -0.169426235801     -0.37357388959      0.830537413921      -0.375715766957     0.830537413921      -0.375715766957     -0.169426235801     -0.37357388959      
5700000000.0        -0.174447632842     -0.377920189063     0.825515876796      -0.38010066033      0.825515876796      -0.38010066033      -0.174447632842     -0.377920189063     
5800000000.0        -0.179495110762     -0.38217291163      0.820468257156      -0.384391991041     0.820468257156      -0.384391991041     -0.179495110762     -0.38217291163      
5900000000.0        -0.184566582853     -0.386332433806     0.815396641706      -0.388590135655     0.815396641706      -0.388590135655     -0.184566582853     -0.386332433806     
6000000000.0        -0.189659999035     -0.390399181708     0.810303080523      -0.392695520339     0.810303080523      -0.392695520339     -0.189659999035     -0.390399181708     
6100000000.0        -0.194773346863     -0.394373629067     0.805189586044      -0.396708618868     0.805189586044      -0.396708618868     -0.194773346863     -0.394373629067     
6200000000.0        -0.199904652447     -0.398256295229     0.800058132159      -0.400629950631     0.800058132159      -0.400629950631     -0.199904652447     -0.398256295229     
6300000000.0        -0.205051981265     -0.40204774317      0.794910653386      -0.404460078645     0.794910653386      -0.404460078645     -0.205051981265     -0.40204774317      
6400000000.0        -0.210213438894     -0.405748577517     0.789749044143      -0.408199607573     0.789749044143      -0.408199607573     -0.210213438894     -0.405748577517     
6500000000.0        -0.215387171644     -0.409359442578     0.784575158117      -0.411849181762     0.784575158117      -0.411849181762     -0.215387171644     -0.409359442578     
6600000000.0        -0.220571367112     -0.412881020396     0.779390807709      -0.415409483285     0.779390807709      -0.415409483285     -0.220571367112     -0.412881020396     
6700000000.0        -0.225764254646     -0.416314028812     0.774197763567      -0.418881230014     0.774197763567      -0.418881230014     -0.225764254646     -0.416314028812     
6800000000.0        -0.230964105731     -0.419659219561     0.768997754203      -0.422265173715     0.768997754203      -0.422265173715     -0.230964105731     -0.419659219561     
6900000000.0        -0.236169234296     -0.422917376387     0.763792465685      -0.425562098157     0.763792465685      -0.425562098157     -0.236169234296     -0.422917376387     
7000000000.0        -0.241377996946     -0.426089313191     0.758583541407      -0.428772817265     0.758583541407      -0.428772817265     -0.241377996946     -0.426089313191     
7100000000.0        -0.246588793119     -0.429175872205     0.753372581927      -0.431898173294     0.753372581927      -0.431898173294     -0.246588793119     -0.429175872205     
7200000000.0        -0.251800065181     -0.432177922202     0.748161144877      -0.434939035038     0.748161144877      -0.434939035038     -0.251800065181     -0.432177922202     
7300000000.0        -0.257010298446     -0.435096356745     0.742950744941      -0.437896296077     0.742950744941      -0.437896296077     -0.257010298446     -0.435096356745     
7400000000.0        -0.262218021141     -0.437932092462     0.73774285389       -0.440770873057     0.73774285389       -0.440770873057     -0.262218021141     -0.437932092462     
7500000000.0        -0.267421804303     -0.440686067371     0.732538900682      -0.443563704011     0.732538900682      -0.443563704011     -0.267421804303     -0.440686067371     
7600000000.0        -0.272620261632     -0.443359239243     0.727340271619      -0.44627574672      0.727340271619      -0.44627574672      -0.272620261632     -0.443359239243     
7700000000.0        -0.277812049273     -0.445952583998     0.722148310551      -0.448907977118     0.722148310551      -0.448907977118     -0.277812049273     -0.445952583998     
7800000000.0        -0.282995865566     -0.448467094155     0.716964319138      -0.451461387733     0.716964319138      -0.451461387733     -0.282995865566     -0.448467094155     
7900000000.0        -0.288170450734     -0.450903777317     0.711789557154      -0.453936986174     0.711789557154      -0.453936986174     -0.288170450734     -0.450903777317     
8000000000.0        -0.293334586532     -0.453263654706     0.706625242841      -0.456335793671     0.706625242841      -0.456335793671     -0.293334586532     -0.453263654706     
8100000000.0        -0.298487095859     -0.455547759736     0.701472553301      -0.458658843641     0.701472553301      -0.458658843641     -0.298487095859     -0.455547759736     
8200000000.0        -0.303626842322     -0.45775713664      0.696332624923      -0.460907180322     0.696332624923      -0.460907180322     -0.303626842322     -0.45775713664      
8300000000.0        -0.30875272977      -0.459892839135     0.691206553857      -0.463081857431     0.691206553857      -0.463081857431     -0.30875272977      -0.459892839135     
8400000000.0        -0.313863701793     -0.461955929136     0.686095396512      -0.465183936882     0.686095396512      -0.465183936882     -0.313863701793     -0.461955929136     
8500000000.0        -0.318958741192     -0.463947475514     0.681000170085      -0.467214487547     0.681000170085      -0.467214487547     -0.318958741192     -0.463947475514     
8600000000.0        -0.324036869417     -0.465868552904     0.675921853124      -0.469174584057     0.675921853124      -0.469174584057     -0.324036869417     -0.465868552904     
8700000000.0        -0.329097145983     -0.467720240554     0.670861386113      -0.471065305655     0.670861386113      -0.471065305655     -0.329097145983     -0.467720240554     
8800000000.0        -0.334138667861     -0.469503621217     0.665819672078      -0.472887735091     0.665819672078      -0.472887735091     -0.334138667861     -0.469503621217     
8900000000.0        -0.339160568851     -0.4712197801       0.66079757722       -0.474642957563     0.66079757722       -0.474642957563     -0.339160568851     -0.4712197801       
9000000000.0        -0.34416201893      -0.472869803841     0.65579593156       -0.476332059702     0.65579593156       -0.476332059702     -0.34416201893      -0.472869803841     
9100000000.0        -0.349142223587     -0.474454779542     0.650815529606      -0.4779561286       0.650815529606      -0.4779561286       -0.349142223587     -0.474454779542     
9200000000.0        -0.354100423148     -0.47597579384      0.645857131032      -0.479516250885     0.645857131032      -0.479516250885     -0.354100423148     -0.47597579384      
9300000000.0        -0.35903589208      -0.477433932025     0.64092146137       -0.481013511834     0.64092146137       -0.481013511834     -0.35903589208      -0.477433932025     
9400000000.0        -0.363947938289     -0.478830277191     0.636009212711      -0.48244899453      0.636009212711      -0.48244899453      -0.363947938289     -0.478830277191     
9500000000.0        -0.368835902409     -0.480165909442     0.631121044422      -0.483823779061     0.631121044422      -0.483823779061     -0.368835902409     -0.480165909442     
9600000000.0        -0.373699157082     -0.481441905122     0.626257583859      -0.485138941759     0.626257583859      -0.485138941759     -0.373699157082     -0.481441905122     
9700000000.0        -0.378537106234     -0.4826593361       0.621419427095      -0.486395554476     0.621419427095      -0.486395554476     -0.378537106234     -0.4826593361       
9800000000.0        -0.383349184344     -0.483819269083     0.616607139648      -0.487594683903     0.616607139648      -0.487594683903     -0.383349184344     -0.483819269083     
9900000000.0        -0.388134855718     -0.484922764973     0.611821257213      -0.488737390922     0.611821257213      -0.488737390922     -0.388134855718     -0.484922764973     
10000000000.0       -0.392893613747     -0.485970878253     0.607062286397      -0.48982473         0.607062286397      -0.48982473         -0.392893613747     -0.485970878253     
