# Hz S RI R 50.00 
100000000.0         0.000372598073199   -0.00457495763261   0.999565026918      -0.00556979016667   0.999565026918      -0.00556979016667   0.000372598073199   -0.00457495763261   
200000000.0         0.000293921859799   -0.00914913244772   0.999479409562      -0.011138801467     0.999479409562      -0.011138801467     0.000293921859799   -0.00914913244772   
300000000.0         0.000163600878764   -0.013721800128     0.999342560065      -0.0167063231611    0.999342560065      -0.0167063231611    0.000163600878763   -0.013721800128     
400000000.0         -1.79819651592e-05  -0.0182922299885    0.999154164424      -0.0222716340671    0.999154164424      -0.0222716340671    -1.79819651591e-05  -0.0182922299885    
500000000.0         -0.000250644550675  -0.0228596884074    0.998914137047      -0.0278340087838    0.998914137047      -0.0278340087838    -0.000250644550675  -0.0228596884074    
600000000.0         -0.000534256582853  -0.027423440443     0.998622471988      -0.0333927198951    0.998622471988      -0.0333927198951    -0.000534256582853  -0.027423440443     
700000000.0         -0.000868701755039  -0.0319827508488    0.998279205207      -0.0389470392288    0.998279205207      -0.0389470392288    -0.000868701755039  -0.0319827508488    
800000000.0         -0.00125386395757   -0.0365368848255    0.997884400812      -0.0444962387371    0.997884400812      -0.0444962387371    -0.00125386395757   -0.0365368848255    
900000000.0         -0.00168962115869   -0.0410851086334    0.997438144932      -0.0500395911862    0.997438144932      -0.0500395911862    -0.00168962115869   -0.0410851086334    
1000000000.0        -0.00217584232882   -0.0456266901248    0.996940542587      -0.0555763707388    0.996940542587      -0.0555763707388    -0.00217584232882   -0.0456266901248    
1100000000.0        -0.00271238576037   -0.0501608992237    0.996391715929      -0.0611058534691    0.996391715929      -0.0611058534691    -0.00271238576037   -0.0501608992237    
1200000000.0        -0.00329909809933   -0.0546870083699    0.995791803163      -0.0666273178325    0.995791803163      -0.0666273178325    -0.00329909809933   -0.0546870083699    
1300000000.0        -0.00393581377092   -0.0592042929374    0.99514095783       -0.0721400451036    0.99514095783       -0.0721400451036    -0.00393581377092   -0.0592042929374    
1400000000.0        -0.0046223546391    -0.063712031634     0.994439348308      -0.0776433197905    0.994439348308      -0.0776433197905    -0.0046223546391    -0.063712031634     
1500000000.0        -0.00535852981287   -0.0682095068841    0.993687157426      -0.08313643003      0.993687157426      -0.08313643003      -0.00535852981287   -0.0682095068841    
1600000000.0        -0.00614413554981   -0.0726960051992    0.992884582159      -0.0886186679679    0.992884582159      -0.0886186679679    -0.00614413554981   -0.0726960051992    
1700000000.0        -0.00697895522702   -0.0771708175374    0.99203183337       -0.0940893301261    0.99203183337       -0.0940893301261    -0.00697895522702   -0.0771708175374    
1800000000.0        -0.0078627593608    -0.0816332396522    0.991129135571      -0.0995477177591    0.991129135571      -0.0995477177591    -0.0078627593608    -0.0816332396522    
1900000000.0        -0.00879530566321   -0.0860825724331    0.990176726712      -0.104993137199     0.990176726712      -0.104993137199     -0.00879530566321   -0.0860825724331    
2000000000.0        -0.00977633912718   -0.0905181222368    0.989174857971      -0.110424900194     0.989174857971      -0.110424900194     -0.00977633912719   -0.0905181222368    
2100000000.0        -0.0108055921351    -0.0949392012107    0.98812379355       -0.115842324232     0.98812379355       -0.115842324232     -0.0108055921351    -0.0949392012107    
2200000000.0        -0.0118827845861    -0.099345127608     0.987023810477      -0.121244732864     0.987023810477      -0.121244732864     -0.0118827845861    -0.099345127608     
2300000000.0        -0.0130076240409    -0.103735226096     0.985875198397      -0.126631456014     0.985875198397      -0.126631456014     -0.0130076240409    -0.103735226096     
2400000000.0        -0.0141798058794    -0.108108828053     0.984678259374      -0.132001830278     0.984678259374      -0.132001830278     -0.0141798058794    -0.108108828053     
2500000000.0        -0.0153990134724    -0.112465271867     0.983433307673      -0.137355199225     0.983433307673      -0.137355199225     -0.0153990134724    -0.112465271867     
2600000000.0        -0.0166649183638    -0.116803903212     0.982140669553      -0.142690913678     0.982140669553      -0.142690913678     -0.0166649183638    -0.116803903212     
2700000000.0        -0.0179771804638    -0.121124075328     0.980800683045      -0.148008331995     0.980800683045      -0.148008331995     -0.0179771804638    -0.121124075328     
2800000000.0        -0.0193354482509    -0.125425149291     0.979413697727      -0.153306820338     0.979413697727      -0.153306820338     -0.0193354482509    -0.125425149291     
2900000000.0        -0.0207393589834    -0.129706494272     0.977980074498      -0.158585752938     0.977980074498      -0.158585752938     -0.0207393589834    -0.129706494272     
3000000000.0        -0.0221885389186    -0.133967487788     0.976500185342      -0.163844512347     0.976500185342      -0.163844512347     -0.0221885389186    -0.133967487788     
3100000000.0        -0.0236826035398    -0.138207515949     0.974974413087      -0.169082489684     0.974974413087      -0.169082489684     -0.0236826035398    -0.138207515949     
3200000000.0        -0.02522115779      -0.142425973693     0.973403151162      -0.174299084872     0.973403151162      -0.174299084872     -0.02522115779      -0.142425973693     
3300000000.0        -0.0268037963127    -0.146622265013     0.971786803345      -0.179493706868     0.971786803345      -0.179493706868     -0.0268037963127    -0.146622265013     
3400000000.0        -0.0284301036987    -0.150795803176     0.970125783511      -0.184665773881     0.970125783511      -0.184665773881     -0.0284301036987    -0.150795803176     
3500000000.0        -0.0300996547384    -0.154946010934     0.968420515369      -0.189814713589     0.968420515369      -0.189814713589     -0.0300996547384    -0.154946010934     
3600000000.0        -0.0318120146797    -0.159072320729     0.966671432202      -0.194939963336     0.966671432202      -0.194939963336     -0.0318120146797    -0.159072320729     
3700000000.0        -0.0335667394904    -0.163174174881     0.964878976596      -0.200040970328     0.964878976596      -0.200040970328     -0.0335667394904    -0.163174174881     
3800000000.0        -0.0353633761262    -0.167251025775     0.963043600168      -0.20511719182      0.963043600168      -0.20511719182      -0.0353633761262    -0.167251025775     
3900000000.0        -0.0372014628016    -0.171302336039     0.961165763293      -0.210168095293     0.961165763293      -0.210168095293     -0.0372014628016    -0.171302336039     
4000000000.0        -0.0390805292658    -0.175327578706     0.959245934824      -0.215193158617     0.959245934824      -0.215193158617     -0.0390805292658    -0.175327578706     
4100000000.0        -0.0410000970812    -0.179326237377     0.957284591806      -0.220191870215     0.957284591806      -0.220191870215     -0.0410000970812    -0.179326237377     
4200000000.0        -0.0429596799058    -0.183297806365     0.955282219198      -0.225163729211     0.955282219198      -0.225163729211     -0.0429596799058    -0.183297806365     
4300000000.0        -0.0449587837777    -0.187241790837     0.95323930958       -0.230108245566     0.95323930958       -0.230108245566     -0.0449587837777    -0.187241790837     
4400000000.0        -0.0469969074032    -0.191157706949     0.951156362866      -0.235024940217     0.951156362866      -0.235024940217     -0.0469969074032    -0.191157706949     
4500000000.0        -0.0490735424456    -0.195045081959     0.949033886013      -0.239913345195     0.949033886013      -0.239913345195     -0.0490735424456    -0.195045081959     
4600000000.0        -0.0511881738171    -0.198903454348     0.946872392723      -0.244773003738     0.946872392723      -0.244773003738     -0.0511881738171    -0.198903454348     
4700000000.0        -0.0533402799715    -0.20273237392      0.944672403156      -0.249603470396     0.944672403156      -0.249603470396     -0.0533402799715    -0.20273237392      
4800000000.0        -0.0555293331985    -0.206531401898     0.942434443628      -0.254404311131     0.942434443628      -0.254404311131     -0.0555293331985    -0.206531401898     
4900000000.0        -0.0577547999187    -0.210300111008     0.940159046317      -0.259175103395     0.940159046317      -0.259175103395     -0.0577547999187    -0.210300111008     
5000000000.0        -0.0600161409792    -0.214038085562     0.937846748969      -0.263915436216     0.937846748969      -0.263915436216     -0.0600161409792    -0.214038085562     
5100000000.0        -0.0623128119497    -0.217744921518     0.935498094595      -0.26862491026      0.935498094595      -0.26862491026      -0.0623128119497    -0.217744921518     
5200000000.0        -0.0646442634183    -0.221420226546     0.933113631178      -0.273303137896     0.933113631178      -0.273303137896     -0.0646442634183    -0.221420226546     
5300000000.0        -0.0670099412871    -0.225063620078     0.930693911376      -0.277949743245     0.930693911376      -0.277949743245     -0.0670099412871    -0.225063620078     
5400000000.0        -0.0694092870678    -0.228674733347     0.928239492227      -0.282564362223     0.928239492227      -0.282564362223     -0.0694092870678    -0.228674733347     
5500000000.0        -0.0718417381754    -0.232253209425     0.925750934849      -0.287146642577     0.925750934849      -0.287146642577     -0.0718417381754    -0.232253209425     
5600000000.0        -0.0743067282219    -0.235798703247     0.923228804153      -0.291696243907     0.923228804153      -0.291696243907     -0.0743067282219    -0.235798703247     
5700000000.0        -0.0768036873079    -0.239310881626     0.920673668546      -0.296212837687     0.920673668546      -0.296212837687     -0.0768036873079    -0.239310881626     
5800000000.0        -0.0793320423126    -0.242789423266     0.918086099642      -0.300696107275     0.918086099642      -0.300696107275     -0.0793320423126    -0.242789423266     
5900000000.0        -0.0818912171827    -0.246234018761     0.915466671971      -0.30514574791      0.915466671971      -0.30514574791      -0.0818912171827    -0.246234018761     
6000000000.0        -0.0844806332183    -0.249644370586     0.912815962696      -0.30956146671      0.912815962696      -0.30956146671      -0.0844806332183    -0.249644370586     
6100000000.0        -0.0870997093567    -0.253020193087     0.910134551324      -0.313942982655     0.910134551324      -0.313942982655     -0.0870997093567    -0.253020193087     
6200000000.0        -0.0897478624542    -0.256361212457     0.907423019429      -0.318290026567     0.907423019429      -0.318290026567     -0.0897478624542    -0.256361212457     
6300000000.0        -0.0924245075643    -0.259667166703     0.904681950368      -0.322602341079     0.904681950368      -0.322602341079     -0.0924245075643    -0.259667166703     
6400000000.0        -0.0951290582134    -0.262937805614     0.901911929009      -0.326879680598     0.901911929009      -0.326879680598     -0.0951290582134    -0.262937805614     
6500000000.0        -0.0978609266733    -0.266172890715     0.899113541458      -0.331121811263     0.899113541458      -0.331121811263     -0.0978609266733    -0.266172890715     
6600000000.0        -0.10061952423      -0.269372195214     0.896287374787      -0.335328510894     0.896287374787      -0.335328510894     -0.10061952423      -0.269372195214     
6700000000.0        -0.10340426145      -0.272535503946     0.893434016769      -0.339499568933     0.893434016769      -0.339499568933     -0.10340426145      -0.272535503946     
6800000000.0        -0.10621454844      -0.275662613311     0.890554055618      -0.343634786379     0.890554055618      -0.343634786379     -0.10621454844      -0.275662613311     
6900000000.0        -0.109049795107     -0.278753331198     0.88764807973       -0.347733975721     0.88764807973       -0.347733975721     -0.109049795107     -0.278753331198     
7000000000.0        -0.111909411412     -0.28180747691      0.884716677428      -0.351796960859     0.884716677428      -0.351796960859     -0.111909411412     -0.28180747691      
7100000000.0        -0.114792807616     -0.284824881084     0.881760436712      -0.355823577018     0.881760436712      -0.355823577018     -0.114792807616     -0.284824881084     
7200000000.0        -0.117699394529     -0.287805385596     0.878779945015      -0.359813670666     0.878779945015      -0.359813670666     -0.117699394529     -0.287805385596     
7300000000.0        -0.120628583752     -0.290748843473     0.875775788963      -0.363767099414     0.875775788963      -0.363767099414     -0.120628583752     -0.290748843473     
7400000000.0        -0.123579787906     -0.293655118786     0.872748554137      -0.367683731916     0.872748554137      -0.367683731916     -0.123579787906     -0.293655118786     
7500000000.0        -0.126552420871     -0.296524086551     0.869698824839      -0.37156344777      0.869698824839      -0.37156344777      -0.126552420871     -0.296524086551     
7600000000.0        -0.129545898008     -0.299355632614     0.866627183871      -0.3754061374       0.866627183871      -0.3754061374       -0.129545898008     -0.299355632614     
7700000000.0        -0.13255963638      -0.302149653537     0.86353421231       -0.379211701945     0.86353421231       -0.379211701945     -0.13255963638      -0.302149653537     
7800000000.0        -0.135593054975     -0.30490605648      0.860420489292      -0.382980053138     0.860420489292      -0.382980053138     -0.135593054975     -0.30490605648      
7900000000.0        -0.138645574906     -0.307624759073     0.857286591801      -0.386711113184     0.857286591801      -0.386711113184     -0.138645574906     -0.307624759073     
8000000000.0        -0.141716619629     -0.310305689291     0.854133094459      -0.390404814628     0.854133094459      -0.390404814628     -0.141716619629     -0.310305689291     
8100000000.0        -0.144805615136     -0.312948785319     0.850960569333      -0.394061100226     0.850960569333      -0.394061100226     -0.144805615136     -0.312948785319     
8200000000.0        -0.147911990153     -0.315553995415     0.84776958573       -0.397679922803     0.84776958573       -0.397679922803     -0.147911990153     -0.315553995415     
8300000000.0        -0.15103517633      -0.318121277772     0.844560710014      -0.401261245123     0.844560710014      -0.401261245123     -0.15103517633      -0.318121277772     
8400000000.0        -0.154174608426     -0.320650600373     0.841334505417      -0.404805039733     0.841334505417      -0.404805039733     -0.154174608426     -0.320650600373     
8500000000.0        -0.157329724489     -0.323141940845     0.838091531861      -0.408311288827     0.838091531861      -0.408311288827     -0.157329724489     -0.323141940845     
8600000000.0        -0.160499966027     -0.325595286307     0.834832345784      -0.411779984091     0.834832345784      -0.411779984091     -0.160499966027     -0.325595286307     
8700000000.0        -0.163684778179     -0.32801063322      0.831557499973      -0.415211126551     0.831557499973      -0.415211126551     -0.163684778179     -0.32801063322      
8800000000.0        -0.166883609877     -0.330387987231     0.828267543399      -0.418604726417     0.828267543399      -0.418604726417     -0.166883609877     -0.330387987231     
8900000000.0        -0.170095914001     -0.332727363012     0.824963021059      -0.42196080293      0.824963021059      -0.42196080293      -0.170095914001     -0.332727363012     
9000000000.0        -0.173321147535     -0.335028784105     0.821644473829      -0.425279384194     0.821644473829      -0.425279384194     -0.173321147535     -0.335028784105     
9100000000.0        -0.176558771709     -0.337292282757     0.818312438311      -0.428560507023     0.818312438311      -0.428560507023     -0.176558771709     -0.337292282757     
9200000000.0        -0.179808252141     -0.339517899756     0.8149674467        -0.431804216769     0.8149674467        -0.431804216769     -0.179808252141     -0.339517899756     
9300000000.0        -0.183069058971     -0.341705684266     0.811610026643      -0.435010567164     0.811610026643      -0.435010567164     -0.183069058971     -0.341705684266     
9400000000.0        -0.186340666993     -0.343855693659     0.80824070111       -0.438179620145     0.80824070111       -0.438179620145     -0.186340666993     -0.343855693659     
9500000000.0        -0.189622555778     -0.345967993348     0.804859988274      -0.441311445693     0.804859988274      -0.441311445693     -0.189622555778     -0.345967993348     
9600000000.0        -0.192914209789     -0.348042656614     0.801468401388      -0.444406121658     0.801468401388      -0.444406121658     -0.192914209789     -0.348042656614     
9700000000.0        -0.196215118499     -0.350079764439     0.798066448673      -0.447463733591     0.798066448673      -0.447463733591     -0.196215118499     -0.350079764439     
9800000000.0        -0.199524776498     -0.352079405332     0.794654633212      -0.450484374572     0.794654633212      -0.450484374572     -0.199524776498     -0.352079405332     
9900000000.0        -0.202842683591     -0.354041675158     0.791233452845      -0.453468145036     0.791233452845      -0.453468145036     -0.202842683591     -0.354041675158     
10000000000.0       -0.206168344903     -0.355966676964     0.787803400071      -0.456415152604     0.787803400071      -0.456415152604     -0.206168344903     -0.355966676964     
