# Hz S RI R 50.00 
100000000.0         1.72695804075e-05   -0.00972110575708   0.99976407598       -0.0101787725633    0.99976407598       -0.0101787725633    1.72695804073e-05   -0.00972110575708   
200000000.0         -0.000288450683739  -0.0194360659997    0.999456321923      -0.0203514149134    0.999456321923      -0.0203514149134    -0.000288450683739  -0.0194360659997    
300000000.0         -0.000791841212648  -0.0291390828694    0.998951125738      -0.0305121394322    0.998951125738      -0.0305121394322    -0.000791841212648  -0.0291390828694    
400000000.0         -0.00149221254117   -0.0388243685484    0.998248958753      -0.0406551664028    0.998248958753      -0.0406551664028    -0.00149221254117   -0.0388243685484    
500000000.0         -0.00238871675638   -0.0484861625822    0.997350585165      -0.0507747425086    0.997350585165      -0.0507747425086    -0.00238871675638   -0.0484861625822    
600000000.0         -0.0034803027697    -0.0581187450779    0.996257013496      -0.0608651543863    0.996257013496      -0.0608651543863    -0.0034803027697    -0.0581187450779    
700000000.0         -0.00476570714831   -0.0677164486558    0.99496948209       -0.0709207407512    0.99496948209       -0.0709207407512    -0.00476570714831   -0.0677164486558    
800000000.0         -0.00624345315708   -0.0772736697427    0.993489451456      -0.0809359037914    0.993489451456      -0.0809359037914    -0.00624345315708   -0.0772736697427    
900000000.0         -0.00791185284179   -0.0867848793827    0.991818598348      -0.0909051200433    0.991818598348      -0.0909051200433    -0.00791185284179   -0.0867848793827    
1000000000.0        -0.00976901067083   -0.0962446336199    0.989958810184      -0.10082295082      0.989958810184      -0.10082295082      -0.00976901067083   -0.0962446336199    
1100000000.0        -0.0118128281884    -0.105647583469     0.987912179323      -0.110684052215     0.987912179323      -0.110684052215     -0.0118128281884    -0.105647583469     
1200000000.0        -0.0140410094335    -0.114988484461     0.985680996997      -0.120483184673     0.985680996997      -0.120483184673     -0.0140410094335    -0.114988484461     
1300000000.0        -0.0164510669919    -0.124262205747     0.983267746865      -0.130215222114     0.983267746865      -0.130215222114     -0.0164510669919    -0.124262205747     
1400000000.0        -0.0190403285991    -0.133463738747     0.980675098144      -0.139875160595     0.980675098144      -0.139875160595     -0.0190403285991    -0.133463738747     
1500000000.0        -0.0218059442289    -0.142588205309     0.977905898339      -0.149458126486     0.977905898339      -0.149458126486     -0.0218059442289    -0.142588205309     
1600000000.0        -0.0247448936168    -0.151630865375     0.974963165598      -0.158959384144     0.974963165598      -0.158959384144     -0.0247448936168    -0.151630865375     
1700000000.0        -0.0278539941713    -0.160587124118     0.971850080706      -0.168374343059     0.971850080706      -0.168374343059     -0.0278539941713    -0.160587124118     
1800000000.0        -0.031129909227     -0.169452538546     0.96856997877       -0.177698564469     0.96856997877       -0.177698564469     -0.031129909227     -0.169452538546     
1900000000.0        -0.0345691565966    -0.178222823563     0.965126340612      -0.18692776742      0.965126340612      -0.18692776742      -0.0345691565966    -0.178222823563     
2000000000.0        -0.03816811738      -0.186893857452     0.961522783929      -0.196057834265     0.961522783929      -0.196057834265     -0.03816811738      -0.186893857452     
2100000000.0        -0.0419230449868    -0.195461686807     0.957763054232      -0.205084815593     0.957763054232      -0.205084815593     -0.0419230449868    -0.195461686807     
2200000000.0        -0.0458300743315    -0.203922530881     0.953851015638      -0.214004934583     0.953851015638      -0.214004934583     -0.0458300743315    -0.203922530881     
2300000000.0        -0.0498852311607    -0.212272785356     0.949790641515      -0.222814590783     0.949790641515      -0.222814590783     -0.0498852311607    -0.212272785356     
2400000000.0        -0.0540844414715    -0.220509025544     0.945586005058      -0.231510363311     0.945586005058      -0.231510363311     -0.0540844414715    -0.220509025544     
2500000000.0        -0.0584235409815    -0.228628009017     0.941241269798      -0.240089013482     0.941241269798      -0.240089013482     -0.0584235409815    -0.228628009017     
2600000000.0        -0.0628982846133    -0.23662667766      0.936760680115      -0.248547486879     0.936760680115      -0.248547486879     -0.0628982846133    -0.23662667766      
2700000000.0        -0.067504355956     -0.244502159185     0.932148551766      -0.256882914854     0.932148551766      -0.256882914854     -0.067504355956     -0.244502159185     
2800000000.0        -0.072237376668     -0.252251768087     0.927409262474      -0.265092615495     0.927409262474      -0.265092615495     -0.072237376668     -0.252251768087     
2900000000.0        -0.0770929157874    -0.259873006073     0.922547242614      -0.273174094059     0.922547242614      -0.273174094059     -0.0770929157874    -0.259873006073     
3000000000.0        -0.0820664989185    -0.26736356198      0.917566966023      -0.281125042885     0.917566966023      -0.281125042885     -0.0820664989185    -0.26736356198      
3100000000.0        -0.0871536172637    -0.274721311188     0.912472940961      -0.288943340814     0.912472940961      -0.288943340814     -0.0871536172637    -0.274721311188     
3200000000.0        -0.0923497364716    -0.281944314566     0.90726970126       -0.296627052135     0.90726970126       -0.296627052135     -0.0923497364716    -0.281944314566     
3300000000.0        -0.0976503052772    -0.289030816948     0.901961797685      -0.304174425065     0.901961797685      -0.304174425065     -0.0976503052772    -0.289030816948     
3400000000.0        -0.103050763909     -0.295979245191     0.89655378952       -0.311583889804     0.89655378952       -0.311583889804     -0.103050763909     -0.295979245191     
3500000000.0        -0.108546552238     -0.302788205808     0.891050236418      -0.318854056173     0.891050236418      -0.318854056173     -0.108546552238     -0.302788205808     
3600000000.0        -0.114133117659     -0.309456482223     0.885455690518      -0.325983710872     0.885455690518      -0.325983710872     -0.114133117659     -0.309456482223     
3700000000.0        -0.119805922671     -0.315983031667     0.879774688864      -0.332971814372     0.879774688864      -0.332971814372     -0.119805922671     -0.315983031667     
3800000000.0        -0.125560452156     -0.322366981735     0.874011746124      -0.339817497477     0.874011746124      -0.339817497477     -0.125560452156     -0.322366981735     
3900000000.0        -0.131392220337     -0.328607626636     0.868171347632      -0.346520057576     0.868171347632      -0.346520057576     -0.131392220337     -0.328607626636     
4000000000.0        -0.137296777399     -0.334704423162     0.862257942762      -0.35307895461      0.862257942762      -0.35307895461      -0.137296777399     -0.334704423162     
4100000000.0        -0.143269715778     -0.340656986403     0.856275938643      -0.359493806789     0.856275938643      -0.359493806789     -0.143269715778     -0.340656986403     
4200000000.0        -0.149306676097     -0.34646508523      0.85022969422       -0.365764386077     0.85022969422       -0.365764386077     -0.149306676097     -0.34646508523      
4300000000.0        -0.155403352747     -0.352128637573     0.84412351467       -0.371890613474     0.84412351467       -0.371890613474     -0.155403352747     -0.352128637573     
4400000000.0        -0.161555499126     -0.357647705533     0.837961646167      -0.377872554118     0.837961646167      -0.377872554118     -0.161555499126     -0.357647705533     
4500000000.0        -0.167758932504     -0.363022490324     0.831748271015      -0.383710412241     0.831748271015      -0.383710412241     -0.167758932504     -0.363022490324     
4600000000.0        -0.174009538546     -0.368253327101     0.825487503119      -0.389404525992     0.825487503119      -0.389404525992     -0.174009538546     -0.368253327101     
4700000000.0        -0.180303275476     -0.373340679678     0.81918338383       -0.394955362154     0.81918338383       -0.394955362154     -0.180303275476     -0.373340679678     
4800000000.0        -0.186636177888     -0.378285135166     0.812839878125      -0.400363510784     0.812839878125      -0.400363510784     -0.186636177888     -0.378285135166     
4900000000.0        -0.193004360216     -0.383087398547     0.806460871143      -0.405629679791     0.806460871143      -0.405629679791     -0.193004360216     -0.383087398547     
5000000000.0        -0.199404019865     -0.387748287215     0.800050165049      -0.410754689475     0.800050165049      -0.410754689475     -0.199404019865     -0.387748287215     
5100000000.0        -0.205831440002     -0.392268725494     0.793611476245      -0.415739467044     0.793611476245      -0.415739467044     -0.205831440002     -0.392268725494     
5200000000.0        -0.212282992034     -0.39664973916      0.787148432891      -0.420585041138     0.787148432891      -0.420585041138     -0.212282992034     -0.39664973916      
5300000000.0        -0.218755137763     -0.40089244997      0.780664572751      -0.425292536363     0.780664572751      -0.425292536363     -0.218755137763     -0.40089244997      
5400000000.0        -0.225244431241     -0.404998070239     0.774163341338      -0.429863167861     0.774163341338      -0.429863167861     -0.225244431241     -0.404998070239     
5500000000.0        -0.231747520322     -0.408967897453     0.767648090356      -0.434298235928     0.767648090356      -0.434298235928     -0.231747520322     -0.408967897453     
5600000000.0        -0.238261147947     -0.412803308954     0.761122076426      -0.438599120703     0.761122076426      -0.438599120703     -0.238261147947     -0.412803308954     
5700000000.0        -0.244782153136     -0.416505756699     0.754588460082      -0.442767276916     0.754588460082      -0.442767276916     -0.244782153136     -0.416505756699     
5800000000.0        -0.251307471741     -0.420076762103     0.748050305024      -0.446804228747     0.748050305024      -0.446804228747     -0.251307471741     -0.420076762103     
5900000000.0        -0.257834136938     -0.423517910986     0.741510577628      -0.450711564761     0.741510577628      -0.450711564761     -0.257834136938     -0.423517910986     
6000000000.0        -0.264359279488     -0.42683084863      0.734972146678      -0.454490932969     0.734972146678      -0.454490932969     -0.264359279488     -0.42683084863      
6100000000.0        -0.270880127779     -0.430017274944     0.72843778333       -0.458144035999     0.72843778333       -0.458144035999     -0.270880127779     -0.430017274944     
6200000000.0        -0.277394007654     -0.433078939764     0.721910161282      -0.461672626389     0.721910161282      -0.461672626389     -0.277394007654     -0.433078939764     
6300000000.0        -0.283898342046     -0.436017638282     0.715391857137      -0.465078502021     0.715391857137      -0.465078502021     -0.283898342046     -0.436017638282     
6400000000.0        -0.290390650424     -0.438835206607     0.708885350958      -0.468363501679     0.708885350958      -0.468363501679     -0.290390650424     -0.438835206607     
6500000000.0        -0.296868548077     -0.441533517474     0.702393026987      -0.471529500764     0.702393026987      -0.471529500764     -0.296868548077     -0.441533517474     
6600000000.0        -0.303329745223     -0.444114476096     0.695917174531      -0.474578407139     0.695917174531      -0.474578407139     -0.303329745223     -0.444114476096     
6700000000.0        -0.309772045988     -0.446580016165     0.689459988986      -0.477512157137     0.689459988986      -0.477512157137     -0.309772045988     -0.446580016165     
6800000000.0        -0.316193347237     -0.448932096005     0.683023573004      -0.48033271171      0.683023573004      -0.48033271171      -0.316193347237     -0.448932096005     
6900000000.0        -0.322591637286     -0.451172694876     0.676609937784      -0.483042052736     0.676609937784      -0.483042052736     -0.322591637286     -0.451172694876     
7000000000.0        -0.328964994502     -0.453303809434     0.670221004468      -0.485642179479     0.670221004468      -0.485642179479     -0.328964994502     -0.453303809434     
7100000000.0        -0.335311585798     -0.455327450342     0.663858605649      -0.488135105201     0.663858605649      -0.488135105201     -0.335311585798     -0.455327450342     
7200000000.0        -0.341629665037     -0.457245639038     0.657524486966      -0.490522853925     0.657524486966      -0.490522853925     -0.341629665037     -0.457245639038     
7300000000.0        -0.347917571357     -0.459060404654     0.651220308778      -0.492807457363     0.651220308778      -0.492807457363     -0.347917571357     -0.459060404654     
7400000000.0        -0.354173727421     -0.460773781085     0.644947647915      -0.494990951978     0.644947647915      -0.494990951978     -0.354173727421     -0.460773781085     
7500000000.0        -0.360396637604     -0.462387804208     0.638707999491      -0.49707537621      0.638707999491      -0.49707537621      -0.360396637604     -0.462387804208     
7600000000.0        -0.366584886129     -0.463904509254     0.632502778769      -0.49906276784      0.632502778769      -0.49906276784      -0.366584886129     -0.463904509254     
7700000000.0        -0.37273713515      -0.465325928317     0.626333323073      -0.500955161506     0.626333323073      -0.500955161506     -0.37273713515      -0.465325928317     
7800000000.0        -0.378852122808     -0.466654088007     0.62020089374       -0.502754586359     0.62020089374       -0.502754586359     -0.378852122808     -0.466654088007     
7900000000.0        -0.384928661243     -0.467891007252     0.614106678098      -0.504463063852     0.614106678098      -0.504463063852     -0.384928661243     -0.467891007252     
8000000000.0        -0.390965634596     -0.469038695218     0.608051791477      -0.506082605675     0.608051791477      -0.506082605675     -0.390965634596     -0.469038695218     
8100000000.0        -0.396961996979     -0.470099149377     0.602037279223      -0.507615211816     0.602037279223      -0.507615211816     -0.396961996979     -0.470099149377     
8200000000.0        -0.402916770449     -0.471074353695     0.596064118741      -0.509062868751     0.596064118741      -0.509062868751     -0.402916770449     -0.471074353695     
8300000000.0        -0.408829042963     -0.471966276948     0.590133221523      -0.510427547758     0.590133221523      -0.510427547758     -0.408829042963     -0.471966276948     
8400000000.0        -0.414697966343     -0.472776871157     0.584245435198      -0.511711203355     0.584245435198      -0.511711203355     -0.414697966343     -0.472776871157     
8500000000.0        -0.420522754241     -0.473508070139     0.578401545558      -0.512915771852     0.578401545558      -0.512915771852     -0.420522754241     -0.473508070139     
8600000000.0        -0.426302680111     -0.474161788173     0.572602278587      -0.514043170016     0.572602278587      -0.514043170016     -0.426302680111     -0.474161788173     
8700000000.0        -0.432037075203     -0.474739918773     0.566848302469      -0.51509529384      0.566848302469      -0.51509529384      -0.432037075203     -0.474739918773     
8800000000.0        -0.437725326564     -0.475244333563     0.561140229588      -0.516074017424     0.561140229588      -0.516074017424     -0.437725326564     -0.475244333563     
8900000000.0        -0.443366875066     -0.475676881252     0.555478618496      -0.516981191953     0.555478618496      -0.516981191953     -0.443366875066     -0.475676881252     
9000000000.0        -0.448961213459     -0.476039386709     0.549863975865      -0.517818644763     0.549863975865      -0.517818644763     -0.448961213459     -0.476039386709     
9100000000.0        -0.454507884442     -0.476333650125     0.544296758408      -0.518588178508     0.544296758408      -0.518588178508     -0.454507884442     -0.476333650125     
9200000000.0        -0.460006478778     -0.476561446262     0.538777374775      -0.519291570411     0.538777374775      -0.519291570411     -0.460006478778     -0.476561446262     
9300000000.0        -0.465456633424     -0.476724523787     0.533306187414      -0.519930571596     0.533306187414      -0.519930571596     -0.465456633424     -0.476724523787     
9400000000.0        -0.470858029706     -0.476824604685     0.527883514397      -0.520506906502     0.527883514397      -0.520506906502     -0.470858029706     -0.476824604685     
9500000000.0        -0.47621039153      -0.476863383744     0.522509631218      -0.52102227237      0.522509631218      -0.52102227237      -0.47621039153      -0.476863383744     
9600000000.0        -0.481513483616     -0.476842528119     0.517184772545      -0.521478338799     0.517184772545      -0.521478338799     -0.481513483616     -0.476842528119     
9700000000.0        -0.48676710979      -0.476763676951     0.511909133938      -0.521876747378     0.511909133938      -0.521876747378     -0.48676710979      -0.476763676951     
9800000000.0        -0.491971111299     -0.476628441062     0.506682873531      -0.522219111374     0.506682873531      -0.522219111374     -0.491971111299     -0.476628441062     
9900000000.0        -0.497125365175     -0.476438402705     0.501506113668      -0.522507015477     0.501506113668      -0.522507015477     -0.497125365175     -0.476438402705     
10000000000.0       -0.502229782636     -0.476195115367     0.4963789425        -0.522742015616     0.4963789425        -0.522742015616     -0.502229782636     -0.476195115367     
