# Hz S RI R 50.00 
100000000.0         -0.0111561993073    -0.104537393695     0.988823989387      -0.104618679213     0.988823989387      -0.104618679213     -0.0111561993073    -0.104537393695     
200000000.0         -0.0430016666185    -0.202302302362     0.956978376529      -0.20246490599      0.956978376529      -0.20246490599      -0.0430016666185    -0.202302302362     
300000000.0         -0.0916723283387    -0.287955359153     0.908307596559      -0.288199329949     0.908307596559      -0.288199329949     -0.0916723283387    -0.287955359153     
400000000.0         -0.151986866028     -0.358355463755     0.847992950886      -0.358680862927     0.847992950886      -0.358680862927     -0.151986866028     -0.358355463755     
500000000.0         -0.218635779372     -0.412624465427     0.781343933287      -0.413031363901     0.781343933287      -0.413031363901     -0.218635779372     -0.412624465427     
600000000.0         -0.287064105073     -0.451652273684     0.712915503736      -0.452140750367     0.712915503736      -0.452140750367     -0.287064105073     -0.451652273684     
700000000.0         -0.353883168866     -0.477391328839     0.646096334532      -0.477961469241     0.646096334532      -0.477961469241     -0.353883168866     -0.477391328839     
800000000.0         -0.41689283745      -0.492220237327     0.583086557699      -0.492872132413     0.583086557699      -0.492872132413     -0.41689283745      -0.492220237327     
900000000.0         -0.474885259262     -0.498501945892     0.525094023916      -0.499235691114     0.525094023916      -0.499235691114     -0.474885259262     -0.498501945892     
1000000000.0        -0.527378767587     -0.498340685001     0.472600399254      -0.499156379454     0.472600399254      -0.499156379454     -0.527378767587     -0.498340685001     
1100000000.0        -0.574369914847     -0.493486808498     0.4256091308        -0.494384554182     0.4256091308        -0.494384554182     -0.574369914847     -0.493486808498     
1200000000.0        -0.616138957062     -0.485331145193     0.383839962154      -0.48631104637      0.383839962154      -0.48631104637      -0.616138957062     -0.485331145193     
1300000000.0        -0.653112835515     -0.474943668355     0.346865951727      -0.476005830981     0.346865951727      -0.476005830981     -0.653112835515     -0.474943668355     
1400000000.0        -0.685776163157     -0.463127957969     0.314202486317      -0.464272489195     0.314202486317      -0.464272489195     -0.685776163157     -0.463127957969     
1500000000.0        -0.71461749938      -0.450476097738     0.285361006323      -0.451703105478     0.285361006323      -0.451703105478     -0.71461749938      -0.450476097738     
1600000000.0        -0.740099553545     -0.437417118935     0.259878802205      -0.438726711482     0.259878802205      -0.438726711482     -0.740099553545     -0.437417118935     
1700000000.0        -0.762644666388     -0.424256844272     0.237333533078      -0.425649129967     0.237333533078      -0.425649129967     -0.762644666388     -0.424256844272     
1800000000.0        -0.782629539492     -0.411209312054     0.217348497222      -0.412684399        0.217348497222      -0.412684399        -0.782629539492     -0.411209312054     
1900000000.0        -0.80038524787      -0.398420910488     0.199592619512      -0.399978906306     0.199592619512      -0.399978906306     -0.80038524787      -0.398420910488     
2000000000.0        -0.816200040902     -0.38598859416      0.183777650463      -0.387629605776     0.183777650463      -0.387629605776     -0.816200040902     -0.38598859416      
2100000000.0        -0.830323422203     -0.373973475234     0.169654086366      -0.375697608704     0.169654086366      -0.375697608704     -0.830323422203     -0.373973475234     
2200000000.0        -0.842970632261     -0.362410883978     0.157006686653      -0.364218244341     0.157006686653      -0.364218244341     -0.842970632261     -0.362410883978     
2300000000.0        -0.854327051953     -0.351317774558     0.14565007037       -0.353208465715     0.14565007037       -0.353208465715     -0.854327051953     -0.351317774558     
2400000000.0        -0.864552283415     -0.340698154018     0.135424635312      -0.342672278634     0.135424635312      -0.342672278634     -0.864552283415     -0.340698154018     
2500000000.0        -0.873783804504     -0.33054704838      0.126192903559      -0.332604707808     0.126192903559      -0.332604707808     -0.873783804504     -0.33054704838      
2600000000.0        -0.882140172002     -0.320853390392     0.117836318272      -0.322994684615     0.117836318272      -0.322994684615     -0.882140172002     -0.320853390392     
2700000000.0        -0.889723790692     -0.311602114302     0.110252474613      -0.313827141894     0.110252474613      -0.313827141894     -0.889723790692     -0.311602114302     
2800000000.0        -0.896623285742     -0.302775668383     0.103352747365      -0.30508452648      0.103352747365      -0.30508452648      -0.896623285742     -0.302775668383     
2900000000.0        -0.902915523589     -0.294355100352     0.0970602700427     -0.296747884641     0.0970602700427     -0.296747884641     -0.902915523589     -0.294355100352     
3000000000.0        -0.908667327381     -0.286320829801     0.0913082194563     -0.288797634515     0.0913082194563     -0.288797634515     -0.908667327381     -0.286320829801     
3100000000.0        -0.913936930383     -0.278653191447     0.0860383622983     -0.281214109378     0.0860383622983     -0.281214109378     -0.913936930383     -0.278653191447     
3200000000.0        -0.918775206452     -0.271332810878     0.0811998246724     -0.273977933386     0.0811998246724     -0.273977933386     -0.918775206452     -0.271332810878     
3300000000.0        -0.923226711877     -0.264340858078     0.0767480502552     -0.267070275119     0.0767480502552     -0.267070275119     -0.923226711877     -0.264340858078     
3400000000.0        -0.927330568129     -0.257659212108     0.0726439175383     -0.260473012264     0.0726439175383     -0.260473012264     -0.927330568129     -0.257659212108     
3500000000.0        -0.931121210725     -0.251270561488     0.0688529909727     -0.254168832        0.0688529909727     -0.254168832        -0.931121210725     -0.251270561488     
3600000000.0        -0.934629025458     -0.245158458344     0.0653448847341     -0.248141285151     0.0653448847341     -0.248141285151     -0.934629025458     -0.245158458344     
3700000000.0        -0.937880889913     -0.239307339642     0.0620927212057     -0.242374807426     0.0620927212057     -0.242374807426     -0.937880889913     -0.239307339642     
3800000000.0        -0.940900635276     -0.233702525286     0.0590726691742     -0.236854717515     0.0590726691742     -0.236854717515     -0.940900635276     -0.233702525286     
3900000000.0        -0.943709440981     -0.228330200276     0.0562635491756     -0.231567199256     0.0562635491756     -0.231567199256     -0.943709440981     -0.228330200276     
4000000000.0        -0.946326172722     -0.223177386188     0.0536464954907     -0.22649927311      0.0536464954907     -0.22649927311      -0.946326172722     -0.223177386188     
4100000000.0        -0.948767672585     -0.218231905821     0.0512046660055     -0.221638760814     0.0512046660055     -0.221638760814     -0.948767672585     -0.218231905821     
4200000000.0        -0.951049008675     -0.213482343798     0.0489229925913     -0.216974245982     0.0489229925913     -0.216974245982     -0.951049008675     -0.213482343798     
4300000000.0        -0.953183690362     -0.208918005134     0.0467879658515     -0.21249503267      0.0467879658515     -0.21249503267      -0.953183690362     -0.208918005134     
4400000000.0        -0.955183854334     -0.20452887319      0.0447874490757     -0.208191103337     0.0447874490757     -0.208191103337     -0.955183854334     -0.20452887319      
4500000000.0        -0.957060425757     -0.20030556803      0.0429105170725     -0.204053077196     0.0429105170725     -0.204053077196     -0.957060425757     -0.20030556803      
4600000000.0        -0.958823258217     -0.196239305853     0.0411473162348     -0.200072169649     0.0411473162348     -0.200072169649     -0.958823258217     -0.196239305853     
4700000000.0        -0.960481255483     -0.192321859969     0.0394889427702     -0.196240153262     0.0394889427702     -0.196240153262     -0.960481255483     -0.192321859969     
4800000000.0        -0.962042477708     -0.188545523588     0.0379273365035     -0.192549320552     0.0379273365035     -0.192549320552     -0.962042477708     -0.188545523588     
4900000000.0        -0.963514234245     -0.184903074602     0.0364551880593     -0.18899244877      0.0364551880593     -0.18899244877      -0.963514234245     -0.184903074602     
5000000000.0        -0.964903164945     -0.181387742414     0.0350658575649     -0.185562766729     0.0350658575649     -0.185562766729     -0.964903164945     -0.181387742414     
5100000000.0        -0.966215311512     -0.177993176842     0.0337533032968     -0.182253923705     0.0337533032968     -0.182253923705     -0.966215311512     -0.177993176842     
5200000000.0        -0.967456180253     -0.174713419048     0.0325120189241     -0.179059960369     0.0325120189241     -0.179059960369     -0.967456180253     -0.174713419048     
5300000000.0        -0.968630797392     -0.171542874437     0.0313369782043     -0.17597528168      0.0313369782043     -0.17597528168      -0.968630797392     -0.171542874437     
5400000000.0        -0.969743757894     -0.168476287437     0.0302235861497     -0.172994631667     0.0302235861497     -0.172994631667     -0.969743757894     -0.168476287437     
5500000000.0        -0.970799268674     -0.165508718071     0.0291676358257     -0.170113070001     0.0291676358257     -0.170113070001     -0.970799268674     -0.165508718071     
5600000000.0        -0.971801186884     -0.162635520209     0.0281652700602     -0.16732595024      0.0281652700602     -0.16732595024      -0.971801186884     -0.162635520209     
5700000000.0        -0.972753053912     -0.159852321404     0.0272129474421     -0.164628899671     0.0272129474421     -0.164628899671     -0.972753053912     -0.159852321404     
5800000000.0        -0.973658125634     -0.157155004202     0.0263074120777     -0.162017800616     0.0263074120777     -0.162017800616     -0.973658125634     -0.157155004202     
5900000000.0        -0.974519399354     -0.154539688833     0.0254456666397     -0.159488773117     0.0254456666397     -0.159488773117     -0.974519399354     -0.154539688833     
6000000000.0        -0.97533963787      -0.152002717172     0.0246249483117     -0.157038158905     0.0246249483117     -0.157038158905     -0.97533963787      -0.152002717172     
6100000000.0        -0.976121390974     -0.149540637892     0.0238427072811     -0.154662506542     0.0238427072811     -0.154662506542     -0.976121390974     -0.149540637892     
6200000000.0        -0.976867014712     -0.147150192705     0.0230965874789     -0.152358557671     0.0230965874789     -0.152358557671     -0.976867014712     -0.147150192705     
6300000000.0        -0.977578688666     -0.144828303626     0.0223844093047     -0.150123234268     0.0223844093047     -0.150123234268     -0.977578688666     -0.144828303626     
6400000000.0        -0.978258431464     -0.142572061164     0.0217041541086     -0.147953626843     0.0217041541086     -0.147953626843     -0.978258431464     -0.142572061164     
6500000000.0        -0.978908114744     -0.140378713389     0.0210539502308     -0.145846983493     0.0210539502308     -0.145846983493     -0.978908114744     -0.140378713389     
6600000000.0        -0.979529475735     -0.138245655782     0.020432060423      -0.143800699764     0.020432060423      -0.143800699764     -0.979529475735     -0.138245655782     
6700000000.0        -0.9801241286       -0.136170421834     0.0198368704998     -0.141812309241     0.0198368704998     -0.141812309241     -0.9801241286       -0.136170421834     
6800000000.0        -0.980693574694     -0.134150674317     0.0192668790852     -0.139879474819     0.0192668790852     -0.139879474819     -0.980693574694     -0.134150674317     
6900000000.0        -0.981239211839     -0.132184197181     0.0187206883352     -0.137999980602     0.0187206883352     -0.137999980602     -0.981239211839     -0.132184197181     
7000000000.0        -0.98176234273      -0.130268888034     0.018196995534      -0.136171724376     0.018196995534      -0.136171724376     -0.98176234273      -0.130268888034     
7100000000.0        -0.982264182555     -0.128402751143     0.0176945854698     -0.134392710617     0.0176945854698     -0.134392710617     -0.982264182555     -0.128402751143     
7200000000.0        -0.982745865926     -0.12658389094      0.017212323511      -0.132661043991     0.017212323511      -0.132661043991     -0.982745865926     -0.12658389094      
7300000000.0        -0.983208453167     -0.124810505972     0.0167491493087     -0.130974923303     0.0167491493087     -0.130974923303     -0.983208453167     -0.124810505972     
7400000000.0        -0.983652936056     -0.123080883275     0.0163040710641     -0.12933263587      0.0163040710641     -0.12933263587      -0.983652936056     -0.123080883275     
7500000000.0        -0.984080243045     -0.121393393129     0.0158761603018     -0.12773255228      0.0158761603018     -0.12773255228      -0.984080243045     -0.121393393129     
7600000000.0        -0.984491244031     -0.119746484177     0.015464547101      -0.126173121505     0.015464547101      -0.126173121505     -0.984491244031     -0.119746484177     
7700000000.0        -0.984886754717     -0.118138678873     0.0150684157373     -0.124652866348     0.0150684157373     -0.124652866348     -0.984886754717     -0.118138678873     
7800000000.0        -0.985267540591     -0.116568569226     0.0146870006978     -0.123170379191     0.0146870006978     -0.123170379191     -0.985267540591     -0.116568569226     
7900000000.0        -0.98563432058      -0.115034812845     0.0143195830313     -0.121724318033     0.0143195830313     -0.121724318033     -0.98563432058      -0.115034812845     
8000000000.0        -0.985987770395     -0.113536129226     0.0139654870039     -0.120313402782     0.0139654870039     -0.120313402782     -0.985987770395     -0.113536129226     
8100000000.0        -0.986328525597     -0.112071296295     0.0136240770296     -0.118936411796     0.0136240770296     -0.118936411796     -0.986328525597     -0.112071296295     
8200000000.0        -0.986657184418     -0.11063914717      0.013294754852      -0.11759217864      0.013294754852      -0.11759217864      -0.986657184418     -0.11063914717      
8300000000.0        -0.986974310352     -0.109238567131     0.0129769569525     -0.116279589063     0.0129769569525     -0.116279589063     -0.986974310352     -0.109238567131     
8400000000.0        -0.987280434538     -0.107868490788     0.0126701521657     -0.114997578156     0.0126701521657     -0.114997578156     -0.987280434538     -0.107868490788     
8500000000.0        -0.987576057961     -0.106527899421     0.0123738394829     -0.113745127701     0.0123738394829     -0.113745127701     -0.987576057961     -0.106527899421     
8600000000.0        -0.987861653471     -0.10521581849      0.0120875460269     -0.112521263674     0.0120875460269     -0.112521263674     -0.987861653471     -0.10521581849      
8700000000.0        -0.988137667657     -0.103931315303     0.0118108251831     -0.111325053916     0.0118108251831     -0.111325053916     -0.988137667657     -0.103931315303     
8800000000.0        -0.988404522571     -0.102673496825     0.0115432548739     -0.110155605939     0.0115432548739     -0.110155605939     -0.988404522571     -0.102673496825     
8900000000.0        -0.988662617321     -0.101441507618     0.0112844359624     -0.109012064864     0.0112844359624     -0.109012064864     -0.988662617321     -0.101441507618     
9000000000.0        -0.988912329554     -0.100234527911     0.0110339907772     -0.107893611498     0.0110339907772     -0.107893611498     -0.988912329554     -0.100234527911     
9100000000.0        -0.989154016814     -0.0990517717801    0.0107915617446     -0.106799460508     0.0107915617446     -0.106799460508     -0.989154016814     -0.0990517717801    
9200000000.0        -0.989388017816     -0.0978924854467    0.0105568101226     -0.105728858716     0.0105568101226     -0.105728858716     -0.989388017816     -0.0978924854467    
9300000000.0        -0.989614653618     -0.0967559456643    0.0103294148259     -0.104681083492     0.0103294148259     -0.104681083492     -0.989614653618     -0.0967559456643    
9400000000.0        -0.989834228711     -0.0956414582078    0.0101090713354     -0.103655441239     0.0101090713354     -0.103655441239     -0.989834228711     -0.0956414582078    
9500000000.0        -0.99004703203      -0.094548356448     0.00989549068547    -0.102651265969     0.00989549068547    -0.102651265969     -0.99004703203      -0.094548356448     
9600000000.0        -0.990253337901     -0.0934760000079    0.00968839852256    -0.101667917956     0.00968839852256    -0.101667917956     -0.990253337901     -0.0934760000079    
9700000000.0        -0.990453406911     -0.0924237734966    0.0094875342291     -0.100704782475     0.0094875342291     -0.100704782475     -0.990453406911     -0.0924237734966    
9800000000.0        -0.990647486728     -0.0913910853139    0.00929265010828    -0.0997612685994    0.00929265010828    -0.0997612685994    -0.990647486728     -0.0913910853139    
9900000000.0        -0.990835812857     -0.0903773665231    0.00910351062444    -0.0988368080791    0.00910351062444    -0.0988368080791    -0.990835812857     -0.0903773665231    
10000000000.0       -0.99101860935      -0.0893820697853    0.00891989169496    -0.0979308542717    0.00891989169496    -0.0979308542717    -0.99101860935      -0.0893820697853    
