# Hz S RI R 50.00 
100000000.0         0.00343247131361    0.00116276325322    0.996556603169      -0.00476919618272   0.996556603169      -0.00476919618272   0.00343247131361    0.00116276325322    
200000000.0         0.00347035317262    0.0023251496325     0.996495773691      -0.00953803078989   0.996495773691      -0.00953803078989   0.00347035317262    0.0023251496325     
300000000.0         0.00351336836391    0.00348715346459    0.996416787434      -0.0143065030031    0.996416787434      -0.0143065030031    0.00351336836391    0.00348715346459    
400000000.0         0.00356447957455    0.00464869944923    0.996316679972      -0.0190745337986    0.996316679972      -0.0190745337986    0.00356447957455    0.00464869944923    
500000000.0         0.0036248241292     0.00580969657122    0.996194311895      -0.023842024068     0.996194311895      -0.023842024068     0.0036248241292     0.00580969657122    
600000000.0         0.00369497858863    0.00697004708928    0.996049104245      -0.028608865088     0.996049104245      -0.028608865088     0.00369497858863    0.00697004708928    
700000000.0         0.00377528011502    0.00812964973212    0.995880717173      -0.033374942474     0.995880717173      -0.033374942474     0.00377528011502    0.00812964973212    
800000000.0         0.00386594371982    0.00928840116753    0.995688932718      -0.0381401381037    0.995688932718      -0.0381401381037    0.00386594371982    0.00928840116753    
900000000.0         0.00396711445025    0.0104461967855     0.995473602637      -0.0429043311991    0.995473602637      -0.0429043311991    0.00396711445025    0.0104461967855     
1000000000.0        0.00407889383239    0.0116029311596     0.995234621976      -0.0476673989997    0.995234621976      -0.0476673989997    0.00407889383239    0.0116029311596     
1100000000.0        0.00420135456565    0.0127584983385     0.994971914391      -0.0524292172097    0.994971914391      -0.0524292172097    0.00420135456565    0.0127584983385     
1200000000.0        0.00433454927616    0.0139127920424     0.994685423401      -0.057189660313     0.994685423401      -0.057189660313     0.00433454927616    0.0139127920424     
1300000000.0        0.0044785160225     0.0150657058002     0.994375106901      -0.0619486018049    0.994375106901      -0.0619486018049    0.0044785160225     0.0150657058002     
1400000000.0        0.00463328191397    0.0162171330495     0.994040933547      -0.0667059143674    0.994040933547      -0.0667059143674    0.00463328191397    0.0162171330495     
1500000000.0        0.00479886557592    0.0173669672128     0.993682880299      -0.0714614700072    0.993682880299      -0.0714614700072    0.00479886557592    0.0173669672128     
1600000000.0        0.00497527888135    0.0185151017561     0.993300930703      -0.076215140166     0.993300930703      -0.076215140166     0.00497527888135    0.0185151017561     
1700000000.0        0.00516252819912    0.0196614302359     0.992895073644      -0.0809667958111    0.992895073644      -0.0809667958111    0.00516252819912    0.0196614302359     
1800000000.0        0.00536061531401    0.0208058463377     0.992465302434      -0.0857163075113    0.992465302434      -0.0857163075113    0.00536061531401    0.0208058463377     
1900000000.0        0.00556953811845    0.0219482439084     0.99201161413       -0.0904635455015    0.99201161413       -0.0904635455015    0.00556953811845    0.0219482439084     
2000000000.0        0.00578929114156    0.0230885169837     0.991534009007      -0.0952083797377    0.991534009007      -0.0952083797377    0.00578929114156    0.0230885169837     
2100000000.0        0.00601986596019    0.024226559812      0.991032490153      -0.099950679946     0.991032490153      -0.099950679946     0.00601986596019    0.024226559812      
2200000000.0        0.00626125152272    0.0253622668755     0.990507063154      -0.104690315665     0.990507063154      -0.104690315665     0.00626125152272    0.0253622668755     
2300000000.0        0.00651343440734    0.0264955329098     0.989957735836      -0.109427156286     0.989957735836      -0.109427156286     0.00651343440734    0.0264955329098     
2400000000.0        0.00677639903059    0.0276262529202     0.989384518063      -0.114161071084     0.989384518063      -0.114161071084     0.00677639903059    0.0276262529202     
2500000000.0        0.00705012781747    0.0287543221987     0.988787421571      -0.118891929252     0.988787421571      -0.118891929252     0.00705012781747    0.0287543221987     
2600000000.0        0.00733460134158    0.0298796363382     0.988166459836      -0.123619599931     0.988166459836      -0.123619599931     0.00733460134158    0.0298796363382     
2700000000.0        0.00762979844172    0.0310020912465     0.987521647953      -0.128343952231     0.987521647953      -0.128343952231     0.00762979844172    0.0310020912465     
2800000000.0        0.00793569631976    0.03212158316       0.986853002551      -0.133064855264     0.986853002551      -0.133064855264     0.00793569631976    0.03212158316       
2900000000.0        0.00825227062339    0.0332380086555     0.986160541707      -0.137782178159     0.986160541707      -0.137782178159     0.00825227062339    0.0332380086555     
3000000000.0        0.00857949551677    0.034351264663      0.985444284885      -0.142495790089     0.985444284885      -0.142495790089     0.00857949551677    0.034351264663      
3100000000.0        0.00891734374123    0.0354612484769     0.984704252872      -0.147205560291     0.984704252872      -0.147205560291     0.00891734374123    0.0354612484769     
3200000000.0        0.00926578666784    0.0365678577672     0.983940467736      -0.151911358081     0.983940467736      -0.151911358081     0.00926578666784    0.0365678577672     
3300000000.0        0.0096247943433     0.037670990591      0.983152952776      -0.15661305288      0.983152952776      -0.15661305288      0.0096247943433     0.037670990591      
3400000000.0        0.0099943355302     0.0387705454024     0.982341732491      -0.161310514224     0.982341732491      -0.161310514224     0.0099943355302     0.0387705454024     
3500000000.0        0.0103743777427     0.0398664210633     0.981506832544      -0.166003611785     0.981506832544      -0.166003611785     0.0103743777427     0.0398664210633     
3600000000.0        0.0107648872782     0.0409585168538     0.980648279732      -0.170692215388     0.980648279732      -0.170692215388     0.0107648872782     0.0409585168538     
3700000000.0        0.0111658292459     0.0420467324815     0.979766101965      -0.175376195023     0.979766101965      -0.175376195023     0.0111658292459     0.0420467324815     
3800000000.0        0.0115771675924     0.0431309680921     0.978860328238      -0.180055420864     0.978860328238      -0.180055420864     0.0115771675924     0.0431309680921     
3900000000.0        0.011998865125      0.0442111242787     0.977930988613      -0.184729763278     0.977930988613      -0.184729763278     0.011998865125      0.0442111242787     
4000000000.0        0.0124308835331     0.0452871020911     0.9769781142        -0.189399092847     0.9769781142        -0.189399092847     0.0124308835331     0.0452871020911     
4100000000.0        0.0128731834076     0.0463588030456     0.976001737138      -0.194063280374     0.976001737138      -0.194063280374     0.0128731834076     0.0463588030456     
4200000000.0        0.0133257242591     0.0474261291342     0.975001890583      -0.1987221969       0.975001890583      -0.1987221969       0.0133257242591     0.0474261291342     
4300000000.0        0.0137884645348     0.0484889828332     0.973978608689      -0.203375713716     0.973978608689      -0.203375713716     0.0137884645348     0.0484889828332     
4400000000.0        0.0142613616342     0.0495472671131     0.972931926598      -0.208023702377     0.972931926598      -0.208023702377     0.0142613616342     0.0495472671131     
4500000000.0        0.0147443719236     0.0506008854467     0.971861880425      -0.21266603471      0.971861880425      -0.21266603471      0.0147443719236     0.0506008854467     
4600000000.0        0.0152374507506     0.0516497418184     0.970768507249      -0.217302582832     0.970768507249      -0.217302582832     0.0152374507506     0.0516497418184     
4700000000.0        0.0157405524568     0.052693740733      0.969651845098      -0.221933219156     0.969651845098      -0.221933219156     0.0157405524568     0.052693740733      
4800000000.0        0.0162536303909     0.0537327872237     0.968511932943      -0.226557816405     0.968511932943      -0.226557816405     0.0162536303909     0.0537327872237     
4900000000.0        0.0167766369204     0.0547667868615     0.967348810683      -0.231176247624     0.967348810683      -0.231176247624     0.0167766369204     0.0547667868615     
5000000000.0        0.0173095234437     0.0557956457629     0.966162519138      -0.235788386187     0.966162519138      -0.235788386187     0.0173095234437     0.0557956457629     
5100000000.0        0.0178522404008     0.0568192705986     0.964953100042      -0.240394105812     0.964953100042      -0.240394105812     0.0178522404008     0.0568192705986     
5200000000.0        0.0184047372847     0.0578375686017     0.963720596028      -0.244993280569     0.963720596028      -0.244993280569     0.0184047372847     0.0578375686017     
5300000000.0        0.0189669626515     0.0588504475761     0.962465050624      -0.24958578489      0.962465050624      -0.24958578489      0.0189669626515     0.0588504475761     
5400000000.0        0.0195388641311     0.0598578159039     0.961186508244      -0.25417149358      0.961186508244      -0.25417149358      0.0195388641311     0.0598578159039     
5500000000.0        0.020120388437      0.0608595825544     0.959885014176      -0.258750281827     0.959885014176      -0.258750281827     0.020120388437      0.0608595825544     
5600000000.0        0.0207114813763     0.061855657091      0.958560614579      -0.263322025209     0.958560614579      -0.263322025209     0.0207114813763     0.061855657091      
5700000000.0        0.0213120878594     0.0628459496799     0.957213356472      -0.267886599708     0.957213356472      -0.267886599708     0.0213120878594     0.0628459496799     
5800000000.0        0.0219221519094     0.063830371097      0.955843287727      -0.272443881713     0.955843287727      -0.272443881713     0.0219221519094     0.063830371097      
5900000000.0        0.0225416166716     0.0648088327363     0.954450457059      -0.276993748035     0.954450457059      -0.276993748035     0.0225416166716     0.0648088327363     
6000000000.0        0.0231704244231     0.065781246617      0.953034914022      -0.281536075912     0.953034914022      -0.281536075912     0.0231704244231     0.065781246617      
6100000000.0        0.0238085165814     0.0667475253912     0.951596709         -0.286070743021     0.951596709         -0.286070743021     0.0238085165814     0.0667475253912     
6200000000.0        0.024455833714      0.0677075823512     0.950135893196      -0.290597627481     0.950135893196      -0.290597627481     0.024455833714      0.0677075823512     
6300000000.0        0.0251123155473     0.0686613314367     0.948652518631      -0.295116607868     0.948652518631      -0.295116607868     0.0251123155473     0.0686613314367     
6400000000.0        0.0257779009755     0.0696086872422     0.947146638131      -0.299627563218     0.947146638131      -0.299627563218     0.0257779009755     0.0696086872422     
6500000000.0        0.0264525280697     0.0705495650239     0.945618305321      -0.304130373038     0.945618305321      -0.304130373038     0.0264525280697     0.0705495650239     
6600000000.0        0.0271361340868     0.0714838807071     0.944067574618      -0.308624917314     0.944067574618      -0.308624917314     0.0271361340868     0.0714838807071     
6700000000.0        0.0278286554783     0.0724115508926     0.942494501226      -0.313111076516     0.942494501226      -0.313111076516     0.0278286554783     0.0724115508926     
6800000000.0        0.028530027899      0.0733324928641     0.940899141123      -0.317588731607     0.940899141123      -0.317588731607     0.028530027899      0.0733324928641     
6900000000.0        0.0292401862162     0.0742466245946     0.939281551057      -0.322057764052     0.939281551057      -0.322057764052     0.0292401862162     0.0742466245946     
7000000000.0        0.0299590645184     0.0751538647531     0.937641788541      -0.326518055825     0.937641788541      -0.326518055825     0.0299590645184     0.0751538647531     
7100000000.0        0.0306865961237     0.0760541327112     0.93597991184       -0.330969489412     0.93597991184       -0.330969489412     0.0306865961237     0.0760541327112     
7200000000.0        0.0314227135892     0.0769473485499     0.934295979967      -0.335411947824     0.934295979967      -0.335411947824     0.0314227135892     0.0769473485499     
7300000000.0        0.0321673487194     0.0778334330655     0.932590052676      -0.339845314601     0.932590052676      -0.339845314601     0.0321673487194     0.0778334330655     
7400000000.0        0.0329204325753     0.0787123077759     0.93086219045       -0.344269473817     0.93086219045       -0.344269473817     0.0329204325753     0.0787123077759     
7500000000.0        0.0336818954829     0.0795838949274     0.929112454501      -0.348684310089     0.929112454501      -0.348684310089     0.0336818954829     0.0795838949274     
7600000000.0        0.0344516670421     0.0804481175        0.927340906756      -0.353089708585     0.927340906756      -0.353089708585     0.0344516670421     0.0804481175        
7700000000.0        0.0352296761358     0.081304899214      0.925547609852      -0.357485555026     0.925547609852      -0.357485555026     0.0352296761358     0.081304899214      
7800000000.0        0.0360158509382     0.0821541645358     0.923732627129      -0.361871735695     0.923732627129      -0.361871735695     0.0360158509382     0.0821541645358     
7900000000.0        0.0368101189244     0.0829958386832     0.92189602262       -0.366248137442     0.92189602262       -0.366248137442     0.0368101189244     0.0829958386832     
8000000000.0        0.0376124068783     0.083829847632      0.920037861048      -0.370614647692     0.920037861048      -0.370614647692     0.0376124068783     0.083829847632      
8100000000.0        0.0384226409024     0.0846561181209     0.918158207811      -0.374971154448     0.918158207811      -0.374971154448     0.0384226409024     0.0846561181209     
8200000000.0        0.0392407464261     0.0854745776571     0.916257128982      -0.379317546298     0.916257128982      -0.379317546298     0.0392407464261     0.0854745776571     
8300000000.0        0.0400666482147     0.0862851545223     0.914334691297      -0.383653712421     0.914334691297      -0.383653712421     0.0400666482147     0.0862851545223     
8400000000.0        0.0409002703787     0.0870877777772     0.912390962149      -0.38797954259      0.912390962149      -0.38797954259      0.0409002703787     0.0870877777772     
8500000000.0        0.0417415363821     0.0878823772674     0.910426009579      -0.392294927182     0.910426009579      -0.392294927182     0.0417415363821     0.0878823772674     
8600000000.0        0.0425903690519     0.088668883628      0.908439902268      -0.396599757179     0.908439902268      -0.396599757179     0.0425903690519     0.088668883628      
8700000000.0        0.0434466905866     0.0894472282891     0.906432709531      -0.400893924172     0.906432709531      -0.400893924172     0.0434466905866     0.0894472282891     
8800000000.0        0.0443104225659     0.0902173434803     0.904404501308      -0.405177320373     0.904404501308      -0.405177320373     0.0443104225659     0.0902173434803     
8900000000.0        0.0451814859587     0.0909791622358     0.902355348157      -0.40944983861      0.902355348157      -0.40944983861      0.0451814859587     0.0909791622358     
9000000000.0        0.046059801133      0.0917326183991     0.900285321244      -0.41371137234      0.900285321244      -0.41371137234      0.046059801133      0.0917326183991     
9100000000.0        0.0469452878644     0.0924776466274     0.898194492339      -0.417961815649     0.898194492339      -0.417961815649     0.0469452878644     0.0924776466274     
9200000000.0        0.0478378653456     0.0932141823965     0.896082933804      -0.422201063257     0.896082933804      -0.422201063257     0.0478378653456     0.0932141823965     
9300000000.0        0.0487374521949     0.0939421620048     0.893950718588      -0.426429010523     0.893950718588      -0.426429010523     0.0487374521949     0.0939421620048     
9400000000.0        0.0496439664656     0.0946615225778     0.891797920216      -0.43064555345      0.891797920216      -0.43064555345      0.0496439664656     0.0946615225778     
9500000000.0        0.0505573256552     0.0953722020726     0.889624612786      -0.434850588686     0.889624612786      -0.434850588686     0.0505573256552     0.0953722020726     
9600000000.0        0.0514774467143     0.0960741392816     0.887430870957      -0.439044013532     0.887430870957      -0.439044013532     0.0514774467143     0.0960741392816     
9700000000.0        0.0524042460557     0.0967672738365     0.88521676994       -0.443225725943     0.88521676994       -0.443225725943     0.0524042460557     0.0967672738365     
9800000000.0        0.0533376395637     0.0974515462126     0.882982385494      -0.447395624531     0.882982385494      -0.447395624531     0.0533376395637     0.0974515462126     
9900000000.0        0.0542775426031     0.0981268977324     0.880727793918      -0.45155360857      0.880727793918      -0.45155360857      0.0542775426031     0.0981268977324     
10000000000.0       0.0552238700283     0.0987932705692     0.878453072039      -0.455699578002     0.878453072039      -0.455699578002     0.0552238700283     0.0987932705692     
