# Hz S RI R 50.00 
100000000.0         0.0230037444993     0.00282474885274    0.976993706311      -0.00388855540098   0.976993706311      -0.00388855540098   0.0230037444993     0.00282474885274    
200000000.0         0.0231856738734     0.00564723448043    0.97680908703       -0.00777485544662   0.97680908703       -0.00777485544662   0.0231856738734     0.00564723448043    
300000000.0         0.0233500142746     0.00846806187277    0.976640915835      -0.0116595112966    0.976640915835      -0.0116595112966    0.0233500142746     0.00846806187277    
400000000.0         0.0235163469977     0.0112872959443     0.976469611269      -0.0155425931197    0.976469611269      -0.0155425931197    0.0235163469977     0.0112872959443     
500000000.0         0.0236922147972     0.0141048761998     0.976287630407      -0.0194240452142    0.976287630407      -0.0194240452142    0.0236922147972     0.0141048761998     
600000000.0         0.0238814603895     0.0169206867801     0.976091130348      -0.0233037562135    0.976091130348      -0.0233037562135    0.0238814603895     0.0169206867801     
700000000.0         0.0240863474848     0.0197345816339     0.975877847185      -0.0271815843395    0.975877847185      -0.0271815843395    0.0240863474848     0.0197345816339     
800000000.0         0.0243083353089     0.0225463962084     0.975646321475      -0.0310573691418    0.975646321475      -0.0310573691418    0.0243083353089     0.0225463962084     
900000000.0         0.0245484236289     0.0253559537423     0.97539555322       -0.034930937823     0.97539555322       -0.034930937823     0.0245484236289     0.0253559537423     
1000000000.0        0.0248073277206     0.028163069007      0.975124826897      -0.0388021090021    0.975124826897      -0.0388021090021    0.0248073277206     0.028163069007      
1100000000.0        0.0250855756754     0.0309675506943     0.974833614148      -0.042670695119     0.974833614148      -0.042670695119     0.0250855756754     0.0309675506943     
1200000000.0        0.0253835664089     0.033769203029      0.974521515775      -0.0465365040601    0.974521515775      -0.0465365040601    0.0253835664089     0.033769203029      
1300000000.0        0.0257016061747     0.0365678269057     0.974188225224      -0.0503993403045    0.974188225224      -0.0503993403045    0.0257016061747     0.0365678269057     
1400000000.0        0.0260399325764     0.0393632207207     0.973833504576      -0.0542590057646    0.973833504576      -0.0542590057646    0.0260399325764     0.0393632207207     
1500000000.0        0.0263987309401     0.0421551810003     0.973457168171      -0.0581153004202    0.973457168171      -0.0581153004202    0.0263987309401     0.0421551810003     
1600000000.0        0.0267781458203     0.0449435028872     0.973059071104      -0.0619680228112    0.973059071104      -0.0619680228112    0.0267781458203     0.0449435028872     
1700000000.0        0.0271782892987     0.0477279805266     0.972639100925      -0.0658169704282    0.972639100925      -0.0658169704282    0.0271782892987     0.0477279805266     
1800000000.0        0.0275992471045     0.0505084073801     0.972197171522      -0.0696619400294    0.972197171522      -0.0696619400294    0.0275992471045     0.0505084073801     
1900000000.0        0.028041083217      0.0532845764832     0.971733218513      -0.0735027279031    0.971733218513      -0.0735027279031    0.028041083217      0.0532845764832     
2000000000.0        0.0285038433879     0.0560562806634     0.971247195731      -0.0773391300876    0.971247195731      -0.0773391300876    0.0285038433879     0.0560562806634     
2100000000.0        0.0289875578776     0.0588233127248     0.97073907248       -0.0811709425588    0.97073907248       -0.0811709425588    0.0289875578776     0.0588233127248     
2200000000.0        0.0294922436115     0.0615854656087     0.970208831386      -0.0849979613934    0.970208831386      -0.0849979613934    0.0294922436115     0.0615854656087     
2300000000.0        0.0300179059002     0.0643425325338     0.96965646667       -0.0888199829108    0.96965646667       -0.0888199829108    0.0300179059002     0.0643425325338     
2400000000.0        0.0305645398277     0.0670943071206     0.969081982766      -0.0926368037996    0.969081982766      -0.0926368037996    0.0305645398277     0.0670943071206     
2500000000.0        0.0311321313836     0.0698405835032     0.968485393185      -0.0964482212306    0.968485393185      -0.0964482212306    0.0311321313836     0.0698405835032     
2600000000.0        0.0317206583959     0.0725811564292     0.967866719585      -0.100254032959     0.967866719585      -0.100254032959     0.0317206583959     0.0725811564292     
2700000000.0        0.0323300913061     0.0753158213524     0.967225990991      -0.104054037419     0.967225990991      -0.104054037419     0.0323300913061     0.0753158213524     
2800000000.0        0.0329603938192     0.0780443745166     0.966563243154      -0.107848033805     0.966563243154      -0.107848033805     0.0329603938192     0.0780443745166     
2900000000.0        0.0336115234532     0.0807666130338     0.96587851799       -0.111635822158     0.96587851799       -0.111635822158     0.0336115234532     0.0807666130338     
3000000000.0        0.0342834320073     0.0834823349567     0.965171863123      -0.115417203432     0.965171863123      -0.115417203432     0.0342834320073     0.0834823349567     
3100000000.0        0.0349760659637     0.0861913393469     0.964443331475      -0.119191979567     0.964443331475      -0.119191979567     0.0349760659637     0.0861913393469     
3200000000.0        0.0356893668346     0.0888934263384     0.963692980925      -0.122959953553     0.963692980925      -0.122959953553     0.0356893668346     0.0888934263384     
3300000000.0        0.0364232714651     0.0915883971982     0.962920874001      -0.126720929492     0.962920874001      -0.126720929492     0.0364232714651     0.0915883971982     
3400000000.0        0.0371777122978     0.0942760543831     0.962127077619      -0.130474712654     0.962127077619      -0.130474712654     0.0371777122978     0.0942760543831     
3500000000.0        0.0379526176069     0.0969562015945     0.961311662849      -0.134221109531     0.961311662849      -0.134221109531     0.0379526176069     0.0969562015945     
3600000000.0        0.0387479117056     0.0996286438294     0.960474704705      -0.137959927896     0.960474704705      -0.137959927896     0.0387479117056     0.0996286438294     
3700000000.0        0.0395635151316     0.102293187431      0.959616281961      -0.141690976844     0.959616281961      -0.141690976844     0.0395635151316     0.102293187431      
3800000000.0        0.0403993448139     0.104949640134      0.958736476986      -0.145414066848     0.958736476986      -0.145414066848     0.0403993448139     0.104949640134      
3900000000.0        0.0412553142235     0.107597811113      0.957835375591      -0.149129009798     0.957835375591      -0.149129009798     0.0412553142235     0.107597811113      
4000000000.0        0.0421313335107     0.110237511025      0.956913066891      -0.152835619052     0.956913066891      -0.152835619052     0.0421313335107     0.110237511025      
4100000000.0        0.0430273096304     0.112868552047      0.955969643183      -0.156533709473     0.955969643183      -0.156533709473     0.0430273096304     0.112868552047      
4200000000.0        0.0439431464578     0.115490747926      0.955005199827      -0.160223097474     0.955005199827      -0.160223097474     0.0439431464578     0.115490747926      
4300000000.0        0.0448787448952     0.118103914007      0.954019835144      -0.163903601053     0.954019835144      -0.163903601053     0.0448787448952     0.118103914007      
4400000000.0        0.0458340029707     0.12070786728       0.953013650311      -0.167575039835     0.953013650311      -0.167575039835     0.0458340029707     0.12070786728       
4500000000.0        0.0468088159319     0.123302426409      0.95198674927       -0.171237235107     0.95198674927       -0.171237235107     0.0468088159319     0.123302426409      
4600000000.0        0.0478030763324     0.125887411772      0.950939238646      -0.174890009854     0.950939238646      -0.174890009854     0.0478030763324     0.125887411772      
4700000000.0        0.048816674114      0.128462645491      0.949871227656      -0.178533188791     0.949871227656      -0.178533188791     0.048816674114      0.128462645491      
4800000000.0        0.0498494966848     0.131027951469      0.948782828039      -0.182166598399     0.948782828039      -0.182166598399     0.0498494966848     0.131027951469      
4900000000.0        0.0509014289931     0.133583155417      0.947674153978      -0.185790066954     0.947674153978      -0.185790066954     0.0509014289931     0.133583155417      
5000000000.0        0.0519723535982     0.136128084885      0.94654532203       -0.18940342456      0.94654532203       -0.18940342456      0.0519723535982     0.136128084885      
5100000000.0        0.053062150738      0.138662569295      0.94539645106       -0.193006503178     0.94539645106       -0.193006503178     0.053062150738      0.138662569295      
5200000000.0        0.0541706983943     0.141186439963      0.944227662172      -0.196599136653     0.944227662172      -0.196599136653     0.0541706983943     0.141186439963      
5300000000.0        0.0552978723559     0.143699530135      0.943039078649      -0.200181160742     0.943039078649      -0.200181160742     0.0552978723559     0.143699530135      
5400000000.0        0.056443546279      0.146201675002      0.941830825893      -0.203752413141     0.941830825893      -0.203752413141     0.056443546279      0.146201675002      
5500000000.0        0.0576075917468     0.148692711736      0.940603031363      -0.207312733513     0.940603031363      -0.207312733513     0.0576075917468     0.148692711736      
5600000000.0        0.0587898783263     0.151172479506      0.93935582452       -0.210861963507     0.93935582452       -0.210861963507     0.0587898783263     0.151172479506      
5700000000.0        0.059990273625      0.153640819506      0.938089336771      -0.214399946784     0.938089336771      -0.214399946784     0.059990273625      0.153640819506      
5800000000.0        0.0612086433449     0.156097574976      0.936803701412      -0.217926529044     0.936803701412      -0.217926529044     0.0612086433449     0.156097574976      
5900000000.0        0.0624448513367     0.158542591224      0.935499053577      -0.221441558038     0.935499053577      -0.221441558038     0.0624448513367     0.158542591224      
6000000000.0        0.0636987596517     0.160975715643      0.934175530184      -0.2249448836       0.934175530184      -0.2249448836       0.0636987596517     0.160975715643      
6100000000.0        0.0649702285936     0.163396797737      0.932833269883      -0.228436357655     0.932833269883      -0.228436357655     0.0649702285936     0.163396797737      
6200000000.0        0.0662591167694     0.165805689133      0.93147241301       -0.23191583425      0.93147241301       -0.23191583425      0.0662591167694     0.165805689133      
6300000000.0        0.0675652811388     0.168202243604      0.93009310153       -0.235383169562     0.93009310153       -0.235383169562     0.0675652811388     0.168202243604      
6400000000.0        0.0688885770639     0.170586317082      0.928695478992      -0.238838221919     0.928695478992      -0.238838221919     0.0688885770639     0.170586317082      
6500000000.0        0.0702288583573     0.172957767678      0.927279690481      -0.242280851819     0.927279690481      -0.242280851819     0.0702288583573     0.172957767678      
6600000000.0        0.0715859773304     0.175316455692      0.925845882567      -0.24571092194      0.925845882567      -0.24571092194      0.0715859773304     0.175316455692      
6700000000.0        0.0729597848402     0.177662243633      0.924394203263      -0.249128297159     0.924394203263      -0.249128297159     0.0729597848402     0.177662243633      
6800000000.0        0.0743501303368     0.179994996228      0.922924801971      -0.252532844561     0.922924801971      -0.252532844561     0.0743501303368     0.179994996228      
6900000000.0        0.0757568619092     0.182314580438      0.921437829441      -0.255924433458     0.921437829441      -0.255924433458     0.0757568619092     0.182314580438      
7000000000.0        0.0771798263316     0.184620865465      0.919933437725      -0.259302935396     0.919933437725      -0.259302935396     0.0771798263316     0.184620865465      
7100000000.0        0.0786188691082     0.186913722771      0.918411780127      -0.262668224166     0.918411780127      -0.262668224166     0.0786188691082     0.186913722771      
7200000000.0        0.0800738345189     0.189193026078      0.916873011164      -0.266020175819     0.916873011164      -0.266020175819     0.0800738345189     0.189193026078      
7300000000.0        0.0815445656636     0.191458651388      0.915317286517      -0.26935866867      0.915317286517      -0.26935866867      0.0815445656636     0.191458651388      
7400000000.0        0.0830309045063     0.193710476981      0.91374476299       -0.27268358331      0.91374476299       -0.27268358331      0.0830309045063     0.193710476981      
7500000000.0        0.084532691919      0.195948383433      0.912155598462      -0.275994802615     0.912155598462      -0.275994802615     0.084532691919      0.195948383433      
7600000000.0        0.0860497677254     0.198172253615      0.910549951849      -0.279292211748     0.910549951849      -0.279292211748     0.0860497677254     0.198172253615      
7700000000.0        0.0875819707438     0.200381972703      0.908927983056      -0.28257569817      0.908927983056      -0.28257569817      0.0875819707438     0.200381972703      
7800000000.0        0.0891291388299     0.202577428182      0.907289852937      -0.285845151646     0.907289852937      -0.285845151646     0.0891291388299     0.202577428182      
7900000000.0        0.0906911089191     0.204758509853      0.90563572325       -0.289100464244     0.90563572325       -0.289100464244     0.0906911089191     0.204758509853      
8000000000.0        0.0922677170689     0.206925109834      0.90396575662       -0.292341530346     0.90396575662       -0.292341530346     0.0922677170689     0.206925109834      
8100000000.0        0.0938587985004     0.209077122565      0.902280116491      -0.295568246648     0.902280116491      -0.295568246648     0.0938587985004     0.209077122565      
8200000000.0        0.0954641876398     0.21121444481       0.90057896709       -0.298780512162     0.90057896709       -0.298780512162     0.0954641876398     0.21121444481       
8300000000.0        0.0970837181591     0.213336975658      0.898862473381      -0.301978228219     0.898862473381      -0.301978228219     0.0970837181591     0.213336975658      
8400000000.0        0.0987172230174     0.215444616526      0.897130801028      -0.30516129847      0.897130801028      -0.30516129847      0.0987172230174     0.215444616526      
8500000000.0        0.100364534501      0.217537271156      0.895384116355      -0.308329628887     0.895384116355      -0.308329628887     0.100364534501      0.217537271156      
8600000000.0        0.102025484263      0.219614845619      0.893622586302      -0.31148312776      0.893622586302      -0.31148312776      0.102025484263      0.219614845619      
8700000000.0        0.103699903363      0.22167724831       0.891846378389      -0.3146217057       0.891846378389      -0.3146217057       0.103699903363      0.22167724831       
8800000000.0        0.105387622308      0.223724389949      0.890055660674      -0.317745275635     0.890055660674      -0.317745275635     0.105387622308      0.223724389949      
8900000000.0        0.10708847109       0.225756183577      0.888250601719      -0.320853752808     0.888250601719      -0.320853752808     0.10708847109       0.225756183577      
9000000000.0        0.108802279222      0.227772544551      0.886431370544      -0.323947054773     0.886431370544      -0.323947054773     0.108802279222      0.227772544551      
9100000000.0        0.110528875784      0.229773390547      0.884598136594      -0.327025101393     0.884598136594      -0.327025101393     0.110528875784      0.229773390547      
9200000000.0        0.11226808945       0.231758641548      0.882751069701      -0.330087814836     0.882751069701      -0.330087814836     0.11226808945       0.231758641548      
9300000000.0        0.114019748536      0.233728219842      0.880890340043      -0.333135119568     0.880890340043      -0.333135119568     0.114019748536      0.233728219842      
9400000000.0        0.115783681029      0.235682050019      0.879016118112      -0.336166942351     0.879016118112      -0.336166942351     0.115783681029      0.235682050019      
9500000000.0        0.117559714631      0.237620058962      0.877128574672      -0.339183212232     0.877128574672      -0.339183212232     0.117559714631      0.237620058962      
9600000000.0        0.119347676787      0.239542175838      0.875227880725      -0.34218386054      0.875227880725      -0.34218386054      0.119347676787      0.239542175838      
9700000000.0        0.121147394728      0.241448332096      0.873314207478      -0.345168820877     0.873314207478      -0.345168820877     0.121147394728      0.241448332096      
9800000000.0        0.122958695503      0.243338461455      0.8713877263        -0.348138029113     0.8713877263        -0.348138029113     0.122958695503      0.243338461455      
9900000000.0        0.124781406017      0.245212499897      0.869448608697      -0.351091423371     0.869448608697      -0.351091423371     0.124781406017      0.245212499897      
10000000000.0       0.126615353061      0.247070385658      0.867497026267      -0.354028944027     0.867497026267      -0.354028944027     0.126615353061      0.247070385658      
