# Hz S RI R 50.00 
100000000.0         0.0717954398289     0.0016818254791     0.928202672637      -0.00238062920393   0.928202672637      -0.00238062920393   0.0717954398289     0.0016818254791     
200000000.0         0.0722448960104     0.00335975800828    0.927751827836      -0.00475736580954   0.927751827836      -0.00475736580954   0.0722448960104     0.00335975800828    
300000000.0         0.0725827809688     0.00503532844679    0.927412053019      -0.00713174162633   0.927412053019      -0.00713174162633   0.0725827809688     0.00503532844679    
400000000.0         0.072867535905      0.00670903914027    0.927124906878      -0.0095042598753    0.927124906878      -0.0095042598753    0.072867535905      0.00670903914027    
500000000.0         0.073121743747      0.00838115273825    0.926867806396      -0.0118751840441    0.926867806396      -0.0118751840441    0.073121743747      0.00838115273825    
600000000.0         0.0733569582055     0.0100518255709     0.926629197785      -0.0142446712771    0.926629197785      -0.0142446712771    0.0733569582055     0.0100518255709     
700000000.0         0.0735800251068     0.0117211555854     0.926402235145      -0.0166128203182    0.926402235145      -0.0166128203182    0.0735800251068     0.0117211555854     
800000000.0         0.0737953926756     0.0133892045912     0.926182470185      -0.0189796937603    0.926182470185      -0.0189796937603    0.0737953926756     0.0133892045912     
900000000.0         0.0740061415624     0.0150560102128     0.925966822188      -0.0213453300007    0.925966822188      -0.0213453300007    0.0740061415624     0.0150560102128     
1000000000.0        0.0742145076229     0.0167215929695     0.925753055236      -0.0237097503225    0.925753055236      -0.0237097503225    0.0742145076229     0.0167215929695     
1100000000.0        0.0744221728976     0.0183859607726     0.925539487222      -0.0260729633935    0.925539487222      -0.0260729633935    0.0744221728976     0.0183859607726     
1200000000.0        0.0746304392185     0.0200491119387     0.925324816253      -0.0284349682801    0.925324816253      -0.0284349682801    0.0746304392185     0.0200491119387     
1300000000.0        0.0748403375714     0.0217110372941     0.925108011279      -0.0307957565528    0.925108011279      -0.0307957565528    0.0748403375714     0.0217110372941     
1400000000.0        0.0750527000687     0.0233717216951     0.924888240122      -0.0331553138071    0.924888240122      -0.0331553138071    0.0750527000687     0.0233717216951     
1500000000.0        0.0752682090549     0.0250311451581     0.924664820372      -0.035513620794     0.924664820372      -0.035513620794     0.0752682090549     0.0250311451581     
1600000000.0        0.0754874316367     0.0266892837183     0.924437184855      -0.0378706542794    0.924437184855      -0.0378706542794    0.0754874316367     0.0266892837183     
1700000000.0        0.0757108445989     0.0283461100974     0.924204856718      -0.0402263877118    0.924204856718      -0.0402263877118    0.0757108445989     0.0283461100974     
1800000000.0        0.0759388527844     0.0300015942296     0.923967431049      -0.0425807917488    0.923967431049      -0.0425807917488    0.0759388527844     0.0300015942296     
1900000000.0        0.0761718029179     0.0316557036839     0.92372456105       -0.04493383468      0.92372456105       -0.04493383468      0.0761718029179     0.0316557036839     
2000000000.0        0.0764099941814     0.0333084040079     0.923475947466      -0.0472854827702    0.923475947466      -0.0472854827702    0.0764099941814     0.0333084040079     
2100000000.0        0.0766536864266     0.0349596590095     0.92322133037       -0.0496357005423    0.92322133037       -0.0496357005423    0.0766536864266     0.0349596590095     
2200000000.0        0.0769031066387     0.0366094309921     0.922960482699      -0.0519844510117    0.922960482699      -0.0519844510117    0.0769031066387     0.0366094309921     
2300000000.0        0.0771584540869     0.0382576809513     0.922693205104      -0.0543316958841    0.922693205104      -0.0543316958841    0.0771584540869     0.0382576809513     
2400000000.0        0.0774199044712     0.039904368742      0.922419321802      -0.0566773957222    0.922419321802      -0.0566773957222    0.0774199044712     0.039904368742      
2500000000.0        0.0776876132963     0.0415494532213     0.922138677205      -0.0590215100884    0.922138677205      -0.0590215100884    0.0776876132963     0.0415494532213     
2600000000.0        0.0779617186406     0.0431928923705     0.921851133149      -0.0613639976681    0.921851133149      -0.0613639976681    0.0779617186406     0.0431928923705     
2700000000.0        0.0782423434479     0.0448346434023     0.9215565666        -0.0637048163756    0.9215565666        -0.0637048163756    0.0782423434479     0.0448346434023     
2800000000.0        0.0785295974382     0.0464746628526     0.921254867748      -0.0660439234468    0.921254867748      -0.0660439234468    0.0785295974382     0.0464746628526     
2900000000.0        0.078823578713      0.0481129066624     0.920945938397      -0.0683812755211    0.920945938397      -0.0683812755211    0.078823578713      0.0481129066624     
3000000000.0        0.0791243751114     0.0497493302495     0.920629690612      -0.0707168287131    0.920629690612      -0.0707168287131    0.0791243751114     0.0497493302495     
3100000000.0        0.0794320653643     0.0513838885716     0.920306045564      -0.0730505386759    0.920306045564      -0.0730505386759    0.0794320653643     0.0513838885716     
3200000000.0        0.0797467200802     0.0530165361838     0.919974932543      -0.0753823606581    0.919974932543      -0.0753823606581    0.0797467200802     0.0530165361838     
3300000000.0        0.0800684025941     0.0546472272886     0.919636288112      -0.0777122495547    0.919636288112      -0.0777122495547    0.0800684025941     0.0546472272886     
3400000000.0        0.0803971697        0.0562759157821     0.91929005537       -0.0800401599528    0.91929005537       -0.0800401599528    0.0803971697        0.0562759157821     
3500000000.0        0.0807330722865     0.0579025552948     0.91893618332       -0.0823660461727    0.91893618332       -0.0823660461727    0.0807330722865     0.0579025552948     
3600000000.0        0.081076155892      0.0595270992293     0.918574626312      -0.0846898623056    0.918574626312      -0.0846898623056    0.081076155892      0.0595270992293     
3700000000.0        0.0814264611894     0.0611495007941     0.918205343561      -0.0870115622472    0.918205343561      -0.0870115622472    0.0814264611894     0.0611495007941     
3800000000.0        0.0817840244125     0.062769713035      0.917828298715      -0.0893310997293    0.917828298715      -0.0893310997293    0.0817840244125     0.062769713035      
3900000000.0        0.0821488777326     0.0643876888629     0.917443459486      -0.0916484283482    0.917443459486      -0.0916484283482    0.0821488777326     0.0643876888629     
4000000000.0        0.082521049591      0.0660033810808     0.917050797309      -0.0939635015907    0.917050797309      -0.0939635015907    0.082521049591      0.0660033810808     
4100000000.0        0.0829005649946     0.0676167424075     0.916650287054      -0.0962762728584    0.916650287054      -0.0962762728584    0.0829005649946     0.0676167424075     
4200000000.0        0.0832874457792     0.0692277254998     0.916241906758      -0.0985866954902    0.916241906758      -0.0985866954902    0.0832874457792     0.0692277254998     
4300000000.0        0.0836817108449     0.0708362829735     0.915825637392      -0.100894722783     0.915825637392      -0.100894722783     0.0836817108449     0.0708362829735     
4400000000.0        0.084083376367      0.0724423674228     0.915401462649      -0.103200308011     0.915401462649      -0.103200308011     0.084083376367      0.0724423674228     
4500000000.0        0.084492455985      0.0740459314379     0.914969368753      -0.105503404443     0.914969368753      -0.105503404443     0.084492455985      0.0740459314379     
4600000000.0        0.0849089609736     0.075646927622      0.914529344293      -0.10780396536      0.914529344293      -0.10780396536      0.0849089609736     0.075646927622      
4700000000.0        0.0853329003969     0.077245308607      0.914081380065      -0.110101944073     0.914081380065      -0.110101944073     0.0853329003969     0.077245308607      
4800000000.0        0.0857642812479     0.0788410270684     0.913625468933      -0.112397293933     0.913625468933      -0.112397293933     0.0857642812479     0.0788410270684     
4900000000.0        0.086203108575      0.0804340357391     0.913161605703      -0.114689968348     0.913161605703      -0.114689968348     0.086203108575      0.0804340357391     
5000000000.0        0.0866493855978     0.0820242874227     0.912689787006      -0.116979920797     0.912689787006      -0.116979920797     0.0866493855978     0.0820242874227     
5100000000.0        0.0871031138115     0.0836117350057     0.912210011197      -0.119267104841     0.912210011197      -0.119267104841     0.0871031138115     0.0836117350057     
5200000000.0        0.0875642930837     0.0851963314694     0.911722278255      -0.121551474134     0.911722278255      -0.121551474134     0.0875642930837     0.0851963314694     
5300000000.0        0.0880329217416     0.086778029901      0.911226589695      -0.123832982436     0.911226589695      -0.123832982436     0.0880329217416     0.086778029901      
5400000000.0        0.0885089966532     0.088356783504      0.91072294849       -0.126111583623     0.91072294849       -0.126111583623     0.0885089966532     0.088356783504      
5500000000.0        0.0889925133013     0.0899325456088     0.910211358997      -0.128387231695     0.910211358997      -0.128387231695     0.0889925133013     0.0899325456088     
5600000000.0        0.0894834658517     0.0915052696816     0.909691826884      -0.13065988079      0.909691826884      -0.13065988079      0.0894834658517     0.0915052696816     
5700000000.0        0.0899818472166     0.0930749093341     0.909164359071      -0.13292948519      0.909164359071      -0.13292948519      0.0899818472166     0.0930749093341     
5800000000.0        0.0904876491125     0.0946414183321     0.908628963672      -0.135195999328     0.908628963672      -0.135195999328     0.0904876491125     0.0946414183321     
5900000000.0        0.0910008621145     0.0962047506037     0.90808564994       -0.137459377802     0.90808564994       -0.137459377802     0.0910008621145     0.0962047506037     
6000000000.0        0.0915214757063     0.0977648602476     0.907534428214      -0.139719575379     0.907534428214      -0.139719575379     0.0915214757063     0.0977648602476     
6100000000.0        0.0920494783267     0.0993217015405     0.906975309878      -0.141976547002     0.906975309878      -0.141976547002     0.0920494783267     0.0993217015405     
6200000000.0        0.0925848574131     0.100875228945      0.906408307312      -0.1442302478       0.906408307312      -0.1442302478       0.0925848574131     0.100875228945      
6300000000.0        0.0931275994421     0.102425397116      0.905833433857      -0.146480633095     0.905833433857      -0.146480633095     0.0931275994421     0.102425397116      
6400000000.0        0.0936776899668     0.103972160907      0.905250703771      -0.148727658405     0.905250703771      -0.148727658405     0.0936776899668     0.103972160907      
6500000000.0        0.0942351136526     0.10551547538       0.904660132202      -0.150971279458     0.904660132202      -0.150971279458     0.0942351136526     0.10551547538       
6600000000.0        0.0947998543103     0.107055295807      0.904061735145      -0.153211452189     0.904061735145      -0.153211452189     0.0947998543103     0.107055295807      
6700000000.0        0.0953718949271     0.108591577679      0.903455529418      -0.155448132754     0.903455529418      -0.155448132754     0.0953718949271     0.108591577679      
6800000000.0        0.0959512176958     0.110124276713      0.90284153263       -0.157681277532     0.90284153263       -0.157681277532     0.0959512176958     0.110124276713      
6900000000.0        0.0965378040424     0.111653348853      0.902219763155      -0.159910843131     0.902219763155      -0.159910843131     0.0965378040424     0.111653348853      
7000000000.0        0.0971316346524     0.113178750282      0.901590240105      -0.162136786395     0.901590240105      -0.162136786395     0.0971316346524     0.113178750282      
7100000000.0        0.0977326894947     0.11470043742       0.900952983303      -0.164359064407     0.900952983303      -0.164359064407     0.0977326894947     0.11470043742       
7200000000.0        0.0983409478453     0.116218366937      0.900308013265      -0.166577634497     0.900308013265      -0.166577634497     0.0983409478453     0.116218366937      
7300000000.0        0.0989563883093     0.117732495752      0.899655351174      -0.168792454245     0.899655351174      -0.168792454245     0.0989563883093     0.117732495752      
7400000000.0        0.0995789888414     0.119242781039      0.89899501886       -0.171003481485     0.89899501886       -0.171003481485     0.0995789888414     0.119242781039      
7500000000.0        0.100208726766      0.120749180233      0.898327038783      -0.173210674313     0.898327038783      -0.173210674313     0.100208726766      0.120749180233      
7600000000.0        0.100845578796      0.122251651035      0.897651434008      -0.175413991088     0.897651434008      -0.175413991088     0.100845578796      0.122251651035      
7700000000.0        0.101489521051      0.123750151414      0.896968228194      -0.177613390439     0.896968228194      -0.177613390439     0.101489521051      0.123750151414      
7800000000.0        0.102140529073      0.125244639614      0.896277445572      -0.179808831265     0.896277445572      -0.179808831265     0.102140529073      0.125244639614      
7900000000.0        0.102798577845      0.126735074154      0.895579110931      -0.182000272747     0.895579110931      -0.182000272747     0.102798577845      0.126735074154      
8000000000.0        0.103463641806      0.128221413837      0.894873249601      -0.184187674343     0.894873249601      -0.184187674343     0.103463641806      0.128221413837      
8100000000.0        0.104135694864      0.12970361775       0.894159887439      -0.186370995799     0.894159887439      -0.186370995799     0.104135694864      0.12970361775       
8200000000.0        0.104814710413      0.131181645271      0.893439050813      -0.188550197147     0.893439050813      -0.188550197147     0.104814710413      0.131181645271      
8300000000.0        0.105500661346      0.132655456069      0.892710766593      -0.190725238713     0.892710766593      -0.190725238713     0.105500661346      0.132655456069      
8400000000.0        0.106193520067      0.134125010109      0.891975062131      -0.192896081119     0.891975062131      -0.192896081119     0.106193520067      0.134125010109      
8500000000.0        0.106893258506      0.135590267658      0.891231965251      -0.195062685285     0.891231965251      -0.195062685285     0.106893258506      0.135590267658      
8600000000.0        0.107599848127      0.137051189284      0.890481504241      -0.197225012436     0.890481504241      -0.197225012436     0.107599848127      0.137051189284      
8700000000.0        0.108313259947      0.138507735862      0.889723707833      -0.199383024101     0.889723707833      -0.199383024101     0.108313259947      0.138507735862      
8800000000.0        0.109033464541      0.139959868575      0.888958605199      -0.201536682117     0.888958605199      -0.201536682117     0.109033464541      0.139959868575      
8900000000.0        0.109760432055      0.141407548921      0.888186225934      -0.203685948634     0.888186225934      -0.203685948634     0.109760432055      0.141407548921      
9000000000.0        0.110494132219      0.14285073871       0.887406600051      -0.205830786118     0.887406600051      -0.205830786118     0.110494132219      0.14285073871       
9100000000.0        0.111234534353      0.144289400073      0.886619757965      -0.207971157351     0.886619757965      -0.207971157351     0.111234534353      0.144289400073      
9200000000.0        0.111981607383      0.145723495459      0.885825730488      -0.210107025436     0.885825730488      -0.210107025436     0.111981607383      0.145723495459      
9300000000.0        0.112735319844      0.147152987642      0.885024548814      -0.212238353798     0.885024548814      -0.212238353798     0.112735319844      0.147152987642      
9400000000.0        0.113495639894      0.148577839722      0.884216244516      -0.214365106189     0.884216244516      -0.214365106189     0.113495639894      0.148577839722      
9500000000.0        0.114262535323      0.149998015126      0.883400849529      -0.216487246688     0.883400849529      -0.216487246688     0.114262535323      0.149998015126      
9600000000.0        0.11503597356       0.151413477613      0.882578396148      -0.218604739705     0.882578396148      -0.218604739705     0.11503597356       0.151413477613      
9700000000.0        0.115815921683      0.152824191275      0.881748917015      -0.220717549981     0.881748917015      -0.220717549981     0.115815921683      0.152824191275      
9800000000.0        0.116602346428      0.154230120539      0.880912445113      -0.222825642595     0.880912445113      -0.222825642595     0.116602346428      0.154230120539      
9900000000.0        0.117395214197      0.155631230168      0.880069013755      -0.22492898296      0.880069013755      -0.22492898296      0.117395214197      0.155631230168      
10000000000.0       0.118194491063      0.157027485267      0.879218656579      -0.227027536831     0.879218656579      -0.227027536831     0.118194491063      0.157027485267      
