# Hz S RI R 50.00 
100000000.0         0.000650368778811   -0.00341939369545   0.999293305987      -0.00617792877682   0.999293305987      -0.00617792877682   0.000650368778811   -0.00341939369545   
200000000.0         0.000586923790144   -0.00683826664048   0.999209299084      -0.0123553490501    0.999209299084      -0.0123553490501    0.000586923790145   -0.00683826664048   
300000000.0         0.000480058345544   -0.0102560806282    0.999076604864      -0.0185317769404    0.999076604864      -0.0185317769404    0.000480058345545   -0.0102560806282    
400000000.0         0.000330374924003   -0.0136722865445    0.998894655236      -0.0247066980999    0.998894655236      -0.0247066980999    0.000330374924003   -0.0136722865445    
500000000.0         0.000138124488544   -0.0170863281199    0.998663250074      -0.0308795847579    0.998663250074      -0.0308795847579    0.000138124488544   -0.0170863281199    
600000000.0         -9.65435924273e-05  -0.0204976442885    0.998382307863      -0.0370499009188    0.998382307863      -0.0370499009188    -9.65435924275e-05  -0.0204976442885    
700000000.0         -0.000373517971326  -0.0239056706152    0.998051802512      -0.0432171049807    0.998051802512      -0.0432171049807    -0.000373517971326  -0.0239056706152    
800000000.0         -0.000692702076906  -0.0273098402719    0.997671740393      -0.0493806513406    0.997671740393      -0.0493806513406    -0.000692702076906  -0.0273098402719    
900000000.0         -0.00105400373414   -0.0307095847663    0.99724215018       -0.055539991503     0.99724215018       -0.055539991503     -0.00105400373414   -0.0307095847663    
1000000000.0        -0.00145732988263   -0.0341043345234    0.996763077726      -0.0616945749099    0.996763077726      -0.0616945749099    -0.00145732988263   -0.0341043345234    
1100000000.0        -0.0019025836286    -0.0374935193713    0.996234583245      -0.0678438496006    0.996234583245      -0.0678438496006    -0.0019025836286    -0.0374935193713    
1200000000.0        -0.00238966248245   -0.0408765689641    0.995656739632      -0.0739872627612    0.995656739632      -0.0739872627612    -0.00238966248245   -0.0408765689641    
1300000000.0        -0.00291845724882   -0.0442529131587    0.995029631425      -0.0801242611972    0.995029631425      -0.0801242611972    -0.00291845724882   -0.0442529131587    
1400000000.0        -0.00348885129981   -0.0476219823592    0.99435335411       -0.0862542917523    0.99435335411       -0.0862542917523    -0.00348885129981   -0.0476219823592    
1500000000.0        -0.00410072008542   -0.0509832078358    0.99362801365       -0.092376801687     0.99362801365       -0.092376801687     -0.00410072008542   -0.0509832078358    
1600000000.0        -0.0047539307979    -0.054336022025     0.992853726149      -0.0984912390256    0.992853726149      -0.0984912390256    -0.0047539307979    -0.054336022025     
1700000000.0        -0.00544834214004   -0.0576798588138    0.992030617595      -0.104597052881     0.992030617595      -0.104597052881     -0.00544834214004   -0.0576798588138    
1800000000.0        -0.00618380416626   -0.0610141538119    0.991158823662      -0.110693693759     0.991158823662      -0.110693693759     -0.00618380416626   -0.0610141538119    
1900000000.0        -0.00696015817651   -0.0643383446125    0.990238489554      -0.116780613847     0.990238489554      -0.116780613847     -0.00696015817651   -0.0643383446125    
2000000000.0        -0.00777723664958   -0.0676518710454    0.989269769861      -0.12285726729      0.989269769861      -0.12285726729      -0.00777723664958   -0.0676518710454    
2100000000.0        -0.00863486320674   -0.0709541754212    0.988252828445      -0.128923110457     0.988252828445      -0.128923110457     -0.00863486320674   -0.0709541754212    
2200000000.0        -0.00953285259947   -0.0742447027691    0.987187838322      -0.134977602193     0.987187838322      -0.134977602193     -0.00953285259947   -0.0742447027691    
2300000000.0        -0.0104710107166    -0.0775229010687    0.986074981563      -0.141020204071     0.986074981563      -0.141020204071     -0.0104710107166    -0.0775229010687    
2400000000.0        -0.0114491346077    -0.0807882214754    0.984914449187      -0.147050380624     0.984914449187      -0.147050380624     -0.0114491346077    -0.0807882214754    
2500000000.0        -0.0124670125202    -0.0840401185406    0.983706441064      -0.153067599584     0.983706441064      -0.153067599584     -0.0124670125202    -0.0840401185406    
2600000000.0        -0.0135244239481    -0.0872780504277    0.982451165811      -0.159071332101     0.982451165811      -0.159071332101     -0.0135244239481    -0.0872780504277    
2700000000.0        -0.0146211396917    -0.0905014791214    0.981148840692      -0.16506105297      0.981148840692      -0.16506105297      -0.0146211396917    -0.0905014791214    
2800000000.0        -0.0157569219259    -0.0937098706344    0.979799691512      -0.171036240838     0.979799691512      -0.171036240838     -0.0157569219259    -0.0937098706344    
2900000000.0        -0.0169315242777    -0.0969026952079    0.978403952511      -0.176996378416     0.978403952511      -0.176996378416     -0.0169315242777    -0.0969026952079    
3000000000.0        -0.0181446919105    -0.100079427508     0.976961866254      -0.182940952681     0.976961866254      -0.182940952681     -0.0181446919105    -0.100079427508     
3100000000.0        -0.0193961616164    -0.103239546819     0.975473683518      -0.188869455073     0.975473683518      -0.188869455073     -0.0193961616164    -0.103239546819     
3200000000.0        -0.020685661914     -0.106382537227     0.973939663174      -0.194781381691     0.973939663174      -0.194781381691     -0.020685661914     -0.106382537227     
3300000000.0        -0.0220129131535    -0.109507887811     0.972360072069      -0.200676233476     0.972360072069      -0.200676233476     -0.0220129131535    -0.109507887811     
3400000000.0        -0.0233776276266    -0.112615092811     0.9707351849        -0.206553516398     0.9707351849        -0.206553516398     -0.0233776276266    -0.112615092811     
3500000000.0        -0.0247795096822    -0.115703651811     0.969065284089      -0.212412741632     0.969065284089      -0.212412741632     -0.0247795096822    -0.115703651811     
3600000000.0        -0.026218255847     -0.118773069905     0.967350659651      -0.21825342573      0.967350659651      -0.21825342573      -0.026218255847     -0.118773069905     
3700000000.0        -0.0276935549515    -0.121822857862     0.965591609058      -0.224075090792     0.965591609058      -0.224075090792     -0.0276935549515    -0.121822857862     
3800000000.0        -0.0292050882594    -0.124852532287     0.963788437103      -0.229877264627     0.963788437103      -0.229877264627     -0.0292050882594    -0.124852532287     
3900000000.0        -0.0307525296027    -0.127861615776     0.961941455759      -0.235659480912     0.961941455759      -0.235659480912     -0.0307525296027    -0.127861615776     
4000000000.0        -0.0323355455197    -0.130849637071     0.960050984032      -0.241421279346     0.960050984032      -0.241421279346     -0.0323355455197    -0.130849637071     
4100000000.0        -0.0339537953977    -0.1338161312       0.958117347815      -0.247162205797     0.958117347815      -0.247162205797     -0.0339537953977    -0.1338161312       
4200000000.0        -0.035606931619     -0.136760639625     0.956140879735      -0.252881812447     0.956140879735      -0.252881812447     -0.035606931619     -0.136760639625     
4300000000.0        -0.0372945997105    -0.139682710377     0.954121919002      -0.258579657929     0.954121919002      -0.258579657929     -0.0372945997105    -0.139682710377     
4400000000.0        -0.0390164384961    -0.142581898187     0.952060811248      -0.264255307464     0.952060811248      -0.264255307464     -0.0390164384961    -0.142581898187     
4500000000.0        -0.0407720802532    -0.145457764615     0.949957908372      -0.269908332986     0.949957908372      -0.269908332986     -0.0407720802532    -0.145457764615     
4600000000.0        -0.0425611508709    -0.148309878172     0.947813568373      -0.275538313264     0.947813568373      -0.275538313264     -0.0425611508709    -0.148309878172     
4700000000.0        -0.0443832700121    -0.151137814435     0.94562815519       -0.281144834027     0.94562815519       -0.281144834027     -0.0443832700121    -0.151137814435     
4800000000.0        -0.0462380512767    -0.153941156167     0.94340203853       -0.28672748807      0.94340203853       -0.28672748807      -0.0462380512767    -0.153941156167     
4900000000.0        -0.0481251023689    -0.156719493416     0.941135593705      -0.292285875369     0.941135593705      -0.292285875369     -0.0481251023689    -0.156719493416     
5000000000.0        -0.0500440252651    -0.159472423622     0.938829201456      -0.297819603176     0.938829201456      -0.297819603176     -0.0500440252651    -0.159472423622     
5100000000.0        -0.0519944163849    -0.162199551716     0.93648324778       -0.303328286126     0.93648324778       -0.303328286126     -0.0519944163849    -0.162199551716     
5200000000.0        -0.053975866763     -0.164900490209     0.93409812376       -0.308811546322     0.93409812376       -0.308811546322     -0.053975866763     -0.164900490209     
5300000000.0        -0.0559879622239    -0.167574859284     0.931674225383      -0.314269013429     0.931674225383      -0.314269013429     -0.0559879622239    -0.167574859284     
5400000000.0        -0.0580302835571    -0.170222286873     0.929211953366      -0.319700324751     0.929211953366      -0.319700324751     -0.0580302835571    -0.170222286873     
5500000000.0        -0.0601024066939    -0.17284240874      0.926711712978      -0.325105125312     0.926711712978      -0.325105125312     -0.0601024066939    -0.17284240874      
5600000000.0        -0.062203902886     -0.175434868551     0.924173913857      -0.330483067929     0.924173913857      -0.330483067929     -0.062203902886     -0.175434868551     
5700000000.0        -0.064334338884     -0.177999317941     0.921598969829      -0.335833813276     0.921598969829      -0.335833813276     -0.064334338884     -0.177999317941     
5800000000.0        -0.0664932771179    -0.180535416578     0.91898729873       -0.341157029947     0.91898729873       -0.341157029947     -0.0664932771179    -0.180535416578     
5900000000.0        -0.0686802758771    -0.183042832219     0.91633932222       -0.346452394515     0.91633932222       -0.346452394515     -0.0686802758771    -0.183042832219     
6000000000.0        -0.0708948894924    -0.185521240764     0.913655465603      -0.351719591582     0.913655465603      -0.351719591582     -0.0708948894924    -0.185521240764     
6100000000.0        -0.0731366685169    -0.187970326302     0.910936157641      -0.356958313829     0.910936157641      -0.356958313829     -0.0731366685169    -0.187970326302     
6200000000.0        -0.0754051599082    -0.190389781156     0.908181830373      -0.362168262052     0.908181830373      -0.362168262052     -0.0754051599082    -0.190389781156     
6300000000.0        -0.0776999072099    -0.192779305917     0.90539291893       -0.367349145204     0.90539291893       -0.367349145204     -0.0776999072099    -0.192779305917     
6400000000.0        -0.0800204507341    -0.195138609482     0.902569861354      -0.372500680427     0.902569861354      -0.372500680427     -0.0800204507341    -0.195138609482     
6500000000.0        -0.0823663277423    -0.197467409078     0.899713098411      -0.377622593077     0.899713098411      -0.377622593077     -0.0823663277423    -0.197467409078     
6600000000.0        -0.0847370726273    -0.199765430285     0.896823073411      -0.382714616746     0.896823073411      -0.382714616746     -0.0847370726273    -0.199765430285     
6700000000.0        -0.0871322170936    -0.202032407059     0.893900232027      -0.387776493284     0.893900232027      -0.387776493284     -0.0871322170936    -0.202032407059     
6800000000.0        -0.0895512903378    -0.204268081742     0.890945022108      -0.392807972806     0.890945022108      -0.392807972806     -0.0895512903378    -0.204268081742     
6900000000.0        -0.0919938192282    -0.206472205071     0.887957893506      -0.397808813705     0.887957893506      -0.397808813705     -0.0919938192282    -0.206472205071     
7000000000.0        -0.0944593284831    -0.208644536187     0.884939297889      -0.402778782651     0.884939297889      -0.402778782651     -0.0944593284831    -0.208644536187     
7100000000.0        -0.0969473408486    -0.210784842632     0.881889688563      -0.407717654597     0.881889688563      -0.407717654597     -0.0969473408486    -0.210784842632     
7200000000.0        -0.0994573772751    -0.212892900345     0.8788095203        -0.412625212765     0.8788095203        -0.412625212765     -0.0994573772751    -0.212892900345     
7300000000.0        -0.101988957092     -0.214968493653     0.875699249153      -0.417501248644     0.875699249153      -0.417501248644     -0.101988957092     -0.214968493653     
7400000000.0        -0.104541598183     -0.217011415263     0.872559332288      -0.422345561971     0.872559332288      -0.422345561971     -0.104541598183     -0.217011415263     
7500000000.0        -0.107114817157     -0.219021466238     0.869390227805      -0.427157960714     0.869390227805      -0.427157960714     -0.107114817157     -0.219021466238     
7600000000.0        -0.109708129519     -0.220998455981     0.866192394568      -0.431938261051     0.866192394568      -0.431938261051     -0.109708129519     -0.220998455981     
7700000000.0        -0.11232104984      -0.222942202208     0.862966292034      -0.43668628734      0.862966292034      -0.43668628734      -0.11232104984      -0.222942202208     
7800000000.0        -0.114953091926     -0.22485253092      0.859712380086      -0.441401872092     0.859712380086      -0.441401872092     -0.114953091926     -0.22485253092      
7900000000.0        -0.117603768978     -0.22672927637      0.856431118862      -0.446084855935     0.856431118862      -0.446084855935     -0.117603768978     -0.22672927637      
8000000000.0        -0.120272593763     -0.228572281025     0.853122968594      -0.450735087574     0.853122968594      -0.450735087574     -0.120272593763     -0.228572281025     
8100000000.0        -0.122959078769     -0.230381395525     0.849788389443      -0.455352423753     0.849788389443      -0.455352423753     -0.122959078769     -0.230381395525     
8200000000.0        -0.125662736368     -0.232156478643     0.846427841338      -0.459936729205     0.846427841338      -0.459936729205     -0.125662736368     -0.232156478643     
8300000000.0        -0.128383078973     -0.233897397234     0.843041783821      -0.464487876604     0.843041783821      -0.464487876604     -0.128383078973     -0.233897397234     
8400000000.0        -0.13111961919      -0.235604026184     0.839630675885      -0.469005746513     0.839630675885      -0.469005746513     -0.13111961919      -0.235604026184     
8500000000.0        -0.133871869973     -0.23727624836      0.836194975825      -0.473490227329     0.836194975825      -0.473490227329     -0.133871869973     -0.23727624836      
8600000000.0        -0.136639344775     -0.238913954545     0.832735141084      -0.47794121522      0.832735141084      -0.47794121522      -0.136639344775     -0.238913954545     
8700000000.0        -0.13942155769      -0.240517043385     0.829251628103      -0.482358614065     0.829251628103      -0.482358614065     -0.13942155769      -0.240517043385     
8800000000.0        -0.142218023606     -0.242085421322     0.825744892181      -0.48674233539      0.825744892181      -0.48674233539      -0.142218023606     -0.242085421322     
8900000000.0        -0.145028258338     -0.243619002526     0.822215387322      -0.491092298293     0.822215387322      -0.491092298293     -0.145028258338     -0.243619002526     
9000000000.0        -0.147851778777     -0.245117708828     0.818663566103      -0.495408429381     0.818663566103      -0.495408429381     -0.147851778777     -0.245117708828     
9100000000.0        -0.150688103017     -0.246581469649     0.815089879529      -0.49969066269      0.815089879529      -0.49969066269      -0.150688103017     -0.246581469649     
9200000000.0        -0.153536750499     -0.248010221922     0.811494776899      -0.503938939608     0.811494776899      -0.503938939608     -0.153536750499     -0.248010221922     
9300000000.0        -0.156397242132     -0.249403910016     0.807878705679      -0.508153208801     0.807878705679      -0.508153208801     -0.156397242132     -0.249403910016     
9400000000.0        -0.159269100429     -0.250762485659     0.804242111363      -0.512333426123     0.804242111363      -0.512333426123     -0.159269100429     -0.250762485659     
9500000000.0        -0.16215184963      -0.252085907851     0.800585437353      -0.516479554539     0.800585437353      -0.516479554539     -0.16215184963      -0.252085907851     
9600000000.0        -0.165045015822     -0.253374142786     0.796909124834      -0.520591564035     0.796909124834      -0.520591564035     -0.165045015822     -0.253374142786     
9700000000.0        -0.167948127061     -0.254627163759     0.793213612651      -0.524669431529     0.793213612651      -0.524669431529     -0.167948127061     -0.254627163759     
9800000000.0        -0.170860713487     -0.255844951085     0.789499337191      -0.528713140781     0.789499337191      -0.528713140781     -0.170860713487     -0.255844951085     
9900000000.0        -0.173782307439     -0.257027492003     0.785766732272      -0.532722682301     0.785766732272      -0.532722682301     -0.173782307439     -0.257027492003     
10000000000.0       -0.176712443561     -0.258174780585     0.782016229026      -0.536698053253     0.782016229026      -0.536698053253     -0.176712443561     -0.258174780585     
