# Hz S RI R 50.00 
100000000.0         8.30825377049e-05   -0.00381769647706   0.999876391162      -0.00414692891344   0.999876391162      -0.00414692891344   8.30825377049e-05   -0.00381769647706   
200000000.0         3.23850511665e-05   -0.00763499979443   0.999824129414      -0.00829347027297   0.999824129414      -0.00829347027297   3.23850511663e-05   -0.00763499979443   
300000000.0         -5.01456259263e-05  -0.0114515577579    0.999740284354      -0.0124392757912    0.999740284354      -0.0124392757912    -5.01456259263e-05  -0.0114515577579    
400000000.0         -0.000164406890596  -0.0152670134854    0.999624780417      -0.0165839915454    0.999624780417      -0.0165839915454    -0.000164406890596  -0.0152670134854    
500000000.0         -0.000310345640834  -0.0190810078954    0.999477602338      -0.0207272610035    0.999477602338      -0.0207272610035    -0.000310345640834  -0.0190810078954    
600000000.0         -0.000487920132097  -0.0228931806658    0.999298757112      -0.0248687261383    0.999298757112      -0.0248687261383    -0.000487920132097  -0.0228931806658    
700000000.0         -0.000697090279202  -0.0267031707769    0.999088264366      -0.0290080280446    0.999088264366      -0.0290080280446    -0.000697090279202  -0.0267031707769    
800000000.0         -0.00093781411405   -0.0305106168787    0.998846152853      -0.0331448073498    0.998846152853      -0.0331448073498    -0.00093781411405   -0.0305106168787    
900000000.0         -0.00121004620903   -0.0343151575723    0.998572458901      -0.0372787045226    0.998572458901      -0.0372787045226    -0.00121004620903   -0.0343151575723    
1000000000.0        -0.00151373688026   -0.0381164316366    0.998267225625      -0.0414093601186    0.998267225625      -0.0414093601186    -0.00151373688026   -0.0381164316366    
1100000000.0        -0.00184883174916   -0.0419140782261    0.997930502482      -0.0455364149921    0.997930502482      -0.0455364149921    -0.00184883174916   -0.0419140782261    
1200000000.0        -0.00221527148701   -0.0457077370452    0.997562345011      -0.0496595104811    0.997562345011      -0.0496595104811    -0.00221527148701   -0.0457077370452    
1300000000.0        -0.00261299166104   -0.0494970485095    0.99716281465       -0.053778288576     0.99716281465       -0.053778288576     -0.00261299166104   -0.0494970485095    
1400000000.0        -0.00304192264103   -0.0532816538942    0.996731978619      -0.0578923920754    0.996731978619      -0.0578923920754    -0.00304192264103   -0.0532816538942    
1500000000.0        -0.00350198954399   -0.0570611954761    0.996269909829      -0.0620014647328    0.996269909829      -0.0620014647328    -0.00350198954399   -0.0570611954761    
1600000000.0        -0.00399311220423   -0.0608353166683    0.995776686807      -0.0661051513954    0.995776686807      -0.0661051513954    -0.00399311220423   -0.0608353166683    
1700000000.0        -0.00451520516108   -0.0646036621494    0.995252393632      -0.070203098138     0.995252393632      -0.070203098138     -0.00451520516108   -0.0646036621494    
1800000000.0        -0.00506817765952   -0.0683658779892    0.994697119888      -0.0742949523907    0.994697119888      -0.0742949523907    -0.00506817765952   -0.0683658779892    
1900000000.0        -0.00565193366068   -0.07212161177      0.994110960602      -0.0783803630637    0.994110960602      -0.0783803630637    -0.00565193366068   -0.07212161177      
2000000000.0        -0.00626637185992   -0.0758705127047    0.993494016207      -0.0824589806673    0.993494016207      -0.0824589806673    -0.00626637185992   -0.0758705127047    
2100000000.0        -0.0069113857114    -0.0796122317528    0.99284639248       -0.08653045743      0.99284639248       -0.08653045743      -0.0069113857114    -0.0796122317528    
2200000000.0        -0.00758686345782   -0.0833464217328    0.992168200505      -0.0905944474126    0.992168200505      -0.0905944474126    -0.00758686345782   -0.0833464217328    
2300000000.0        -0.00829268816478   -0.0870727374323    0.991459556618      -0.0946506066205    0.991459556618      -0.0946506066205    -0.00829268816478   -0.0870727374323    
2400000000.0        -0.00902873775923   -0.0907908357168    0.990720582356      -0.0986985931131    0.990720582356      -0.0986985931131    -0.00902873775923   -0.0907908357168    
2500000000.0        -0.00979488507148   -0.0945003756347    0.989951404407      -0.102738067111     0.989951404407      -0.102738067111     -0.00979488507148   -0.0945003756347    
2600000000.0        -0.0105909978805    -0.0982010185216    0.989152154557      -0.1067686911       0.989152154557      -0.1067686911       -0.0105909978805    -0.0982010185216    
2700000000.0        -0.0114169389626    -0.101892428102     0.988322969635      -0.110790129935     0.988322969635      -0.110790129935     -0.0114169389626    -0.101892428102     
2800000000.0        -0.0122725661422    -0.105574270588     0.987463991454      -0.11480205094      0.987463991454      -0.11480205094      -0.0122725661422    -0.105574270588     
2900000000.0        -0.0131577323463    -0.109246214778     0.986575366754      -0.118804124008     0.986575366754      -0.118804124008     -0.0131577323463    -0.109246214778     
3000000000.0        -0.0140722856608    -0.112907932151     0.985657247143      -0.122796021693     0.985657247143      -0.122796021693     -0.0140722856608    -0.112907932151     
3100000000.0        -0.0150160693892    -0.116559096963     0.984709789033      -0.12677741931      0.984709789033      -0.12677741931      -0.0150160693892    -0.116559096963     
3200000000.0        -0.0159889221141    -0.120199386334     0.983733153577      -0.130747995024     0.983733153577      -0.130747995024     -0.0159889221141    -0.120199386334     
3300000000.0        -0.0169906777604    -0.123828480341     0.982727506601      -0.134707429939     0.982727506601      -0.134707429939     -0.0169906777604    -0.123828480341     
3400000000.0        -0.0180211656609    -0.127446062104     0.98169301854       -0.138655408189     0.98169301854       -0.138655408189     -0.0180211656609    -0.127446062104     
3500000000.0        -0.0190802106237    -0.131051817872     0.980629864366      -0.142591617023     0.980629864366      -0.142591617023     -0.0190802106237    -0.131051817872     
3600000000.0        -0.0201676330017    -0.134645437108     0.979538223521      -0.146515746887     0.979538223521      -0.146515746887     -0.0201676330017    -0.134645437108     
3700000000.0        -0.0212832487638    -0.138226612565     0.978418279836      -0.150427491511     0.978418279836      -0.150427491511     -0.0212832487638    -0.138226612565     
3800000000.0        -0.022426869568     -0.141795040371     0.977270221467      -0.15432654798      0.977270221467      -0.15432654798      -0.022426869568     -0.141795040371     
3900000000.0        -0.0235983028361    -0.145350420104     0.976094240813      -0.15821261682      0.976094240813      -0.15821261682      -0.0235983028361    -0.145350420104     
4000000000.0        -0.0247973518299    -0.148892454865     0.97489053444       -0.162085402068     0.97489053444       -0.162085402068     -0.0247973518299    -0.148892454865     
4100000000.0        -0.0260238157295    -0.152420851354     0.973659303002      -0.165944611348     0.973659303002      -0.165944611348     -0.0260238157295    -0.152420851354     
4200000000.0        -0.027277489712     -0.155935319938     0.972400751164      -0.16978995594      0.972400751164      -0.16978995594      -0.027277489712     -0.155935319938     
4300000000.0        -0.0285581650329    -0.15943557472      0.971115087514      -0.17362115085      0.971115087514      -0.17362115085      -0.0285581650329    -0.15943557472      
4400000000.0        -0.0298656291079    -0.162921333606     0.969802524489      -0.177437914876     0.969802524489      -0.177437914876     -0.0298656291079    -0.162921333606     
4500000000.0        -0.0311996655961    -0.166392318368     0.968463278284      -0.181239970672     0.968463278284      -0.181239970672     -0.0311996655961    -0.166392318368     
4600000000.0        -0.032560054485     -0.169848254707     0.967097568771      -0.185027044809     0.967097568771      -0.185027044809     -0.032560054485     -0.169848254707     
4700000000.0        -0.0339465721757    -0.173288872309     0.965705619409      -0.188798867838     0.965705619409      -0.188798867838     -0.0339465721757    -0.173288872309     
4800000000.0        -0.03535899157      -0.176713904908     0.964287657164      -0.192555174344     0.964287657164      -0.192555174344     -0.03535899157      -0.176713904908     
4900000000.0        -0.0367970821577    -0.180123090334     0.962843912412      -0.196295703003     0.962843912412      -0.196295703003     -0.0367970821577    -0.180123090334     
5000000000.0        -0.038260610106     -0.18351617057      0.961374618857      -0.200020196632     0.961374618857      -0.200020196632     -0.038260610106     -0.18351617057      
5100000000.0        -0.039749338348     -0.186892891802     0.959880013438      -0.203728402243     0.959880013438      -0.203728402243     -0.039749338348     -0.186892891802     
5200000000.0        -0.0412630266738    -0.190253004464     0.958360336239      -0.207420071091     0.958360336239      -0.207420071091     -0.0412630266738    -0.190253004464     
5300000000.0        -0.0428014318212    -0.193596263289     0.956815830399      -0.211094958717     0.956815830399      -0.211094958717     -0.0428014318212    -0.193596263289     
5400000000.0        -0.0443643075674    -0.196922427346     0.955246742019      -0.214752824991     0.955246742019      -0.214752824991     -0.0443643075674    -0.196922427346     
5500000000.0        -0.0459514048211    -0.200231260083     0.953653320068      -0.21839343416      0.953653320068      -0.21839343416      -0.0459514048211    -0.200231260083     
5600000000.0        -0.0475624717154    -0.20352252937      0.952035816294      -0.222016554877     0.952035816294      -0.222016554877     -0.0475624717154    -0.20352252937      
5700000000.0        -0.0491972537013    -0.20679600753      0.950394485127      -0.225621960245     0.950394485127      -0.225621960245     -0.0491972537013    -0.20679600753      
5800000000.0        -0.0508554936408    -0.210051471373     0.948729583587      -0.229209427849     0.948729583587      -0.229209427849     -0.0508554936408    -0.210051471373     
5900000000.0        -0.0525369319014    -0.213288702231     0.94704137119       -0.232778739786     0.94704137119       -0.232778739786     -0.0525369319014    -0.213288702231     
6000000000.0        -0.0542413064497    -0.216507485988     0.945330109852      -0.236329682697     0.945330109852      -0.236329682697     -0.0542413064497    -0.216507485988     
6100000000.0        -0.0559683529466    -0.219707613101     0.943596063798      -0.239862047793     0.943596063798      -0.239862047793     -0.0559683529466    -0.219707613101     
6200000000.0        -0.0577178048412    -0.222888878632     0.941839499461      -0.243375630881     0.941839499461      -0.243375630881     -0.0577178048412    -0.222888878632     
6300000000.0        -0.0594893934659    -0.226051082265     0.940060685397      -0.246870232384     0.940060685397      -0.246870232384     -0.0594893934659    -0.226051082265     
6400000000.0        -0.0612828481309    -0.22919402833      0.938259892178      -0.250345657365     0.938259892178      -0.250345657365     -0.0612828481309    -0.22919402833      
6500000000.0        -0.0630978962187    -0.23231752582      0.936437392309      -0.253801715543     0.936437392309      -0.253801715543     -0.0630978962187    -0.23231752582      
6600000000.0        -0.064934263279     -0.235421388403     0.934593460126      -0.25723822131      0.934593460126      -0.25723822131      -0.064934263279     -0.235421388403     
6700000000.0        -0.0667916731229    -0.238505434444     0.932728371702      -0.260654993744     0.932728371702      -0.260654993744     -0.0667916731229    -0.238505434444     
6800000000.0        -0.068669847917     -0.241569487007     0.930842404759      -0.264051856619     0.930842404759      -0.264051856619     -0.068669847917     -0.241569487007     
6900000000.0        -0.0705685082776    -0.244613373872     0.928935838565      -0.267428638419     0.928935838565      -0.267428638419     -0.0705685082776    -0.244613373872     
7000000000.0        -0.0724873733639    -0.247636927536     0.927008953847      -0.27078517234      0.927008953847      -0.27078517234      -0.0724873733639    -0.247636927536     
7100000000.0        -0.0744261609717    -0.250639985221     0.925062032695      -0.274121296299     0.925062032695      -0.274121296299     -0.0744261609717    -0.250639985221     
7200000000.0        -0.076384587626     -0.253622388879     0.923095358469      -0.277436852933     0.923095358469      -0.277436852933     -0.076384587626     -0.253622388879     
7300000000.0        -0.078362368673     -0.256583985188     0.92110921571       -0.280731689605     0.92110921571       -0.280731689605     -0.078362368673     -0.256583985188     
7400000000.0        -0.0803592183725    -0.259524625552     0.919103890041      -0.284005658397     0.919103890041      -0.284005658397     -0.0803592183725    -0.259524625552     
7500000000.0        -0.0823748499888    -0.262444166101     0.917079668085      -0.287258616112     0.917079668085      -0.287258616112     -0.0823748499888    -0.262444166101     
7600000000.0        -0.0844089758815    -0.265342467683     0.915036837366      -0.290490424266     0.915036837366      -0.290490424266     -0.0844089758815    -0.265342467683     
7700000000.0        -0.0864613075949    -0.268219395856     0.912975686223      -0.293700949082     0.912975686223      -0.293700949082     -0.0864613075949    -0.268219395856     
7800000000.0        -0.0885315559481    -0.27107482088      0.910896503723      -0.29689006148      0.910896503723      -0.29689006148      -0.0885315559481    -0.27107482088      
7900000000.0        -0.0906194311228    -0.273908617708     0.908799579568      -0.300057637066     0.908799579568      -0.300057637066     -0.0906194311228    -0.273908617708     
8000000000.0        -0.0927246427513    -0.276720665969     0.906685204007      -0.30320355612      0.906685204007      -0.30320355612      -0.0927246427513    -0.276720665969     
8100000000.0        -0.0948469000032    -0.279510849956     0.904553667754      -0.306327703583     0.904553667754      -0.306327703583     -0.0948469000032    -0.279510849956     
8200000000.0        -0.0969859116713    -0.282279058609     0.9024052619        -0.309429969035     0.9024052619        -0.309429969035     -0.0969859116713    -0.282279058609     
8300000000.0        -0.0991413862569    -0.285025185497     0.900240277824      -0.312510246683     0.900240277824      -0.312510246683     -0.0991413862569    -0.285025185497     
8400000000.0        -0.101313032054     -0.287749128795     0.898059007115      -0.315568435339     0.898059007115      -0.315568435339     -0.101313032054     -0.287749128795     
8500000000.0        -0.103500557231     -0.290450791269     0.895861741485      -0.318604438396     0.895861741485      -0.318604438396     -0.103500557231     -0.290450791269     
8600000000.0        -0.105703669915     -0.293130080245     0.893648772686      -0.321618163807     0.893648772686      -0.321618163807     -0.105703669915     -0.293130080245     
8700000000.0        -0.107922078272     -0.29578690759      0.891420392435      -0.324609524062     0.891420392435      -0.324609524062     -0.107922078272     -0.29578690759      
8800000000.0        -0.110155490586     -0.298421189682     0.889176892326      -0.327578436157     0.889176892326      -0.327578436157     -0.110155490586     -0.298421189682     
8900000000.0        -0.112403615337     -0.301032847383     0.886918563757      -0.330524821571     0.886918563757      -0.330524821571     -0.112403615337     -0.301032847383     
9000000000.0        -0.114666161283     -0.30362180601      0.88464569785       -0.333448606231     0.88464569785       -0.333448606231     -0.114666161283     -0.30362180601      
9100000000.0        -0.116942837531     -0.306187995306     0.882358585375      -0.336349720488     0.882358585375      -0.336349720488     -0.116942837531     -0.306187995306     
9200000000.0        -0.119233353617     -0.308731349401     0.880057516674      -0.339228099079     0.880057516674      -0.339228099079     -0.119233353617     -0.308731349401     
9300000000.0        -0.121537419575     -0.311251806788     0.877742781589      -0.342083681097     0.877742781589      -0.342083681097     -0.121537419575     -0.311251806788     
9400000000.0        -0.123854746015     -0.313749310279     0.875414669386      -0.344916409952     0.875414669386      -0.344916409952     -0.123854746015     -0.313749310279     
9500000000.0        -0.126185044192     -0.316223806975     0.873073468686      -0.34772623334      0.873073468686      -0.34772623334      -0.126185044192     -0.316223806975     
9600000000.0        -0.128528026077     -0.318675248225     0.870719467394      -0.350513103202     0.870719467394      -0.350513103202     -0.128528026077     -0.318675248225     
9700000000.0        -0.130883404423     -0.321103589589     0.868352952629      -0.353276975688     0.868352952629      -0.353276975688     -0.130883404423     -0.321103589589     
9800000000.0        -0.133250892839     -0.323508790798     0.865974210657      -0.356017811114     0.865974210657      -0.356017811114     -0.133250892839     -0.323508790798     
9900000000.0        -0.13563020585      -0.325890815711     0.863583526826      -0.358735573923     0.863583526826      -0.358735573923     -0.13563020585      -0.325890815711     
10000000000.0       -0.138021058965     -0.328249632278     0.8611811855        -0.361430232644     0.8611811855        -0.361430232644     -0.138021058965     -0.328249632278     
