# Hz S RI R 50.00 
100000000.0         0.00123816452647    -0.00164160770483   0.998727984553      -0.00555716804886   0.998727984553      -0.00555716804886   0.00123816452647    -0.00164160770483   
200000000.0         0.00121574597536    -0.00328310719183   0.998665706689      -0.0111141313141    0.998665706689      -0.0111141313141    0.00121574597536    -0.00328310719183   
300000000.0         0.00117290195196    -0.00492430523421   0.998572009529      -0.0166707494388    0.998572009529      -0.0166707494388    0.00117290195196    -0.00492430523421   
400000000.0         0.00111071706122    -0.0065650148687    0.998445811696      -0.0222268463141    0.998445811696      -0.0222268463141    0.00111071706122    -0.0065650148687    
500000000.0         0.00102961165685    -0.00820504752494   0.998286699048      -0.0277822324146    0.998286699048      -0.0277822324146    0.00102961165685    -0.00820504752494   
600000000.0         0.000929803783797   -0.00984421268429   0.998094463036      -0.0333367102675    0.998094463036      -0.0333367102675    0.000929803783797   -0.00984421268429   
700000000.0         0.000811426570246   -0.0114823180595    0.997868983532      -0.0388900769197    0.997868983532      -0.0388900769197    0.000811426570245   -0.0114823180595    
800000000.0         0.000674571075759   -0.0131191698247    0.997610186141      -0.0444421253193    0.997610186141      -0.0444421253193    0.000674571075759   -0.0131191698247    
900000000.0         0.00051930538089    -0.0147545728251    0.997318023251      -0.049992645191     0.997318023251      -0.049992645191     0.00051930538089    -0.0147545728251    
1000000000.0        0.000345684274939   -0.0163883307569    0.996992464455      -0.0555414236374    0.996992464455      -0.0555414236374    0.000345684274939   -0.0163883307569    
1100000000.0        0.000153754651629   -0.0180202463224    0.996633491252      -0.0610882455793    0.996633491252      -0.0610882455793    0.000153754651629   -0.0180202463224    
1200000000.0        -5.64412670246e-05  -0.0196501213641    0.996241093905      -0.0666328940921    0.996241093905      -0.0666328940921    -5.64412670245e-05  -0.0196501213641    
1300000000.0        -0.000284863895097  -0.0212777569825    0.995815269474      -0.072175150672     0.995815269474      -0.072175150672     -0.000284863895097  -0.0212777569825    
1400000000.0        -0.000531474938717  -0.0229029536416    0.995356020543      -0.0777147954544    0.995356020543      -0.0777147954544    -0.000531474938717  -0.0229029536416    
1500000000.0        -0.000796236475229  -0.0245255112635    0.994863354345      -0.0832516073964    0.994863354345      -0.0832516073964    -0.000796236475229  -0.0245255112635    
1600000000.0        -0.00107911030238   -0.0261452293158    0.99433728217       -0.0887853644328    0.99433728217       -0.0887853644328    -0.00107911030238   -0.0261452293158    
1700000000.0        -0.001380057466     -0.027761906892     0.993777818931      -0.0943158436123    0.993777818931      -0.0943158436123    -0.001380057466     -0.027761906892     
1800000000.0        -0.0016990379093    -0.0293753427863    0.993184982856      -0.0998428212179    0.993184982856      -0.0998428212179    -0.0016990379093    -0.0293753427863    
1900000000.0        -0.00203601020735   -0.0309853355645    0.992558795254      -0.105366072875     0.992558795254      -0.105366072875     -0.00203601020735   -0.0309853355645    
2000000000.0        -0.00239093136254   -0.0325916836308    0.991899280347      -0.110885373649     0.991899280347      -0.110885373649     -0.00239093136254   -0.0325916836308    
2100000000.0        -0.00276375664467   -0.0341941852918    0.991206465129      -0.116400498134     0.991206465129      -0.116400498134     -0.00276375664467   -0.0341941852918    
2200000000.0        -0.00315443946446   -0.0357926388177    0.990480379273      -0.121911220541     0.990480379273      -0.121911220541     -0.00315443946446   -0.0357926388177    
2300000000.0        -0.00356293127226   -0.0373868425011    0.989721055041      -0.127417314767     0.989721055041      -0.127417314767     -0.00356293127226   -0.0373868425011    
2400000000.0        -0.00398918147638   -0.0389765947143    0.988928527226      -0.132918554475     0.988928527226      -0.132918554475     -0.00398918147638   -0.0389765947143    
2500000000.0        -0.00443313737667   -0.0405616939642    0.988102833101      -0.13841471316      0.988102833101      -0.13841471316      -0.00443313737667   -0.0405616939642    
2600000000.0        -0.00489474411032   -0.0421419389467    0.987244012371      -0.143905564212     0.987244012371      -0.143905564212     -0.00489474411032   -0.0421419389467    
2700000000.0        -0.00537394460741   -0.0437171285983    0.986352107144      -0.149390880982     0.986352107144      -0.149390880982     -0.00537394460741   -0.0437171285983    
2800000000.0        -0.00587067955455   -0.0452870621481    0.985427161899      -0.15487043684      0.985427161899      -0.15487043684      -0.00587067955455   -0.0452870621481    
2900000000.0        -0.00638488736508   -0.0468515391679    0.984469223461      -0.160344005232     0.984469223461      -0.160344005232     -0.00638488736508   -0.0468515391679    
3000000000.0        -0.0069165041548    -0.0484103596209    0.983478340979      -0.165811359734     0.983478340979      -0.165811359734     -0.0069165041548    -0.0484103596209    
3100000000.0        -0.00746546372243   -0.0499633239108    0.982454565909      -0.171272274108     0.982454565909      -0.171272274108     -0.00746546372243   -0.0499633239108    
3200000000.0        -0.00803169753405   -0.0515102329285    0.981397951994      -0.176726522353     0.981397951994      -0.176726522353     -0.00803169753405   -0.0515102329285    
3300000000.0        -0.00861513471096   -0.0530508880997    0.980308555249      -0.182173878754     0.980308555249      -0.182173878754     -0.00861513471096   -0.0530508880997    
3400000000.0        -0.00921570202066   -0.0545850914302    0.979186433945      -0.187614117931     0.979186433945      -0.187614117931     -0.00921570202066   -0.0545850914302    
3500000000.0        -0.00983332387039   -0.0561126455514    0.978031648598      -0.193047014887     0.978031648598      -0.193047014887     -0.00983332387039   -0.0561126455514    
3600000000.0        -0.0104679223031    -0.0576333537655    0.976844261951      -0.198472345056     0.976844261951      -0.198472345056     -0.0104679223031    -0.0576333537655    
3700000000.0        -0.0111194169956    -0.0591470200889    0.975624338963      -0.203889884345     0.975624338963      -0.203889884345     -0.0111194169956    -0.0591470200889    
3800000000.0        -0.0117877252583    -0.0606534492962    0.974371946795      -0.209299409183     0.974371946795      -0.209299409183     -0.0117877252583    -0.0606534492962    
3900000000.0        -0.0124727620375    -0.0621524469629    0.973087154797      -0.214700696559     0.973087154797      -0.214700696559     -0.0124727620375    -0.0621524469629    
4000000000.0        -0.013174439918     -0.0636438195076    0.971770034493      -0.220093524068     0.971770034493      -0.220093524068     -0.013174439918     -0.0636438195076    
4100000000.0        -0.0138926691285    -0.0651273742344    0.970420659571      -0.225477669953     0.970420659571      -0.225477669953     -0.0138926691285    -0.0651273742344    
4200000000.0        -0.0146273575479    -0.0666029193736    0.969039105863      -0.230852913144     0.969039105863      -0.230852913144     -0.0146273575479    -0.0666029193736    
4300000000.0        -0.015378410712     -0.0680702641227    0.967625451338      -0.236219033298     0.967625451338      -0.236219033298     -0.015378410712     -0.0680702641227    
4400000000.0        -0.0161457318233    -0.0695292186869    0.966179776081      -0.241575810839     0.966179776081      -0.241575810839     -0.0161457318233    -0.0695292186869    
4500000000.0        -0.0169292217601    -0.0709795943182    0.964702162281      -0.246923026999     0.964702162281      -0.246923026999     -0.0169292217601    -0.0709795943182    
4600000000.0        -0.0177287790874    -0.0724212033555    0.963192694216      -0.252260463851     0.963192694216      -0.252260463851     -0.0177287790874    -0.0724212033555    
4700000000.0        -0.0185443000693    -0.0738538592625    0.961651458236      -0.25758790435      0.961651458236      -0.25758790435      -0.0185443000693    -0.0738538592625    
4800000000.0        -0.0193756786816    -0.0752773766664    0.960078542746      -0.262905132367     0.960078542746      -0.262905132367     -0.0193756786816    -0.0752773766664    
4900000000.0        -0.0202228066256    -0.0766915713955    0.95847403819       -0.268211932726     0.95847403819       -0.268211932726     -0.0202228066256    -0.0766915713955    
5000000000.0        -0.021085573343     -0.0780962605162    0.956838037036      -0.273508091239     0.956838037036      -0.273508091239     -0.021085573343     -0.0780962605162    
5100000000.0        -0.0219638660313    -0.0794912623702    0.955170633751      -0.278793394742     0.955170633751      -0.278793394742     -0.0219638660313    -0.0794912623702    
5200000000.0        -0.0228575696603    -0.0808763966099    0.953471924792      -0.284067631126     0.953471924792      -0.284067631126     -0.0228575696603    -0.0808763966099    
5300000000.0        -0.0237665669892    -0.0822514842348    0.951742008579      -0.289330589371     0.951742008579      -0.289330589371     -0.0237665669892    -0.0822514842348    
5400000000.0        -0.0246907385847    -0.083616347626     0.949980985482      -0.29458205958      0.949980985482      -0.29458205958      -0.0246907385847    -0.083616347626     
5500000000.0        -0.0256299628393    -0.0849708105815    0.948188957796      -0.299821833009     0.948188957796      -0.299821833009     -0.0256299628393    -0.0849708105815    
5600000000.0        -0.0265841159912    -0.0863146983495    0.946366029723      -0.305049702101     0.946366029723      -0.305049702101     -0.0265841159912    -0.0863146983495    
5700000000.0        -0.0275530721438    -0.0876478376626    0.944512307351      -0.310265460512     0.944512307351      -0.310265460512     -0.0275530721438    -0.0876478376626    
5800000000.0        -0.0285367032868    -0.0889700567704    0.942627898634      -0.315468903146     0.942627898634      -0.315468903146     -0.0285367032868    -0.0889700567704    
5900000000.0        -0.0295348793174    -0.0902811854725    0.940712913367      -0.320659826182     0.940712913367      -0.320659826182     -0.0295348793174    -0.0902811854725    
6000000000.0        -0.0305474680624    -0.0915810551495    0.938767463167      -0.325838027103     0.938767463167      -0.325838027103     -0.0305474680624    -0.0915810551495    
6100000000.0        -0.0315743353003    -0.0928694987956    0.936791661447      -0.331003304725     0.936791661447      -0.331003304725     -0.0315743353003    -0.0928694987956    
6200000000.0        -0.0326153447853    -0.0941463510484    0.934785623396      -0.336155459221     0.934785623396      -0.336155459221     -0.0326153447853    -0.0941463510484    
6300000000.0        -0.03367035827      -0.0954114482197    0.932749465953      -0.341294292153     0.932749465953      -0.341294292153     -0.03367035827      -0.0954114482197    
6400000000.0        -0.0347392355305    -0.0966646283251    0.930683307783      -0.346419606495     0.930683307783      -0.346419606495     -0.0347392355305    -0.0966646283251    
6500000000.0        -0.0358218343906    -0.0979057311132    0.928587269254      -0.351531206659     0.928587269254      -0.351531206659     -0.0358218343906    -0.0979057311132    
6600000000.0        -0.0369180107473    -0.099134598094     0.926461472413      -0.356628898523     0.926461472413      -0.356628898523     -0.0369180107473    -0.099134598094     
6700000000.0        -0.0380276185965    -0.100351072567     0.924306040955      -0.361712489448     0.924306040955      -0.361712489448     -0.0380276185965    -0.100351072567     
6800000000.0        -0.0391505100594    -0.10155499965      0.922121100206      -0.366781788312     0.922121100206      -0.366781788312     -0.0391505100594    -0.10155499965      
6900000000.0        -0.0402865354088    -0.102746226302     0.919906777087      -0.371836605522     0.919906777087      -0.371836605522     -0.0402865354088    -0.102746226302     
7000000000.0        -0.0414355430966    -0.103924601354     0.917663200098      -0.376876753045     0.917663200098      -0.376876753045     -0.0414355430966    -0.103924601354     
7100000000.0        -0.042597379781     -0.105089975533     0.915390499282      -0.381902044428     0.915390499282      -0.381902044428     -0.042597379781     -0.105089975533     
7200000000.0        -0.0437718903549    -0.106242201485     0.913088806203      -0.386912294814     0.913088806203      -0.386912294814     -0.0437718903549    -0.106242201485     
7300000000.0        -0.0449589179739    -0.107381133804     0.910758253918      -0.39190732097      0.910758253918      -0.39190732097      -0.0449589179739    -0.107381133804     
7400000000.0        -0.0461583040848    -0.108506629051     0.908398976948      -0.3968869413       0.908398976948      -0.3968869413       -0.0461583040848    -0.108506629051     
7500000000.0        -0.0473698884553    -0.10961854578      0.906011111251      -0.401850975871     0.906011111251      -0.401850975871     -0.0473698884553    -0.10961854578      
7600000000.0        -0.0485935092031    -0.110716744562     0.903594794193      -0.406799246424     0.903594794193      -0.406799246424     -0.0485935092031    -0.110716744562     
7700000000.0        -0.0498290028253    -0.111801088004     0.901150164519      -0.411731576398     0.901150164519      -0.411731576398     -0.0498290028253    -0.111801088004     
7800000000.0        -0.0510762042291    -0.11287144077      0.898677362325      -0.416647790946     0.898677362325      -0.416647790946     -0.0510762042291    -0.11287144077      
7900000000.0        -0.0523349467618    -0.113927669607     0.89617652903       -0.421547716948     0.89617652903       -0.421547716948     -0.0523349467618    -0.113927669607     
8000000000.0        -0.0536050622414    -0.11496964336      0.893647807343      -0.426431183032     0.893647807343      -0.426431183032     -0.0536050622414    -0.11496964336      
8100000000.0        -0.0548863809877    -0.115997232995     0.891091341237      -0.431298019585     0.891091341237      -0.431298019585     -0.0548863809877    -0.115997232995     
8200000000.0        -0.0561787318534    -0.117010311614     0.888507275917      -0.436148058771     0.888507275917      -0.436148058771     -0.0561787318534    -0.117010311614     
8300000000.0        -0.0574819422556    -0.11800875448      0.885895757794      -0.440981134542     0.885895757794      -0.440981134542     -0.0574819422556    -0.11800875448      
8400000000.0        -0.0587958382072    -0.118992439027     0.883256934448      -0.445797082655     0.883256934448      -0.445797082655     -0.0587958382072    -0.118992439027     
8500000000.0        -0.0601202443492    -0.119961244883     0.880590954603      -0.45059574068      0.880590954603      -0.45059574068      -0.0601202443492    -0.119961244883     
8600000000.0        -0.0614549839822    -0.120915053886     0.877897968097      -0.455376948016     0.877897968097      -0.455376948016     -0.0614549839822    -0.120915053886     
8700000000.0        -0.0627998790991    -0.121853750095     0.875178125846      -0.460140545902     0.875178125846      -0.460140545902     -0.0627998790991    -0.121853750095     
8800000000.0        -0.0641547504173    -0.122777219813     0.872431579821      -0.464886377424     0.872431579821      -0.464886377424     -0.0641547504173    -0.122777219813     
8900000000.0        -0.0655194174114    -0.123685351596     0.86965848301       -0.469614287529     0.86965848301       -0.469614287529     -0.0655194174114    -0.123685351596     
9000000000.0        -0.0668936983458    -0.124578036267     0.866858989392      -0.474324123034     0.866858989392      -0.474324123034     -0.0668936983458    -0.124578036267     
9100000000.0        -0.0682774103077    -0.125455166935     0.864033253903      -0.479015732633     0.864033253903      -0.479015732633     -0.0682774103077    -0.125455166935     
9200000000.0        -0.0696703692398    -0.126316639003     0.861181432407      -0.483688966907     0.861181432407      -0.483688966907     -0.0696703692398    -0.126316639003     
9300000000.0        -0.0710723899738    -0.12716235018      0.858303681665      -0.488343678329     0.858303681665      -0.488343678329     -0.0710723899738    -0.12716235018      
9400000000.0        -0.0724832862632    -0.127992200496     0.855400159302      -0.492979721275     0.855400159302      -0.492979721275     -0.0724832862632    -0.127992200496     
9500000000.0        -0.0739028708167    -0.128806092312     0.852471023776      -0.497596952024     0.852471023776      -0.497596952024     -0.0739028708167    -0.128806092312     
9600000000.0        -0.0753309553315    -0.129603930329     0.84951643435       -0.502195228773     0.84951643435       -0.502195228773     -0.0753309553315    -0.129603930329     
9700000000.0        -0.0767673505266    -0.130385621599     0.846536551056      -0.506774411631     0.846536551056      -0.506774411631     -0.0767673505266    -0.130385621599     
9800000000.0        -0.0782118661766    -0.131151075534     0.843531534669      -0.511334362631     0.843531534669      -0.511334362631     -0.0782118661766    -0.131151075534     
9900000000.0        -0.0796643111445    -0.131900203915     0.840501546672      -0.515874945732     0.840501546672      -0.515874945732     -0.0796643111445    -0.131900203915     
10000000000.0       -0.0811244934157    -0.132632920902     0.837446749226      -0.520396026821     0.837446749226      -0.520396026821     -0.0811244934157    -0.132632920902     
