# Hz S RI R 50.00 
100000000.0         0.0274991124203     0.00113170496312    0.972499538882      -0.00145456675541   0.972499538882      -0.00145456675541   0.0274991124203     0.00113170496312    
200000000.0         0.0276796938579     0.00226246347819    0.972318503508      -0.00290818833446   0.972318503508      -0.00290818833446   0.0276796938579     0.00226246347819    
300000000.0         0.0278155574912     0.00339264767373    0.972182080686      -0.00436123766634   0.972182080686      -0.00436123766634   0.0278155574912     0.00339264767373    
400000000.0         0.0279301102496     0.00452238008671    0.972066863475      -0.00581383792974   0.972066863475      -0.00581383792974   0.0279301102496     0.00452238008671    
500000000.0         0.0280323962088     0.00565172505279    0.971963807788      -0.00726605402263   0.971963807788      -0.00726605402263   0.0280323962088     0.00565172505279    
600000000.0         0.0281270423213     0.006780721078      0.971868286663      -0.00871792496182   0.971868286663      -0.00871792496182   0.0281270423213     0.006780721078      
700000000.0         0.0282167903033     0.00790939247641    0.971777558375      -0.0101694755347    0.971777558375      -0.0101694755347    0.0282167903033     0.00790939247641    
800000000.0         0.0283034219001     0.00903775477183    0.971689841166      -0.0116207217096    0.971689841166      -0.0116207217096    0.0283034219001     0.00903775477183    
900000000.0         0.0283881713818     0.0101658176009     0.971603900758      -0.013071673544     0.971603900758      -0.013071673544     0.0283881713818     0.0101658176009     
1000000000.0        0.0284719348885     0.0112935864328     0.971518841         -0.0145223369089    0.971518841         -0.0145223369089    0.0284719348885     0.0112935864328     
1100000000.0        0.028555386945      0.0124210636619     0.971433987357      -0.0159727145834    0.971433987357      -0.0159727145834    0.028555386945      0.0124210636619     
1200000000.0        0.028639049974      0.0135482493394     0.971348817396      -0.0174228069894    0.971348817396      -0.0174228069894    0.028639049974      0.0135482493394     
1300000000.0        0.0287233380829     0.0146751416852     0.971262916997      -0.0188726127043    0.971262916997      -0.0188726127043    0.0287233380829     0.0146751416852     
1400000000.0        0.02880858588       0.0158017374562     0.971175951543      -0.0203221288316    0.971175951543      -0.0203221288316    0.02880858588       0.0158017374562     
1500000000.0        0.0288950681334     0.0169280322214     0.971087646252      -0.0217713512763    0.971087646252      -0.0217713512763    0.0288950681334     0.0169280322214     
1600000000.0        0.0289830135959     0.01805402057       0.970997772361      -0.0232202749546    0.970997772361      -0.0232202749546    0.0289830135959     0.01805402057       
1700000000.0        0.0290726149787     0.0191796962731     0.970906137147      -0.0246688939558    0.970906137147      -0.0246688939558    0.0290726149787     0.0191796962731     
1800000000.0        0.0291640363097     0.0203050524114     0.970812576568      -0.0261172016712    0.970812576568      -0.0261172016712    0.0291640363097     0.0203050524114     
1900000000.0        0.0292574184669     0.0214300814773     0.970716949734      -0.0275651908963    0.970716949734      -0.0275651908963    0.0292574184669     0.0214300814773     
2000000000.0        0.0293528834123     0.0225547754579     0.970619134671      -0.0290128539147    0.970619134671      -0.0290128539147    0.0293528834123     0.0225547754579     
2100000000.0        0.0294505374783     0.0236791259031     0.970519025032      -0.0304601825665    0.970519025032      -0.0304601825665    0.0294505374783     0.0236791259031     
2200000000.0        0.0295504739559     0.0248031239822     0.970416527513      -0.0319071683051    0.970416527513      -0.0319071683051    0.0295504739559     0.0248031239822     
2300000000.0        0.0296527751554     0.025926760531      0.97031155979       -0.0333538022451    0.97031155979       -0.0333538022451    0.0296527751554     0.025926760531      
2400000000.0        0.0297575140664     0.0270500260925     0.970204048858      -0.0348000752024    0.970204048858      -0.0348000752024    0.0297575140664     0.0270500260925     
2500000000.0        0.0298647557081     0.0281729109499     0.970093929685      -0.0362459777289    0.970093929685      -0.0362459777289    0.0298647557081     0.0281729109499     
2600000000.0        0.0299745582371     0.029295405157      0.969981144099      -0.0376915001417    0.969981144099      -0.0376915001417    0.0299745582371     0.029295405157      
2700000000.0        0.0300869738647     0.0304174985626     0.969865639872      -0.0391366325487    0.969865639872      -0.0391366325487    0.0300869738647     0.0304174985626     
2800000000.0        0.0302020496211     0.0315391808328     0.969747369961      -0.0405813648707    0.969747369961      -0.0405813648707    0.0302020496211     0.0315391808328     
2900000000.0        0.0303198279978     0.0326604414703     0.969626291857      -0.0420256868609    0.969626291857      -0.0420256868609    0.0303198279978     0.0326604414703     
3000000000.0        0.0304403474899     0.0337812698309     0.969502367049      -0.0434695881216    0.969502367049      -0.0434695881216    0.0304403474899     0.0337812698309     
3100000000.0        0.0305636430576     0.0349016551384     0.969375560561      -0.0449130581195    0.969375560561      -0.0449130581195    0.0305636430576     0.0349016551384     
3200000000.0        0.0306897465204     0.0360215864979     0.969245840556      -0.046356086199     0.969245840556      -0.046356086199     0.0306897465204     0.0360215864979     
3300000000.0        0.0308186868964     0.0371410529078     0.969113178         -0.0477986615937    0.969113178         -0.0477986615937    0.0308186868964     0.0371410529078     
3400000000.0        0.0309504906949     0.0382600432694     0.968977546367      -0.0492407734375    0.968977546367      -0.0492407734375    0.0309504906949     0.0382600432694     
3500000000.0        0.0310851821705     0.0393785463972     0.968838921383      -0.0506824107737    0.968838921383      -0.0506824107737    0.0310851821705     0.0393785463972     
3600000000.0        0.0312227835444     0.0404965510271     0.968697280811      -0.0521235625639    0.968697280811      -0.0521235625639    0.0312227835444     0.0404965510271     
3700000000.0        0.031363315198      0.0416140458237     0.968552604251      -0.0535642176956    0.968552604251      -0.0535642176956    0.031363315198      0.0416140458237     
3800000000.0        0.0315067958431     0.0427310193877     0.968404872972      -0.0550043649891    0.968404872972      -0.0550043649891    0.0315067958431     0.0427310193877     
3900000000.0        0.0316532426719     0.0438474602619     0.968254069764      -0.0564439932042    0.968254069764      -0.0564439932042    0.0316532426719     0.0438474602619     
4000000000.0        0.0318026714892     0.0449633569372     0.968100178804      -0.0578830910458    0.968100178804      -0.0578830910458    0.0318026714892     0.0449633569372     
4100000000.0        0.0319550968304     0.0460786978575     0.967943185536      -0.0593216471693    0.967943185536      -0.0593216471693    0.0319550968304     0.0460786978575     
4200000000.0        0.0321105320662     0.0471934714252     0.967783076571      -0.0607596501856    0.967783076571      -0.0607596501856    0.0321105320662     0.0471934714252     
4300000000.0        0.0322689894957     0.0483076660046     0.96761983959       -0.0621970886655    0.96761983959       -0.0621970886655    0.0322689894957     0.0483076660046     
4400000000.0        0.0324304804303     0.049421269927      0.967453463261      -0.0636339511438    0.967453463261      -0.0636339511438    0.0324304804303     0.049421269927      
4500000000.0        0.0325950152687     0.0505342714939     0.967283937167      -0.0650702261233    0.967283937167      -0.0650702261233    0.0325950152688     0.0505342714939     
4600000000.0        0.0327626035647     0.0516466589807     0.967111251732      -0.0665059020784    0.967111251732      -0.0665059020784    0.0327626035647     0.0516466589807     
4700000000.0        0.0329332540874     0.0527584206399     0.966935398166      -0.067940967458     0.966935398166      -0.067940967458     0.0329332540874     0.0527584206399     
4800000000.0        0.033106974877      0.0538695447041     0.96675636841       -0.069375410689     0.96675636841       -0.069375410689     0.033106974877      0.0538695447041     
4900000000.0        0.0332837732943     0.0549800193887     0.96657415508       -0.0708092201791    0.96657415508       -0.0708092201791    0.0332837732943     0.0549800193887     
5000000000.0        0.0334636560661     0.0560898328949     0.966388751429      -0.0722423843194    0.966388751429      -0.0722423843194    0.0334636560661     0.0560898328949     
5100000000.0        0.0336466293263     0.0571989734118     0.9662001513        -0.0736748914868    0.9662001513        -0.0736748914868    0.0336466293263     0.0571989734118     
5200000000.0        0.0338326986535     0.0583074291189     0.966008349094      -0.0751067300466    0.966008349094      -0.0751067300466    0.0338326986535     0.0583074291189     
5300000000.0        0.0340218691052     0.059415188188      0.965813339731      -0.0765378883543    0.965813339731      -0.0765378883543    0.0340218691052     0.059415188188      
5400000000.0        0.0342141452494     0.0605222387855     0.96561511862       -0.0779683547583    0.96561511862       -0.0779683547583    0.0342141452494     0.0605222387855     
5500000000.0        0.0344095311932     0.0616285690744     0.965413681632      -0.0793981176013    0.965413681632      -0.0793981176013    0.0344095311932     0.0616285690744     
5600000000.0        0.0346080306089     0.0627341672157     0.965209025071      -0.0808271652223    0.965209025071      -0.0808271652223    0.0346080306089     0.0627341672157     
5700000000.0        0.0348096467589     0.0638390213706     0.965001145652      -0.0822554859585    0.965001145652      -0.0822554859585    0.0348096467589     0.0638390213706     
5800000000.0        0.0350143825174     0.0649431197017     0.964790040477      -0.0836830681469    0.964790040477      -0.0836830681469    0.0350143825174     0.0649431197017     
5900000000.0        0.0352222403916     0.0660464503747     0.964575707016      -0.0851099001256    0.964575707016      -0.0851099001256    0.0352222403916     0.0660464503747     
6000000000.0        0.0354332225401     0.0671490015601     0.964358143087      -0.0865359702359    0.964358143087      -0.0865359702359    0.0354332225401     0.0671490015601     
6100000000.0        0.0356473307912     0.068250761434      0.964137346836      -0.0879612668228    0.964137346836      -0.0879612668228    0.0356473307912     0.068250761434      
6200000000.0        0.0358645666585     0.0693517181801     0.963913316727      -0.0893857782373    0.963913316727      -0.0893857782373    0.0358645666585     0.0693517181801     
6300000000.0        0.0360849313566     0.0704518599905     0.963686051519      -0.0908094928372    0.963686051519      -0.0908094928372    0.0360849313566     0.0704518599905     
6400000000.0        0.0363084258149     0.0715511750671     0.96345555026       -0.0922323989882    0.96345555026       -0.0922323989882    0.0363084258149     0.0715511750671     
6500000000.0        0.0365350506908     0.0726496516224     0.963221812266      -0.0936544850654    0.963221812266      -0.0936544850654    0.0365350506908     0.0726496516224     
6600000000.0        0.0367648063814     0.0737472778813     0.962984837115      -0.0950757394544    0.962984837115      -0.0950757394544    0.0367648063814     0.0737472778813     
6700000000.0        0.0369976930357     0.0748440420814     0.962744624634      -0.096496150552     0.962744624634      -0.096496150552     0.0369976930357     0.0748440420814     
6800000000.0        0.0372337105644     0.0759399324746     0.962501174885      -0.0979157067678    0.962501174885      -0.0979157067678    0.0372337105644     0.0759399324746     
6900000000.0        0.0374728586501     0.0770349373276     0.962254488161      -0.0993343965247    0.962254488161      -0.0993343965247    0.0374728586501     0.0770349373276     
7000000000.0        0.0377151367566     0.0781290449232     0.962004564971      -0.10075220826      0.962004564971      -0.10075220826      0.0377151367566     0.0781290449232     
7100000000.0        0.0379605441375     0.0792222435608     0.961751406037      -0.102169130427     0.961751406037      -0.102169130427     0.0379605441375     0.0792222435608     
7200000000.0        0.0382090798442     0.0803145215578     0.961495012279      -0.103585151494     0.961495012279      -0.103585151494     0.0382090798442     0.0803145215578     
7300000000.0        0.0384607427337     0.08140586725       0.961235384816      -0.105000259947     0.961235384816      -0.105000259947     0.0384607427337     0.08140586725       
7400000000.0        0.0387155314758     0.0824962689924     0.960972524949      -0.106414444291     0.960972524949      -0.106414444291     0.0387155314758     0.0824962689924     
7500000000.0        0.0389734445596     0.0835857151602     0.960706434163      -0.107827693048     0.960706434163      -0.107827693048     0.0389734445596     0.0835857151602     
7600000000.0        0.0392344802999     0.0846741941497     0.960437114115      -0.109239994761     0.960437114115      -0.109239994761     0.0392344802999     0.0846741941497     
7700000000.0        0.0394986368434     0.0857616943783     0.960164566633      -0.110651337992     0.960164566633      -0.110651337992     0.0394986368434     0.0857616943783     
7800000000.0        0.039765912174      0.086848204286      0.959888793704      -0.112061711325     0.959888793704      -0.112061711325     0.039765912174      0.086848204286      
7900000000.0        0.0400363041184     0.0879337123358     0.959609797474      -0.113471103364     0.959609797474      -0.113471103364     0.0400363041184     0.0879337123358     
8000000000.0        0.0403098103509     0.0890182070141     0.95932758024       -0.114879502737     0.95932758024       -0.114879502737     0.0403098103509     0.0890182070141     
8100000000.0        0.0405864283982     0.0901016768317     0.959042144448      -0.116286898095     0.959042144448      -0.116286898095     0.0405864283982     0.0901016768317     
8200000000.0        0.0408661556441     0.0911841103243     0.958753492685      -0.117693278112     0.958753492685      -0.117693278112     0.0408661556441     0.0911841103243     
8300000000.0        0.0411489893335     0.0922654960529     0.958461627678      -0.119098631485     0.958461627678      -0.119098631485     0.0411489893335     0.0922654960529     
8400000000.0        0.0414349265764     0.0933458226048     0.958166552289      -0.120502946939     0.958166552289      -0.120502946939     0.0414349265764     0.0933458226048     
8500000000.0        0.041723964352      0.0944250785938     0.957868269509      -0.121906213221     0.957868269509      -0.121906213221     0.041723964352      0.0944250785938     
8600000000.0        0.0420160995122     0.0955032526609     0.957566782457      -0.123308419106     0.957566782457      -0.123308419106     0.0420160995122     0.0955032526609     
8700000000.0        0.042311328785      0.0965803334748     0.957262094376      -0.124709553395     0.957262094376      -0.124709553395     0.042311328785      0.0965803334748     
8800000000.0        0.0426096487778     0.0976563097325     0.956954208629      -0.126109604917     0.956954208629      -0.126109604917     0.0426096487778     0.0976563097325     
8900000000.0        0.0429110559807     0.0987311701599     0.956643128696      -0.127508562527     0.956643128696      -0.127508562527     0.0429110559807     0.0987311701599     
9000000000.0        0.0432155467693     0.0998049035119     0.956328858172      -0.128906415108     0.956328858172      -0.128906415108     0.0432155467693     0.0998049035119     
9100000000.0        0.0435231174075     0.100877498573      0.956011400763      -0.130303151575     0.956011400763      -0.130303151575     0.0435231174075     0.100877498573      
9200000000.0        0.0438337640504     0.101948944159      0.955690760284      -0.131698760868     0.955690760284      -0.131698760868     0.0438337640504     0.101948944159      
9300000000.0        0.044147482747      0.103019229116      0.955366940655      -0.133093231958     0.955366940655      -0.133093231958     0.044147482747      0.103019229116      
9400000000.0        0.0444642694421     0.104088342319      0.955039945901      -0.134486553848     0.955039945901      -0.134486553848     0.0444642694421     0.104088342319      
9500000000.0        0.0447841199796     0.105156272678      0.954709780147      -0.135878715568     0.954709780147      -0.135878715568     0.0447841199796     0.105156272678      
9600000000.0        0.0451070301037     0.106223009134      0.954376447619      -0.137269706182     0.954376447619      -0.137269706182     0.0451070301037     0.106223009134      
9700000000.0        0.0454329954619     0.107288540659      0.954039952637      -0.138659514785     0.954039952637      -0.138659514785     0.0454329954619     0.107288540659      
9800000000.0        0.0457620116069     0.108352856259      0.953700299618      -0.140048130501     0.953700299618      -0.140048130501     0.0457620116069     0.108352856259      
9900000000.0        0.0460940739984     0.109415944973      0.953357493071      -0.141435542489     0.953357493071      -0.141435542489     0.0460940739984     0.109415944973      
10000000000.0       0.046429178005      0.110477795875      0.953011537595      -0.142821739942     0.953011537595      -0.142821739942     0.046429178005      0.110477795875      
