# Hz S RI R 50.00 
100000000.0         3.11215514737e-06   -0.000450259850522  0.999994516467      -0.000492593243698  0.999994516467      -0.000492593243698  3.11215514714e-06   -0.000450259850522  
200000000.0         2.01232853514e-06   -0.000900567564976  0.999993355625      -0.000985239727276  0.999993355625      -0.000985239727276  2.01232853536e-06   -0.000900567564976  
300000000.0         4.61053659251e-07   -0.00135094705921   0.999991756444      -0.00147796610863   0.999991756444      -0.00147796610863   4.61053659251e-07   -0.00135094705921   
400000000.0         -1.53827604066e-06  -0.0018014159116    0.999989714908      -0.00197079205983   0.999989714908      -0.00197079205983   -1.53827604055e-06  -0.0018014159116    
500000000.0         -3.98460042417e-06  -0.00225198834401   0.999987229231      -0.00246373356521   0.999987229231      -0.00246373356521   -3.98460042395e-06  -0.00225198834401   
600000000.0         -6.87760118512e-06  -0.00270267628151   0.999984298287      -0.00295680409249   0.999984298287      -0.00295680409249   -6.87760118523e-06  -0.00270267628151   
700000000.0         -1.02172915847e-05  -0.00315348991399   0.999980921211      -0.0034500152115    0.999980921211      -0.0034500152115    -1.02172915849e-05  -0.00315348991399   
800000000.0         -1.40038651798e-05  -0.00360443802555   0.999977097259      -0.00394337695782   0.999977097259      -0.00394337695782   -1.40038651798e-05  -0.00360443802555   
900000000.0         -1.82376259638e-05  -0.00405552823352   0.999972825748      -0.00443689809458   0.999972825748      -0.00443689809458   -1.8237625964e-05   -0.00405552823352   
1000000000.0        -2.29189517732e-05  -0.00450676714338   0.999968106024      -0.00493058628352   0.999968106024      -0.00493058628352   -2.29189517731e-05  -0.00450676714338   
1100000000.0        -2.80482722578e-05  -0.00495816048383   0.999962937453      -0.00542444823208   0.999962937453      -0.00542444823208   -2.80482722578e-05  -0.00495816048383   
1200000000.0        -3.36260552897e-05  -0.00540971320091   0.999957319408      -0.00591848979675   0.999957319408      -0.00591848979675   -3.36260552897e-05  -0.00540971320091   
1300000000.0        -3.96527972685e-05  -0.0058614295396    0.999951251267      -0.00641271607216   0.999951251267      -0.00641271607216   -3.96527972685e-05  -0.0058614295396    
1400000000.0        -4.61290162787e-05  -0.00631331311222   0.999944732409      -0.00690713146543   0.999944732409      -0.00690713146543   -4.61290162791e-05  -0.00631331311222   
1500000000.0        -5.3055246843e-05   -0.00676536695129   0.999937762217      -0.00740173975413   0.999937762217      -0.00740173975413   -5.30552468431e-05  -0.00676536695129   
1600000000.0        -6.04320357652e-05  -0.00721759356526   0.999930340074      -0.00789654414619   0.999930340074      -0.00789654414619   -6.04320357651e-05  -0.00721759356526   
1700000000.0        -6.82599388239e-05  -0.00766999497534   0.999922465366      -0.00839154732045   0.999922465366      -0.00839154732045   -6.82599388238e-05  -0.00766999497534   
1800000000.0        -7.65395179242e-05  -0.00812257275599   0.99991413748       -0.00888675147031   0.99991413748       -0.00888675147031   -7.65395179241e-05  -0.00812257275599   
1900000000.0        -8.5271338774e-05   -0.00857532806816   0.999905355808      -0.00938215833978   0.999905355808      -0.00938215833978   -8.5271338774e-05   -0.00857532806816   
2000000000.0        -9.44559688161e-05  -0.0090282616903    0.999896119742      -0.00987776925696   0.999896119742      -0.00987776925696   -9.4455968816e-05   -0.0090282616903    
2100000000.0        -0.000104093975466  -0.00948137404511   0.999886428684      -0.010373585163     0.999886428684      -0.010373585163     -0.000104093975466  -0.00948137404511   
2200000000.0        -0.000114185924505  -0.00993466522408   0.999876282037      -0.0108696066388    0.999876282037      -0.0108696066388    -0.000114185924506  -0.00993466522408   
2300000000.0        -0.000124732378729  -0.0103881350126    0.999865679212      -0.0113658339315    0.999865679212      -0.0113658339315    -0.000124732378729  -0.0103881350126    
2400000000.0        -0.000135733896673  -0.0108417829087    0.999854619627      -0.0118622669755    0.999854619627      -0.0118622669755    -0.000135733896673  -0.0108417829087    
2500000000.0        -0.000147191031529  -0.0112956081446    0.999843102707      -0.0123589054151    0.999843102707      -0.0123589054151    -0.000147191031529  -0.0112956081446    
2600000000.0        -0.000159104330098  -0.0117496097024    0.999831127885      -0.0128557486217    0.999831127885      -0.0128557486217    -0.000159104330098  -0.0117496097024    
2700000000.0        -0.000171474331915  -0.0122037863332    0.999818694604      -0.013352795714     0.999818694604      -0.013352795714     -0.000171474331915  -0.0122037863332    
2800000000.0        -0.000184301568435  -0.0126581365716    0.999805802315      -0.0138500455744    0.999805802315      -0.0138500455744    -0.000184301568435  -0.0126581365716    
2900000000.0        -0.000197586562267  -0.0131126587501    0.999792450481      -0.0143474968634    0.999792450481      -0.0143474968634    -0.000197586562266  -0.0131126587501    
3000000000.0        -0.00021132982655   -0.0135673510141    0.999778638575      -0.0148451480368    0.999778638575      -0.0148451480368    -0.00021132982655   -0.0135673510141    
3100000000.0        -0.000225531864296  -0.0140222113322    0.99976436608       -0.0153429973562    0.99976436608       -0.0153429973562    -0.000225531864296  -0.0140222113322    
3200000000.0        -0.000240193167877  -0.0144772375105    0.999749632491      -0.0158410429043    0.999749632491      -0.0158410429043    -0.000240193167877  -0.0144772375105    
3300000000.0        -0.000255314218536  -0.0149324272028    0.999734437315      -0.0163392825963    0.999734437315      -0.0163392825963    -0.000255314218536  -0.0149324272028    
3400000000.0        -0.000270895485941  -0.0153877779218    0.999718780071      -0.0168377141916    0.999718780071      -0.0168377141916    -0.000270895485941  -0.0153877779218    
3500000000.0        -0.000286937427765  -0.0158432870478    0.999702660291      -0.0173363353033    0.999702660291      -0.0173363353033    -0.000286937427765  -0.0158432870478    
3600000000.0        -0.000303440489372  -0.0162989518397    0.99968607752       -0.0178351434101    0.99968607752       -0.0178351434101    -0.000303440489372  -0.0162989518397    
3700000000.0        -0.00032040510346   -0.0167547694422    0.999669031315      -0.0183341358639    0.999669031315      -0.0183341358639    -0.00032040510346   -0.0167547694422    
3800000000.0        -0.000337831689819  -0.0172107368961    0.999651521248      -0.0188333099007    0.999651521248      -0.0188333099007    -0.000337831689818  -0.0172107368961    
3900000000.0        -0.00035572065505   -0.0176668511439    0.999633546903      -0.0193326626473    0.999633546903      -0.0193326626473    -0.00035572065505   -0.0176668511439    
4000000000.0        -0.000374072392359  -0.0181231090387    0.999615107879      -0.0198321911302    0.999615107879      -0.0198321911302    -0.000374072392359  -0.0181231090387    
4100000000.0        -0.0003928872814    -0.0185795073514    0.999596203787      -0.0203318922835    0.999596203787      -0.0203318922835    -0.0003928872814    -0.0185795073514    
4200000000.0        -0.000412165688046  -0.0190360427756    0.999576834255      -0.0208317629545    0.999576834255      -0.0208317629545    -0.000412165688046  -0.0190360427756    
4300000000.0        -0.000431907964325  -0.0194927119361    0.999556998921      -0.0213317999125    0.999556998921      -0.0213317999125    -0.000431907964325  -0.0194927119361    
4400000000.0        -0.000452114448243  -0.0199495113925    0.999536697442      -0.0218319998529    0.999536697442      -0.0218319998529    -0.000452114448243  -0.0199495113925    
4500000000.0        -0.000472785463754  -0.0204064376469    0.999515929486      -0.0223323594054    0.999515929486      -0.0223323594054    -0.000472785463754  -0.0204064376469    
4600000000.0        -0.000493921320625  -0.0208634871478    0.999494694736      -0.0228328751379    0.999494694736      -0.0228328751379    -0.000493921320625  -0.0208634871478    
4700000000.0        -0.000515522314424  -0.0213206562954    0.999472992889      -0.0233335435631    0.999472992889      -0.0233335435631    -0.000515522314424  -0.0213206562954    
4800000000.0        -0.000537588726457  -0.0217779414463    0.999450823659      -0.0238343611425    0.999450823659      -0.0238343611425    -0.000537588726457  -0.0217779414463    
4900000000.0        -0.000560120823763  -0.0222353389179    0.999428186771      -0.0243353242922    0.999428186771      -0.0243353242922    -0.000560120823763  -0.0222353389179    
5000000000.0        -0.000583118859093  -0.0226928449928    0.999405081967      -0.0248364293864    0.999405081967      -0.0248364293864    -0.000583118859093  -0.0226928449928    
5100000000.0        -0.000606583070935  -0.0231504559228    0.999381509001      -0.025337672763     0.999381509001      -0.025337672763     -0.000606583070935  -0.0231504559228    
5200000000.0        -0.000630513683502  -0.0236081679319    0.999357467643      -0.0258390507261    0.999357467643      -0.0258390507261    -0.000630513683502  -0.0236081679319    
5300000000.0        -0.000654910906793  -0.0240659772208    0.999332957678      -0.026340559551     0.999332957678      -0.026340559551     -0.000654910906793  -0.0240659772208    
5400000000.0        -0.000679774936625  -0.0245238799697    0.999307978903      -0.0268421954875    0.999307978903      -0.0268421954875    -0.000679774936626  -0.0245238799697    
5500000000.0        -0.000705105954652  -0.0249818723412    0.999282531132      -0.0273439547624    0.999282531132      -0.0273439547624    -0.000705105954652  -0.0249818723412    
5600000000.0        -0.000730904128489  -0.025439950484     0.99925661419       -0.0278458335845    0.99925661419       -0.0278458335845    -0.000730904128489  -0.025439950484     
5700000000.0        -0.000757169611718  -0.0258981105352    0.999230227919      -0.0283478281459    0.999230227919      -0.0283478281459    -0.000757169611718  -0.0258981105352    
5800000000.0        -0.000783902543998  -0.0263563486226    0.999203372173      -0.0288499346258    0.999203372173      -0.0288499346258    -0.000783902543999  -0.0263563486226    
5900000000.0        -0.000811103051137  -0.026814660868     0.999176046822      -0.0293521491927    0.999176046822      -0.0293521491927    -0.000811103051137  -0.026814660868     
6000000000.0        -0.000838771245198  -0.0272730433891    0.999148251748      -0.0298544680079    0.999148251748      -0.0298544680079    -0.000838771245198  -0.0272730433891    
6100000000.0        -0.000866907224574  -0.0277314923016    0.999119986846      -0.0303568872266    0.999119986846      -0.0303568872266    -0.000866907224574  -0.0277314923016    
6200000000.0        -0.000895511074086  -0.0281900037212    0.999091252027      -0.0308594030007    0.999091252027      -0.0308594030007    -0.000895511074086  -0.0281900037212    
6300000000.0        -0.000924582865117  -0.0286485737661    0.999062047214      -0.0313620114813    0.999062047214      -0.0313620114813    -0.000924582865117  -0.0286485737661    
6400000000.0        -0.000954122655698  -0.0291071985583    0.999032372345      -0.0318647088202    0.999032372345      -0.0318647088202    -0.000954122655698  -0.0291071985583    
6500000000.0        -0.000984130490618  -0.0295658742252    0.999002227368      -0.0323674911717    0.999002227368      -0.0323674911717    -0.000984130490618  -0.0295658742252    
6600000000.0        -0.00101460640158   -0.0300245969018    0.998971612247      -0.0328703546951    0.998971612247      -0.0328703546951    -0.00101460640158   -0.0300245969018    
6700000000.0        -0.00104555040728   -0.0304833627319    0.99894052696       -0.0333732955556    0.99894052696       -0.0333732955556    -0.00104555040728   -0.0304833627319    
6800000000.0        -0.00107696251354   -0.0309421678693    0.998908971493      -0.0338763099259    0.998908971493      -0.0338763099259    -0.00107696251354   -0.0309421678693    
6900000000.0        -0.00110884271347   -0.0314010084794    0.99887694585       -0.0343793939882    0.99887694585       -0.0343793939882    -0.00110884271347   -0.0314010084794    
7000000000.0        -0.00114119098755   -0.0318598807406    0.998844450046      -0.0348825439352    0.998844450046      -0.0348825439352    -0.00114119098755   -0.0318598807406    
7100000000.0        -0.00117400730379   -0.0323187808449    0.998811484106      -0.0353857559713    0.998811484106      -0.0353857559713    -0.00117400730379   -0.0323187808449    
7200000000.0        -0.00120729161786   -0.0327777049994    0.998778048071      -0.0358890263137    0.998778048071      -0.0358890263137    -0.00120729161786   -0.0327777049994    
7300000000.0        -0.00124104387319   -0.0332366494275    0.998744141993      -0.0363923511941    0.998744141993      -0.0363923511941    -0.00124104387319   -0.0332366494275    
7400000000.0        -0.00127526400117   -0.0336956103691    0.998709765934      -0.0368957268593    0.998709765934      -0.0368957268593    -0.00127526400117   -0.0336956103691    
7500000000.0        -0.00130995192124   -0.0341545840824    0.998674919971      -0.037399149572     0.998674919971      -0.037399149572     -0.00130995192124   -0.0341545840824    
7600000000.0        -0.00134510754105   -0.0346135668441    0.998639604192      -0.0379026156122    0.998639604192      -0.0379026156122    -0.00134510754105   -0.0346135668441    
7700000000.0        -0.00138073075656   -0.0350725549501    0.998603818696      -0.0384061212776    0.998603818696      -0.0384061212776    -0.00138073075656   -0.0350725549501    
7800000000.0        -0.00141682145223   -0.0355315447168    0.998567563593      -0.0389096628848    0.998567563593      -0.0389096628848    -0.00141682145223   -0.0355315447168    
7900000000.0        -0.00145337950114   -0.0359905324811    0.998530839005      -0.0394132367696    0.998530839005      -0.0394132367696    -0.00145337950114   -0.0359905324811    
8000000000.0        -0.0014904047651    -0.0364495146012    0.998493645067      -0.039916839288     0.998493645067      -0.039916839288     -0.0014904047651    -0.0364495146012    
8100000000.0        -0.00152789709484   -0.0369084874576    0.998455981923      -0.0404204668165    0.998455981923      -0.0404204668165    -0.00152789709484   -0.0369084874576    
8200000000.0        -0.0015658563301    -0.0373674474526    0.998417849728      -0.040924115753     0.998417849728      -0.040924115753     -0.0015658563301    -0.0373674474526    
8300000000.0        -0.00160428229983   -0.037826391012     0.998379248649      -0.0414277825173    0.998379248649      -0.0414277825173    -0.00160428229983   -0.037826391012     
8400000000.0        -0.00164317482225   -0.0382853145847    0.998340178862      -0.0419314635513    0.998340178862      -0.0419314635513    -0.00164317482225   -0.0382853145847    
8500000000.0        -0.00168253370502   -0.0387442146427    0.998300640557      -0.0424351553195    0.998300640557      -0.0424351553195    -0.00168253370502   -0.0387442146427    
8600000000.0        -0.00172235874546   -0.0392030876831    0.99826063393       -0.0429388543098    0.99826063393       -0.0429388543098    -0.00172235874546   -0.0392030876831    
8700000000.0        -0.00176264973052   -0.0396619302266    0.99822015919       -0.0434425570335    0.99822015919       -0.0434425570335    -0.00176264973052   -0.0396619302266    
8800000000.0        -0.00180340643707   -0.0401207388185    0.998179216557      -0.0439462600254    0.998179216557      -0.0439462600254    -0.00180340643707   -0.0401207388185    
8900000000.0        -0.00184462863196   -0.0405795100295    0.998137806257      -0.044449959845     0.998137806257      -0.044449959845     -0.00184462863196   -0.0405795100295    
9000000000.0        -0.00188631607216   -0.041038240455     0.99809592853       -0.0449536530756    0.99809592853       -0.0449536530756    -0.00188631607216   -0.041038240455     
9100000000.0        -0.00192846850491   -0.0414969267157    0.998053583625      -0.0454573363255    0.998053583625      -0.0454573363255    -0.00192846850491   -0.0414969267157    
9200000000.0        -0.00197108566784   -0.041955565458     0.998010771798      -0.0459610062277    0.998010771798      -0.0459610062277    -0.00197108566784   -0.041955565458     
9300000000.0        -0.00201416728912   -0.0424141533538    0.997967493317      -0.04646465944      0.997967493317      -0.04646465944      -0.00201416728912   -0.0424141533538    
9400000000.0        -0.00205771308756   -0.0428726871007    0.99792374846       -0.0469682926458    0.99792374846       -0.0469682926458    -0.00205771308756   -0.0428726871007    
9500000000.0        -0.00210172277278   -0.0433311634222    0.997879537511      -0.0474719025534    0.997879537511      -0.0474719025534    -0.00210172277278   -0.0433311634222    
9600000000.0        -0.00214619604529   -0.0437895790679    0.997834860766      -0.0479754858968    0.997834860766      -0.0479754858968    -0.00214619604529   -0.0437895790679    
9700000000.0        -0.00219113259667   -0.0442479308132    0.997789718528      -0.0484790394355    0.997789718528      -0.0484790394355    -0.00219113259668   -0.0442479308132    
9800000000.0        -0.00223653210966   -0.0447062154594    0.997744111111      -0.0489825599543    0.997744111111      -0.0489825599543    -0.00223653210966   -0.0447062154594    
9900000000.0        -0.00228239425827   -0.0451644298343    0.997698038836      -0.049486044264     0.997698038836      -0.049486044264     -0.00228239425827   -0.0451644298343    
10000000000.0       -0.00232871870797   -0.0456225707914    0.997651502033      -0.0499894892009    0.997651502033      -0.0499894892009    -0.00232871870797   -0.0456225707914    
