# Hz S RI R 50.00 
100000000.0         -0.0010322071214    -0.0318171816337    0.99893841544       -0.0318554834072    0.99893841544       -0.0318554834072    -0.0010322071214    -0.0318171816337    
200000000.0         -0.00409494203957   -0.0634363774906    0.995875477535      -0.0635129834654    0.995875477535      -0.0635129834654    -0.00409494203957   -0.0634363774906    
300000000.0         -0.00913679647071   -0.0946680471261    0.990833469151      -0.0947829610158    0.990833469151      -0.0947829610158    -0.00913679647071   -0.0946680471261    
400000000.0         -0.0160972268243    -0.12533049983      0.983872908637      -0.125483726347     0.983872908637      -0.125483726347     -0.0160972268243    -0.12533049983      
500000000.0         -0.0248943129056    -0.155253258131     0.975075706518      -0.155444802844     0.975075706518      -0.155444802844     -0.0248943129056    -0.155253258131     
600000000.0         -0.0354271125164    -0.184279997585     0.964542800089      -0.184509866822     0.964542800089      -0.184509866822     -0.0354271125164    -0.184279997585     
700000000.0         -0.0475784592611    -0.2122709434       0.952391352866      -0.212539144179     0.952391352866      -0.212539144179     -0.0475784592611    -0.2122709434       
800000000.0         -0.0612180624312    -0.239104656906     0.938751653699      -0.239411196879     0.938751653699      -0.239411196879     -0.0612180624312    -0.239104656906     
900000000.0         -0.0762057644843    -0.264679184632     0.923763858857      -0.265024072039     0.923763858857      -0.265024072039     -0.0762057644843    -0.264679184632     
1000000000.0        -0.0923948166208    -0.288912578933     0.907574716222      -0.289295822562     0.907574716222      -0.289295822562     -0.0923948166208    -0.288912578933     
1100000000.0        -0.109635046301     -0.311742830311     0.890334397647      -0.312164439467     0.890334397647      -0.312164439467     -0.109635046301     -0.311742830311     
1200000000.0        -0.12777581031      -0.333127276303     0.872193545822      -0.333587260774     0.872193545822      -0.333587260774     -0.12777581031      -0.333127276303     
1300000000.0        -0.146668650776     -0.353041569153     0.853300618207      -0.353539939185     0.853300618207      -0.353539939185     -0.146668650776     -0.353041569153     
1400000000.0        -0.16616959686      -0.371478294217     0.833799585308      -0.372015060489     0.833799585308      -0.372015060489     -0.16616959686      -0.371478294217     
1500000000.0        -0.186141079648     -0.388445333786     0.813828015769      -0.389020507386     0.813828015769      -0.389020507386     -0.186141079648     -0.388445333786     
1600000000.0        -0.206453450263     -0.403964067784     0.793515558246      -0.404577660189     0.793515558246      -0.404577660189     -0.206453450263     -0.403964067784     
1700000000.0        -0.226986110285     -0.418067494969     0.772982810973      -0.418719518027     0.772982810973      -0.418719518027     -0.226986110285     -0.418067494969     
1800000000.0        -0.247628278613     -0.430798347309     0.752340554893      -0.431488813217     0.752340554893      -0.431488813217     -0.247628278613     -0.430798347309     
1900000000.0        -0.268279429692     -0.442207257445     0.731689315427      -0.442936178735     0.731689315427      -0.442936178735     -0.268279429692     -0.442207257445     
2000000000.0        -0.288849444819     -0.452351025941     0.711119211163      -0.453118415461     0.711119211163      -0.453118415461     -0.288849444819     -0.452351025941     
2100000000.0        -0.309258521558     -0.461291022116     0.690710044438      -0.462096893018     0.690710044438      -0.462096893018     -0.309258521558     -0.461291022116     
2200000000.0        -0.329436886615     -0.469091740556     0.670531588459      -0.469936106278     0.670531588459      -0.469936106278     -0.329436886615     -0.469091740556     
2300000000.0        -0.349324355695     -0.475819525182     0.650644027445      -0.476702399436     0.650644027445      -0.476702399436     -0.349324355695     -0.475819525182     
2400000000.0        -0.368869780367     -0.481541464289     0.63109850976       -0.482462861046     0.63109850976       -0.482462861046     -0.368869780367     -0.481541464289     
2500000000.0        -0.388030417561     -0.486324453338     0.611937778414      -0.487284386819     0.611937778414      -0.487284386819     -0.388030417561     -0.486324453338     
2600000000.0        -0.406771252312     -0.490234417299     0.59319684832       -0.491232901958     0.59319684832       -0.491232901958     -0.406771252312     -0.490234417299     
2700000000.0        -0.425064299343     -0.493335680893     0.574903704708      -0.494372731409     0.574903704708      -0.494372731409     -0.425064299343     -0.493335680893     
2800000000.0        -0.442887904171     -0.495690472956     0.557080002016      -0.49676610422      0.557080002016      -0.49676610422      -0.442887904171     -0.495690472956     
2900000000.0        -0.460226059889     -0.497358550035     0.539741747117      -0.49847277714      0.539741747117      -0.49847277714      -0.460226059889     -0.497358550035     
3000000000.0        -0.477067751741     -0.498396924106     0.522899954729      -0.499549762337     0.522899954729      -0.499549762337     -0.477067751741     -0.498396924106     
3100000000.0        -0.493406338134     -0.498859679649     0.506561266417      -0.500051144472     0.506561266417      -0.500051144472     -0.493406338134     -0.498859679649     
3200000000.0        -0.509238973749     -0.498797866126     0.490728527468      -0.500027973179     0.490728527468      -0.500027973179     -0.509238973749     -0.498797866126     
3300000000.0        -0.524566078053     -0.498259453009     0.475401318391      -0.499528218095     0.475401318391      -0.499528218095     -0.524566078053     -0.498259453009     
3400000000.0        -0.539390850546     -0.497289335756     0.460576439663      -0.498596774828     0.460576439663      -0.498596774828     -0.539390850546     -0.497289335756     
3500000000.0        -0.553718832617     -0.495929382425     0.446248349873      -0.497275511587     0.446248349873      -0.497275511587     -0.553718832617     -0.495929382425     
3600000000.0        -0.567557514769     -0.49421851198      0.432409558497      -0.495603347469     0.432409558497      -0.495603347469     -0.567557514769     -0.49421851198      
3700000000.0        -0.580915987158     -0.492192796549     0.419050975361      -0.493616354734     0.419050975361      -0.493616354734     -0.580915987158     -0.492192796549     
3800000000.0        -0.593804630867     -0.48988558112      0.406162219366      -0.491347878492     0.406162219366      -0.491347878492     -0.593804630867     -0.48988558112      
3900000000.0        -0.606234847001     -0.487327615197     0.39373188939       -0.48882866836      0.39373188939       -0.48882866836      -0.606234847001     -0.487327615197     
4000000000.0        -0.618218820514     -0.48454719192      0.381747800465      -0.486087017587     0.381747800465      -0.486087017587     -0.618218820514     -0.48454719192      
4100000000.0        -0.629769315649     -0.481570290988     0.370197188335      -0.483148905973     0.370197188335      -0.483148905973     -0.629769315649     -0.481570290988     
4200000000.0        -0.640899499895     -0.478420722459     0.359066885498      -0.480038143669     0.359066885498      -0.480038143669     -0.640899499895     -0.478420722459     
4300000000.0        -0.651622793526     -0.475120269115     0.348343471669      -0.476776513547     0.348343471669      -0.476776513547     -0.651622793526     -0.475120269115     
4400000000.0        -0.661952741886     -0.471688825651     0.338013401492      -0.473383910381     0.338013401492      -0.473383910381     -0.661952741886     -0.471688825651     
4500000000.0        -0.67190290783      -0.468144533331     0.328063112102      -0.469878475513     0.328063112102      -0.469878475513     -0.67190290783      -0.468144533331     
4600000000.0        -0.681486781897     -0.464503909182     0.318479112952      -0.466276726039     0.318479112952      -0.466276726039     -0.681486781897     -0.464503909182     
4700000000.0        -0.690717708015     -0.460781969064     0.309248060104      -0.462593677885     0.309248060104      -0.462593677885     -0.690717708015     -0.460781969064     
4800000000.0        -0.699608822739     -0.456992344199     0.300356816994      -0.458842962332     0.300356816994      -0.458842962332     -0.699608822739     -0.456992344199     
4900000000.0        -0.708173006243     -0.45314739096      0.291792503441      -0.455036935808     0.291792503441      -0.455036935808     -0.708173006243     -0.45314739096      
5000000000.0        -0.716422843436     -0.449258293844     0.283542534528      -0.451186782859     0.283542534528      -0.451186782859     -0.716422843436     -0.449258293844     
5100000000.0        -0.7243705938       -0.445335161698     0.275594650767      -0.447302612376     0.275594650767      -0.447302612376     -0.7243705938       -0.445335161698     
5200000000.0        -0.732028168677     -0.44138711734      0.267936940808      -0.44339354722      0.267936940808      -0.44339354722      -0.732028168677     -0.44138711734      
5300000000.0        -0.7394071149       -0.437422380798     0.260557857812      -0.439467807454     0.260557857812      -0.439467807454     -0.7394071149       -0.437422380798     
5400000000.0        -0.746518603788     -0.433448346417     0.253446230454      -0.435532787453     0.253446230454      -0.435532787453     -0.746518603788     -0.433448346417     
5500000000.0        -0.753373424666     -0.429471654139     0.246591269405      -0.43159512719      0.246591269405      -0.43159512719      -0.753373424666     -0.429471654139     
5600000000.0        -0.759981982155     -0.425498255271     0.239982570037      -0.427660777994     0.239982570037      -0.427660777994     -0.759981982155     -0.425498255271     
5700000000.0        -0.766354296605     -0.421533473055     0.233610111996      -0.423735063129     0.233610111996      -0.423735063129     -0.766354296605     -0.421533473055     
5800000000.0        -0.77250000711      -0.417582058376     0.227464256182      -0.419822733496     0.227464256182      -0.419822733496     -0.77250000711      -0.417582058376     
5900000000.0        -0.778428376621     -0.413648240929     0.22153573964       -0.415928018804     0.22153573964       -0.415928018804     -0.778428376621     -0.413648240929     
6000000000.0        -0.784148298766     -0.409735776157     0.215815668738      -0.412054674504     0.215815668738      -0.412054674504     -0.784148298766     -0.409735776157     
6100000000.0        -0.789668306        -0.405847988266     0.210295511016      -0.408206024812     0.210295511016      -0.408206024812     -0.789668306        -0.405847988266     
6200000000.0        -0.794996578811     -0.401987809616     0.204967085983      -0.404385002091     0.204967085983      -0.404385002091     -0.794996578811     -0.401987809616     
6300000000.0        -0.800140955712     -0.398157816749     0.19982255512       -0.400594182884     0.19982255512       -0.400594182884     -0.800140955712     -0.398157816749     
6400000000.0        -0.805108943816     -0.394360263331     0.194854411314      -0.396835820855     0.194854411314      -0.396835820855     -0.805108943816     -0.394360263331     
6500000000.0        -0.809907729797     -0.390597110245     0.190055467885      -0.393111876884     0.190055467885      -0.393111876884     -0.809907729797     -0.390597110245     
6600000000.0        -0.814544191109     -0.386870053071     0.185418847375      -0.389424046544     0.185418847375      -0.389424046544     -0.814544191109     -0.386870053071     
6700000000.0        -0.819024907318     -0.383180547155     0.180937970216      -0.385773785173     0.180937970216      -0.385773785173     -0.819024907318     -0.383180547155     
6800000000.0        -0.823356171448     -0.379529830488     0.176606543381      -0.382162330748     0.176606543381      -0.382162330748     -0.823356171448     -0.379529830488     
6900000000.0        -0.827544001262     -0.375918944553     0.172418549104      -0.37859072474      0.172418549104      -0.37859072474      -0.827544001262     -0.375918944553     
7000000000.0        -0.831594150404     -0.37234875333      0.168368233737      -0.375059831115     0.168368233737      -0.375059831115     -0.831594150404     -0.37234875333      
7100000000.0        -0.83551211934      -0.368819960617     0.164450096812      -0.371570353652     0.164450096812      -0.371570353652     -0.83551211934      -0.368819960617     
7200000000.0        -0.839303166068     -0.365333125791     0.16065888033       -0.368122851709     0.16065888033       -0.368122851709     -0.839303166068     -0.365333125791     
7300000000.0        -0.842972316546     -0.361888678171     0.156989558327      -0.364717754584     0.156989558327      -0.364717754584     -0.842972316546     -0.361888678171     
7400000000.0        -0.846524374834     -0.35848693008      0.153437326743      -0.361355374577     0.153437326743      -0.361355374577     -0.846524374834     -0.35848693008      
7500000000.0        -0.849963932899     -0.355128088739     0.149997593607      -0.358035918885     0.149997593607      -0.358035918885     -0.849963932899     -0.355128088739     
7600000000.0        -0.853295380109     -0.35181226708      0.146665969549      -0.354759500414     0.146665969549      -0.354759500414     -0.853295380109     -0.35181226708      
7700000000.0        -0.85652291237      -0.348539493581     0.143438258663      -0.351526147614     0.143438258663      -0.351526147614     -0.85652291237      -0.348539493581     
7800000000.0        -0.859650540928     -0.345309721208     0.140310449697      -0.348335813424     0.140310449697      -0.348335813424     -0.859650540928     -0.345309721208     
7900000000.0        -0.862682100828     -0.34212283554      0.137278707607      -0.345188383393     0.137278707607      -0.345188383393     -0.862682100828     -0.34212283554      
8000000000.0        -0.865621259023     -0.338978662154     0.134339365435      -0.342083683065     0.134339365435      -0.342083683065     -0.865621259023     -0.338978662154     
8100000000.0        -0.868471522151     -0.335876973326     0.131488916544      -0.339021484687     0.131488916544      -0.339021484687     -0.868471522151     -0.335876973326     
8200000000.0        -0.871236243976     -0.332817494126     0.128724007165      -0.336001513293     0.128724007165      -0.336001513293     -0.871236243976     -0.332817494126     
8300000000.0        -0.873918632505     -0.329799907935     0.126041429291      -0.333023452231     0.126041429291      -0.333023452231     -0.873918632505     -0.329799907935     
8400000000.0        -0.876521756788     -0.326823861468     0.123438113871      -0.330086948181     0.123438113871      -0.330086948181     -0.876521756788     -0.326823861468     
8500000000.0        -0.879048553408     -0.323888969311     0.120911124317      -0.327191615694     0.120911124317      -0.327191615694     -0.879048553408     -0.323888969311     
8600000000.0        -0.88150183268      -0.320994818048     0.118457650315      -0.324337041316     0.118457650315      -0.324337041316     -0.88150183268      -0.320994818048     
8700000000.0        -0.883884284553     -0.318140969992     0.116075001913      -0.321522787325     0.116075001913      -0.321522787325     -0.883884284553     -0.318140969992     
8800000000.0        -0.886198484245     -0.315326966568     0.113760603891      -0.318748395105     0.113760603891      -0.318748395105     -0.886198484245     -0.315326966568     
8900000000.0        -0.888446897604     -0.312552331368     0.111511990401      -0.316013388212     0.111511990401      -0.316013388212     -0.888446897604     -0.312552331368     
9000000000.0        -0.890631886218     -0.309816572921     0.109326799851      -0.313317275134     0.109326799851      -0.313317275134     -0.890631886218     -0.309816572921     
9100000000.0        -0.892755712279     -0.307119187191     0.107202770049      -0.310659551798     0.107202770049      -0.310659551798     -0.892755712279     -0.307119187191     
9200000000.0        -0.894820543211     -0.304459659836     0.105137733569      -0.30803970382      0.105137733569      -0.30803970382      -0.894820543211     -0.304459659836     
9300000000.0        -0.896828456076     -0.301837468244     0.103129613347      -0.305457208547     0.103129613347      -0.305457208547     -0.896828456076     -0.301837468244     
9400000000.0        -0.898781441769     -0.299252083365     0.101176418487      -0.302911536891     0.101176418487      -0.302911536891     -0.898781441769     -0.299252083365     
9500000000.0        -0.900681408999     -0.296702971367     0.0992762402776     -0.300402154977     0.0992762402776     -0.300402154977     -0.900681408999     -0.296702971367     
9600000000.0        -0.902530188087     -0.294189595119     0.0974272483972     -0.297928525634     0.0974272483972     -0.297928525634     -0.902530188087     -0.294189595119     
9700000000.0        -0.904329534571     -0.291711415527     0.0956276873068     -0.295490109725     0.0956276873068     -0.295490109725     -0.904329534571     -0.291711415527     
9800000000.0        -0.906081132634     -0.289267892725     0.0938758728196     -0.293086367345     0.0938758728196     -0.293086367345     -0.906081132634     -0.289267892725     
9900000000.0        -0.907786598375     -0.286858487152     0.0921701888383     -0.290716758889     0.0921701888383     -0.290716758889     -0.907786598375     -0.286858487152     
10000000000.0       -0.9094474829       -0.284482660499     0.0905090842528     -0.288380746008     0.0905090842528     -0.288380746008     -0.9094474829       -0.284482660499     
