# Hz S RI R 50.00 
100000000.0         0.00181828033282    0.00120649106305    0.998177063726      -0.00313686270832   0.998177063726      -0.00313686270832   0.00181828033282    0.00120649106305    
200000000.0         0.00184089664823    0.00241283017699    0.998147062599      -0.0062736100624    0.998147062599      -0.0062736100624    0.00184089664823    0.00241283017699    
300000000.0         0.00186790779647    0.00361900888344    0.998108937292      -0.00941025432672   0.998108937292      -0.00941025432672   0.00186790779647    0.00361900888344    
400000000.0         0.00190088545928    0.00482499142727    0.998061115506      -0.0125467748467    0.998061115506      -0.0125467748467    0.00190088545928    0.00482499142727    
500000000.0         0.0019404337108     0.00603073585146    0.998002992422      -0.0156831418812    0.998002992422      -0.0156831418812    0.0019404337108     0.00603073585146    
600000000.0         0.0019868595775     0.00723619754499    0.997934260162      -0.0188193211188    0.997934260162      -0.0188193211188    0.0019868595775     0.00723619754499    
700000000.0         0.00204034342884    0.00844133051038    0.997854737406      -0.0219552754444    0.997854737406      -0.0219552754444    0.00204034342884    0.00844133051038    
800000000.0         0.00210100113797    0.00964608794806    0.997764307236      -0.0250909658236    0.997764307236      -0.0250909658236    0.00210100113797    0.00964608794806    
900000000.0         0.00216891174675    0.0108504225678     0.997662889485      -0.0282263518138    0.997662889485      -0.0282263518138    0.00216891174675    0.0108504225678     
1000000000.0        0.00224413148232    0.0120542867715     0.99755042672       -0.0313613918886    0.99755042672       -0.0313613918886    0.00224413148232    0.0120542867715     
1100000000.0        0.00232670154528    0.0132576327682     0.997426876462      -0.0344960436585    0.997426876462      -0.0344960436585    0.00232670154528    0.0132576327682     
1200000000.0        0.00241665274838    0.0144604126505     0.997292206549      -0.0376302640283    0.997292206549      -0.0376302640283    0.00241665274837    0.0144604126505     
1300000000.0        0.0025140084336     0.0156625784472     0.997146392227      -0.0407640093141    0.997146392227      -0.0407640093141    0.0025140084336     0.0156625784472     
1400000000.0        0.0026187863889     0.0168640821609     0.996989414231      -0.0438972353336    0.996989414231      -0.0438972353336    0.0026187863889     0.0168640821609     
1500000000.0        0.00273100015367    0.018064875796      0.996821257489      -0.0470298974769    0.996821257489      -0.0470298974769    0.00273100015367    0.018064875796      
1600000000.0        0.00285065993541    0.0192649113793     0.996641910202      -0.0501619507641    0.996641910202      -0.0501619507641    0.00285065993541    0.0192649113793     
1700000000.0        0.00297777327014    0.0204641409765     0.996451363192      -0.0532933498927    0.996451363192      -0.0532933498927    0.00297777327014    0.0204641409765     
1800000000.0        0.00311234550889    0.0216625167047     0.996249609412      -0.0564240492763    0.996249609412      -0.0564240492763    0.00311234550889    0.0216625167047     
1900000000.0        0.00325438018316    0.0228599907422     0.996036643589      -0.0595540030789    0.996036643589      -0.0595540030789    0.00325438018316    0.0228599907422     
2000000000.0        0.00340387928415    0.0240565153372     0.995812461941      -0.0626831652434    0.995812461941      -0.0626831652434    0.00340387928415    0.0240565153372     
2100000000.0        0.00356084347942    0.0252520428146     0.995577061968      -0.0658114895164    0.995577061968      -0.0658114895164    0.00356084347942    0.0252520428146     
2200000000.0        0.00372527228329    0.0264465255812     0.995330442278      -0.0689389294702    0.995330442278      -0.0689389294702    0.00372527228329    0.0264465255812     
2300000000.0        0.00389716419254    0.027639916131      0.995072602457      -0.0720654385227    0.995072602457      -0.0720654385227    0.00389716419254    0.027639916131      
2400000000.0        0.00407651679562    0.0288321670494     0.994803542959      -0.0751909699541    0.994803542959      -0.0751909699541    0.00407651679562    0.0288321670494     
2500000000.0        0.00426332686158    0.0300232310166     0.99452326502       -0.0783154769229    0.99452326502       -0.0783154769229    0.00426332686158    0.0300232310166     
2600000000.0        0.00445759041303    0.0312130608108     0.994231770585      -0.08143891248      0.994231770585      -0.08143891248      0.00445759041303    0.0312130608108     
2700000000.0        0.00465930278659    0.0324016093113     0.993929062253      -0.0845612295816    0.993929062253      -0.0845612295816    0.00465930278659    0.0324016093113     
2800000000.0        0.00486845868336    0.0335888295014     0.99361514322       -0.0876823811007    0.99361514322       -0.0876823811007    0.00486845868336    0.0335888295014     
2900000000.0        0.00508505221145    0.0347746744699     0.993290017246      -0.0908023198386    0.993290017246      -0.0908023198386    0.00508505221145    0.0347746744699     
3000000000.0        0.00530907692193    0.0359590974145     0.992953688616      -0.0939209985343    0.992953688616      -0.0939209985343    0.00530907692193    0.0359590974145     
3100000000.0        0.00554052583955    0.0371420516428     0.99260616211       -0.0970383698741    0.99260616211       -0.0970383698741    0.00554052583955    0.0371420516428     
3200000000.0        0.00577939148911    0.0383234905751     0.992247442979      -0.100154386501     0.992247442979      -0.100154386501     0.00577939148911    0.0383234905751     
3300000000.0        0.00602566591822    0.0395033677458     0.991877536923      -0.103269001021     0.991877536923      -0.103269001021     0.00602566591822    0.0395033677458     
3400000000.0        0.00627934071709    0.0406816368053     0.991496450073      -0.106382166012     0.991496450073      -0.106382166012     0.00627934071709    0.0406816368053     
3500000000.0        0.00654040703583    0.041858251522      0.991104188972      -0.109493834034     0.991104188972      -0.109493834034     0.00654040703583    0.041858251522      
3600000000.0        0.00680885559958    0.0430331657834     0.990700760564      -0.112603957629     0.990700760564      -0.112603957629     0.00680885559958    0.0430331657834     
3700000000.0        0.00708467672197    0.0442063335983     0.990286172179      -0.115712489334     0.990286172179      -0.115712489334     0.00708467672197    0.0442063335983     
3800000000.0        0.00736786031697    0.045377709098      0.989860431522      -0.118819381683     0.989860431522      -0.118819381683     0.00736786031697    0.045377709098      
3900000000.0        0.00765839590952    0.046547246538      0.989423546666      -0.121924587216     0.989423546666      -0.121924587216     0.00765839590952    0.046547246538      
4000000000.0        0.00795627264501    0.0477149002997     0.98897552604       -0.125028058483     0.98897552604       -0.125028058483     0.00795627264501    0.0477149002997     
4100000000.0        0.00826147929784    0.0488806248916     0.988516378422      -0.128129748049     0.988516378422      -0.128129748049     0.00826147929784    0.0488806248916     
4200000000.0        0.00857400427917    0.050044374951      0.988046112932      -0.131229608499     0.988046112932      -0.131229608499     0.00857400427917    0.050044374951      
4300000000.0        0.00889383564393    0.0512061052453     0.987564739027      -0.134327592445     0.987564739027      -0.134327592445     0.00889383564393    0.0512061052453     
4400000000.0        0.00922096109723    0.0523657706738     0.987072266494      -0.137423652528     0.987072266494      -0.137423652528     0.00922096109723    0.0523657706738     
4500000000.0        0.00955536800026    0.0535233262689     0.986568705444      -0.140517741425     0.986568705444      -0.140517741425     0.00955536800026    0.0535233262689     
4600000000.0        0.00989704337565    0.0546787271973     0.986054066308      -0.143609811853     0.986054066308      -0.143609811853     0.00989704337565    0.0546787271973     
4700000000.0        0.0102459739125     0.0558319287622     0.985528359833      -0.14669981657      0.985528359833      -0.14669981657      0.0102459739125     0.0558319287622     
4800000000.0        0.010602145971      0.0569828864039     0.984991597077      -0.149787708385     0.984991597077      -0.149787708385     0.010602145971      0.0569828864039     
4900000000.0        0.0109655455869     0.0581315557016     0.984443789406      -0.152873440156     0.984443789406      -0.152873440156     0.0109655455869     0.0581315557016     
5000000000.0        0.0113361584751     0.0592778923752     0.98388494849       -0.155956964799     0.98388494849       -0.155956964799     0.0113361584751     0.0592778923752     
5100000000.0        0.0117139700341     0.0604218522859     0.9833150863        -0.159038235287     0.9833150863        -0.159038235287     0.0117139700341     0.0604218522859     
5200000000.0        0.0120989653489     0.0615633914383     0.982734215104      -0.162117204659     0.982734215104      -0.162117204659     0.0120989653489     0.0615633914383     
5300000000.0        0.012491129195      0.0627024659815     0.982142347465      -0.165193826018     0.982142347465      -0.165193826018     0.012491129195      0.0627024659815     
5400000000.0        0.0128904460411     0.0638390322104     0.981539496238      -0.168268052538     0.981539496238      -0.168268052538     0.0128904460411     0.0638390322104     
5500000000.0        0.0132969000523     0.0649730465677     0.980925674568      -0.171339837468     0.980925674568      -0.171339837468     0.0132969000523     0.0649730465677     
5600000000.0        0.0137104750934     0.0661044656445     0.980300895885      -0.17440913413      0.980300895885      -0.17440913413      0.0137104750934     0.0661044656445     
5700000000.0        0.014131154731      0.0672332461821     0.979665173906      -0.177475895931     0.979665173906      -0.177475895931     0.014131154731      0.0672332461821     
5800000000.0        0.0145589222366     0.0683593450737     0.979018522627      -0.180540076356     0.979018522627      -0.180540076356     0.0145589222366     0.0683593450737     
5900000000.0        0.0149937605893     0.069482719365      0.978360956326      -0.183601628981     0.978360956326      -0.183601628981     0.0149937605893     0.069482719365      
6000000000.0        0.015435652478      0.0706033262563     0.977692489559      -0.186660507467     0.977692489559      -0.186660507467     0.015435652478      0.0706033262563     
6100000000.0        0.015884580304      0.0717211231038     0.977013137155      -0.189716665569     0.977013137155      -0.189716665569     0.015884580304      0.0717211231038     
6200000000.0        0.0163405261831     0.0728360674203     0.97632291422       -0.192770057137     0.97632291422       -0.192770057137     0.0163405261831     0.0728360674203     
6300000000.0        0.0168034719482     0.0739481168776     0.975621836128      -0.195820636118     0.975621836128      -0.195820636118     0.0168034719482     0.0739481168776     
6400000000.0        0.0172733991513     0.075057229307      0.974909918527      -0.198868356561     0.974909918527      -0.198868356561     0.0172733991513     0.075057229307      
6500000000.0        0.017750289066      0.0761633627011     0.974187177329      -0.201913172616     0.974187177329      -0.201913172616     0.017750289066      0.0761633627011     
6600000000.0        0.018234122689      0.0772664752152     0.973453628714      -0.204955038539     0.973453628714      -0.204955038539     0.018234122689      0.0772664752152     
6700000000.0        0.0187248807429     0.0783665251683     0.972709289125      -0.207993908696     0.972709289125      -0.207993908696     0.0187248807429     0.0783665251683     
6800000000.0        0.0192225436776     0.0794634710448     0.971954175268      -0.211029737563     0.971954175268      -0.211029737563     0.0192225436776     0.0794634710448     
6900000000.0        0.019727091673      0.0805572714957     0.971188304111      -0.214062479729     0.971188304111      -0.214062479729     0.019727091673      0.0805572714957     
7000000000.0        0.0202385046402     0.0816478853398     0.970411692878      -0.217092089898     0.970411692878      -0.217092089898     0.0202385046402     0.0816478853398     
7100000000.0        0.0207567622243     0.0827352715653     0.969624359053      -0.220118522893     0.969624359053      -0.220118522893     0.0207567622243     0.0827352715653     
7200000000.0        0.0212818438055     0.083819389331      0.968826320373      -0.223141733659     0.968826320373      -0.223141733659     0.0212818438055     0.083819389331      
7300000000.0        0.0218137285016     0.0849001979675     0.968017594831      -0.22616167726      0.968017594831      -0.22616167726      0.0218137285016     0.0849001979675     
7400000000.0        0.0223523951698     0.0859776569786     0.967198200671      -0.229178308889     0.967198200671      -0.229178308889     0.0223523951698     0.0859776569786     
7500000000.0        0.0228978224082     0.0870517260426     0.966368156387      -0.232191583863     0.966368156387      -0.232191583863     0.0228978224082     0.0870517260426     
7600000000.0        0.0234499885581     0.0881223650138     0.965527480724      -0.23520145763      0.965527480724      -0.23520145763      0.0234499885581     0.0881223650138     
7700000000.0        0.0240088717056     0.0891895339232     0.964676192671      -0.23820788577      0.964676192671      -0.23820788577      0.0240088717056     0.0891895339232     
7800000000.0        0.0245744496837     0.0902531929805     0.963814311466      -0.241210823995     0.963814311466      -0.241210823995     0.0245744496837     0.0902531929805     
7900000000.0        0.0251467000736     0.0913133025748     0.962941856587      -0.244210228154     0.962941856587      -0.244210228154     0.0251467000736     0.0913133025748     
8000000000.0        0.0257256002069     0.092369823276      0.962058847759      -0.247206054233     0.962058847759      -0.247206054233     0.0257256002069     0.092369823276      
8100000000.0        0.0263111271675     0.0934227158364     0.961165304943      -0.250198258358     0.961165304943      -0.250198258358     0.0263111271675     0.0934227158364     
8200000000.0        0.0269032577929     0.0944719411913     0.960261248342      -0.253186796797     0.960261248342      -0.253186796797     0.0269032577929     0.0944719411913     
8300000000.0        0.0275019686766     0.0955174604609     0.959346698396      -0.25617162596      0.959346698396      -0.25617162596      0.0275019686766     0.0955174604609     
8400000000.0        0.0281072361693     0.0965592349511     0.958421675781      -0.259152702404     0.958421675781      -0.259152702404     0.0281072361693     0.0965592349511     
8500000000.0        0.0287190363812     0.0975972261546     0.957486201405      -0.262129982834     0.957486201405      -0.262129982834     0.0287190363812     0.0975972261546     
8600000000.0        0.0293373451831     0.0986313957525     0.956540296413      -0.265103424102     0.956540296413      -0.265103424102     0.0293373451831     0.0986313957525     
8700000000.0        0.0299621382089     0.0996617056153     0.955583982176      -0.268072983212     0.955583982176      -0.268072983212     0.0299621382089     0.0996617056153     
8800000000.0        0.0305933908568     0.100688117804      0.954617280298      -0.271038617322     0.954617280298      -0.271038617322     0.0305933908568     0.100688117804      
8900000000.0        0.0312310782915     0.101710594572      0.95364021261       -0.274000283743     0.95364021261       -0.274000283743     0.0312310782915     0.101710594572      
9000000000.0        0.0318751754455     0.102729098363      0.952652801168      -0.276957939942     0.952652801168      -0.276957939942     0.0318751754455     0.102729098363      
9100000000.0        0.0325256570211     0.103743591819      0.951655068253      -0.279911543544     0.951655068253      -0.279911543544     0.0325256570211     0.103743591819      
9200000000.0        0.0331824974921     0.104754037774      0.95064703637       -0.282861052335     0.95064703637       -0.282861052335     0.0331824974921     0.104754037774      
9300000000.0        0.0338456711055     0.105760399259      0.949628728245      -0.285806424261     0.949628728245      -0.285806424261     0.0338456711055     0.105760399259      
9400000000.0        0.0345151518836     0.106762639503      0.948600166822      -0.288747617431     0.948600166822      -0.288747617431     0.0345151518836     0.106762639503      
9500000000.0        0.035190913625      0.107760721932      0.947561375265      -0.291684590118     0.947561375265      -0.291684590118     0.035190913625      0.107760721932      
9600000000.0        0.035872929907      0.108754610175      0.946512376954      -0.294617300761     0.946512376954      -0.294617300761     0.035872929907      0.108754610175      
9700000000.0        0.0365611740871     0.109744268057      0.945453195484      -0.297545707967     0.945453195484      -0.297545707967     0.0365611740871     0.109744268057      
9800000000.0        0.0372556193048     0.110729659608      0.944383854662      -0.300469770512     0.944383854662      -0.300469770512     0.0372556193048     0.110729659608      
9900000000.0        0.0379562384831     0.111710749061      0.943304378507      -0.303389447342     0.943304378507      -0.303389447342     0.0379562384831     0.111710749061      
10000000000.0       0.0386630043306     0.11268750085       0.942214791249      -0.306304697575     0.942214791249      -0.306304697575     0.0386630043306     0.11268750085       
