# Hz S RI R 50.00 
100000000.0         0.00743946121828    0.000938568917598   0.992559006653      -0.00139486130315   0.992559006653      -0.00139486130315   0.00743946121828    0.000938568917598   
200000000.0         0.0074920724683     0.00187690256103    0.992505654533      -0.00278949171945   0.992505654533      -0.00278949171945   0.0074920724683     0.00187690256103    
300000000.0         0.00753415420104    0.00281508662184    0.992462623172      -0.00418397944713   0.992462623172      -0.00418397944713   0.00753415420104    0.00281508662184    
400000000.0         0.00757214433365    0.00375314584874    0.992423474632      -0.00557835119294   0.992423474632      -0.00557835119294   0.00757214433365    0.00375314584874    
500000000.0         0.00760852646179    0.00469109075347    0.992385725295      -0.00697261915032   0.992385725295      -0.00697261915032   0.00760852646179    0.00469109075347    
600000000.0         0.00764456923473    0.00562892552413    0.992348106487      -0.00836678900825   0.992348106487      -0.00836678900825   0.00764456923473    0.00562892552413    
700000000.0         0.00768102322499    0.00656665087384    0.99230986761       -0.00976086284861   0.99230986761       -0.00976086284861   0.00768102322499    0.00656665087384    
800000000.0         0.00771837542794    0.0075042653645     0.99227052164       -0.0111548404992    0.99227052164       -0.0111548404992    0.00771837542794    0.0075042653645     
900000000.0         0.0077569626481     0.00844176611911    0.992229731744      -0.0125487202652    0.992229731744      -0.0125487202652    0.0077569626481     0.00844176611911    
1000000000.0        0.00779702900736    0.00937914924407    0.992187253768      -0.0139424993648    0.992187253768      -0.0139424993648    0.00779702900736    0.00937914924407    
1100000000.0        0.00783875793193    0.0103164100978     0.992142904251      -0.0153361742081    0.992142904251      -0.0153361742081    0.00783875793193    0.0103164100978     
1200000000.0        0.00788229122391    0.0112535434709     0.992096541359      -0.0167297405848    0.992096541359      -0.0167297405848    0.00788229122391    0.0112535434709     
1300000000.0        0.00792774106702    0.0121905437119     0.992048052869      -0.0181231937957    0.992048052869      -0.0181231937957    0.00792774106702    0.0121905437119     
1400000000.0        0.00797519792264    0.0131274048183     0.991997348284      -0.0195165287488    0.991997348284      -0.0195165287488    0.00797519792264    0.0131274048183     
1500000000.0        0.00802473591327    0.0140641205042     0.99194435344       -0.0209097400309    0.99194435344       -0.0209097400309    0.00802473591327    0.0140641205042     
1600000000.0        0.00807641660588    0.0150006842518     0.991889006732      -0.022302821962     0.991889006732      -0.022302821962     0.00807641660588    0.0150006842518     
1700000000.0        0.00813029173976    0.0159370893512     0.991831256377      -0.0236957686384    0.991831256377      -0.0236957686384    0.00813029173976    0.0159370893512     
1800000000.0        0.0081864052376     0.0168733289319     0.991771058409      -0.0250885739664    0.991771058409      -0.0250885739664    0.0081864052376     0.0168733289319     
1900000000.0        0.0082447947171     0.0178093959879     0.991708375166      -0.0264812316895    0.991708375166      -0.0264812316895    0.0082447947171     0.0178093959879     
2000000000.0        0.00830549264645    0.0187452833986     0.991643174134      -0.0278737354106    0.991643174134      -0.0278737354106    0.00830549264645    0.0187452833986     
2100000000.0        0.00836852724112    0.0196809839452     0.99157542705       -0.0292660786109    0.99157542705       -0.0292660786109    0.00836852724112    0.0196809839452     
2200000000.0        0.00843392316929    0.0206164903246     0.991505109199      -0.0306582546644    0.991505109199      -0.0306582546644    0.00843392316929    0.0206164903246     
2300000000.0        0.00850170211337    0.0215517951616     0.991432198849      -0.0320502568518    0.991432198849      -0.0320502568518    0.00850170211337    0.0215517951616     
2400000000.0        0.00857188322197    0.0224868910182     0.991356676801      -0.0334420783706    0.991356676801      -0.0334420783706    0.00857188322197    0.0224868910182     
2500000000.0        0.00864448347731    0.0234217704024     0.991278526021      -0.0348337123452    0.991278526021      -0.0348337123452    0.00864448347731    0.0234217704024     
2600000000.0        0.00871951799648    0.0243564257749     0.991197731339      -0.0362251518344    0.991197731339      -0.0362251518344    0.00871951799648    0.0243564257749     
2700000000.0        0.0087970002807     0.0252908495561     0.991114279202      -0.0376163898392    0.991114279202      -0.0376163898392    0.0087970002807     0.0252908495561     
2800000000.0        0.00887694242288    0.0262250341307     0.991028157462      -0.039007419308     0.991028157462      -0.039007419308     0.00887694242288    0.0262250341307     
2900000000.0        0.00895935528196    0.0271589718529     0.990939355205      -0.040398233143     0.990939355205      -0.040398233143     0.00895935528196    0.0271589718529     
3000000000.0        0.00904424863002    0.0280926550502     0.990847862603      -0.0417888242041    0.990847862603      -0.0417888242041    0.00904424863002    0.0280926550502     
3100000000.0        0.00913163127736    0.0290260760274     0.990753670788      -0.0431791853137    0.990753670788      -0.0431791853137    0.00913163127736    0.0290260760274     
3200000000.0        0.00922151117933    0.0299592270695     0.990656771747      -0.0445693092602    0.990656771747      -0.0445693092602    0.00922151117933    0.0299592270695     
3300000000.0        0.00931389552811    0.0308921004446     0.990557158229      -0.0459591888014    0.990557158229      -0.0459591888014    0.00931389552811    0.0308921004446     
3400000000.0        0.00940879083196    0.0318246884066     0.990454823667      -0.0473488166677    0.990454823667      -0.0473488166677    0.00940879083196    0.0318246884066     
3500000000.0        0.00950620298384    0.0327569831975     0.990349762107      -0.0487381855645    0.990349762107      -0.0487381855645    0.00950620298384    0.0327569831975     
3600000000.0        0.0096061373213     0.0336889770491     0.990241968151      -0.0501272881749    0.990241968151      -0.0501272881749    0.0096061373213     0.0336889770491     
3700000000.0        0.00970859867875    0.0346206621853     0.990131436902      -0.051516117162     0.990131436902      -0.051516117162     0.00970859867875    0.0346206621853     
3800000000.0        0.00981359143334    0.0355520308235     0.990018163921      -0.0529046651707    0.990018163921      -0.0529046651707    0.00981359143334    0.0355520308235     
3900000000.0        0.00992111954543    0.0364830751763     0.989902145183      -0.0542929248297    0.989902145183      -0.0542929248297    0.00992111954543    0.0364830751763     
4000000000.0        0.0100311865943     0.0374137874526     0.989783377047      -0.0556808887533    0.989783377047      -0.0556808887533    0.0100311865943     0.0374137874526     
4100000000.0        0.01014379581       0.0383441598591     0.989661856216      -0.0570685495427    0.989661856216      -0.0570685495427    0.01014379581       0.0383441598591     
4200000000.0        0.0102589501012     0.0392741846014     0.989537579718      -0.0584558997876    0.989537579718      -0.0584558997876    0.0102589501012     0.0392741846014     
4300000000.0        0.0103766520806     0.0402038538851     0.989410544874      -0.0598429320676    0.989410544874      -0.0598429320676    0.0103766520806     0.0402038538851     
4400000000.0        0.0104969040875     0.0411331599165     0.989280749277      -0.0612296389534    0.989280749277      -0.0612296389534    0.0104969040875     0.0411331599165     
4500000000.0        0.0106197082077     0.0420620949039     0.989148190774      -0.0626160130077    0.989148190774      -0.0626160130077    0.0106197082077     0.0420620949039     
4600000000.0        0.010745066292      0.0429906510581     0.989012867449      -0.0640020467866    0.989012867449      -0.0640020467866    0.010745066292      0.0429906510581     
4700000000.0        0.010872979972      0.0439188205934     0.988874777599      -0.0653877328404    0.988874777599      -0.0653877328404    0.010872979972      0.0439188205934     
4800000000.0        0.0110034506757     0.0448465957279     0.988733919729      -0.0667730637144    0.988733919729      -0.0667730637144    0.0110034506757     0.0448465957279     
4900000000.0        0.01113647964       0.0457739686847     0.988590292532      -0.06815803195      0.988590292532      -0.06815803195      0.01113647964       0.0457739686847     
5000000000.0        0.0112720679235     0.0467009316922     0.98844389488       -0.0695426300856    0.98844389488       -0.0695426300856    0.0112720679235     0.0467009316922     
5100000000.0        0.0114102164171     0.0476274769846     0.988294725811      -0.0709268506568    0.988294725811      -0.0709268506568    0.0114102164171     0.0476274769846     
5200000000.0        0.0115509258545     0.0485535968027     0.988142784521      -0.0723106861978    0.988142784521      -0.0723106861978    0.0115509258545     0.0485535968027     
5300000000.0        0.011694196821      0.0494792833941     0.987988070353      -0.0736941292415    0.987988070353      -0.0736941292415    0.011694196821      0.0494792833941     
5400000000.0        0.011840029762      0.0504045290138     0.98783058279       -0.0750771723204    0.98783058279       -0.0750771723204    0.011840029762      0.0504045290138     
5500000000.0        0.0119884249907     0.0513293259247     0.987670321446      -0.0764598079672    0.987670321446      -0.0764598079672    0.0119884249907     0.0513293259247     
5600000000.0        0.0121393826954     0.0522536663978     0.987507286061      -0.0778420287154    0.987507286061      -0.0778420287154    0.0121393826954     0.0522536663978     
5700000000.0        0.0122929029454     0.053177542713      0.98734147649       -0.0792238270996    0.98734147649       -0.0792238270996    0.0122929029454     0.053177542713      
5800000000.0        0.0124489856977     0.0541009471589     0.987172892705      -0.0806051956561    0.987172892705      -0.0806051956561    0.0124489856977     0.0541009471589     
5900000000.0        0.012607630802      0.0550238720335     0.987001534782      -0.0819861269236    0.987001534782      -0.0819861269236    0.012607630802      0.0550238720335     
6000000000.0        0.012768838006      0.0559463096446     0.986827402897      -0.0833666134433    0.986827402897      -0.0833666134433    0.012768838006      0.0559463096446     
6100000000.0        0.0129326069598     0.0568682523098     0.986650497327      -0.0847466477597    0.986650497327      -0.0847466477597    0.0129326069598     0.0568682523098     
6200000000.0        0.0130989372207     0.057789692357      0.986470818439      -0.0861262224206    0.986470818439      -0.0861262224206    0.0130989372207     0.057789692357      
6300000000.0        0.0132678282571     0.0587106221245     0.986288366688      -0.0875053299778    0.986288366688      -0.0875053299778    0.0132678282571     0.0587106221245     
6400000000.0        0.013439279452      0.0596310339616     0.986103142617      -0.0888839629875    0.986103142617      -0.0888839629875    0.013439279452      0.0596310339616     
6500000000.0        0.0136132901066     0.0605509202285     0.985915146847      -0.0902621140104    0.985915146847      -0.0902621140104    0.0136132901066     0.0605509202285     
6600000000.0        0.0137898594439     0.0614702732967     0.98572438008       -0.0916397756122    0.98572438008       -0.0916397756122    0.0137898594439     0.0614702732967     
6700000000.0        0.0139689866111     0.0623890855491     0.98553084309       -0.0930169403639    0.98553084309       -0.0930169403639    0.0139689866111     0.0623890855491     
6800000000.0        0.014150670683      0.0633073493805     0.985334536727      -0.0943936008422    0.985334536727      -0.0943936008422    0.014150670683      0.0633073493805     
6900000000.0        0.0143349106642     0.0642250571974     0.985135461908      -0.0957697496296    0.985135461908      -0.0957697496296    0.0143349106642     0.0642250571974     
7000000000.0        0.0145217054918     0.0651422014186     0.984933619619      -0.0971453793151    0.984933619619      -0.0971453793151    0.0145217054918     0.0651422014186     
7100000000.0        0.0147110540378     0.0660587744751     0.984729010909      -0.0985204824938    0.984729010909      -0.0985204824938    0.0147110540378     0.0660587744751     
7200000000.0        0.0149029551109     0.0669747688104     0.984521636891      -0.0998950517678    0.984521636891      -0.0998950517678    0.0149029551109     0.0669747688104     
7300000000.0        0.0150974074589     0.0678901768807     0.98431149874       -0.101269079746     0.98431149874       -0.101269079746     0.0150974074589     0.0678901768807     
7400000000.0        0.0152944097703     0.068804991155      0.984098597687      -0.102642559046     0.984098597687      -0.102642559046     0.0152944097703     0.068804991155      
7500000000.0        0.0154939606765     0.0697192041152     0.983882935023      -0.10401548229      0.983882935023      -0.10401548229      0.0154939606765     0.0697192041152     
7600000000.0        0.015696058753      0.0706328082566     0.983664512094      -0.10538784211      0.983664512094      -0.10538784211      0.015696058753      0.0706328082566     
7700000000.0        0.0159007025214     0.0715457960874     0.983443330297      -0.106759631147     0.983443330297      -0.106759631147     0.0159007025214     0.0715457960874     
7800000000.0        0.0161078904505     0.0724581601296     0.983219391084      -0.108130842047     0.983219391084      -0.108130842047     0.0161078904505     0.0724581601296     
7900000000.0        0.0163176209583     0.0733698929187     0.982992695959      -0.109501467467     0.982992695959      -0.109501467467     0.0163176209583     0.0733698929187     
8000000000.0        0.0165298924125     0.0742809870037     0.982763246473      -0.110871500073     0.982763246473      -0.110871500073     0.0165298924125     0.0742809870037     
8100000000.0        0.0167447031327     0.0751914349477     0.982531044226      -0.112240932537     0.982531044226      -0.112240932537     0.0167447031327     0.0751914349477     
8200000000.0        0.0169620513909     0.0761012293277     0.982296090866      -0.113609757542     0.982296090866      -0.113609757542     0.0169620513909     0.0761012293277     
8300000000.0        0.0171819354129     0.0770103627348     0.982058388087      -0.11497796778      0.982058388087      -0.11497796778      0.0171819354129     0.0770103627348     
8400000000.0        0.0174043533794     0.0779188277742     0.981817937628      -0.116345555953     0.981817937628      -0.116345555953     0.0174043533794     0.0779188277742     
8500000000.0        0.017629303427      0.0788266170655     0.981574741271      -0.11771251477      0.981574741271      -0.11771251477      0.017629303427      0.0788266170655     
8600000000.0        0.0178567836489     0.0797337232429     0.981328800842      -0.119078836954     0.981328800842      -0.119078836954     0.0178567836489     0.0797337232429     
8700000000.0        0.0180867920965     0.0806401389549     0.981080118209      -0.120444515233     0.981080118209      -0.120444515233     0.0180867920965     0.0806401389549     
8800000000.0        0.0183193267794     0.0815458568649     0.980828695281      -0.121809542349     0.980828695281      -0.121809542349     0.0183193267794     0.0815458568649     
8900000000.0        0.018554385667      0.0824508696509     0.980574534007      -0.123173911053     0.980574534007      -0.123173911053     0.018554385667      0.0824508696509     
9000000000.0        0.0187919666887     0.0833551700057     0.980317636377      -0.124537614104     0.980317636377      -0.124537614104     0.0187919666887     0.0833551700057     
9100000000.0        0.0190320677352     0.0842587506374     0.980058004419      -0.125900644275     0.980058004419      -0.125900644275     0.0190320677352     0.0842587506374     
9200000000.0        0.0192746866588     0.0851616042688     0.979795640198      -0.127262994348     0.979795640198      -0.127262994348     0.0192746866588     0.0851616042688     
9300000000.0        0.0195198212743     0.086063723638      0.979530545819      -0.128624657116     0.979530545819      -0.128624657116     0.0195198212743     0.086063723638      
9400000000.0        0.0197674693595     0.0869651014984     0.979262723421      -0.129985625383     0.979262723421      -0.129985625383     0.0197674693595     0.0869651014984     
9500000000.0        0.0200176286561     0.0878657306187     0.978992175183      -0.131345891964     0.978992175183      -0.131345891964     0.0200176286561     0.0878657306187     
9600000000.0        0.0202702968702     0.0887656037829     0.978718903315      -0.132705449686     0.978718903315      -0.132705449686     0.0202702968702     0.0887656037829     
9700000000.0        0.0205254716725     0.0896647137909     0.978442910065      -0.134064291386     0.978442910065      -0.134064291386     0.0205254716725     0.0896647137909     
9800000000.0        0.0207831506996     0.0905630534576     0.978164197714      -0.135422409912     0.978164197714      -0.135422409912     0.0207831506996     0.0905630534576     
9900000000.0        0.0210433315538     0.0914606156142     0.97788276858       -0.136779798127     0.97788276858       -0.136779798127     0.0210433315538     0.0914606156142     
10000000000.0       0.0213060118043     0.0923573931072     0.97759862501       -0.138136448902     0.97759862501       -0.138136448902     0.0213060118043     0.0923573931072     
