# Hz S RI R 50.00 
100000000.0         0.00343973597744    0.000584283776598   0.996555113311      -0.00267306874844   0.996555113311      -0.00267306874844   0.00343973597744    0.000584283776598   
200000000.0         0.00346634608006    0.00116840312411    0.996519984322      -0.00534597115437   0.996519984322      -0.00534597115437   0.00346634608006    0.00116840312411    
300000000.0         0.00349004384795    0.00175239938485    0.996483399324      -0.00801874863541   0.996483399324      -0.00801874863541   0.00349004384795    0.00175239938485    
400000000.0         0.00351380642393    0.00233627514029    0.996442380979      -0.0106914023487    0.996442380979      -0.0106914023487    0.00351380642393    0.00233627514029    
500000000.0         0.00353877990719    0.00292002406456    0.996395782966      -0.0133639237923    0.996395782966      -0.0133639237923    0.00353877990719    0.00292002406456    
600000000.0         0.00356554839583    0.00350363593105    0.996343020936      -0.0160363000735    0.996343020936      -0.0160363000735    0.00356554839583    0.00350363593105    
700000000.0         0.00359445655062    0.00408709840021    0.996283749952      -0.0187085158303    0.996283749952      -0.0187085158303    0.00359445655062    0.00408709840021    
800000000.0         0.00362572730493    0.00467039784403    0.996217746778      -0.0213805541353    0.996217746778      -0.0213805541353    0.00362572730493    0.00467039784403    
900000000.0         0.00365951426793    0.00525351978633    0.99614485748       -0.0240523969885    0.99614485748       -0.0240523969885    0.00365951426793    0.00525351978633    
1000000000.0        0.00369592828267    0.00583644916189    0.99606497087       -0.026724025613     0.99606497087       -0.026724025613     0.00369592828267    0.00583644916189    
1100000000.0        0.00373505218715    0.00641917048022    0.995978003738      -0.0293954206459    0.995978003738      -0.0293954206459    0.00373505218715    0.00641917048022    
1200000000.0        0.00377694960862    0.0070016679345     0.99588389207       -0.0320665622679    0.99588389207       -0.0320665622679    0.00377694960862    0.0070016679345     
1300000000.0        0.00382167049559    0.00758392547728    0.995782585507      -0.034737430295     0.995782585507      -0.034737430295     0.00382167049559    0.00758392547728    
1400000000.0        0.00386925475333    0.00816592687493    0.995674043717      -0.037408004246     0.995674043717      -0.037408004246     0.00386925475333    0.00816592687493    
1500000000.0        0.00391973472082    0.00874765574777    0.995558233913      -0.040078263393     0.995558233913      -0.040078263393     0.00391973472082    0.00874765574777    
1600000000.0        0.00397313690997    0.0093290956005     0.995435129121      -0.042748186801     0.995435129121      -0.042748186801     0.00397313690997    0.0093290956005     
1700000000.0        0.0040294832589     0.00991022984579    0.995304706922      -0.0454177533585    0.995304706922      -0.0454177533585    0.0040294832589     0.00991022984579    
1800000000.0        0.00408879205506    0.0104910418227     0.995166948529      -0.0480869418023    0.995166948529      -0.0480869418023    0.00408879205506    0.0104910418227     
1900000000.0        0.00415107862862    0.0110715148114     0.995021838101      -0.0507557307381    0.995021838101      -0.0507557307381    0.00415107862862    0.0110715148114     
2000000000.0        0.00421635588211    0.0116516320453     0.994869362206      -0.0534240986566    0.994869362206      -0.0534240986566    0.00421635588211    0.0116516320453     
2100000000.0        0.00428463470123    0.0122313767208     0.994709509414      -0.056092023948     0.994709509414      -0.056092023948     0.00428463470123    0.0122313767208     
2200000000.0        0.00435592427763    0.0128107320054     0.994542269975      -0.0587594849134    0.994542269975      -0.0587594849134    0.00435592427763    0.0128107320054     
2300000000.0        0.00443023236583    0.0133896810447     0.994367635562      -0.061426459775     0.994367635562      -0.061426459775     0.00443023236583    0.0133896810447     
2400000000.0        0.00450756548976    0.0139682069679     0.994185599065      -0.0640929266849    0.994185599065      -0.0640929266849    0.00450756548976    0.0139682069679     
2500000000.0        0.00458792911057    0.0145462928933     0.993996154422      -0.0667588637324    0.993996154422      -0.0667588637324    0.00458792911057    0.0145462928933     
2600000000.0        0.00467132776417    0.0151239219319     0.993799296486      -0.0694242489511    0.993799296486      -0.0694242489511    0.00467132776417    0.0151239219319     
2700000000.0        0.00475776517489    0.0157010771918     0.993595020906      -0.0720890603239    0.993595020906      -0.0720890603239    0.00475776517489    0.0157010771918     
2800000000.0        0.00484724435017    0.016277741781      0.993383324037      -0.0747532757892    0.993383324037      -0.0747532757892    0.00484724435017    0.016277741781      
2900000000.0        0.00493976765997    0.0168538988104     0.993164202859      -0.0774168732445    0.993164202859      -0.0774168732445    0.00493976765997    0.0168538988104     
3000000000.0        0.00503533690374    0.0174295313967     0.99293765491       -0.0800798305515    0.99293765491       -0.0800798305515    0.00503533690374    0.0174295313967     
3100000000.0        0.0051339533674     0.0180046226641     0.992703678232      -0.0827421255391    0.992703678232      -0.0827421255391    0.0051339533674     0.0180046226641     
3200000000.0        0.00523561787192    0.0185791557467     0.992462271318      -0.0854037360073    0.992462271318      -0.0854037360073    0.00523561787192    0.0185791557467     
3300000000.0        0.00534033081511    0.0191531137907     0.992213433076      -0.0880646397301    0.992213433076      -0.0880646397301    0.00534033081511    0.0191531137907     
3400000000.0        0.00544809220759    0.0197264799553     0.991957162789      -0.0907248144585    0.991957162789      -0.0907248144585    0.00544809220759    0.0197264799553     
3500000000.0        0.00555890170407    0.0202992374151     0.991693460086      -0.093384237923     0.991693460086      -0.093384237923     0.00555890170407    0.0202992374151     
3600000000.0        0.00567275863052    0.0208713693608     0.991422324913      -0.0960428878358    0.991422324913      -0.0960428878358    0.00567275863052    0.0208713693608     
3700000000.0        0.00578966200792    0.0214428590013     0.991143757513      -0.0987007418938    0.991143757513      -0.0987007418938    0.00578966200792    0.0214428590013     
3800000000.0        0.00590961057319    0.0220136895644     0.990857758404      -0.10135777778      0.990857758404      -0.10135777778      0.00590961057319    0.0220136895644     
3900000000.0        0.00603260279755    0.0225838442978     0.990564328356      -0.104013973165     0.990564328356      -0.104013973165     0.00603260279755    0.0225838442978     
4000000000.0        0.00615863690274    0.023153306471      0.990263468385      -0.106669305711     0.990263468385      -0.106669305711     0.00615863690274    0.023153306471      
4100000000.0        0.00628771087552    0.0237220593754     0.989955179728      -0.109323753072     0.989955179728      -0.109323753072     0.00628771087552    0.0237220593754     
4200000000.0        0.00641982248046    0.024290086326      0.989639463838      -0.111977292893     0.989639463838      -0.111977292893     0.00641982248046    0.024290086326      
4300000000.0        0.00655496927141    0.0248573706618     0.98931632237       -0.114629902817     0.98931632237       -0.114629902817     0.00655496927141    0.0248573706618     
4400000000.0        0.00669314860177    0.025423895747      0.988985757169      -0.117281560481     0.988985757169      -0.117281560481     0.00669314860177    0.025423895747      
4500000000.0        0.0068343576337     0.0259896449716     0.988647770264      -0.119932243523     0.988647770264      -0.119932243523     0.0068343576337     0.0259896449716     
4600000000.0        0.00697859334647    0.0265546017525     0.988302363861      -0.122581929578     0.988302363861      -0.122581929578     0.00697859334647    0.0265546017525     
4700000000.0        0.00712585254386    0.0271187495339     0.987949540331      -0.125230596281     0.987949540331      -0.125230596281     0.00712585254386    0.0271187495339     
4800000000.0        0.00727613186103    0.0276820717886     0.987589302206      -0.12787822127      0.987589302206      -0.12787822127      0.00727613186103    0.0276820717886     
4900000000.0        0.00742942777066    0.028244552018      0.987221652173      -0.130524782186     0.987221652173      -0.130524782186     0.00742942777066    0.028244552018      
5000000000.0        0.00758573658851    0.0288061737532     0.986846593071      -0.133170256674     0.986846593071      -0.133170256674     0.00758573658851    0.0288061737532     
5100000000.0        0.00774505447856    0.029366920556      0.98646412788       -0.135814622382     0.98646412788       -0.135814622382     0.00774505447856    0.029366920556      
5200000000.0        0.0079073774577     0.0299267760188     0.986074259721      -0.138457856966     0.986074259721      -0.138457856966     0.0079073774577     0.0299267760188     
5300000000.0        0.00807270139994    0.0304857237658     0.985676991854      -0.14109993809      0.985676991854      -0.14109993809      0.00807270139994    0.0304857237658     
5400000000.0        0.0082410220404     0.0310437474536     0.985272327666      -0.143740843423     0.985272327666      -0.143740843423     0.0082410220404     0.0310437474536     
5500000000.0        0.00841233497889    0.0316008307713     0.984860270678      -0.146380550647     0.984860270678      -0.146380550647     0.00841233497889    0.0316008307713     
5600000000.0        0.00858663568323    0.032156957442      0.984440824532      -0.149019037449     0.984440824532      -0.149019037449     0.00858663568323    0.032156957442      
5700000000.0        0.00876391949236    0.0327121112224     0.984013992996      -0.151656281532     0.984013992996      -0.151656281532     0.00876391949236    0.0327121112224     
5800000000.0        0.00894418161914    0.0332662759042     0.983579779956      -0.154292260606     0.983579779956      -0.154292260606     0.00894418161914    0.0332662759042     
5900000000.0        0.00912741715303    0.033819435314      0.983138189416      -0.156926952397     0.983138189416      -0.156926952397     0.00912741715303    0.033819435314      
6000000000.0        0.00931362106252    0.0343715733143     0.982689225495      -0.159560334642     0.982689225495      -0.159560334642     0.00931362106252    0.0343715733143     
6100000000.0        0.00950278819743    0.034922673804      0.982232892426      -0.162192385093     0.982232892426      -0.162192385093     0.00950278819743    0.034922673804      
6200000000.0        0.00969491329104    0.0354727207188     0.98176919455       -0.164823081518     0.98176919455       -0.164823081518     0.00969491329104    0.0354727207188     
6300000000.0        0.00988999096208    0.0360216980317     0.981298136321      -0.167452401698     0.981298136321      -0.167452401698     0.00988999096208    0.0360216980317     
6400000000.0        0.0100880157166     0.0365695897537     0.980819722298      -0.170080323432     0.980819722298      -0.170080323432     0.0100880157166     0.0365695897537     
6500000000.0        0.0102889819497     0.037116379934      0.980333957147      -0.172706824536     0.980333957147      -0.172706824536     0.0102889819497     0.037116379934      
6600000000.0        0.0104928839472     0.0376620526612     0.979840845635      -0.175331882843     0.979840845635      -0.175331882843     0.0104928839472     0.0376620526612     
6700000000.0        0.0106997158873     0.0382065920628     0.979340392637      -0.177955476206     0.979340392637      -0.177955476206     0.0106997158873     0.0382065920628     
6800000000.0        0.0109094718417     0.0387499823067     0.978832603125      -0.180577582496     0.978832603125      -0.180577582496     0.0109094718417     0.0387499823067     
6900000000.0        0.0111221457774     0.039292207601      0.978317482174      -0.183198179604     0.978317482174      -0.183198179604     0.0111221457774     0.039292207601      
7000000000.0        0.0113377315578     0.0398332521947     0.977795034957      -0.18581724544      0.977795034957      -0.18581724544      0.0113377315578     0.0398332521947     
7100000000.0        0.0115562229439     0.0403731003784     0.977265266744      -0.188434757938     0.977265266744      -0.188434757938     0.0115562229439     0.0403731003784     
7200000000.0        0.0117776135957     0.0409117364844     0.976728182903      -0.191050695053     0.976728182903      -0.191050695053     0.0117776135957     0.0409117364844     
7300000000.0        0.012001897073      0.0414491448875     0.976183788898      -0.193665034759     0.976183788898      -0.193665034759     0.012001897073      0.0414491448875     
7400000000.0        0.0122290668368     0.0419853100054     0.975632090286      -0.196277755059     0.975632090286      -0.196277755059     0.0122290668368     0.0419853100054     
7500000000.0        0.01245911625       0.0425202162989     0.975073092721      -0.198888833973     0.975073092721      -0.198888833973     0.01245911625       0.0425202162989     
7600000000.0        0.0126920385788     0.0430538482727     0.974506801948      -0.201498249551     0.974506801948      -0.201498249551     0.0126920385788     0.0430538482727     
7700000000.0        0.0129278269932     0.0435861904759     0.973933223804      -0.204105979863     0.973933223804      -0.204105979863     0.0129278269932     0.0435861904759     
7800000000.0        0.0131664745681     0.044117227502      0.973352364218      -0.206712003008     0.973352364218      -0.206712003008     0.0131664745681     0.044117227502      
7900000000.0        0.0134079742844     0.04464694399       0.97276422921       -0.209316297109     0.97276422921       -0.209316297109     0.0134079742844     0.04464694399       
8000000000.0        0.0136523190292     0.0451753246241     0.97216882489       -0.211918840315     0.97216882489       -0.211918840315     0.0136523190292     0.0451753246241     
8100000000.0        0.0138995015975     0.0457023541349     0.971566157457      -0.214519610804     0.971566157457      -0.214519610804     0.0138995015975     0.0457023541349     
8200000000.0        0.014149514692      0.0462280172993     0.970956233199      -0.21711858678      0.970956233199      -0.21711858678      0.014149514692      0.0462280172993     
8300000000.0        0.0144023509248     0.0467522989414     0.97033905849       -0.219715746476     0.97033905849       -0.219715746476     0.0144023509248     0.0467522989414     
8400000000.0        0.0146580028172     0.0472751839322     0.969714639795      -0.222311068151     0.969714639795      -0.222311068151     0.0146580028172     0.0472751839322     
8500000000.0        0.0149164628014     0.0477966571911     0.969082983662      -0.224904530098     0.969082983662      -0.224904530098     0.0149164628014     0.0477966571911     
8600000000.0        0.0151777232202     0.0483167036853     0.968444096726      -0.227496110636     0.968444096726      -0.227496110636     0.0151777232202     0.0483167036853     
8700000000.0        0.0154417763284     0.0488353084309     0.967797985711      -0.230085788114     0.967797985711      -0.230085788114     0.0154417763284     0.0488353084309     
8800000000.0        0.0157086142931     0.049352456493      0.967144657421      -0.232673540914     0.967144657421      -0.232673540914     0.0157086142931     0.049352456493      
8900000000.0        0.0159782291946     0.0498681329864     0.966484118747      -0.235259347448     0.966484118747      -0.235259347448     0.0159782291946     0.0498681329864     
9000000000.0        0.0162506130266     0.0503823230756     0.965816376664      -0.237843186159     0.965816376664      -0.237843186159     0.0162506130266     0.0503823230756     
9100000000.0        0.0165257576971     0.0508950119756     0.96514143823       -0.240425035523     0.96514143823       -0.240425035523     0.0165257576971     0.0508950119756     
9200000000.0        0.0168036550292     0.0514061849524     0.964459310585      -0.243004874049     0.964459310585      -0.243004874049     0.0168036550292     0.0514061849524     
9300000000.0        0.0170842967611     0.0519158273228     0.963770000954      -0.245582680277     0.963770000954      -0.245582680277     0.0170842967611     0.0519158273228     
9400000000.0        0.0173676745473     0.0524239244555     0.963073516642      -0.248158432785     0.963073516642      -0.248158432785     0.0173676745473     0.0524239244555     
9500000000.0        0.0176537799587     0.0529304617711     0.962369865035      -0.25073211018      0.962369865035      -0.25073211018      0.0176537799587     0.0529304617711     
9600000000.0        0.0179426044833     0.0534354247427     0.961659053601      -0.253303691106     0.961659053601      -0.253303691106     0.0179426044833     0.0534354247427     
9700000000.0        0.0182341395269     0.0539387988962     0.960941089888      -0.255873154243     0.960941089888      -0.255873154243     0.0182341395269     0.0539387988962     
9800000000.0        0.0185283764133     0.0544405698108     0.960215981525      -0.258440478304     0.960215981525      -0.258440478304     0.0185283764133     0.0544405698108     
9900000000.0        0.0188253063854     0.0549407231191     0.959483736221      -0.261005642039     0.959483736221      -0.261005642039     0.0188253063854     0.0549407231191     
10000000000.0       0.0191249206049     0.0554392445081     0.958744361763      -0.263568624236     0.958744361763      -0.263568624236     0.0191249206049     0.0554392445081     
