# Hz S RI R 50.00 
100000000.0         0.12866231179       0.00429264903439    0.871334365543      -0.00569571200023   0.871334365543      -0.00569571200023   0.12866231179       0.00429264903439    
200000000.0         0.129481760135      0.00856740280247    0.870510527713      -0.0113735432307    0.870510527713      -0.0113735432307    0.129481760135      0.00856740280247    
300000000.0         0.130155231435      0.0128303229402     0.869830598809      -0.0170395688179    0.869830598809      -0.0170395688179    0.130155231435      0.0128303229402     
400000000.0         0.130780955952      0.0170829263264     0.869196347547      -0.022695317975     0.869196347547      -0.022695317975     0.130780955952      0.0170829263264     
500000000.0         0.131396772412      0.0213256748617     0.86856993427       -0.0283412643564    0.86856993427       -0.0283412643564    0.131396772412      0.0213256748617     
600000000.0         0.132021945304      0.0255585652535     0.867932093583      -0.0339774160453    0.867932093583      -0.0339774160453    0.132021945304      0.0255585652535     
700000000.0         0.132667806562      0.0297813410629     0.867271492638      -0.0396035277031    0.867271492638      -0.0396035277031    0.132667806562      0.0297813410629     
800000000.0         0.13334164294       0.0339935912472     0.866580843742      -0.0452191991743    0.866580843742      -0.0452191991743    0.13334164294       0.0339935912472     
900000000.0         0.134048428293      0.0381948032648     0.865855172067      -0.0508239286316    0.865855172067      -0.0508239286316    0.134048428293      0.0381948032648     
1000000000.0        0.134791702308      0.0423843946824     0.865090936911      -0.0564171442114    0.865090936911      -0.0564171442114    0.134791702308      0.0423843946824     
1100000000.0        0.135574059361      0.0465617333973     0.864285542835      -0.0619982242582    0.864285542835      -0.0619982242582    0.135574059361      0.0465617333973     
1200000000.0        0.136397440053      0.0507261513209     0.863437048119      -0.0675665110234    0.863437048119      -0.0675665110234    0.136397440053      0.0507261513209     
1300000000.0        0.137263314796      0.0548769540601     0.862543981183      -0.0731213203595    0.862543981183      -0.0731213203595    0.137263314796      0.0548769540601     
1400000000.0        0.138172804618      0.0590134280263     0.861605219769      -0.0786619488398    0.861605219769      -0.0786619488398    0.138172804618      0.0590134280263     
1500000000.0        0.139126763589      0.0631348458223     0.86061990852       -0.0841876791535    0.86061990852       -0.0841876791535    0.139126763589      0.0631348458223     
1600000000.0        0.140125836818      0.0672404704364     0.859587400978      -0.0896977843064    0.859587400978      -0.0896977843064    0.140125836818      0.0672404704364     
1700000000.0        0.141170502331      0.0713295585849     0.858507217705      -0.0951915309701    0.858507217705      -0.0951915309701    0.141170502331      0.0713295585849     
1800000000.0        0.142261102024      0.0754013634327     0.857379015333      -0.100668182207     0.857379015333      -0.100668182207     0.142261102024      0.0754013634327     
1900000000.0        0.143397864994      0.079455136849      0.856202563227      -0.106126999732     0.856202563227      -0.106126999732     0.143397864994      0.079455136849      
2000000000.0        0.144580925445      0.0834901313068     0.854977725583      -0.111567245813     0.854977725583      -0.111567245813     0.144580925445      0.0834901313068     
2100000000.0        0.14581033666       0.0875056015073     0.853704447448      -0.1169881849       0.853704447448      -0.1169881849       0.14581033666       0.0875056015073     
2200000000.0        0.147086082067      0.0915008057856     0.852382743664      -0.122389085037     0.852382743664      -0.122389085037     0.147086082067      0.0915008057856     
2300000000.0        0.148408084113      0.0954750073417     0.851012689983      -0.127769219091     0.851012689983      -0.127769219091     0.148408084113      0.0954750073417     
2400000000.0        0.149776211487      0.0994274753278     0.849594415853      -0.133127865842     0.849594415853      -0.133127865842     0.149776211487      0.0994274753278     
2500000000.0        0.151190285061      0.103357485819      0.848128098469      -0.138464310961     0.848128098469      -0.138464310961     0.151190285061      0.103357485819      
2600000000.0        0.15265008283       0.107264322683      0.846613957835      -0.143777847877     0.846613957835      -0.143777847877     0.15265008283       0.107264322683      
2700000000.0        0.154155344077      0.111147278367      0.845052252604      -0.149067778566     0.845052252604      -0.149067778566     0.154155344077      0.111147278367      
2800000000.0        0.155705772905      0.115005654616      0.843443276536      -0.154333414273     0.843443276536      -0.154333414273     0.155705772905      0.115005654616      
2900000000.0        0.157301041275      0.118838763118      0.841787355469      -0.159574076156     0.841787355469      -0.159574076156     0.157301041275      0.118838763118      
3000000000.0        0.158940791641      0.122645926106      0.840084844677      -0.164789095895     0.840084844677      -0.164789095895     0.158940791641      0.122645926106      
3100000000.0        0.160624639251      0.126426476903      0.838336126574      -0.169977816231     0.838336126574      -0.169977816231     0.160624639251      0.126426476903      
3200000000.0        0.162352174183      0.130179760425      0.836541608674      -0.175139591475     0.836541608674      -0.175139591475     0.162352174183      0.130179760425      
3300000000.0        0.164122963156      0.133905133647      0.834701721779      -0.180273787974     0.834701721779      -0.180273787974     0.164122963156      0.133905133647      
3400000000.0        0.165936551161      0.137601966024      0.832816918355      -0.185379784533     0.832816918355      -0.185379784533     0.165936551161      0.137601966024      
3500000000.0        0.167792462929      0.141269639888      0.830887671055      -0.190456972814     0.830887671055      -0.190456972814     0.167792462929      0.141269639888      
3600000000.0        0.169690204277      0.144907550807      0.828914471377      -0.195504757694     0.828914471377      -0.195504757694     0.169690204277      0.144907550807      
3700000000.0        0.171629263341      0.148515107919      0.826897828431      -0.200522557599     0.826897828431      -0.200522557599     0.171629263341      0.148515107919      
3800000000.0        0.173609111713      0.152091734231      0.824838267802      -0.205509804811     0.824838267802      -0.205509804811     0.173609111713      0.152091734231      
3900000000.0        0.175629205507      0.155636866903      0.822736330482      -0.210465945742     0.822736330482      -0.210465945742     0.175629205507      0.155636866903      
4000000000.0        0.177688986345      0.159149957496      0.820592571885      -0.215390441192     0.820592571885      -0.215390441192     0.177688986345      0.159149957496      
4100000000.0        0.179787882293      0.162630472202      0.818407560912      -0.220282766575     0.818407560912      -0.220282766575     0.179787882293      0.162630472202      
4200000000.0        0.181925308737      0.166077892054      0.816181879072      -0.22514241213      0.816181879072      -0.22514241213      0.181925308737      0.166077892054      
4300000000.0        0.184100669223      0.169491713105      0.813916119645      -0.229968883104     0.813916119645      -0.229968883104     0.184100669223      0.169491713105      
4400000000.0        0.18631335625       0.172871446595      0.811610886884      -0.234761699915     0.811610886884      -0.234761699915     0.18631335625       0.172871446595      
4500000000.0        0.188562752032      0.176216619094      0.809266795262      -0.239520398298     0.809266795262      -0.239520398298     0.188562752032      0.176216619094      
4600000000.0        0.190848229222      0.179526772626      0.806884468736      -0.244244529429     0.806884468736      -0.244244529429     0.190848229222      0.179526772626      
4700000000.0        0.193169151616      0.182801464773      0.804464540051      -0.248933660032     0.804464540051      -0.248933660032     0.193169151616      0.182801464773      
4800000000.0        0.195524874827      0.186040268761      0.802007650065      -0.253587372461     0.802007650065      -0.253587372461     0.195524874827      0.186040268761      
4900000000.0        0.197914746936      0.189242773531      0.799514447096      -0.258205264776     0.799514447096      -0.258205264776     0.197914746936      0.189242773531      
5000000000.0        0.200338109118      0.19240858379       0.796985586293      -0.262786950791     0.796985586293      -0.262786950791     0.200338109118      0.19240858379       
5100000000.0        0.202794296255      0.195537320046      0.794421729029      -0.267332060111     0.794421729029      -0.267332060111     0.202794296255      0.195537320046      
5200000000.0        0.205282637527      0.198628618627      0.791823542307      -0.271840238153     0.791823542307      -0.271840238153     0.205282637527      0.198628618627      
5300000000.0        0.207802456982      0.201682131685      0.789191698188      -0.276311146147     0.789191698188      -0.276311146147     0.207802456982      0.201682131685      
5400000000.0        0.210353074098      0.204697527185      0.786526873233      -0.280744461127     0.786526873233      -0.280744461127     0.210353074098      0.204697527185      
5500000000.0        0.212933804318      0.207674488876      0.783829747961      -0.285139875908     0.783829747961      -0.285139875908     0.212933804318      0.207674488876      
5600000000.0        0.215543959582      0.210612716256      0.781101006326      -0.289497099038     0.781101006326      -0.289497099038     0.215543959582      0.210612716256      
5700000000.0        0.218182848836      0.213511924513      0.778341335199      -0.293815854755     0.778341335199      -0.293815854755     0.218182848836      0.213511924513      
5800000000.0        0.220849778529      0.216371844462      0.775551423876      -0.298095882912     0.775551423876      -0.298095882912     0.220849778529      0.216371844462      
5900000000.0        0.2235440531        0.219192222462      0.772731963589      -0.302336938903     0.772731963589      -0.302336938903     0.2235440531        0.219192222462      
6000000000.0        0.226264975449      0.221972820328      0.769883647036      -0.306538793566     0.769883647036      -0.306538793566     0.226264975449      0.221972820328      
6100000000.0        0.229011847393      0.224713415222      0.767007167924      -0.310701233088     0.767007167924      -0.310701233088     0.229011847393      0.224713415222      
6200000000.0        0.231783970115      0.227413799544      0.764103220519      -0.314824058882     0.764103220519      -0.314824058882     0.231783970115      0.227413799544      
6300000000.0        0.234580644593      0.2300737808        0.761172499217      -0.318907087465     0.761172499217      -0.318907087465     0.234580644593      0.2300737808        
6400000000.0        0.237401172027      0.232693181472      0.758215698119      -0.322950150323     0.758215698119      -0.322950150323     0.237401172027      0.232693181472      
6500000000.0        0.240244854243      0.235271838865      0.755233510622      -0.326953093765     0.755233510622      -0.326953093765     0.240244854243      0.235271838865      
6600000000.0        0.243110994092      0.237809604959      0.752226629026      -0.330915778764     0.752226629026      -0.330915778764     0.243110994092      0.237809604959      
6700000000.0        0.245998895836      0.240306346238      0.749195744142      -0.334838080797     0.749195744142      -0.334838080797     0.245998895836      0.240306346238      
6800000000.0        0.24890786552       0.242761943518      0.746141544923      -0.338719889671     0.746141544923      -0.338719889671     0.24890786552       0.242761943518      
6900000000.0        0.251837211336      0.245176291768      0.743064718102      -0.342561109338     0.743064718102      -0.342561109338     0.251837211336      0.245176291768      
7000000000.0        0.254786243968      0.247549299917      0.739965947837      -0.346361657711     0.739965947837      -0.346361657711     0.254786243968      0.247549299917      
7100000000.0        0.257754276938      0.249880890663      0.736845915377      -0.350121466466     0.736845915377      -0.350121466466     0.257754276938      0.249880890663      
7200000000.0        0.260740626929      0.252171000261      0.733705298731      -0.353840480837     0.733705298731      -0.353840480837     0.260740626929      0.252171000261      
7300000000.0        0.263744614101      0.254419578322      0.730544772355      -0.357518659408     0.730544772355      -0.357518659408     0.263744614101      0.254419578322      
7400000000.0        0.266765562398      0.256626587591      0.727365006841      -0.361155973898     0.727365006841      -0.361155973898     0.266765562398      0.256626587591      
7500000000.0        0.269802799838      0.258792003728      0.724166668632      -0.364752408939     0.724166668632      -0.364752408939     0.269802799838      0.258792003728      
7600000000.0        0.2728556588        0.260915815081      0.720950419728      -0.368307961846     0.720950419728      -0.368307961846     0.2728556588        0.260915815081      
7700000000.0        0.275923476294      0.262998022454      0.717716917426      -0.371822642393     0.717716917426      -0.371822642393     0.275923476294      0.262998022454      
7800000000.0        0.279005594218      0.265038638871      0.71446681405       -0.375296472572     0.71446681405       -0.375296472572     0.279005594218      0.265038638871      
7900000000.0        0.282101359616      0.267037689335      0.711200756703      -0.378729486352     0.711200756703      -0.378729486352     0.282101359616      0.267037689335      
8000000000.0        0.285210124907      0.268995210588      0.70791938703       -0.38212172944      0.70791938703       -0.38212172944      0.285210124907      0.268995210588      
8100000000.0        0.288331248123      0.270911250859      0.704623340988      -0.385473259031     0.704623340988      -0.385473259031     0.288331248123      0.270911250859      
8200000000.0        0.291464093121      0.272785869616      0.701313248623      -0.388784143561     0.701313248623      -0.388784143561     0.291464093121      0.272785869616      
8300000000.0        0.294608029794      0.274619137315      0.697989733871      -0.392054462451     0.697989733871      -0.392054462451     0.294608029794      0.274619137315      
8400000000.0        0.297762434268      0.276411135144      0.69465341435       -0.395284305854     0.69465341435       -0.395284305854     0.297762434268      0.276411135144      
8500000000.0        0.300926689087      0.278161954765      0.691304901179      -0.3984737744       0.691304901179      -0.3984737744       0.300926689087      0.278161954765      
8600000000.0        0.304100183395      0.27987169806       0.687944798798      -0.401622978938     0.687944798798      -0.401622978938     0.304100183395      0.27987169806       
8700000000.0        0.3072823131        0.281540476865      0.684573704798      -0.404732040274     0.684573704798      -0.404732040274     0.3072823131        0.281540476865      
8800000000.0        0.310472481035      0.283168412717      0.681192209766      -0.407801088912     0.681192209766      -0.407801088912     0.310472481035      0.283168412717      
8900000000.0        0.313670097105      0.284755636585      0.677800897132      -0.410830264794     0.677800897132      -0.410830264794     0.313670097105      0.284755636585      
9000000000.0        0.316874578425      0.286302288616      0.674400343034      -0.413819717041     0.674400343034      -0.413819717041     0.316874578425      0.286302288616      
9100000000.0        0.320085349454      0.28780851787       0.670991116182      -0.416769603684     0.670991116182      -0.416769603684     0.320085349454      0.28780851787       
9200000000.0        0.323301842113      0.289274482058      0.667573777742      -0.419680091413     0.667573777742      -0.419680091413     0.323301842113      0.289274482058      
9300000000.0        0.326523495897      0.290700347282      0.664148881219      -0.422551355308     0.664148881219      -0.422551355308     0.326523495897      0.290700347282      
9400000000.0        0.32974975798       0.292086287775      0.660716972356      -0.425383578583     0.660716972356      -0.425383578583     0.32974975798       0.292086287775      
9500000000.0        0.332980083312      0.293432485645      0.657278589035      -0.428176952328     0.657278589035      -0.428176952328     0.332980083312      0.293432485645      
9600000000.0        0.336213934701      0.294739130608      0.653834261195      -0.430931675246     0.653834261195      -0.430931675246     0.336213934701      0.294739130608      
9700000000.0        0.339450782897      0.296006419744      0.650384510745      -0.433647953405     0.650384510745      -0.433647953405     0.339450782897      0.296006419744      
9800000000.0        0.342690106658      0.29723455723       0.646929851503      -0.436325999975     0.646929851503      -0.436325999975     0.342690106658      0.29723455723       
9900000000.0        0.345931392816      0.298423754095      0.643470789121      -0.438966034978     0.643470789121      -0.438966034978     0.345931392816      0.298423754095      
10000000000.0       0.349174136334      0.299574227965      0.640007821039      -0.441568285038     0.640007821039      -0.441568285038     0.349174136334      0.299574227965      
