# Hz S RI R 50.00 
100000000.0         0.000153448198892   -0.000280596114539  0.999843685216      -0.000918997119412  0.999843685216      -0.000918997119412  0.000153448198891   -0.000280596114539  
200000000.0         0.000153142947562   -0.000561207843998  0.999840684621      -0.00183802060391   0.999840684621      -0.00183802060391   0.000153142947561   -0.000561207843998  
300000000.0         0.000152051025833   -0.000841842059801  0.999837031164      -0.00275708522614   0.999837031164      -0.00275708522614   0.000152051025832   -0.000841842059801  
400000000.0         0.000150306174911   -0.00112250391263   0.999832590757      -0.00367620179902   0.999832590757      -0.00367620179902   0.000150306174911   -0.00112250391263   
500000000.0         0.000147959679081   -0.00140319756266   0.999827311708      -0.0045953792189    0.999827311708      -0.0045953792189    0.000147959679081   -0.00140319756266   
600000000.0         0.000145037533455   -0.001683926486     0.999821167561      -0.00551462513554   0.999821167561      -0.00551462513554   0.000145037533455   -0.001683926486     
700000000.0         0.000141554964152   -0.00196469364151   0.999814142582      -0.00643394629033   0.999814142582      -0.00643394629033   0.000141554964152   -0.00196469364151   
800000000.0         0.000137521723739   -0.00224550157342   0.99980622647       -0.00735334871669   0.99980622647       -0.00735334871669   0.00013752172374    -0.00224550157342   
900000000.0         0.000132944447853   -0.00252635248054   0.999797412007      -0.00827283787178   0.999797412007      -0.00827283787178   0.000132944447853   -0.00252635248054   
1000000000.0        0.000127827849125   -0.00280724826626   0.999787693862      -0.0091924187294    0.999787693862      -0.0091924187294    0.000127827849125   -0.00280724826626   
1100000000.0        0.000122175380858   -0.00308819057604   0.999777067934      -0.0101120958483    0.999777067934      -0.0101120958483    0.000122175380858   -0.00308819057604   
1200000000.0        0.000115989632448   -0.00336918082663   0.999765530962      -0.0110318734249    0.999765530962      -0.0110318734249    0.000115989632448   -0.00336918082663   
1300000000.0        0.000109272578282   -0.00365022022956   0.999753080272      -0.0119517553345    0.999753080272      -0.0119517553345    0.000109272578282   -0.00365022022956   
1400000000.0        0.000102025741446   -0.00393130980999   0.99973971362       -0.0128717451648    0.99973971362       -0.0128717451648    0.000102025741446   -0.00393130980999   
1500000000.0        9.42503053918e-05   -0.00421245042305   0.999725429082      -0.0137918462434    0.999725429082      -0.0137918462434    9.42503053918e-05   -0.00421245042305   
1600000000.0        8.59471924808e-05   -0.00449364276711   0.999710224977      -0.0147120616611    0.999710224977      -0.0147120616611    8.59471924808e-05   -0.00449364276711   
1700000000.0        7.71171206988e-05   -0.00477488739545   0.999694099809      -0.0156323942914    0.999694099809      -0.0156323942914    7.71171206988e-05   -0.00477488739545   
1800000000.0        6.7760645535e-05    -0.00505618472643   0.999677052233      -0.0165528468073    0.999677052233      -0.0165528468073    6.7760645535e-05    -0.00505618472643   
1900000000.0        5.78781915568e-05   -0.00533753505227   0.999659081018      -0.0174734216959    0.999659081018      -0.0174734216959    5.7878191557e-05    -0.00533753505227   
2000000000.0        4.74700765887e-05   -0.00561893854694   0.999640185029      -0.0183941212716    0.999640185029      -0.0183941212716    4.74700765891e-05   -0.00561893854694   
2100000000.0        3.65365305772e-05   -0.00590039527315   0.999620363205      -0.019314947687     0.999620363205      -0.019314947687     3.65365305772e-05   -0.00590039527315   
2200000000.0        2.50777104658e-05   -0.00618190518865   0.999599614552      -0.0202359029434    0.999599614552      -0.0202359029434    2.50777104662e-05   -0.00618190518865   
2300000000.0        1.3093712119e-05    -0.00646346815189   0.999577938125      -0.0211569888994    0.999577938125      -0.0211569888994    1.3093712119e-05    -0.00646346815189   
2400000000.0        5.84579952223e-07   -0.00674508392724   0.999555333023      -0.0220782072798    0.999555333023      -0.0220782072798    5.84579952223e-07   -0.00674508392724   
2500000000.0        -1.24496851701e-05  -0.00702675218968   0.999531798381      -0.0229995596823    0.999531798381      -0.0229995596823    -1.24496851704e-05  -0.00702675218968   
2600000000.0        -2.60091194274e-05  -0.00730847252921   0.999507333368      -0.0239210475846    0.999507333368      -0.0239210475846    -2.60091194272e-05  -0.00730847252921   
2700000000.0        -4.0093790603e-05   -0.00759024445473   0.999481937176      -0.0248426723505    0.999481937176      -0.0248426723505    -4.00937906029e-05  -0.00759024445473   
2800000000.0        -5.47037935256e-05  -0.00787206739789   0.999455609022      -0.0257644352357    0.999455609022      -0.0257644352357    -5.47037935256e-05  -0.00787206739789   
2900000000.0        -6.98392461946e-05  -0.00815394071637   0.99942834814       -0.0266863373927    0.99942834814       -0.0266863373927    -6.98392461945e-05  -0.00815394071637   
3000000000.0        -8.55002864839e-05  -0.00843586369725   0.999400153783      -0.027608379876     0.999400153783      -0.027608379876     -8.55002864841e-05  -0.00843586369725   
3100000000.0        -0.000101687069307  -0.00871783555986   0.99937102522       -0.0285305636464    0.99937102522       -0.0285305636464    -0.000101687069307  -0.00871783555986   
3200000000.0        -0.000118399764154  -0.00899985545865   0.99934096173       -0.029452889575     0.99934096173       -0.029452889575     -0.000118399764154  -0.00899985545865   
3300000000.0        -0.000135638552973  -0.00928192248583   0.999309962606      -0.0303753584477    0.999309962606      -0.0303753584477    -0.000135638552973  -0.00928192248583   
3400000000.0        -0.000153403628295  -0.00956403567377   0.999278027151      -0.031297970968     0.999278027151      -0.031297970968     -0.000153403628295  -0.00956403567377   
3500000000.0        -0.000171695191592  -0.00984619399745   0.999245154678      -0.0322207277611    0.999245154678      -0.0322207277611    -0.000171695191592  -0.00984619399745   
3600000000.0        -0.000190513451833  -0.0101283963765    0.999211344506      -0.0331436293768    0.999211344506      -0.0331436293768    -0.000190513451833  -0.0101283963765    
3700000000.0        -0.000209858624192  -0.0104106416775    0.999176595965      -0.0340666762925    0.999176595965      -0.0340666762925    -0.000209858624192  -0.0104106416775    
3800000000.0        -0.000229730928897  -0.0106929287158    0.99914090839       -0.0349898689161    0.99914090839       -0.0349898689161    -0.000229730928897  -0.0106929287158    
3900000000.0        -0.000250130590205  -0.0109752562572    0.999104281123      -0.0359132075888    0.999104281123      -0.0359132075888    -0.000250130590205  -0.0109752562572    
4000000000.0        -0.000271057835474  -0.0112576230204    0.999066713513      -0.0368366925873    0.999066713513      -0.0368366925873    -0.000271057835474  -0.0112576230204    
4100000000.0        -0.000292512894329  -0.0115400276779    0.999028204913      -0.0377603241266    0.999028204913      -0.0377603241266    -0.000292512894329  -0.0115400276779    
4200000000.0        -0.000314495997903  -0.0118224688581    0.998988754685      -0.0386841023622    0.998988754685      -0.0386841023622    -0.000314495997903  -0.0118224688581    
4300000000.0        -0.000337007378152  -0.0121049451466    0.998948362192      -0.039608027392     0.998948362192      -0.039608027392     -0.000337007378152  -0.0121049451466    
4400000000.0        -0.000360047267225  -0.0123874550881    0.998907026804      -0.0405320992585    0.998907026804      -0.0405320992585    -0.000360047267225  -0.0123874550881    
4500000000.0        -0.000383615896892  -0.0126699971871    0.998864747895      -0.041456317951     0.998864747895      -0.041456317951     -0.000383615896892  -0.0126699971871    
4600000000.0        -0.000407713498019  -0.0129525699101    0.998821524846      -0.0423806834071    0.998821524846      -0.0423806834071    -0.000407713498018  -0.0129525699101    
4700000000.0        -0.000432340300078  -0.0132351716859    0.99877735704       -0.0433051955149    0.99877735704       -0.0433051955149    -0.000432340300078  -0.0132351716859    
4800000000.0        -0.000457496530709  -0.0135178009078    0.998732243864      -0.0442298541141    0.998732243864      -0.0442298541141    -0.000457496530709  -0.0135178009078    
4900000000.0        -0.000483182415303  -0.0138004559342    0.998686184712      -0.0451546589983    0.998686184712      -0.0451546589983    -0.000483182415302  -0.0138004559342    
5000000000.0        -0.000509398176617  -0.01408313509      0.998639178979      -0.0460796099162    0.998639178979      -0.0460796099162    -0.000509398176617  -0.01408313509      
5100000000.0        -0.00053614403443   -0.0143658366675    0.998591226067      -0.047004706573     0.998591226067      -0.047004706573     -0.00053614403443   -0.0143658366675    
5200000000.0        -0.000563420205201  -0.0146485589276    0.998542325382      -0.0479299486321    0.998542325382      -0.0479299486321    -0.000563420205201  -0.0146485589276    
5300000000.0        -0.00059122690177   -0.0149313001007    0.998492476331      -0.0488553357165    0.998492476331      -0.0488553357165    -0.00059122690177   -0.0149313001007    
5400000000.0        -0.000619564333065  -0.0152140583879    0.998441678329      -0.0497808674096    0.998441678329      -0.0497808674096    -0.000619564333065  -0.0152140583879    
5500000000.0        -0.000648432703843  -0.0154968319617    0.998389930793      -0.0507065432573    0.998389930793      -0.0507065432573    -0.000648432703843  -0.0154968319617    
5600000000.0        -0.000677832214424  -0.015779618967     0.998337233145      -0.0516323627683    0.998337233145      -0.0516323627683    -0.000677832214424  -0.015779618967     
5700000000.0        -0.000707763060474  -0.0160624175219    0.99828358481       -0.052558325416     0.99828358481       -0.052558325416     -0.000707763060474  -0.0160624175219    
5800000000.0        -0.000738225432765  -0.0163452257188    0.998228985218      -0.0534844306393    0.998228985218      -0.0534844306393    -0.000738225432764  -0.0163452257188    
5900000000.0        -0.000769219516979  -0.0166280416249    0.998173433803      -0.0544106778438    0.998173433803      -0.0544106778438    -0.000769219516979  -0.0166280416249    
6000000000.0        -0.000800745493511  -0.0169108632831    0.998116930004      -0.0553370664026    0.998116930004      -0.0553370664026    -0.000800745493511  -0.0169108632831    
6100000000.0        -0.000832803537275  -0.0171936887128    0.998059473263      -0.0562635956577    0.998059473263      -0.0562635956577    -0.000832803537275  -0.0171936887128    
6200000000.0        -0.000865393817543  -0.0174765159107    0.998001063026      -0.0571902649206    0.998001063026      -0.0571902649206    -0.000865393817543  -0.0174765159107    
6300000000.0        -0.000898516497768  -0.0177593428512    0.997941698745      -0.0581170734733    0.997941698745      -0.0581170734733    -0.000898516497768  -0.0177593428512    
6400000000.0        -0.000932171735436  -0.0180421674876    0.997881379875      -0.0590440205697    0.997881379875      -0.0590440205697    -0.000932171735436  -0.0180421674876    
6500000000.0        -0.000966359681915  -0.0183249877522    0.997820105875      -0.0599711054355    0.997820105875      -0.0599711054355    -0.000966359681914  -0.0183249877522    
6600000000.0        -0.00100108048231   -0.0186078015573    0.997757876209      -0.06089832727      0.997757876209      -0.06089832727      -0.00100108048231   -0.0186078015573    
6700000000.0        -0.00103633427535   -0.0188906067958    0.997694690346      -0.0618256852465    0.997694690346      -0.0618256852465    -0.00103633427535   -0.0188906067958    
6800000000.0        -0.00107212119324   -0.0191734013417    0.997630547758      -0.0627531785129    0.997630547758      -0.0627531785129    -0.00107212119324   -0.0191734013417    
6900000000.0        -0.00110844136154   -0.0194561830508    0.997565447922      -0.0636808061928    0.997565447922      -0.0636808061928    -0.00110844136154   -0.0194561830508    
7000000000.0        -0.00114529489908   -0.0197389497609    0.99749939032       -0.0646085673859    0.99749939032       -0.0646085673859    -0.00114529489908   -0.0197389497609    
7100000000.0        -0.00118268191782   -0.020021699293     0.997432374438      -0.0655364611693    0.997432374438      -0.0655364611693    -0.00118268191782   -0.020021699293     
7200000000.0        -0.00122060252276   -0.0203044294512    0.997364399767      -0.0664644865974    0.997364399767      -0.0664644865974    -0.00122060252276   -0.0203044294512    
7300000000.0        -0.00125905681187   -0.0205871380237    0.997295465802      -0.0673926427031    0.997295465802      -0.0673926427031    -0.00125905681187   -0.0205871380237    
7400000000.0        -0.00129804487594   -0.0208698227829    0.997225572043      -0.0683209284983    0.997225572043      -0.0683209284983    -0.00129804487594   -0.0208698227829    
7500000000.0        -0.00133756679853   -0.0211524814862    0.997154717994      -0.0692493429745    0.997154717994      -0.0692493429745    -0.00133756679853   -0.0211524814862    
7600000000.0        -0.00137762265587   -0.0214351118762    0.997082903165      -0.0701778851035    0.997082903165      -0.0701778851035    -0.00137762265587   -0.0214351118762    
7700000000.0        -0.00141821251682   -0.0217177116814    0.997010127071      -0.0711065538378    0.997010127071      -0.0711065538378    -0.00141821251682   -0.0217177116814    
7800000000.0        -0.00145933644272   -0.0220002786167    0.996936389228      -0.0720353481113    0.996936389228      -0.0720353481113    -0.00145933644272   -0.0220002786167    
7900000000.0        -0.00150099448739   -0.0222828103832    0.996861689162      -0.0729642668399    0.996861689162      -0.0729642668399    -0.00150099448739   -0.0222828103832    
8000000000.0        -0.00154318669699   -0.0225653046697    0.9967860264        -0.0738933089219    0.9967860264        -0.0738933089219    -0.00154318669699   -0.0225653046697    
8100000000.0        -0.00158591311004   -0.022847759152     0.996709400476      -0.0748224732385    0.996709400476      -0.0748224732385    -0.00158591311004   -0.022847759152     
8200000000.0        -0.00162917375727   -0.0231301714941    0.996631810927      -0.0757517586546    0.996631810927      -0.0757517586546    -0.00162917375727   -0.0231301714941    
8300000000.0        -0.0016729686616    -0.0234125393482    0.996553257297      -0.0766811640187    0.996553257297      -0.0766811640187    -0.0016729686616    -0.0234125393482    
8400000000.0        -0.00171729783811   -0.0236948603551    0.996473739133      -0.0776106881641    0.996473739133      -0.0776106881641    -0.00171729783811   -0.0236948603551    
8500000000.0        -0.00176216129391   -0.0239771321446    0.996393255988      -0.0785403299088    0.996393255988      -0.0785403299088    -0.00176216129391   -0.0239771321446    
8600000000.0        -0.00180755902817   -0.024259352336     0.996311807421      -0.0794700880561    0.996311807421      -0.0794700880561    -0.00180755902817   -0.024259352336     
8700000000.0        -0.001853491032     -0.0245415185383    0.996229392993      -0.0803999613952    0.996229392993      -0.0803999613952    -0.001853491032     -0.0245415185383    
8800000000.0        -0.00189995728846   -0.0248236283505    0.996146012273      -0.0813299487014    0.996146012273      -0.0813299487014    -0.00189995728846   -0.0248236283505    
8900000000.0        -0.00194695777246   -0.0251056793619    0.996061664834      -0.0822600487365    0.996061664834      -0.0822600487365    -0.00194695777246   -0.0251056793619    
9000000000.0        -0.00199449245077   -0.0253876691528    0.995976350253      -0.0831902602496    0.995976350253      -0.0831902602496    -0.00199449245077   -0.0253876691528    
9100000000.0        -0.00204256128193   -0.0256695952941    0.995890068113      -0.0841205819768    0.995890068113      -0.0841205819768    -0.00204256128193   -0.0256695952941    
9200000000.0        -0.00209116421624   -0.0259514553483    0.995802818004      -0.0850510126421    0.995802818004      -0.0850510126421    -0.00209116421624   -0.0259514553483    
9300000000.0        -0.00214030119571   -0.0262332468695    0.995714599517      -0.0859815509576    0.995714599517      -0.0859815509576    -0.00214030119571   -0.0262332468695    
9400000000.0        -0.00218997215403   -0.0265149674034    0.995625412252      -0.0869121956239    0.995625412252      -0.0869121956239    -0.00218997215403   -0.0265149674034    
9500000000.0        -0.00224017701654   -0.0267966144883    0.995535255812      -0.0878429453304    0.995535255812      -0.0878429453304    -0.00224017701654   -0.0267966144883    
9600000000.0        -0.00229091570017   -0.0270781856546    0.995444129806      -0.0887737987554    0.995444129806      -0.0887737987554    -0.00229091570017   -0.0270781856546    
9700000000.0        -0.00234218811345   -0.0273596784256    0.995352033848      -0.0897047545669    0.995352033848      -0.0897047545669    -0.00234218811345   -0.0273596784256    
9800000000.0        -0.00239399415642   -0.0276410903174    0.995258967558      -0.0906358114226    0.995258967558      -0.0906358114226    -0.00239399415642   -0.0276410903174    
9900000000.0        -0.0024463337207    -0.0279224188394    0.995164930559      -0.0915669679704    0.995164930559      -0.0915669679704    -0.0024463337207    -0.0279224188394    
10000000000.0       -0.00249920668933   -0.0282036614944    0.995069922482      -0.0924982228482    0.995069922482      -0.0924982228482    -0.00249920668933   -0.0282036614944    
