# Hz S RI R 50.00 
100000000.0         4.14079153817e-05   -0.00236632367184   0.999939309055      -0.00278286997179   0.999939309055      -0.00278286997179   4.14079153817e-05   -0.00236632367184   
200000000.0         1.94833102016e-05   -0.00473270563313   0.999916432574      -0.00556582656817   0.999916432574      -0.00556582656817   1.94833102016e-05   -0.00473270563313   
300000000.0         -1.57049651058e-05  -0.00709913801849   0.99988029585       -0.00834887711049   0.99988029585       -0.00834887711049   -1.57049651058e-05  -0.00709913801849   
400000000.0         -6.41163211622e-05  -0.00946558996562   0.999830851422      -0.0111320023987    0.999830851422      -0.0111320023987    -6.4116321162e-05   -0.00946558996562   
500000000.0         -0.000125737462706  -0.0118320185364    0.999768078734      -0.0139151694177    0.999768078734      -0.0139151694177    -0.000125737462707  -0.0118320185364    
600000000.0         -0.000200563384384  -0.0141983726136    0.999691965534      -0.0166983358413    0.999691965534      -0.0166983358413    -0.000200563384384  -0.0141983726136    
700000000.0         -0.000288592455035  -0.0165645949147    0.99960250324       -0.019481452352     0.99960250324       -0.019481452352     -0.000288592455035  -0.0165645949147    
800000000.0         -0.000389824566408  -0.0189306232185    0.999499685316      -0.0222644640507    0.999499685316      -0.0222644640507    -0.000389824566408  -0.0189306232185    
900000000.0         -0.000504260267694  -0.0212963911891    0.99938350659       -0.0250473114009    0.99938350659       -0.0250473114009    -0.000504260267694  -0.0212963911891    
1000000000.0        -0.000631900295885  -0.0236618289672    0.999253962945      -0.0278299309051    0.999253962945      -0.0278299309051    -0.000631900295885  -0.0236618289672    
1100000000.0        -0.000772745290601  -0.026026863617     0.999111051169      -0.0306122556132    0.999111051169      -0.0306122556132    -0.000772745290601  -0.026026863617     
1200000000.0        -0.000926795604915  -0.0283914194768    0.998954768885      -0.0333942155218    0.998954768885      -0.0333942155218    -0.000926795604915  -0.0283914194768    
1300000000.0        -0.0010940511707    -0.0307554184431    0.998785114525      -0.0361757378955    0.998785114525      -0.0361757378955    -0.0010940511707    -0.0307554184431    
1400000000.0        -0.00127451139719   -0.0331187802058    0.998602087327      -0.0389567475326    0.998602087327      -0.0389567475326    -0.00127451139719   -0.0331187802058    
1500000000.0        -0.00146817509104   -0.0354814224474    0.998405687338      -0.0417371669899    0.998405687338      -0.0417371669899    -0.00146817509104   -0.0354814224474    
1600000000.0        -0.00167504039118   -0.0378432610164    0.998195915434      -0.0445169167764    0.998195915434      -0.0445169167764    -0.00167504039118   -0.0378432610164    
1700000000.0        -0.00189510471402   -0.0402042100767    0.997972773336      -0.0472959155212    0.997972773336      -0.0472959155212    -0.00189510471402   -0.0402042100767    
1800000000.0        -0.00212836470668   -0.0425641822424    0.997736263629      -0.0500740801231    0.997736263629      -0.0500740801231    -0.00212836470668   -0.0425641822424    
1900000000.0        -0.00237481620603   -0.0449230886976    0.997486389788      -0.0528513258843    0.997486389788      -0.0528513258843    -0.00237481620603   -0.0449230886976    
2000000000.0        -0.00263445420275   -0.0472808393048    0.997223156191      -0.0556275666302    0.997223156191      -0.0556275666302    -0.00263445420275   -0.0472808393048    
2100000000.0        -0.00290727280922   -0.0496373427052    0.996946568146      -0.0584027148203    0.996946568146      -0.0584027148203    -0.00290727280922   -0.0496373427052    
2200000000.0        -0.00319326523074   -0.0519925064094    0.99665663191       -0.061176681648     0.99665663191       -0.061176681648     -0.00319326523074   -0.0519925064094    
2300000000.0        -0.00349242373956   -0.0543462368829    0.996353354702      -0.0639493771344    0.996353354702      -0.0639493771344    -0.00349242373956   -0.0543462368829    
2400000000.0        -0.00380473965146   -0.0566984396249    0.996036744728      -0.0667207102149    0.996036744728      -0.0667207102149    -0.00380473965146   -0.0566984396249    
2500000000.0        -0.00413020330442   -0.0590490192428    0.995706811194      -0.0694905888201    0.995706811194      -0.0694905888201    -0.00413020330442   -0.0590490192428    
2600000000.0        -0.00446880403927   -0.0613978795215    0.995363564321      -0.0722589199519    0.995363564321      -0.0722589199519    -0.00446880403927   -0.0613978795215    
2700000000.0        -0.00482053018221   -0.0637449234901    0.995007015362      -0.0750256097552    0.995007015362      -0.0750256097552    -0.00482053018221   -0.0637449234901    
2800000000.0        -0.00518536902883   -0.066090053484     0.994637176611      -0.0777905635856    0.994637176611      -0.0777905635856    -0.00518536902883   -0.066090053484     
2900000000.0        -0.00556330682969   -0.0684331712044    0.994254061422      -0.0805536860743    0.994254061422      -0.0805536860743    -0.00556330682969   -0.0684331712044    
3000000000.0        -0.00595432877731   -0.0707741777757    0.993857684212      -0.0833148811887    0.993857684212      -0.0833148811887    -0.00595432877731   -0.0707741777757    
3100000000.0        -0.00635841899444   -0.0731129737994    0.993448060479      -0.0860740522916    0.993448060479      -0.0860740522916    -0.00635841899444   -0.0731129737994    
3200000000.0        -0.00677556052353   -0.0754494594064    0.993025206806      -0.0888311021971    0.993025206806      -0.0888311021971    -0.00677556052353   -0.0754494594064    
3300000000.0        -0.00720573531739   -0.0777835343069    0.992589140872      -0.0915859332239    0.992589140872      -0.0915859332239    -0.00720573531739   -0.0777835343069    
3400000000.0        -0.0076489242309    -0.080115097839     0.992139881457      -0.0943384472475    0.992139881457      -0.0943384472475    -0.0076489242309    -0.080115097839     
3500000000.0        -0.00810510701381   -0.0824440490149    0.991677448452      -0.0970885457496    0.991677448452      -0.0970885457496    -0.00810510701381   -0.0824440490149    
3600000000.0        -0.00857426230445   -0.0847702865657    0.991201862861      -0.0998361298657    0.991201862861      -0.0998361298657    -0.00857426230445   -0.0847702865657    
3700000000.0        -0.00905636762441   -0.0870937089851    0.990713146807      -0.102581100432     0.990713146807      -0.102581100432     -0.00905636762441   -0.0870937089851    
3800000000.0        -0.00955139937414   -0.0894142145707    0.990211323538      -0.105323358029     0.990211323538      -0.105323358029     -0.00955139937414   -0.0894142145707    
3900000000.0        -0.0100593328294    -0.0917317014654    0.989696417425      -0.108062803025     0.989696417425      -0.108062803025     -0.0100593328294    -0.0917317014654    
4000000000.0        -0.0105801421383    -0.0940460676963    0.989168453971      -0.11079933562      0.989168453971      -0.11079933562      -0.0105801421383    -0.0940460676963    
4100000000.0        -0.0111138003197    -0.096357211213     0.988627459807      -0.113532855881     0.988627459807      -0.113532855881     -0.0111138003197    -0.096357211213     
4200000000.0        -0.0116602792617    -0.0986650299247    0.988073462697      -0.116263263788     0.988073462697      -0.116263263788     -0.0116602792617    -0.0986650299247    
4300000000.0        -0.0122195497214    -0.100969421736     0.987506491535      -0.118990459266     0.987506491535      -0.118990459266     -0.0122195497214    -0.100969421736     
4400000000.0        -0.0127915813246    -0.103270284584     0.986926576346      -0.121714342226     0.986926576346      -0.121714342226     -0.0127915813246    -0.103270284584     
4500000000.0        -0.0133763425674    -0.105567516467     0.986333748287      -0.124434812598     0.986333748287      -0.124434812598     -0.0133763425674    -0.105567516467     
4600000000.0        -0.0139738008173    -0.107861015486     0.98572803964       -0.127151770369     0.98572803964       -0.127151770369     -0.0139738008173    -0.107861015486     
4700000000.0        -0.0145839223153    -0.110150679867     0.985109483815      -0.129865115614     0.985109483815      -0.129865115614     -0.0145839223153    -0.110150679867     
4800000000.0        -0.0152066721788    -0.112436408002     0.984478115346      -0.132574748532     0.984478115346      -0.132574748532     -0.0152066721788    -0.112436408002     
4900000000.0        -0.015842014405     -0.114718098473     0.983833969884      -0.135280569475     0.983833969884      -0.135280569475     -0.015842014405     -0.114718098473     
5000000000.0        -0.0164899118748    -0.116995650084     0.983177084197      -0.137982478982     0.983177084197      -0.137982478982     -0.0164899118748    -0.116995650084     
5100000000.0        -0.0171503263568    -0.119268961892     0.982507496165      -0.140680377806     0.982507496165      -0.140680377806     -0.0171503263568    -0.119268961892     
5200000000.0        -0.0178232185128    -0.12153793323      0.981825244772      -0.143374166948     0.981825244772      -0.143374166948     -0.0178232185128    -0.12153793323      
5300000000.0        -0.0185085479032    -0.123802463742     0.981130370104      -0.146063747682     0.981130370104      -0.146063747682     -0.0185085479032    -0.123802463742     
5400000000.0        -0.0192062729925    -0.126062453403     0.980422913341      -0.148749021587     0.980422913341      -0.148749021587     -0.0192062729925    -0.126062453403     
5500000000.0        -0.019916351156     -0.128317802548     0.979702916752      -0.151429890569     0.979702916752      -0.151429890569     -0.019916351156     -0.128317802548     
5600000000.0        -0.020638738687     -0.130568411899     0.978970423685      -0.154106256892     0.978970423685      -0.154106256892     -0.020638738687     -0.130568411899     
5700000000.0        -0.0213733908034    -0.132814182588     0.978225478563      -0.156778023205     0.978225478563      -0.156778023205     -0.0213733908034    -0.132814182588     
5800000000.0        -0.0221202616557    -0.13505501618      0.977468126876      -0.15944509256      0.977468126876      -0.15944509256      -0.0221202616557    -0.13505501618      
5900000000.0        -0.0228793043357    -0.137290814701     0.976698415171      -0.162107368447     0.976698415171      -0.162107368447     -0.0228793043357    -0.137290814701     
6000000000.0        -0.0236504708838    -0.139521480657     0.975916391044      -0.164764754808     0.975916391044      -0.164764754808     -0.0236504708838    -0.139521480657     
6100000000.0        -0.0244337122992    -0.141746917056     0.975122103132      -0.167417156068     0.975122103132      -0.167417156068     -0.0244337122992    -0.141746917056     
6200000000.0        -0.0252289785482    -0.143967027435     0.974315601103      -0.170064477152     0.974315601103      -0.170064477152     -0.0252289785482    -0.143967027435     
6300000000.0        -0.0260362185742    -0.146181715875     0.973496935646      -0.172706623513     0.973496935646      -0.172706623513     -0.0260362185742    -0.146181715875     
6400000000.0        -0.0268553803077    -0.148390887027     0.972666158462      -0.175343501146     0.972666158462      -0.175343501146     -0.0268553803077    -0.148390887027     
6500000000.0        -0.0276864106763    -0.150594446128     0.971823322254      -0.177975016617     0.971823322254      -0.177975016617     -0.0276864106763    -0.150594446128     
6600000000.0        -0.0285292556155    -0.152792299023     0.970968480713      -0.180601077078     0.970968480713      -0.180601077078     -0.0285292556155    -0.152792299023     
6700000000.0        -0.0293838600796    -0.154984352184     0.970101688514      -0.183221590288     0.970101688514      -0.183221590288     -0.0293838600796    -0.154984352184     
6800000000.0        -0.0302501680527    -0.157170512728     0.969223001297      -0.185836464633     0.969223001297      -0.185836464633     -0.0302501680527    -0.157170512728     
6900000000.0        -0.03112812256      -0.159350688435     0.968332475661      -0.188445609146     0.968332475661      -0.188445609146     -0.03112812256      -0.159350688435     
7000000000.0        -0.0320176656802    -0.161524787765     0.967430169149      -0.19104893352      0.967430169149      -0.19104893352      -0.0320176656802    -0.161524787765     
7100000000.0        -0.0329187385566    -0.163692719879     0.966516140239      -0.193646348134     0.966516140239      -0.193646348134     -0.0329187385566    -0.163692719879     
7200000000.0        -0.0338312814097    -0.165854394648     0.96559044833       -0.196237764061     0.96559044833       -0.196237764061     -0.0338312814097    -0.165854394648     
7300000000.0        -0.03475523355      -0.168009722678     0.964653153728      -0.198823093093     0.964653153728      -0.198823093093     -0.03475523355      -0.168009722678     
7400000000.0        -0.0356905333899    -0.170158615319     0.963704317636      -0.201402247751     0.963704317636      -0.201402247751     -0.0356905333899    -0.170158615319     
7500000000.0        -0.0366371184571    -0.172300984683     0.962744002143      -0.203975141304     0.962744002143      -0.203975141304     -0.0366371184571    -0.172300984683     
7600000000.0        -0.0375949254077    -0.174436743658     0.961772270204      -0.206541687783     0.961772270204      -0.206541687783     -0.0375949254077    -0.174436743658     
7700000000.0        -0.0385638900392    -0.176565805923     0.960789185632      -0.209101801997     0.960789185632      -0.209101801997     -0.0385638900392    -0.176565805923     
7800000000.0        -0.0395439473041    -0.178688085961     0.959794813086      -0.211655399544     0.959794813086      -0.211655399544     -0.0395439473041    -0.178688085961     
7900000000.0        -0.0405350313236    -0.180803499072     0.958789218051      -0.214202396831     0.958789218051      -0.214202396831     -0.0405350313236    -0.180803499072     
8000000000.0        -0.0415370754012    -0.182911961389     0.957772466831      -0.21674271108      0.957772466831      -0.21674271108      -0.0415370754012    -0.182911961389     
8100000000.0        -0.042550012037     -0.185013389885     0.956744626529      -0.219276260346     0.956744626529      -0.219276260346     -0.042550012037     -0.185013389885     
8200000000.0        -0.0435737729412    -0.18710770239      0.955705765039      -0.221802963527     0.955705765039      -0.221802963527     -0.0435737729412    -0.18710770239      
8300000000.0        -0.0446082890492    -0.189194817601     0.954655951027      -0.224322740379     0.954655951027      -0.224322740379     -0.0446082890492    -0.189194817601     
8400000000.0        -0.0456534905352    -0.191274655092     0.953595253918      -0.226835511523     0.953595253918      -0.226835511523     -0.0456534905352    -0.191274655092     
8500000000.0        -0.0467093068271    -0.193347135327     0.952523743883      -0.22934119846      0.952523743883      -0.22934119846      -0.0467093068271    -0.193347135327     
8600000000.0        -0.0477756666209    -0.19541217967      0.951441491821      -0.231839723581     0.951441491821      -0.231839723581     -0.0477756666209    -0.19541217967      
8700000000.0        -0.0488524978957    -0.197469710393     0.950348569348      -0.234331010176     0.950348569348      -0.234331010176     -0.0488524978957    -0.197469710393     
8800000000.0        -0.0499397279282    -0.199519650687     0.949245048781      -0.236814982445     0.949245048781      -0.236814982445     -0.0499397279282    -0.199519650687     
8900000000.0        -0.0510372833079    -0.201561924672     0.948131003122      -0.239291565507     0.948131003122      -0.239291565507     -0.0510372833079    -0.201561924672     
9000000000.0        -0.0521450899518    -0.203596457406     0.947006506044      -0.241760685411     0.947006506044      -0.241760685411     -0.0521450899518    -0.203596457406     
9100000000.0        -0.0532630731198    -0.205623174891     0.945871631874      -0.244222269142     0.945871631874      -0.244222269142     -0.0532630731198    -0.205623174891     
9200000000.0        -0.0543911574295    -0.207642004084     0.944726455582      -0.246676244631     0.944726455582      -0.246676244631     -0.0543911574295    -0.207642004084     
9300000000.0        -0.0555292668717    -0.209652872903     0.943571052761      -0.249122540762     0.943571052761      -0.249122540762     -0.0555292668717    -0.209652872903     
9400000000.0        -0.0566773248253    -0.211655710234     0.942405499616      -0.251561087381     0.942405499616      -0.251561087381     -0.0566773248253    -0.211655710234     
9500000000.0        -0.0578352540731    -0.213650445941     0.941229872945      -0.253991815303     0.941229872945      -0.253991815303     -0.0578352540731    -0.213650445941     
9600000000.0        -0.0590029768166    -0.215637010868     0.940044250128      -0.256414656316     0.940044250128      -0.256414656316     -0.0590029768166    -0.215637010868     
9700000000.0        -0.0601804146918    -0.217615336851     0.938848709104      -0.258829543193     0.938848709104      -0.258829543193     -0.0601804146918    -0.217615336851     
9800000000.0        -0.0613674887844    -0.219585356717     0.937643328367      -0.261236409692     0.937643328367      -0.261236409692     -0.0613674887844    -0.219585356717     
9900000000.0        -0.0625641196454    -0.221547004297     0.936428186938      -0.263635190567     0.936428186938      -0.263635190567     -0.0625641196454    -0.221547004297     
10000000000.0       -0.0637702273062    -0.223500214424     0.93520336436       -0.26602582157      0.93520336436       -0.26602582157      -0.0637702273062    -0.223500214424     
