# Hz S RI R 50.00 
100000000.0         0.00422417047605    0.000679461699996   0.995769639811      -0.00309991095144   0.995769639811      -0.00309991095144   0.00422417047605    0.000679461699996   
200000000.0         0.00425749699333    0.00135868703064    0.995725256554      -0.00619957452373   0.995725256554      -0.00619957452373   0.00425749699333    0.00135868703064    
300000000.0         0.00428764338163    0.00203773282865    0.995678186213      -0.00929904259186   0.995678186213      -0.00929904259186   0.00428764338163    0.00203773282865    
400000000.0         0.00431826146836    0.0027166005906     0.995624776763      -0.0123983105172    0.995624776763      -0.0123983105172    0.00431826146836    0.0027166005906     
500000000.0         0.00435075669544    0.00339527906409    0.995563622541      -0.0154973603248    0.995563622541      -0.0154973603248    0.00435075669544    0.00339527906409    
600000000.0         0.00438584503828    0.00407375140029    0.995494007327      -0.0185961680608    0.995494007327      -0.0185961680608    0.00438584503828    0.00407375140029    
700000000.0         0.00442394871839    0.00475199771114    0.995415508629      -0.0216947064541    0.995415508629      -0.0216947064541    0.00442394871839    0.00475199771114    
800000000.0         0.00446534059866    0.00542999625024    0.995327853291      -0.0247929461595    0.995327853291      -0.0247929461595    0.00446534059866    0.00542999625024    
900000000.0         0.00451020846272    0.00610772404455    0.995230853214      -0.0278908564301    0.995230853214      -0.0278908564301    0.00451020846272    0.00610772404455    
1000000000.0        0.00455868759021    0.00678515726682    0.995124372781      -0.0309884055184    0.995124372781      -0.0309884055184    0.00455868759021    0.00678515726682    
1100000000.0        0.00461087886098    0.00746227147133    0.995008310751      -0.0340855609327    0.995008310751      -0.0340855609327    0.00461087886098    0.00746227147133    
1200000000.0        0.0046668595406     0.00813904175126    0.994882589478      -0.0371822896111    0.994882589478      -0.0371822896111    0.0046668595406     0.00813904175126    
1300000000.0        0.00472669006444    0.00881544284831    0.994747148127      -0.0402785580428    0.994747148127      -0.0402785580428    0.00472669006444    0.00881544284831    
1400000000.0        0.00479041849584    0.00949144923161    0.994601938213      -0.0433743323574    0.994601938213      -0.0433743323574    0.00479041849584    0.00949144923161    
1500000000.0        0.00485808356324    0.0101670351565     0.994446920569      -0.0464695783919    0.994446920569      -0.0464695783919    0.00485808356324    0.0101670351565     
1600000000.0        0.00492971679278    0.0108421747088     0.994282063208      -0.0495642617414    0.994282063208      -0.0495642617414    0.00492971679278    0.0108421747088     
1700000000.0        0.0050053440448     0.0115168418399     0.994107339795      -0.0526583477997    0.994107339795      -0.0526583477997    0.0050053440448     0.0115168418399     
1800000000.0        0.00508498664563    0.0121910103934     0.993922728509      -0.0557518017915    0.993922728509      -0.0557518017915    0.00508498664563    0.0121910103934     
1900000000.0        0.00516866223764    0.012864654128      0.993728211196      -0.0588445887982    0.993728211196      -0.0588445887982    0.00516866223764    0.012864654128      
2000000000.0        0.00525638542852    0.0135377467346     0.993523772719      -0.0619366737797    0.993523772719      -0.0619366737797    0.00525638542852    0.0135377467346     
2100000000.0        0.00534816829482    0.0142102618517     0.993309400457      -0.0650280215921    0.993309400457      -0.0650280215921    0.00534816829482    0.0142102618517     
2200000000.0        0.00544402077775    0.0148821730776     0.993085083907      -0.0681185970028    0.993085083907      -0.0681185970028    0.00544402077775    0.0148821730776     
2300000000.0        0.00554395099799    0.0155534539812     0.992850814373      -0.0712083647038    0.992850814373      -0.0712083647038    0.00554395099799    0.0155534539812     
2400000000.0        0.00564796550895    0.0162240781105     0.992606584708      -0.0742972893223    0.992606584708      -0.0742972893223    0.00564796550895    0.0162240781105     
2500000000.0        0.00575606950249    0.0168940190011     0.992352389113      -0.0773853354309    0.992352389113      -0.0773853354309    0.00575606950249    0.0168940190011     
2600000000.0        0.00586826697751    0.0175632501823     0.992088222966      -0.0804724675556    0.992088222966      -0.0804724675556    0.00586826697751    0.0175632501823     
2700000000.0        0.00598456087937    0.0182317451837     0.991814082686      -0.0835586501835    0.991814082686      -0.0835586501835    0.00598456087937    0.0182317451837     
2800000000.0        0.00610495321594    0.0188994775401     0.991529965614      -0.0866438477697    0.991529965614      -0.0866438477697    0.00610495321594    0.0188994775401     
2900000000.0        0.00622944515501    0.0195664207964     0.991235869918      -0.0897280247429    0.991235869918      -0.0897280247429    0.00622944515501    0.0195664207964     
3000000000.0        0.0063580371065     0.020232548512      0.990931794508      -0.0928111455111    0.990931794508      -0.0928111455111    0.0063580371065     0.020232548512      
3100000000.0        0.00649072879235    0.0208978342645     0.990617738971      -0.0958931744661    0.990617738971      -0.0958931744661    0.00649072879235    0.0208978342645     
3200000000.0        0.00662751930612    0.0215622516533     0.990293703508      -0.0989740759887    0.990293703508      -0.0989740759887    0.00662751930612    0.0215622516533     
3300000000.0        0.00676840716435    0.022225774303      0.989959688885      -0.102053814452     0.989959688885      -0.102053814452     0.00676840716435    0.022225774303      
3400000000.0        0.0069133903508     0.0228883758663     0.989615696388      -0.105132354225     0.989615696388      -0.105132354225     0.0069133903508     0.0228883758663     
3500000000.0        0.00706246635478    0.0235500300268     0.989261727784      -0.108209659679     0.989261727784      -0.108209659679     0.00706246635478    0.0235500300268     
3600000000.0        0.0072156322047     0.0242107105017     0.98889778529       -0.111285695185     0.98889778529       -0.111285695185     0.0072156322047     0.0242107105017     
3700000000.0        0.0073728844973     0.0248703910441     0.988523871541      -0.114360425123     0.988523871541      -0.114360425123     0.0073728844973     0.0248703910441     
3800000000.0        0.00753421942335    0.0255290454456     0.988139989569      -0.117433813881     0.988139989569      -0.117433813881     0.00753421942335    0.0255290454456     
3900000000.0        0.00769963279039    0.0261866475383     0.987746142775      -0.12050582586      0.987746142775      -0.12050582586      0.00769963279039    0.0261866475383     
4000000000.0        0.00786912004278    0.0268431711968     0.987342334914      -0.123576425473     0.987342334914      -0.123576425473     0.00786912004278    0.0268431711968     
4100000000.0        0.00804267627955    0.0274985903405     0.986928570072      -0.126645577151     0.986928570072      -0.126645577151     0.00804267627955    0.0274985903405     
4200000000.0        0.00822029627032    0.0281528789352     0.986504852658      -0.129713245346     0.986504852658      -0.129713245346     0.00822029627032    0.0281528789352     
4300000000.0        0.00840197446951    0.0288060109951     0.986071187382      -0.132779394529     0.986071187382      -0.132779394529     0.00840197446951    0.0288060109951     
4400000000.0        0.00858770502914    0.0294579605846     0.985627579247      -0.135843989196     0.985627579247      -0.135843989196     0.00858770502914    0.0294579605846     
4500000000.0        0.00877748181028    0.0301087018198     0.985174033537      -0.138906993865     0.985174033537      -0.138906993865     0.00877748181028    0.0301087018198     
4600000000.0        0.00897129839343    0.0307582088704     0.984710555806      -0.141968373087     0.984710555806      -0.141968373087     0.00897129839343    0.0307582088704     
4700000000.0        0.00916914808795    0.0314064559611     0.984237151869      -0.145028091437     0.984237151869      -0.145028091437     0.00916914808795    0.0314064559611     
4800000000.0        0.00937102394053    0.0320534173733     0.983753827793      -0.148086113524     0.983753827793      -0.148086113524     0.00937102394053    0.0320534173733     
4900000000.0        0.00957691874301    0.0326990674466     0.983260589893      -0.151142403989     0.983260589893      -0.151142403989     0.00957691874301    0.0326990674466     
5000000000.0        0.0097868250394     0.0333433805801     0.98275744472       -0.154196927507     0.98275744472       -0.154196927507     0.0097868250394     0.0333433805801     
5100000000.0        0.0100007351324     0.0339863312342     0.982244399058      -0.15724964879      0.982244399058      -0.15724964879      0.0100007351324     0.0339863312342     
5200000000.0        0.0102186410895     0.0346278939314     0.981721459916      -0.160300532587     0.981721459916      -0.160300532587     0.0102186410895     0.0346278939314     
5300000000.0        0.0104405347481     0.0352680432584     0.981188634525      -0.163349543687     0.981188634525      -0.163349543687     0.0104405347481     0.0352680432584     
5400000000.0        0.010666407721      0.0359067538672     0.980645930333      -0.166396646918     0.980645930333      -0.166396646918     0.010666407721      0.0359067538672     
5500000000.0        0.0108962514006     0.036544000476      0.980093354998      -0.169441807151     0.980093354998      -0.169441807151     0.0108962514006     0.036544000476      
5600000000.0        0.0111300569638     0.0371797578711     0.979530916385      -0.172484989302     0.979530916385      -0.172484989302     0.0111300569638     0.0371797578711     
5700000000.0        0.0113678153756     0.037814000908      0.978958622564      -0.175526158331     0.978958622564      -0.175526158331     0.0113678153756     0.037814000908      
5800000000.0        0.0116095173929     0.0384467045126     0.978376481804      -0.178565279244     0.978376481804      -0.178565279244     0.0116095173929     0.0384467045126     
5900000000.0        0.0118551535682     0.0390778436823     0.977784502571      -0.181602317096     0.977784502571      -0.181602317096     0.0118551535682     0.0390778436823     
6000000000.0        0.0121047142527     0.0397073934877     0.977182693524      -0.184637236988     0.977182693524      -0.184637236988     0.0121047142527     0.0397073934877     
6100000000.0        0.0123581895996     0.0403353290733     0.976571063512      -0.187670004076     0.976571063512      -0.187670004076     0.0123581895996     0.0403353290733     
6200000000.0        0.0126155695668     0.040961625659      0.975949621573      -0.190700583564     0.975949621573      -0.190700583564     0.0126155695668     0.040961625659      
6300000000.0        0.0128768439197     0.0415862585412     0.97531837693       -0.19372894071      0.97531837693       -0.19372894071      0.0128768439197     0.0415862585412     
6400000000.0        0.0131420022336     0.0422092030942     0.974677338986      -0.196755040827     0.974677338986      -0.196755040827     0.0131420022336     0.0422092030942     
6500000000.0        0.0134110338966     0.0428304347706     0.974026517328      -0.199778849281     0.974026517328      -0.199778849281     0.0134110338966     0.0428304347706     
6600000000.0        0.0136839281116     0.0434499291037     0.97336592172       -0.202800331497     0.97336592172       -0.202800331497     0.0136839281116     0.0434499291037     
6700000000.0        0.0139606738985     0.0440676617073     0.972695562102      -0.205819452957     0.972695562102      -0.205819452957     0.0139606738985     0.0440676617073     
6800000000.0        0.0142412600963     0.0446836082777     0.972015448587      -0.208836179201     0.972015448587      -0.208836179201     0.0142412600963     0.0446836082777     
6900000000.0        0.0145256753655     0.0452977445947     0.971325591463      -0.211850475828     0.971325591463      -0.211850475828     0.0145256753655     0.0452977445947     
7000000000.0        0.0148139081894     0.0459100465222     0.970626001185      -0.214862308502     0.970626001185      -0.214862308502     0.0148139081894     0.0459100465222     
7100000000.0        0.0151059468765     0.0465204900099     0.969916688381      -0.217871642944     0.969916688381      -0.217871642944     0.0151059468765     0.0465204900099     
7200000000.0        0.015401779562      0.047129051094      0.969197663842      -0.220878444942     0.969197663842      -0.220878444942     0.015401779562      0.047129051094      
7300000000.0        0.0157013942094     0.0477357058985     0.968468938528      -0.223882680347     0.968468938528      -0.223882680347     0.0157013942094     0.0477357058985     
7400000000.0        0.0160047786127     0.0483404306359     0.967730523561      -0.226884315075     0.967730523561      -0.226884315075     0.0160047786127     0.0483404306359     
7500000000.0        0.0163119203973     0.0489432016087     0.966982430227      -0.229883315109     0.966982430227      -0.229883315109     0.0163119203973     0.0489432016087     
7600000000.0        0.016622807022      0.0495439952101     0.966224669971      -0.232879646499     0.966224669971      -0.232879646499     0.016622807022      0.0495439952101     
7700000000.0        0.0169374257806     0.0501427879251     0.965457254401      -0.235873275364     0.965457254401      -0.235873275364     0.0169374257806     0.0501427879251     
7800000000.0        0.0172557638028     0.0507395563318     0.964680195281      -0.238864167892     0.964680195281      -0.238864167892     0.0172557638028     0.0507395563318     
7900000000.0        0.0175778080563     0.0513342771019     0.963893504533      -0.241852290341     0.963893504533      -0.241852290341     0.0175778080563     0.0513342771019     
8000000000.0        0.0179035453477     0.0519269270022     0.963097194236      -0.244837609042     0.963097194236      -0.244837609042     0.0179035453477     0.0519269270022     
8100000000.0        0.0182329623241     0.0525174828952     0.962291276622      -0.247820090397     0.962291276622      -0.247820090397     0.0182329623241     0.0525174828952     
8200000000.0        0.0185660454743     0.0531059217402     0.961475764078      -0.25079970088      0.961475764078      -0.25079970088      0.0185660454743     0.0531059217402     
8300000000.0        0.0189027811302     0.0536922205947     0.960650669142      -0.253776407043     0.960650669142      -0.253776407043     0.0189027811302     0.0536922205947     
8400000000.0        0.0192431554682     0.0542763566146     0.959816004505      -0.256750175511     0.959816004505      -0.256750175511     0.0192431554682     0.0542763566146     
8500000000.0        0.01958715451       0.0548583070556     0.958971783006      -0.259720972983     0.958971783006      -0.259720972983     0.01958715451       0.0548583070556     
8600000000.0        0.0199347641242     0.0554380492745     0.958118017636      -0.262688766239     0.958118017636      -0.262688766239     0.0199347641242     0.0554380492745     
8700000000.0        0.0202859700277     0.0560155607292     0.95725472153       -0.265653522136     0.95725472153       -0.265653522136     0.0202859700277     0.0560155607292     
8800000000.0        0.0206407577864     0.0565908189805     0.956381907974      -0.268615207607     0.956381907974      -0.268615207607     0.0206407577864     0.0565908189805     
8900000000.0        0.0209991128165     0.0571638016927     0.955499590397      -0.271573789667     0.955499590397      -0.271573789667     0.0209991128165     0.0571638016927     
9000000000.0        0.0213610203861     0.0577344866345     0.954607782374      -0.274529235413     0.954607782374      -0.274529235413     0.0213610203861     0.0577344866345     
9100000000.0        0.0217264656157     0.0583028516798     0.953706497623      -0.27748151202      0.953706497623      -0.27748151202      0.0217264656157     0.0583028516798     
9200000000.0        0.02209543348       0.058868874809      0.952795750006      -0.280430586747     0.952795750006      -0.280430586747     0.02209543348       0.058868874809      
9300000000.0        0.0224679088083     0.0594325341094     0.951875553526      -0.283376426937     0.951875553526      -0.283376426937     0.0224679088083     0.0594325341094     
9400000000.0        0.0228438762863     0.0599938077765     0.950945922327      -0.286319000015     0.950945922327      -0.286319000015     0.0228438762863     0.0599938077765     
9500000000.0        0.0232233204568     0.0605526741146     0.950006870693      -0.289258273493     0.950006870693      -0.289258273493     0.0232233204568     0.0605526741146     
9600000000.0        0.0236062257209     0.0611091115378     0.949058413047      -0.292194214966     0.949058413047      -0.292194214966     0.0236062257209     0.0611091115378     
9700000000.0        0.0239925763392     0.0616630985707     0.948100563949      -0.295126792118     0.948100563949      -0.295126792118     0.0239925763392     0.0616630985707     
9800000000.0        0.0243823564327     0.0622146138497     0.947133338096      -0.298055972718     0.947133338096      -0.298055972718     0.0243823564327     0.0622146138497     
9900000000.0        0.024775549984      0.0627636361233     0.946156750324      -0.300981724624     0.946156750324      -0.300981724624     0.024775549984      0.0627636361233     
10000000000.0       0.0251721408382     0.0633101442531     0.945170815599      -0.303904015782     0.945170815599      -0.303904015782     0.0251721408382     0.0633101442531     
