# Hz S RI R 50.00 
100000000.0         0.000158201511355   -0.000238722781444  0.999839467351      -0.000694583996299  0.999839467351      -0.000694583996299  0.000158201511355   -0.000238722781444  
200000000.0         0.000158327583379   -0.000477453453236  0.999837138966      -0.0013891798221    0.999837138966      -0.0013891798221    0.000158327583379   -0.000477453453236  
300000000.0         0.000157842929926   -0.000716195336183  0.999834550031      -0.00208379459062   0.999834550031      -0.00208379459062   0.000157842929926   -0.000716195336183  
400000000.0         0.000156885368577   -0.00095495101039   0.999831562594      -0.00277843349147   0.999831562594      -0.00277843349147   0.000156885368578   -0.00095495101039   
500000000.0         0.000155507833311   -0.0011937226064    0.999828123569      -0.00347310081263   0.999828123569      -0.00347310081263   0.000155507833311   -0.0011937226064    
600000000.0         0.000153737229264   -0.00143251194365   0.999824205874      -0.00416780026412   0.999824205874      -0.00416780026412   0.000153737229264   -0.00143251194365   
700000000.0         0.000151589381748   -0.00167132060736   0.999819793492      -0.00486253513918   0.999819793492      -0.00486253513918   0.000151589381749   -0.00167132060736   
800000000.0         0.000149074487966   -0.00191014999559   0.999814876016      -0.00555730840836   0.999814876016      -0.00555730840836   0.000149074487966   -0.00191014999559   
900000000.0         0.000146199542535   -0.00214900135074   0.999809446229      -0.00625212278065   0.999809446229      -0.00625212278065   0.000146199542535   -0.00214900135074   
1000000000.0        0.000142969566309   -0.00238787578369   0.999803498873      -0.0069469807477    0.999803498873      -0.0069469807477    0.000142969566309   -0.00238787578369   
1100000000.0        0.000139388288952   -0.00262677429019   0.999797029969      -0.00764188461458   0.999797029969      -0.00764188461458   0.000139388288952   -0.00262677429019   
1200000000.0        0.000135458555492   -0.00286569776482   0.999790036411      -0.00833683652446   0.999790036411      -0.00833683652446   0.000135458555492   -0.00286569776482   
1300000000.0        0.000131182581991   -0.00310464701101   0.999782515712      -0.00903183847692   0.999782515712      -0.00903183847692   0.000131182581991   -0.00310464701101   
1400000000.0        0.000126562123578   -0.00334362275048   0.999774465836      -0.0097268923439    0.999774465836      -0.0097268923439    0.000126562123578   -0.00334362275048   
1500000000.0        0.000121598588877   -0.00358262562976   0.999765885084      -0.0104219998815    0.999765885084      -0.0104219998815    0.000121598588877   -0.00358262562976   
1600000000.0        0.000116293120412   -0.00382165622672   0.999756772016      -0.011117162741     0.999756772016      -0.011117162741     0.000116293120412   -0.00382165622672   
1700000000.0        0.000110646652525   -0.00406071505545   0.99974712539       -0.011812382477     0.99974712539       -0.011812382477     0.000110646652525   -0.00406071505545   
1800000000.0        0.000104659954088   -0.00429980257088   0.999736944124      -0.0125076605554    0.999736944124      -0.0125076605554    0.000104659954088   -0.00429980257088   
1900000000.0        9.83336605815e-05   -0.00453891917266   0.999726227261      -0.0132029983599    0.999726227261      -0.0132029983599    9.83336605818e-05   -0.00453891917266   
2000000000.0        9.16682986289e-05   -0.00477806520849   0.999714973947      -0.0138983971972    0.999714973947      -0.0138983971972    9.16682986289e-05   -0.00477806520849   
2100000000.0        8.46643050407e-05   -0.00501724097729   0.999703183413      -0.0145938583027    0.999703183413      -0.0145938583027    8.46643050405e-05   -0.00501724097729   
2200000000.0        7.73220418049e-05   -0.00525644673186   0.999690854958      -0.0152893828444    0.999690854958      -0.0152893828444    7.73220418047e-05   -0.00525644673186   
2300000000.0        6.96418080266e-05   -0.00549568268133   0.999677987937      -0.0159849719269    0.999677987937      -0.0159849719269    6.96418080266e-05   -0.00549568268133   
2400000000.0        6.16238495494e-05   -0.0057349489933    0.999664581757      -0.0166806265953    0.999664581757      -0.0166806265953    6.16238495494e-05   -0.0057349489933    
2500000000.0        5.32683667867e-05   -0.00597424579597   0.999650635863      -0.0173763478379    0.999650635863      -0.0173763478379    5.32683667869e-05   -0.00597424579597   
2600000000.0        4.45755211549e-05   -0.00621357317994   0.999636149735      -0.0180721365897    0.999636149735      -0.0180721365897    4.45755211547e-05   -0.00621357317994   
2700000000.0        3.55454404015e-05   -0.00645293119983   0.999621122885      -0.0187679937346    0.999621122885      -0.0187679937346    3.55454404015e-05   -0.00645293119983   
2800000000.0        2.61782230646e-05   -0.00669231987588   0.999605554849      -0.0194639201077    0.999605554849      -0.0194639201077    2.61782230644e-05   -0.00669231987588   
2900000000.0        1.64739422117e-05   -0.00693173919542   0.999589445184      -0.0201599164982    0.999589445184      -0.0201599164982    1.64739422119e-05   -0.00693173919542   
3000000000.0        6.43264861955e-06   -0.00717118911408   0.999572793468      -0.0208559836508    0.999572793468      -0.0208559836508    6.43264861933e-06   -0.00717118911408   
3100000000.0        -3.94562652994e-06  -0.00741066955718   0.999555599295      -0.0215521222679    0.999555599295      -0.0215521222679    -3.94562652961e-06  -0.00741066955718   
3200000000.0        -1.46608693178e-05  -0.00765018042076   0.999537862274      -0.0222483330112    0.999537862274      -0.0222483330112    -1.4660869318e-05   -0.00765018042076   
3300000000.0        -2.57130810953e-05  -0.00788972157268   0.999519582027      -0.0229446165036    0.999519582027      -0.0229446165036    -2.57130810954e-05  -0.00788972157268   
3400000000.0        -3.71022767424e-05  -0.00812929285373   0.999500758187      -0.0236409733305    0.999500758187      -0.0236409733305    -3.71022767427e-05  -0.00812929285373   
3500000000.0        -4.88284831631e-05  -0.00836889407849   0.999481390398      -0.0243374040413    0.999481390398      -0.0243374040413    -4.88284831628e-05  -0.00836889407849   
3600000000.0        -6.08917379535e-05  -0.00860852503624   0.999461478311      -0.0250339091508    0.999461478311      -0.0250339091508    -6.08917379536e-05  -0.00860852503624   
3700000000.0        -7.32920882445e-05  -0.00884818549179   0.999441021587      -0.0257304891403    0.999441021587      -0.0257304891403    -7.32920882445e-05  -0.00884818549179   
3800000000.0        -8.60295896707e-05  -0.00908787518638   0.999420019893      -0.026427144459     0.999420019893      -0.026427144459     -8.60295896706e-05  -0.00908787518638   
3900000000.0        -9.91043054559e-05  -0.0093275938383    0.999398472905      -0.0271238755249    0.999398472905      -0.0271238755249    -9.91043054559e-05  -0.0093275938383    
4000000000.0        -0.00011251630561   -0.00956734114369   0.999376380301      -0.0278206827262    0.999376380301      -0.0278206827262    -0.000112516305609  -0.00956734114369   
4100000000.0        -0.000126265666194  -0.00980711677728   0.999353741766      -0.0285175664218    0.999353741766      -0.0285175664218    -0.000126265666194  -0.00980711677728   
4200000000.0        -0.000140352468679  -0.0100469203929    0.999330556992      -0.0292145269425    0.999330556992      -0.0292145269425    -0.000140352468679  -0.0100469203929    
4300000000.0        -0.000154776799355  -0.0102867516241    0.999306825672      -0.0299115645923    0.999306825672      -0.0299115645923    -0.000154776799355  -0.0102867516241    
4400000000.0        -0.000169538748808  -0.0105266100851    0.999282547506      -0.0306086796484    0.999282547506      -0.0306086796484    -0.000169538748808  -0.0105266100851    
4500000000.0        -0.000184638411438  -0.0107664953708    0.999257722194      -0.0313058723628    0.999257722194      -0.0313058723628    -0.000184638411438  -0.0107664953708    
4600000000.0        -0.000200075885033  -0.0110064070577    0.999232349443      -0.0320031429625    0.999232349443      -0.0320031429625    -0.000200075885033  -0.0110064070577    
4700000000.0        -0.000215851270366  -0.0112463447044    0.999206428961      -0.0327004916508    0.999206428961      -0.0327004916508    -0.000215851270366  -0.0112463447044    
4800000000.0        -0.000231964670841  -0.0114863078519    0.999179960461      -0.0333979186075    0.999179960461      -0.0333979186075    -0.000231964670841  -0.0114863078519    
4900000000.0        -0.000248416192162  -0.0117262960242    0.999152943656      -0.0340954239898    0.999152943656      -0.0340954239898    -0.000248416192162  -0.0117262960242    
5000000000.0        -0.000265205942026  -0.011966308729     0.999125378265      -0.034793007933     0.999125378265      -0.034793007933     -0.000265205942026  -0.011966308729     
5100000000.0        -0.000282334029855  -0.0122063454575    0.999097264005      -0.035490670551     0.999097264005      -0.035490670551     -0.000282334029855  -0.0122063454575    
5200000000.0        -0.000299800566529  -0.0124464056856    0.9990686006        -0.0361884119369    0.9990686006        -0.0361884119369    -0.00029980056653   -0.0124464056856    
5300000000.0        -0.000317605664158  -0.0126864888737    0.999039387773      -0.0368862321637    0.999039387773      -0.0368862321637    -0.000317605664158  -0.0126864888737    
5400000000.0        -0.000335749435857  -0.0129265944674    0.99900962525       -0.0375841312847    0.99900962525       -0.0375841312847    -0.000335749435857  -0.0129265944674    
5500000000.0        -0.000354231995544  -0.013166721898     0.998979312759      -0.0382821093342    0.998979312759      -0.0382821093342    -0.000354231995544  -0.013166721898     
5600000000.0        -0.000373053457756  -0.0134068705824    0.99894845003       -0.0389801663276    0.99894845003       -0.0389801663276    -0.000373053457757  -0.0134068705824    
5700000000.0        -0.000392213937467  -0.0136470399239    0.998917036795      -0.0396783022627    0.998917036795      -0.0396783022627    -0.000392213937468  -0.0136470399239    
5800000000.0        -0.000411713549928  -0.0138872293124    0.998885072787      -0.040376517119     0.998885072787      -0.040376517119     -0.000411713549928  -0.0138872293124    
5900000000.0        -0.000431552410508  -0.0141274381246    0.998852557742      -0.0410748108595    0.998852557742      -0.0410748108595    -0.000431552410508  -0.0141274381246    
6000000000.0        -0.00045173063456   -0.0143676657245    0.998819491396      -0.0417731834299    0.998819491396      -0.0417731834299    -0.000451730634561  -0.0143676657245    
6100000000.0        -0.000472248337281  -0.0146079114638    0.998785873488      -0.0424716347598    0.998785873488      -0.0424716347598    -0.000472248337282  -0.0146079114638    
6200000000.0        -0.000493105633583  -0.0148481746819    0.998751703758      -0.0431701647629    0.998751703758      -0.0431701647629    -0.000493105633583  -0.0148481746819    
6300000000.0        -0.00051430263798   -0.0150884547063    0.998716981948      -0.0438687733374    0.998716981948      -0.0438687733374    -0.00051430263798   -0.0150884547063    
6400000000.0        -0.000535839464475  -0.015328750853     0.9986817078        -0.0445674603661    0.9986817078        -0.0445674603661    -0.000535839464475  -0.015328750853     
6500000000.0        -0.00055771622645   -0.0155690624268    0.998645881061      -0.0452662257174    0.998645881061      -0.0452662257174    -0.00055771622645   -0.0155690624268    
6600000000.0        -0.000579933036574  -0.0158093887214    0.998609501475      -0.0459650692451    0.998609501475      -0.0459650692451    -0.000579933036574  -0.0158093887214    
6700000000.0        -0.000602490006703  -0.0160497290196    0.99857256879       -0.0466639907889    0.99857256879       -0.0466639907889    -0.000602490006704  -0.0160497290196    
6800000000.0        -0.000625387247796  -0.0162900825939    0.998535082756      -0.0473629901747    0.998535082756      -0.0473629901747    -0.000625387247796  -0.0162900825939    
6900000000.0        -0.000648624869824  -0.0165304487065    0.998497043123      -0.0480620672153    0.998497043123      -0.0480620672153    -0.000648624869824  -0.0165304487065    
7000000000.0        -0.000672202981699  -0.0167708266094    0.998458449643      -0.0487612217101    0.998458449643      -0.0487612217101    -0.000672202981699  -0.0167708266094    
7100000000.0        -0.00069612169119   -0.0170112155451    0.99841930207       -0.0494604534458    0.99841930207       -0.0494604534458    -0.000696121691189  -0.0170112155451    
7200000000.0        -0.000720381104853  -0.0172516147461    0.998379600158      -0.0501597621967    0.998379600158      -0.0501597621967    -0.000720381104853  -0.0172516147461    
7300000000.0        -0.00074498132797   -0.017492023436     0.998339343664      -0.0508591477249    0.998339343664      -0.0508591477249    -0.00074498132797   -0.017492023436     
7400000000.0        -0.000769922464473  -0.0177324408291    0.998298532346      -0.0515586097805    0.998298532346      -0.0515586097805    -0.000769922464473  -0.0177324408291    
7500000000.0        -0.000795204616885  -0.0179728661305    0.998257165964      -0.0522581481019    0.998257165964      -0.0522581481019    -0.000795204616885  -0.0179728661305    
7600000000.0        -0.000820827886264  -0.0182132985371    0.998215244276      -0.0529577624163    0.998215244276      -0.0529577624163    -0.000820827886265  -0.0182132985371    
7700000000.0        -0.000846792372144  -0.0184537372367    0.998172767047      -0.0536574524397    0.998172767047      -0.0536574524397    -0.000846792372144  -0.0184537372367    
7800000000.0        -0.000873098172481  -0.0186941814093    0.998129734039      -0.0543572178773    0.998129734039      -0.0543572178773    -0.000873098172481  -0.0186941814093    
7900000000.0        -0.000899745383601  -0.0189346302263    0.998086145017      -0.0550570584234    0.998086145017      -0.0550570584234    -0.000899745383601  -0.0189346302263    
8000000000.0        -0.000926734100151  -0.0191750828513    0.998041999748      -0.0557569737624    0.998041999748      -0.0557569737624    -0.000926734100151  -0.0191750828513    
8100000000.0        -0.00095406441505   -0.0194155384404    0.997997298001      -0.056456963568     0.997997298001      -0.056456963568     -0.00095406441505   -0.0194155384404    
8200000000.0        -0.000981736419447  -0.0196559961416    0.997952039543      -0.0571570275045    0.997952039543      -0.0571570275045    -0.000981736419447  -0.0196559961416    
8300000000.0        -0.00100975020267   -0.0198964550957    0.997906224147      -0.057857165226     0.997906224147      -0.057857165226     -0.00100975020267   -0.0198964550957    
8400000000.0        -0.00103810585221   -0.0201369144363    0.997859851585      -0.0585573763775    0.997859851585      -0.0585573763775    -0.00103810585221   -0.0201369144363    
8500000000.0        -0.00106680345363   -0.0203773732897    0.99781292163       -0.0592576605944    0.99781292163       -0.0592576605944    -0.00106680345363   -0.0203773732897    
8600000000.0        -0.00109584309057   -0.0206178307755    0.997765434058      -0.0599580175033    0.997765434058      -0.0599580175033    -0.00109584309057   -0.0206178307755    
8700000000.0        -0.00112522484471   -0.0208582860061    0.997717388646      -0.0606584467218    0.997717388646      -0.0606584467218    -0.00112522484471   -0.0208582860061    
8800000000.0        -0.00115494879571   -0.0210987380877    0.997668785173      -0.0613589478587    0.997668785173      -0.0613589478587    -0.00115494879571   -0.0210987380877    
8900000000.0        -0.00118501502118   -0.0213391861196    0.997619623418      -0.0620595205144    0.997619623418      -0.0620595205144    -0.00118501502118   -0.0213391861196    
9000000000.0        -0.00121542359667   -0.021579629195     0.997569903163      -0.062760164281     0.997569903163      -0.062760164281     -0.00121542359667   -0.021579629195     
9100000000.0        -0.00124617459562   -0.0218200664009    0.997519624191      -0.0634608787425    0.997519624191      -0.0634608787425    -0.00124617459562   -0.0218200664009    
9200000000.0        -0.00127726808932   -0.0220604968179    0.997468786287      -0.0641616634747    0.997468786287      -0.0641616634747    -0.00127726808932   -0.0220604968179    
9300000000.0        -0.00130870414692   -0.0223009195211    0.997417389237      -0.0648625180458    0.997417389237      -0.0648625180458    -0.00130870414692   -0.0223009195211    
9400000000.0        -0.00134048283534   -0.0225413335794    0.997365432829      -0.0655634420165    0.997365432829      -0.0655634420165    -0.00134048283534   -0.0225413335794    
9500000000.0        -0.0013726042193    -0.0227817380562    0.997312916852      -0.0662644349398    0.997312916852      -0.0662644349398    -0.0013726042193    -0.0227817380562    
9600000000.0        -0.00140506836127   -0.0230221320094    0.997259841097      -0.0669654963615    0.997259841097      -0.0669654963615    -0.00140506836127   -0.0230221320094    
9700000000.0        -0.00143787532145   -0.0232625144913    0.997206205358      -0.0676666258202    0.997206205358      -0.0676666258202    -0.00143787532145   -0.0232625144913    
9800000000.0        -0.00147102515773   -0.023502884549     0.997152009427      -0.0683678228475    0.997152009427      -0.0683678228475    -0.00147102515773   -0.023502884549     
9900000000.0        -0.00150451792569   -0.0237432412243    0.997097253102      -0.0690690869682    0.997097253102      -0.0690690869682    -0.00150451792569   -0.0237432412243    
10000000000.0       -0.00153835367855   -0.023983583554     0.997041936179      -0.0697704177006    0.997041936179      -0.0697704177006    -0.00153835367855   -0.023983583554     
