# Hz S RI R 50.00 
100000000.0         0.002449788618      9.46414685224e-05   0.997546158355      -0.00179565668981   0.997546158355      -0.00179565668981   0.002449788618      9.46414685225e-05   
200000000.0         0.00246583180148    0.000189221122369   0.997524166271      -0.00359124741315   0.997524166271      -0.00359124741315   0.00246583180148    0.000189221122369   
300000000.0         0.00247790319547    0.000283761566419   0.99750325005       -0.00538679320693   0.99750325005       -0.00538679320693   0.00247790319547    0.000283761566419   
400000000.0         0.00248812580077    0.000378269461705   0.997481286639      -0.00718229847477   0.997481286639      -0.00718229847477   0.00248812580077    0.000378269461705   
500000000.0         0.00249731698826    0.000472747825552   0.997457458611      -0.00897776363309   0.997457458611      -0.00897776363309   0.00249731698826    0.000472747825552   
600000000.0         0.00250589346638    0.000567198086744   0.997431349199      -0.0107731872867    0.997431349199      -0.0107731872867    0.00250589346638    0.000567198086744   
700000000.0         0.00251410129081    0.000661620816784   0.997402712285      -0.0125685670219    0.997402712285      -0.0125685670219    0.00251410129081    0.000661620816784   
800000000.0         0.00252209979515    0.000756016066384   0.997371388475      -0.0143638997794    0.997371388475      -0.0143638997794    0.00252209979515    0.000756016066384   
900000000.0         0.0025299989542     0.000850383544226   0.997337267728      -0.0161591820573    0.997337267728      -0.0161591820573    0.0025299989542     0.000850383544226   
1000000000.0        0.00253787831903    0.000944722722087   0.997300270427      -0.0179544100329    0.997300270427      -0.0179544100329    0.00253787831903    0.000944722722087   
1100000000.0        0.00254579754065    0.00103903290071    0.997260336857      -0.0197495796413    0.997260336857      -0.0197495796413    0.00254579754065    0.00103903290071    
1200000000.0        0.00255380263964    0.00113331325366    0.997217420929      -0.0215446866282    0.997217420929      -0.0215446866282    0.00255380263964    0.00113331325366    
1300000000.0        0.00256192994979    0.00122756285752    0.997171486242      -0.0233397265883    0.997171486242      -0.0233397265883    0.00256192994979    0.00122756285752    
1400000000.0        0.00257020870974    0.00132178071351    0.99712250349       -0.025134694992     0.99712250349       -0.025134694992     0.00257020870974    0.00132178071351    
1500000000.0        0.00257866282862    0.0014159657634     0.997070448698      -0.0269295872065    0.997070448698      -0.0269295872065    0.00257866282862    0.0014159657634     
1600000000.0        0.00258731212584    0.00151011690132    0.99701530198       -0.0287243985119    0.99701530198       -0.0287243985119    0.00258731212584    0.00151011690132    
1700000000.0        0.0025961732243     0.00160423298306    0.996957046646      -0.0305191241135    0.996957046646      -0.0305191241135    0.0025961732243     0.00160423298306    
1800000000.0        0.00260526020846    0.00169831283301    0.996895668548      -0.0323137591519    0.996895668548      -0.0323137591519    0.00260526020846    0.00169831283301    
1900000000.0        0.00261458511847    0.00179235524998    0.996831155581      -0.0341082987109    0.996831155581      -0.0341082987109    0.00261458511847    0.00179235524998    
2000000000.0        0.00262415832764    0.00188635901153    0.996763497309      -0.0359027378246    0.996763497309      -0.0359027378246    0.00262415832764    0.00188635901153    
2100000000.0        0.00263398883519    0.00198032287779    0.996692684671      -0.0376970714825    0.996692684671      -0.0376970714825    0.00263398883519    0.00198032287779    
2200000000.0        0.00264408449628    0.00207424559436    0.996618709751      -0.0394912946347    0.996618709751      -0.0394912946347    0.00264408449628    0.00207424559436    
2300000000.0        0.00265445220503    0.00216812589477    0.996541565599      -0.0412854021952    0.996541565599      -0.0412854021952    0.00265445220503    0.00216812589477    
2400000000.0        0.00266509804168    0.00226196250263    0.996461246075      -0.0430793890456    0.996461246075      -0.0430793890456    0.00266509804167    0.00226196250263    
2500000000.0        0.0026760273921     0.00235575413325    0.99637774574       -0.0448732500383    0.99637774574       -0.0448732500383    0.0026760273921     0.00235575413325    
2600000000.0        0.00268724504579    0.00244949949517    0.996291059752      -0.0466669799985    0.996291059752      -0.0466669799985    0.00268724504579    0.00244949949517    
2700000000.0        0.00269875527677    0.00254319729137    0.996201183784      -0.0484605737266    0.996201183784      -0.0484605737266    0.00269875527677    0.00254319729137    
2800000000.0        0.00271056191101    0.00263684622034    0.996108113964      -0.0502540260003    0.996108113964      -0.0502540260003    0.00271056191101    0.00263684622034    
2900000000.0        0.0027226683829     0.00273044497699    0.99601184681       -0.0520473315764    0.99601184681       -0.0520473315764    0.0027226683829     0.00273044497699    
3000000000.0        0.00273507778297    0.0028239922534     0.995912379188      -0.0538404851917    0.995912379188      -0.0538404851917    0.00273507778297    0.0028239922534     
3100000000.0        0.00274779289833    0.00291748673957    0.995809708269      -0.055633481565     0.995809708269      -0.055633481565     0.00274779289833    0.00291748673957    
3200000000.0        0.00276081624728    0.00301092712393    0.995703831497      -0.0574263153982    0.995703831497      -0.0574263153982    0.00276081624728    0.00301092712393    
3300000000.0        0.00277415010893    0.00310431209391    0.995594746556      -0.0592189813772    0.995594746556      -0.0592189813772    0.00277415010893    0.00310431209391    
3400000000.0        0.00278779654877    0.00319764033637    0.995482451348      -0.0610114741729    0.995482451348      -0.0610114741729    0.00278779654877    0.00319764033637    
3500000000.0        0.00280175744086    0.00329091053802    0.995366943969      -0.0628037884423    0.995366943969      -0.0628037884423    0.00280175744086    0.00329091053802    
3600000000.0        0.00281603448712    0.00338412138572    0.995248222689      -0.0645959188291    0.995248222689      -0.0645959188291    0.00281603448712    0.00338412138572    
3700000000.0        0.0028306292341     0.00347727156685    0.995126285937      -0.0663878599645    0.995126285937      -0.0663878599645    0.0028306292341     0.00347727156685    
3800000000.0        0.00284554308782    0.00357035976954    0.995001132286      -0.0681796064682    0.995001132286      -0.0681796064682    0.00284554308782    0.00357035976954    
3900000000.0        0.00286077732674    0.00366338468294    0.99487276044       -0.0699711529483    0.99487276044       -0.0699711529483    0.00286077732674    0.00366338468294    
4000000000.0        0.00287633311322    0.00375634499742    0.994741169221      -0.0717624940027    0.994741169221      -0.0717624940027    0.00287633311322    0.00375634499742    
4100000000.0        0.00289221150373    0.00384923940476    0.994606357562      -0.0735536242191    0.994606357562      -0.0735536242191    0.00289221150373    0.00384923940476    
4200000000.0        0.00290841345782    0.00394206659834    0.994468324496      -0.0753445381756    0.994468324496      -0.0753445381756    0.00290841345782    0.00394206659834    
4300000000.0        0.00292493984623    0.00403482527329    0.994327069146      -0.0771352304412    0.994327069146      -0.0771352304412    0.00292493984623    0.00403482527329    
4400000000.0        0.00294179145805    0.0041275141266     0.994182590723      -0.0789256955762    0.994182590723      -0.0789256955762    0.00294179145805    0.0041275141266     
4500000000.0        0.00295896900718    0.0042201318573     0.994034888517      -0.0807159281328    0.994034888517      -0.0807159281328    0.00295896900718    0.0042201318573     
4600000000.0        0.00297647313813    0.00431267716651    0.993883961887      -0.0825059226551    0.993883961887      -0.0825059226551    0.00297647313812    0.00431267716651    
4700000000.0        0.00299430443119    0.00440514875758    0.993729810265      -0.0842956736796    0.993729810265      -0.0842956736796    0.00299430443119    0.00440514875758    
4800000000.0        0.00301246340719    0.00449754533617    0.993572433144      -0.0860851757356    0.993572433144      -0.0860851757356    0.00301246340719    0.00449754533617    
4900000000.0        0.00303095053172    0.00458986561034    0.993411830075      -0.0878744233454    0.993411830075      -0.0878744233454    0.00303095053172    0.00458986561034    
5000000000.0        0.00304976621901    0.00468210829061    0.993248000666      -0.0896634110247    0.993248000666      -0.0896634110247    0.00304976621901    0.00468210829061    
5100000000.0        0.0030689108354     0.00477427209001    0.993080944576      -0.0914521332828    0.993080944576      -0.0914521332828    0.0030689108354     0.00477427209001    
5200000000.0        0.00308838470256    0.0048663557242     0.992910661513      -0.0932405846227    0.992910661513      -0.0932405846227    0.00308838470256    0.0048663557242     
5300000000.0        0.00310818810037    0.00495835791146    0.99273715123       -0.0950287595417    0.99273715123       -0.0950287595417    0.00310818810037    0.00495835791146    
5400000000.0        0.00312832126961    0.00505027737279    0.992560413526      -0.0968166525312    0.992560413526      -0.0968166525312    0.00312832126961    0.00505027737279    
5500000000.0        0.00314878441433    0.00514211283189    0.992380448237      -0.0986042580772    0.992380448237      -0.0986042580772    0.00314878441433    0.00514211283189    
5600000000.0        0.00316957770412    0.00523386301528    0.99219725524       -0.100391570661     0.99219725524       -0.100391570661     0.00316957770412    0.00523386301528    
5700000000.0        0.00319070127615    0.0053255266523     0.992010834449      -0.102178584757     0.992010834449      -0.102178584757     0.00319070127615    0.0053255266523     
5800000000.0        0.00321215523701    0.00541710247511    0.991821185812      -0.103965294837     0.991821185812      -0.103965294837     0.00321215523701    0.00541710247511    
5900000000.0        0.00323393966448    0.00550858921878    0.99162830931       -0.105751695366     0.99162830931       -0.105751695366     0.00323393966448    0.00550858921878    
6000000000.0        0.00325605460909    0.00559998562127    0.991432204955      -0.107537780807     0.991432204955      -0.107537780807     0.00325605460909    0.00559998562127    
6100000000.0        0.00327850009561    0.0056912904235     0.991232872793      -0.109323545616     0.991232872793      -0.109323545616     0.00327850009561    0.0056912904235     
6200000000.0        0.0033012761244     0.00578250236934    0.991030312893      -0.111108984246     0.991030312893      -0.111108984246     0.0033012761244     0.00578250236934    
6300000000.0        0.00332438267268    0.00587362020562    0.990824525357      -0.112894091146     0.990824525357      -0.112894091146     0.00332438267268    0.00587362020562    
6400000000.0        0.00334781969566    0.00596464268218    0.990615510311      -0.11467886076      0.990615510311      -0.11467886076      0.00334781969566    0.00596464268218    
6500000000.0        0.00337158712766    0.00605556855188    0.990403267906      -0.11646328753      0.990403267906      -0.11646328753      0.00337158712766    0.00605556855188    
6600000000.0        0.00339568488313    0.00614639657061    0.99018779832       -0.118247365892     0.99018779832       -0.118247365892     0.00339568488313    0.00614639657061    
6700000000.0        0.0034201128575     0.00623712549729    0.989969101752      -0.12003109028      0.989969101752      -0.12003109028      0.0034201128575     0.00623712549729    
6800000000.0        0.00344487092816    0.0063277540939     0.989747178426      -0.121814455124     0.989747178426      -0.121814455124     0.00344487092816    0.0063277540939     
6900000000.0        0.00346995895519    0.0064182811255     0.989522028587      -0.123597454851     0.989522028587      -0.123597454851     0.00346995895519    0.0064182811255     
7000000000.0        0.00349537678216    0.00650870536023    0.989293652501      -0.125380083885     0.989293652501      -0.125380083885     0.00349537678216    0.00650870536023    
7100000000.0        0.00352112423679    0.00659902556928    0.989062050456      -0.127162336645     0.989062050456      -0.127162336645     0.00352112423679    0.00659902556928    
7200000000.0        0.0035472011317     0.00668924052699    0.988827222759      -0.12894420755      0.988827222759      -0.12894420755      0.0035472011317     0.00668924052699    
7300000000.0        0.00357360726492    0.00677934901077    0.988589169736      -0.130725691013     0.988589169736      -0.130725691013     0.00357360726492    0.00677934901077    
7400000000.0        0.00360034242055    0.00686934980114    0.988347891734      -0.132506781446     0.988347891734      -0.132506781446     0.00360034242055    0.00686934980114    
7500000000.0        0.00362740636927    0.00695924168175    0.988103389117      -0.134287473258     0.988103389117      -0.134287473258     0.00362740636927    0.00695924168175    
7600000000.0        0.00365479886886    0.00704902343936    0.987855662267      -0.136067760855     0.987855662267      -0.136067760855     0.00365479886886    0.00704902343936    
7700000000.0        0.00368251966467    0.00713869386388    0.987604711583      -0.137847638641     0.987604711583      -0.137847638641     0.00368251966467    0.00713869386388    
7800000000.0        0.00371056849008    0.00722825174832    0.987350537482      -0.139627101016     0.987350537482      -0.139627101016     0.00371056849008    0.00722825174832    
7900000000.0        0.00373894506692    0.00731769588885    0.987093140399      -0.141406142379     0.987093140399      -0.141406142379     0.00373894506692    0.00731769588885    
8000000000.0        0.00376764910587    0.00740702508477    0.986832520782      -0.143184757126     0.986832520782      -0.143184757126     0.00376764910587    0.00740702508477    
8100000000.0        0.00379668030685    0.00749623813851    0.986568679098      -0.144962939652     0.986568679098      -0.144962939652     0.00379668030685    0.00749623813851    
8200000000.0        0.00382603835934    0.00758533385567    0.986301615828      -0.146740684349     0.986301615828      -0.146740684349     0.00382603835934    0.00758533385567    
8300000000.0        0.00385572294276    0.00767431104498    0.98603133147       -0.148517985605     0.98603133147       -0.148517985605     0.00385572294276    0.00767431104498    
8400000000.0        0.00388573372675    0.00776316851831    0.985757826535      -0.150294837809     0.985757826535      -0.150294837809     0.00388573372675    0.00776316851831    
8500000000.0        0.00391607037149    0.00785190509071    0.98548110155       -0.152071235346     0.98548110155       -0.152071235346     0.00391607037149    0.00785190509071    
8600000000.0        0.00394673252798    0.00794051958037    0.985201157057      -0.153847172601     0.985201157057      -0.153847172601     0.00394673252798    0.00794051958037    
8700000000.0        0.00397771983831    0.00802901080861    0.984917993611      -0.155622643955     0.984917993611      -0.155622643955     0.00397771983831    0.00802901080861    
8800000000.0        0.0040090319359     0.00811737759994    0.984631611783      -0.157397643787     0.984631611783      -0.157397643787     0.0040090319359     0.00811737759994    
8900000000.0        0.00404066844576    0.00820561878201    0.984342012157      -0.159172166478     0.984342012157      -0.159172166478     0.00404066844576    0.00820561878201    
9000000000.0        0.00407262898471    0.00829373318563    0.984049195329      -0.160946206403     0.984049195329      -0.160946206403     0.00407262898471    0.00829373318563    
9100000000.0        0.0041049131616     0.00838171964476    0.983753161912      -0.162719757937     0.983753161912      -0.162719757937     0.0041049131616     0.00838171964476    
9200000000.0        0.00413752057753    0.00846957699652    0.98345391253       -0.164492815455     0.98345391253       -0.164492815455     0.00413752057753    0.00846957699652    
9300000000.0        0.004170450826      0.0085573040812     0.983151447819      -0.166265373328     0.983151447819      -0.166265373328     0.004170450826      0.0085573040812     
9400000000.0        0.00420370349315    0.00864489974223    0.982845768432      -0.168037425927     0.982845768432      -0.168037425927     0.00420370349315    0.00864489974223    
9500000000.0        0.00423727815793    0.00873236282621    0.982536875031      -0.169808967622     0.982536875031      -0.169808967622     0.00423727815793    0.00873236282621    
9600000000.0        0.00427117439222    0.00881969218289    0.982224768293      -0.171579992781     0.982224768293      -0.171579992781     0.00427117439222    0.00881969218289    
9700000000.0        0.00430539176106    0.00890688666519    0.981909448906      -0.173350495769     0.981909448906      -0.173350495769     0.00430539176106    0.00890688666519    
9800000000.0        0.00433992982275    0.00899394512918    0.981590917573      -0.175120470954     0.981590917573      -0.175120470954     0.00433992982275    0.00899394512918    
9900000000.0        0.00437478812905    0.00908086643409    0.981269175006      -0.176889912699     0.981269175006      -0.176889912699     0.00437478812905    0.00908086643409    
10000000000.0       0.00440996622525    0.0091676494423     0.980944221932      -0.178658815367     0.980944221932      -0.178658815367     0.00440996622525    0.0091676494423     
