# Hz S RI R 50.00 
100000000.0         0.00412398195042    0.00141508053817    0.995871062538      -0.00344021824774   0.995871062538      -0.00344021824774   0.00412398195042    0.00141508053817    
200000000.0         0.00416508867249    0.00282982665918    0.995821893231      -0.00688011915436   0.995821893231      -0.00688011915436   0.00416508867249    0.00282982665918    
300000000.0         0.00420872956774    0.00424427240125    0.99576608231       -0.0103197482449    0.99576608231       -0.0103197482449    0.00420872956774    0.00424427240125    
400000000.0         0.00425846807895    0.00565838208304    0.995700065877      -0.0137590780919    0.995700065877      -0.0137590780919    0.00425846807895    0.00565838208304    
500000000.0         0.00431567488234    0.00707210389608    0.995622472706      -0.0171980635038    0.995622472706      -0.0171980635038    0.00431567488234    0.00707210389608    
600000000.0         0.00438104729966    0.00848537894574    0.995532604842      -0.0206366511263    0.995532604842      -0.0206366511263    0.00438104729966    0.00848537894574    
700000000.0         0.00445499550948    0.00989814449589    0.995430051396      -0.0240747829747    0.995430051396      -0.0240747829747    0.00445499550948    0.00989814449589    
800000000.0         0.0045377834846     0.0113103354736     0.995314547606      -0.0275123981099    0.995314547606      -0.0275123981099    0.0045377834846     0.0113103354736     
900000000.0         0.00462959173576    0.0127218852774     0.9951859121        -0.0309494335604    0.9951859121        -0.0309494335604    0.00462959173576    0.0127218852774     
1000000000.0        0.00473054911028    0.014132726257      0.995044015099      -0.0343858248821    0.995044015099      -0.0343858248821    0.00473054911028    0.014132726257      
1100000000.0        0.00484075046553    0.0155427900185     0.994888760749      -0.037821506522     0.994888760749      -0.037821506522     0.00484075046553    0.0155427900185     
1200000000.0        0.00496026719834    0.0169520076298     0.994720076588      -0.0412564120697    0.994720076588      -0.0412564120697    0.00496026719834    0.0169520076298     
1300000000.0        0.00508915386838    0.0183603097652     0.994537906932      -0.044690474437     0.994537906932      -0.044690474437     0.00508915386838    0.0183603097652     
1400000000.0        0.00522745255104    0.0197676268107     0.994342208518      -0.0481236259917    0.994342208518      -0.0481236259917    0.00522745255104    0.0197676268107     
1500000000.0        0.00537519580308    0.0211738889431     0.994132947542      -0.0515557986611    0.994132947542      -0.0515557986611    0.00537519580308    0.0211738889431     
1600000000.0        0.00553240874539    0.0225790261911     0.993910097579      -0.0549869240122    0.993910097579      -0.0549869240122    0.00553240874539    0.0225790261911     
1700000000.0        0.0056991105637     0.0239829684836     0.993673638081      -0.0584169333166    0.993673638081      -0.0584169333166    0.0056991105637     0.0239829684836     
1800000000.0        0.00587531561443    0.025385645689      0.993423553277      -0.0618457576044    0.993423553277      -0.0618457576044    0.00587531561443    0.025385645689      
1900000000.0        0.00606103425541    0.0267869876467     0.993159831337      -0.0652733277079    0.993159831337      -0.0652733277079    0.00606103425541    0.0267869876467     
2000000000.0        0.00625627348068    0.0281869241944     0.992882463744      -0.0686995742997    0.992882463744      -0.0686995742997    0.00625627348068    0.0281869241944     
2100000000.0        0.00646103741315    0.0295853851907     0.992591444801      -0.0721244279248    0.992591444801      -0.0721244279248    0.00646103741315    0.0295853851907     
2200000000.0        0.00667532769197    0.0309823005349     0.992286771241      -0.0755478190288    0.992286771241      -0.0755478190288    0.00667532769197    0.0309823005349     
2300000000.0        0.00689914378106    0.0323776001841     0.991968441926      -0.0789696779822    0.991968441926      -0.0789696779822    0.00689914378106    0.0323776001841     
2400000000.0        0.00713248321753    0.0337712141684     0.991636457592      -0.082389935103     0.991636457592      -0.082389935103     0.00713248321753    0.0337712141684     
2500000000.0        0.00737534181368    0.0351630726046     0.991290820656      -0.085808520676     0.991290820656      -0.085808520676     0.00737534181368    0.0351630726046     
2600000000.0        0.00762771382299    0.0365531057088     0.990931535043      -0.0892253649705    0.990931535043      -0.0892253649705    0.00762771382299    0.0365531057088     
2700000000.0        0.00788959207746    0.0379412438068     0.990558606054      -0.0926403982571    0.990558606054      -0.0926403982571    0.00788959207746    0.0379412438068     
2800000000.0        0.00816096810241    0.0393274173456     0.990172040252      -0.0960535508218    0.990172040252      -0.0960535508218    0.00816096810241    0.0393274173456     
2900000000.0        0.00844183221297    0.0407115569021     0.989771845363      -0.0994647529807    0.989771845363      -0.0994647529807    0.00844183221297    0.0407115569021     
3000000000.0        0.00873217359587    0.0420935931925     0.989358030198      -0.102873935092     0.989358030198      -0.102873935092     0.00873217359587    0.0420935931925     
3100000000.0        0.00903198037921    0.0434734570808     0.988930604584      -0.106281027569     0.988930604584      -0.106281027569     0.00903198037921    0.0434734570808     
3200000000.0        0.00934123969235    0.0448510795864     0.988489579301      -0.10968596089      0.988489579301      -0.10968596089      0.00934123969235    0.0448510795864     
3300000000.0        0.00965993771763    0.0462263918924     0.988034966035      -0.113088665611     0.988034966035      -0.113088665611     0.00965993771763    0.0462263918924     
3400000000.0        0.0099880597353     0.047599325352      0.987566777332      -0.116489072373     0.987566777332      -0.116489072373     0.0099880597353     0.047599325352      
3500000000.0        0.0103255901628     0.0489698114961     0.987085026558      -0.119887111914     0.987085026558      -0.119887111914     0.0103255901628     0.0489698114961     
3600000000.0        0.0106725125891     0.0503377820399     0.986589727869      -0.123282715078     0.986589727869      -0.123282715078     0.0106725125891     0.0503377820399     
3700000000.0        0.0110288098056     0.0517031688892     0.986080896176      -0.126675812822     0.986080896176      -0.126675812822     0.0110288098056     0.0517031688892     
3800000000.0        0.0113944638325     0.0530659041465     0.985558547121      -0.130066336226     0.985558547121      -0.130066336226     0.0113944638325     0.0530659041465     
3900000000.0        0.0117694559434     0.0544259201178     0.985022697053      -0.1334542165       0.985022697053      -0.1334542165       0.0117694559434     0.0544259201178     
4000000000.0        0.0121537666868     0.0557831493175     0.984473363009      -0.136839384993     0.984473363009      -0.136839384993     0.0121537666868     0.0557831493175     
4100000000.0        0.0125473759057     0.0571375244751     0.983910562691      -0.140221773202     0.983910562691      -0.140221773202     0.0125473759057     0.0571375244751     
4200000000.0        0.012950262755      0.0584889785402     0.98333431445       -0.143601312773     0.98333431445       -0.143601312773     0.012950262755      0.0584889785402     
4300000000.0        0.0133624057176     0.0598374446884     0.982744637274      -0.146977935518     0.982744637274      -0.146977935518     0.0133624057176     0.0598374446884     
4400000000.0        0.0137837826193     0.0611828563264     0.982141550767      -0.150351573411     0.982141550767      -0.150351573411     0.0137837826193     0.0611828563264     
4500000000.0        0.0142143706419     0.0625251470974     0.981525075144      -0.153722158604     0.981525075144      -0.153722158604     0.0142143706419     0.0625251470974     
4600000000.0        0.0146541463361     0.0638642508864     0.980895231209      -0.157089623428     0.980895231209      -0.157089623428     0.0146541463361     0.0638642508864     
4700000000.0        0.0151030856325     0.065200101825      0.980252040356      -0.160453900401     0.980252040356      -0.160453900401     0.0151030856325     0.065200101825      
4800000000.0        0.0155611638526     0.0665326342969     0.979595524546      -0.163814922236     0.979595524546      -0.163814922236     0.0155611638526     0.0665326342969     
4900000000.0        0.0160283557186     0.0678617829421     0.978925706308      -0.167172621844     0.978925706308      -0.167172621844     0.0160283557186     0.0678617829421     
5000000000.0        0.0165046353629     0.0691874826626     0.978242608722      -0.17052693234      0.978242608722      -0.17052693234      0.0165046353629     0.0691874826626     
5100000000.0        0.0169899763371     0.0705096686264     0.977546255417      -0.173877787054     0.977546255417      -0.173877787054     0.0169899763371     0.0705096686264     
5200000000.0        0.0174843516198     0.0718282762726     0.976836670558      -0.177225119529     0.976836670558      -0.177225119529     0.0174843516198     0.0718282762726     
5300000000.0        0.0179877336253     0.073143241316      0.976113878839      -0.180568863533     0.976113878839      -0.180568863533     0.0179877336253     0.073143241316      
5400000000.0        0.0185000942104     0.0744544997517     0.97537790548       -0.183908953061     0.97537790548       -0.183908953061     0.0185000942104     0.0744544997517     
5500000000.0        0.0190214046821     0.0757619878593     0.974628776215      -0.187245322342     0.974628776215      -0.187245322342     0.0190214046821     0.0757619878593     
5600000000.0        0.0195516358042     0.0770656422078     0.973866517286      -0.190577905843     0.973866517286      -0.190577905843     0.0195516358042     0.0770656422078     
5700000000.0        0.0200907578043     0.0783653996595     0.973091155442      -0.193906638275     0.973091155442      -0.193906638275     0.0200907578043     0.0783653996595     
5800000000.0        0.02063874038       0.0796611973748     0.972302717924      -0.197231454597     0.972302717924      -0.197231454597     0.02063874038       0.0796611973748     
5900000000.0        0.0211955527049     0.080952972816      0.971501232468      -0.200552290025     0.971501232468      -0.200552290025     0.0211955527049     0.080952972816      
6000000000.0        0.0217611634353     0.0822406637516     0.970686727292      -0.203869080029     0.970686727292      -0.203869080029     0.0217611634353     0.0822406637516     
6100000000.0        0.0223355407153     0.0835242082609     0.969859231094      -0.207181760348     0.969859231094      -0.207181760348     0.0223355407153     0.0835242082609     
6200000000.0        0.0229186521831     0.0848035447374     0.969018773047      -0.210490266984     0.969018773047      -0.210490266984     0.0229186521831     0.0848035447374     
6300000000.0        0.0235104649763     0.0860786118933     0.968165382792      -0.213794536216     0.968165382792      -0.213794536216     0.0235104649763     0.0860786118933     
6400000000.0        0.0241109457373     0.0873493487633     0.967299090432      -0.217094504599     0.967299090432      -0.217094504599     0.0241109457373     0.0873493487633     
6500000000.0        0.024720060619      0.0886156947085     0.966419926529      -0.22039010897      0.966419926529      -0.22039010897      0.024720060619      0.0886156947085     
6600000000.0        0.02533777529       0.0898775894204     0.965527922097      -0.223681286453     0.965527922097      -0.223681286453     0.02533777529       0.0898775894204     
6700000000.0        0.0259640549393     0.0911349729247     0.964623108601      -0.226967974461     0.964623108601      -0.226967974461     0.0259640549393     0.0911349729247     
6800000000.0        0.0265988642824     0.0923877855847     0.963705517945      -0.230250110704     0.963705517945      -0.230250110704     0.0265988642824     0.0923877855847     
6900000000.0        0.0272421675653     0.0936359681056     0.962775182472      -0.233527633192     0.962775182472      -0.233527633192     0.0272421675653     0.0936359681056     
7000000000.0        0.0278939285704     0.0948794615376     0.961832134961      -0.236800480235     0.961832134961      -0.236800480235     0.0278939285704     0.0948794615376     
7100000000.0        0.0285541106209     0.09611820728       0.960876408617      -0.240068590453     0.960876408617      -0.240068590453     0.0285541106209     0.09611820728       
7200000000.0        0.0292226765859     0.0973521470843     0.959908037068      -0.243331902777     0.959908037068      -0.243331902777     0.0292226765859     0.0973521470843     
7300000000.0        0.0298995888855     0.098581223058      0.958927054363      -0.246590356453     0.958927054363      -0.246590356453     0.0298995888855     0.098581223058      
7400000000.0        0.0305848094952     0.0998053776677     0.957933494965      -0.249843891045     0.957933494965      -0.249843891045     0.0305848094952     0.0998053776677     
7500000000.0        0.0312782999511     0.101024553743      0.956927393745      -0.253092446442     0.956927393745      -0.253092446442     0.0312782999511     0.101024553743      
7600000000.0        0.0319800213545     0.10223869448       0.955908785981      -0.256335962858     0.955908785981      -0.256335962858     0.0319800213545     0.10223869448       
7700000000.0        0.0326899343768     0.103447743442      0.95487770735       -0.259574380838     0.95487770735       -0.259574380838     0.0326899343768     0.103447743442      
7800000000.0        0.0334079992641     0.104651644568      0.953834193925      -0.262807641259     0.953834193925      -0.262807641259     0.0334079992641     0.104651644568      
7900000000.0        0.0341341758419     0.10585034217       0.952778282171      -0.266035685338     0.952778282171      -0.266035685338     0.0341341758419     0.10585034217       
8000000000.0        0.0348684235202     0.107043780941      0.951710008939      -0.26925845463      0.951710008939      -0.26925845463      0.0348684235202     0.107043780941      
8100000000.0        0.0356107012978     0.108231905955      0.950629411461      -0.272475891036     0.950629411461      -0.272475891036     0.0356107012978     0.108231905955      
8200000000.0        0.0363609677671     0.10941466267       0.949536527349      -0.275687936803     0.949536527349      -0.275687936803     0.0363609677671     0.10941466267       
8300000000.0        0.037119181119      0.110591996933      0.948431394585      -0.278894534529     0.948431394585      -0.278894534529     0.037119181119      0.110591996933      
8400000000.0        0.0378852991471     0.111763854982      0.947314051521      -0.282095627166     0.947314051521      -0.282095627166     0.0378852991471     0.111763854982      
8500000000.0        0.0386592792531     0.112930183448      0.946184536872      -0.285291158023     0.946184536872      -0.285291158023     0.0386592792531     0.112930183448      
8600000000.0        0.0394410784507     0.114090929359      0.945042889713      -0.288481070768     0.945042889713      -0.288481070768     0.0394410784507     0.114090929359      
8700000000.0        0.0402306533709     0.115246040142      0.943889149474      -0.291665309432     0.943889149474      -0.291665309432     0.0402306533709     0.115246040142      
8800000000.0        0.0410279602663     0.116395463626      0.942723355932      -0.294843818412     0.942723355932      -0.294843818412     0.0410279602663     0.116395463626      
8900000000.0        0.0418329550159     0.117539148044      0.941545549214      -0.298016542474     0.941545549214      -0.298016542474     0.0418329550159     0.117539148044      
9000000000.0        0.0426455931298     0.118677042037      0.940355769784      -0.301183426755     0.940355769784      -0.301183426755     0.0426455931298     0.118677042037      
9100000000.0        0.0434658297536     0.119809094656      0.939154058445      -0.304344416767     0.939154058445      -0.304344416767     0.0434658297536     0.119809094656      
9200000000.0        0.0442936196736     0.120935255363      0.937940456331      -0.307499458396     0.937940456331      -0.307499458396     0.0442936196736     0.120935255363      
9300000000.0        0.0451289173208     0.122055474036      0.936715004902      -0.310648497911     0.936715004902      -0.310648497911     0.0451289173208     0.122055474036      
9400000000.0        0.0459716767763     0.123169700968      0.935477745943      -0.31379148196      0.935477745943      -0.31379148196      0.0459716767763     0.123169700968      
9500000000.0        0.0468218517751     0.124277886873      0.934228721556      -0.316928357578     0.934228721556      -0.316928357578     0.0468218517751     0.124277886873      
9600000000.0        0.0476793957118     0.125379982887      0.932967974155      -0.320059072185     0.932967974155      -0.320059072185     0.0476793957118     0.125379982887      
9700000000.0        0.0485442616442     0.126475940568      0.931695546465      -0.32318357359      0.931695546465      -0.32318357359      0.0485442616442     0.126475940568      
9800000000.0        0.0494164022988     0.127565711901      0.930411481515      -0.326301809995     0.930411481515      -0.326301809995     0.0494164022988     0.127565711901      
9900000000.0        0.0502957700751     0.1286492493        0.929115822634      -0.329413729995     0.929115822634      -0.329413729995     0.0502957700751     0.1286492493        
10000000000.0       0.0511823170502     0.129726505606      0.927808613444      -0.33251928258      0.927808613444      -0.33251928258      0.0511823170502     0.129726505606      
