# Hz S RI R 50.00 
100000000.0         0.00113779830779    -1.21281876819e-05  0.998850883028      -0.00367756940732   0.998850883028      -0.00367756940732   0.00113779830779    -1.2128187682e-05   
200000000.0         0.0011435654436     -2.43328389577e-05  0.998821177088      -0.00735512020378   0.998821177088      -0.00735512020378   0.0011435654436     -2.43328389577e-05  
300000000.0         0.00114725198448    -3.66081025151e-05  0.998779929672      -0.0110326757942    0.998779929672      -0.0110326757942    0.00114725198448    -3.66081025151e-05  
400000000.0         0.00114984387066    -4.89582049333e-05  0.998726152372      -0.0147102331621    0.998726152372      -0.0147102331621    0.00114984387066    -4.89582049333e-05  
500000000.0         0.00115171969949    -6.13883593682e-05  0.998659463716      -0.0183877799059    0.998659463716      -0.0183877799059    0.00115171969949    -6.13883593681e-05  
600000000.0         0.00115307175515    -7.39036294642e-05  0.998579668233      -0.0220652981856    0.998579668233      -0.0220652981856    0.00115307175515    -7.39036294643e-05  
700000000.0         0.00115401297865    -8.65086421947e-05  0.998486649536      -0.0257427664529    0.998486649536      -0.0257427664529    0.00115401297865    -8.65086421947e-05  
800000000.0         0.00115461599123    -9.92075126821e-05  0.998380331356      -0.0294201603963    0.998380331356      -0.0294201603963    0.00115461599123    -9.92075126821e-05  
900000000.0         0.00115493046436    -0.000112003836052  0.998260660202      -0.0330974535268    0.998260660202      -0.0330974535268    0.00115493046436    -0.000112003836052  
1000000000.0        0.00115499192291    -0.000124900703164  0.998127596599      -0.0367746175714    0.998127596599      -0.0367746175714    0.00115499192291    -0.000124900703164  
1100000000.0        0.00115482663921    -0.000137900724356  0.997981110218      -0.0404516227543    0.997981110218      -0.0404516227543    0.00115482663921    -0.000137900724356  
1200000000.0        0.00115445455018    -0.000151006055149  0.997821176984      -0.0441284380053    0.997821176984      -0.0441284380053    0.00115445455018    -0.000151006055149  
1300000000.0        0.00115389109381    -0.000164218421577  0.997647777265      -0.047805031121     0.997647777265      -0.047805031121     0.00115389109381    -0.000164218421577  
1400000000.0        0.00115314841747    -0.00017753914405   0.997460894681      -0.0514813688924    0.997460894681      -0.0514813688924    0.00115314841747    -0.00017753914405   
1500000000.0        0.00115223620243    -0.000190969159594  0.9972605153        -0.0551574172074    0.9972605153        -0.0551574172074    0.00115223620243    -0.000190969159594  
1600000000.0        0.00115116224401    -0.000204509042356  0.99704662707       -0.0588331411366    0.99704662707       -0.0588331411366    0.00115116224401    -0.000204509042356  
1700000000.0        0.00114993287068    -0.000218159022452  0.996819219421      -0.0625085050037    0.996819219421      -0.0625085050037    0.00114993287068    -0.000218159022452  
1800000000.0        0.00114855325373    -0.000231919003427  0.996578282967      -0.0661834724468    0.996578282967      -0.0661834724468    0.00114855325373    -0.000231919003427  
1900000000.0        0.00114702764075    -0.00024578857829   0.996323809285      -0.0698580064698    0.996323809285      -0.0698580064698    0.00114702764075    -0.00024578857829   
2000000000.0        0.00114535953471    -0.000259767044415  0.996055790747      -0.0735320694876    0.996055790747      -0.0735320694876    0.00114535953471    -0.000259767044415  
2100000000.0        0.00114355183366    -0.000273853417338  0.995774220396      -0.0772056233659    0.995774220396      -0.0772056233659    0.00114355183366    -0.000273853417338  
2200000000.0        0.00114160694103    -0.000288046443666  0.995479091845      -0.0808786294555    0.995479091845      -0.0808786294555    0.00114160694103    -0.000288046443666  
2300000000.0        0.00113952685405    -0.000302344613072  0.995170399193      -0.0845510486242    0.995170399193      -0.0845510486242    0.00113952685405    -0.000302344613072  
2400000000.0        0.00113731323541    -0.000316746169603  0.994848136974      -0.0882228412835    0.994848136974      -0.0882228412835    0.00113731323541    -0.000316746169603  
2500000000.0        0.00113496747187    -0.000331249122263  0.994512300097      -0.0918939674147    0.994512300097      -0.0918939674147    0.00113496747187    -0.000331249122263  
2600000000.0        0.00113249072276    -0.000345851254992  0.994162883811      -0.0955643865905    0.994162883811      -0.0955643865905    0.00113249072276    -0.000345851254992  
2700000000.0        0.00112988396051    -0.000360550136144  0.993799883672      -0.0992340579967    0.993799883672      -0.0992340579967    0.00112988396051    -0.000360550136144  
2800000000.0        0.00112714800473    -0.000375343127406  0.993423295518      -0.10290294045      0.993423295518      -0.10290294045      0.00112714800473    -0.000375343127406  
2900000000.0        0.00112428355107    -0.00039022739231   0.993033115444      -0.106570992416     0.993033115444      -0.106570992416     0.00112428355107    -0.00039022739231   
3000000000.0        0.00112129119599    -0.000405199904319  0.992629339786      -0.110238172024     0.992629339786      -0.110238172024     0.00112129119599    -0.000405199904319  
3100000000.0        0.00111817145798    -0.000420257454534  0.992211965109      -0.113904437085     0.992211965109      -0.113904437085     0.00111817145798    -0.000420257454534  
3200000000.0        0.00111492479597    -0.000435396659078  0.991780988189      -0.117569745099     0.991780988189      -0.117569745099     0.00111492479597    -0.000435396659078  
3300000000.0        0.00111155162539    -0.000450613966147  0.99133640601       -0.121234053276     0.99133640601       -0.121234053276     0.00111155162539    -0.000450613966147  
3400000000.0        0.0011080523322     -0.000465905662774  0.99087821575       -0.124897318539     0.99087821575       -0.124897318539     0.0011080523322     -0.000465905662774  
3500000000.0        0.00110442728526    -0.000481267881347  0.990406414776      -0.128559497543     0.990406414776      -0.128559497543     0.00110442728526    -0.000481267881347  
3600000000.0        0.00110067684725    -0.000496696605842  0.989921000641      -0.13222054668      0.989921000641      -0.13222054668      0.00110067684725    -0.000496696605842  
3700000000.0        0.00109680138445    -0.000512187677865  0.989421971075      -0.13588042209      0.989421971075      -0.13588042209      0.00109680138445    -0.000512187677865  
3800000000.0        0.00109280127536    -0.000527736802456  0.988909323985      -0.139539079674     0.988909323985      -0.139539079674     0.00109280127536    -0.000527736802456  
3900000000.0        0.00108867691854    -0.000543339553708  0.988383057447      -0.143196475094     0.988383057447      -0.143196475094     0.00108867691854    -0.000543339553709  
4000000000.0        0.00108442873958    -0.00055899138019   0.98784316971       -0.146852563792     0.98784316971       -0.146852563792     0.00108442873958    -0.00055899138019   
4100000000.0        0.00108005719742    -0.00057468761021   0.987289659189      -0.150507300989     0.987289659189      -0.150507300989     0.00108005719742    -0.00057468761021   
4200000000.0        0.00107556279008    -0.000590423456903  0.986722524463      -0.154160641697     0.986722524463      -0.154160641697     0.00107556279008    -0.000590423456903  
4300000000.0        0.00107094605983    -0.000606194023177  0.986141764279      -0.157812540723     0.986141764279      -0.157812540723     0.00107094605983    -0.000606194023177  
4400000000.0        0.00106620759798    -0.000621994306508  0.985547377544      -0.16146295268      0.985547377544      -0.16146295268      0.00106620759798    -0.000621994306508  
4500000000.0        0.00106134804914    -0.000637819203602  0.98493936333       -0.165111831987     0.98493936333       -0.165111831987     0.00106134804914    -0.000637819203602  
4600000000.0        0.00105636811521    -0.000653663514934  0.984317720871      -0.168759132881     0.984317720871      -0.168759132881     0.00105636811521    -0.000653663514934  
4700000000.0        0.00105126855896    -0.00066952194917   0.983682449561      -0.172404809421     0.983682449561      -0.172404809421     0.00105126855896    -0.00066952194917   
4800000000.0        0.00104605020744    -0.000685389127456  0.983033548959      -0.17604881549      0.983033548959      -0.17604881549      0.00104605020744    -0.000685389127456  
4900000000.0        0.00104071395495    -0.000701259587628  0.982371018784      -0.179691104806     0.982371018784      -0.179691104806     0.00104071395495    -0.000701259587628  
5000000000.0        0.0010352607659     -0.000717127788292  0.981694858915      -0.183331630922     0.981694858915      -0.183331630922     0.0010352607659     -0.000717127788292  
5100000000.0        0.00102969167745    -0.000732988112825  0.981005069397      -0.186970347235     0.981005069397      -0.186970347235     0.00102969167745    -0.000732988112825  
5200000000.0        0.00102400780185    -0.000748834873282  0.980301650434      -0.190607206986     0.980301650434      -0.190607206986     0.00102400780185    -0.000748834873282  
5300000000.0        0.00101821032868    -0.000764662314205  0.979584602394      -0.194242163271     0.979584602394      -0.194242163271     0.00101821032868    -0.000764662314205  
5400000000.0        0.00101230052693    -0.000780464616359  0.978853925809      -0.197875169037     0.978853925809      -0.197875169037     0.00101230052693    -0.000780464616359  
5500000000.0        0.00100627974689    -0.000796235900382  0.978109621373      -0.201506177095     0.978109621373      -0.201506177095     0.00100627974689    -0.000796235900382  
5600000000.0        0.00100014942185    -0.000811970230365  0.977351689943      -0.205135140116     0.977351689943      -0.205135140116     0.00100014942185    -0.000811970230365  
5700000000.0        0.000993911069824   -0.000827661617344  0.976580132545      -0.20876201064      0.976580132545      -0.20876201064      0.000993911069824   -0.000827661617345  
5800000000.0        0.000987566294979   -0.000843304022744  0.975794950364      -0.212386741079     0.975794950364      -0.212386741079     0.000987566294979   -0.000843304022744  
5900000000.0        0.000981116789049   -0.00085889136174   0.974996144757      -0.216009283718     0.974996144757      -0.216009283718     0.000981116789049   -0.00085889136174   
6000000000.0        0.000974564332629   -0.000874417506554  0.974183717243      -0.219629590722     0.974183717243      -0.219629590722     0.000974564332629   -0.000874417506554  
6100000000.0        0.000967910796336   -0.000889876289703  0.97335766951       -0.223247614136     0.97335766951       -0.223247614136     0.000967910796336   -0.000889876289703  
6200000000.0        0.000961158141932   -0.000905261507174  0.972518003411      -0.226863305892     0.972518003411      -0.226863305892     0.000961158141932   -0.000905261507174  
6300000000.0        0.000954308423292   -0.000920566921548  0.971664720972      -0.230476617808     0.971664720972      -0.230476617808     0.000954308423292   -0.000920566921548  
6400000000.0        0.000947363787359   -0.000935786265067  0.970797824384      -0.234087501594     0.970797824384      -0.234087501594     0.000947363787359   -0.000935786265067  
6500000000.0        0.000940326474975   -0.000950913242656  0.969917316008      -0.237695908854     0.969917316008      -0.237695908854     0.000940326474975   -0.000950913242656  
6600000000.0        0.000933198821634   -0.000965941534877  0.969023198376      -0.24130179109      0.969023198376      -0.24130179109      0.000933198821635   -0.000965941534877  
6700000000.0        0.00092598325822    -0.000980864800855  0.968115474192      -0.244905099702     0.968115474192      -0.244905099702     0.00092598325822    -0.000980864800855  
6800000000.0        0.0009186823116     -0.000995676681139  0.96719414633       -0.248505785995     0.96719414633       -0.248505785995     0.0009186823116     -0.000995676681139  
6900000000.0        0.00091129860523    -0.00101037080053   0.966259217837      -0.252103801175     0.966259217837      -0.252103801175     0.00091129860523    -0.00101037080053   
7000000000.0        0.000903834859638   -0.00102494077084   0.965310691931      -0.25569909636      0.965310691931      -0.25569909636      0.000903834859638   -0.00102494077084   
7100000000.0        0.000896293892893   -0.00103938019366   0.964348572006      -0.259291622577     0.964348572006      -0.259291622577     0.000896293892893   -0.00103938019366   
7200000000.0        0.000888678620993   -0.00105368266303   0.963372861629      -0.262881330764     0.963372861629      -0.262881330764     0.000888678620993   -0.00105368266303   
7300000000.0        0.000880992058218   -0.0010678417681    0.962383564541      -0.266468171776     0.962383564541      -0.266468171776     0.000880992058218   -0.0010678417681    
7400000000.0        0.000873237317417   -0.00108185109571   0.961380684661      -0.270052096384     0.961380684661      -0.270052096384     0.000873237317417   -0.00108185109571   
7500000000.0        0.000865417610243   -0.00109570423303   0.960364226081      -0.273633055281     0.960364226081      -0.273633055281     0.000865417610243   -0.00109570423303   
7600000000.0        0.000857536247383   -0.00110939477005   0.959334193072      -0.277210999078     0.959334193072      -0.277210999078     0.000857536247383   -0.00110939477005   
7700000000.0        0.000849596638661   -0.0011229163021    0.95829059008       -0.280785878314     0.95829059008       -0.280785878314     0.000849596638661   -0.0011229163021    
7800000000.0        0.000841602293202   -0.0011362624323    0.957233421731      -0.284357643452     0.957233421731      -0.284357643452     0.000841602293202   -0.0011362624323    
7900000000.0        0.000833556819439   -0.00114942677403   0.956162692828      -0.287926244882     0.956162692828      -0.287926244882     0.000833556819439   -0.00114942677403   
8000000000.0        0.000825463925187   -0.00116240295328   0.955078408353      -0.291491632927     0.955078408353      -0.291491632927     0.000825463925187   -0.00116240295328   
8100000000.0        0.000817327417603   -0.00117518461108   0.953980573469      -0.295053757841     0.953980573469      -0.295053757841     0.000817327417603   -0.00117518461108   
8200000000.0        0.000809151203132   -0.00118776540577   0.952869193519      -0.29861256981      0.952869193519      -0.29861256981      0.000809151203131   -0.00118776540577   
8300000000.0        0.00080093928742    -0.00120013901537   0.951744274024      -0.302168018959     0.951744274024      -0.302168018959     0.00080093928742    -0.00120013901537   
8400000000.0        0.000792695775194   -0.0012122991398    0.950605820689      -0.305720055349     0.950605820689      -0.305720055349     0.000792695775194   -0.0012122991398    
8500000000.0        0.000784424870075   -0.00122423950318   0.949453839401      -0.309268628982     0.949453839401      -0.309268628982     0.000784424870075   -0.00122423950318   
8600000000.0        0.000776130874412   -0.00123595385599   0.948288336227      -0.312813689798     0.948288336227      -0.312813689798     0.000776130874411   -0.00123595385599   
8700000000.0        0.000767818189012   -0.00124743597731   0.94710931742       -0.316355187684     0.94710931742       -0.316355187684     0.000767818189012   -0.00124743597731   
8800000000.0        0.000759491312917   -0.00125867967697   0.945916789412      -0.31989307247      0.945916789412      -0.31989307247      0.000759491312917   -0.00125867967697   
8900000000.0        0.000751154843073   -0.00126967879766   0.944710758824      -0.323427293931     0.944710758824      -0.323427293931     0.000751154843073   -0.00126967879766   
9000000000.0        0.000742813474017   -0.00128042721707   0.943491232457      -0.326957801793     0.943491232457      -0.326957801793     0.000742813474017   -0.00128042721707   
9100000000.0        0.000734471997512   -0.00129091884997   0.9422582173        -0.330484545728     0.9422582173        -0.330484545728     0.000734471997513   -0.00129091884997   
9200000000.0        0.000726135302162   -0.00130114765023   0.941011720525      -0.334007475363     0.941011720525      -0.334007475363     0.000726135302162   -0.00130114765023   
9300000000.0        0.000717808373      -0.00131110761293   0.939751749492      -0.337526540275     0.939751749492      -0.337526540275     0.000717808373      -0.00131110761293   
9400000000.0        0.000709496291016   -0.00132079277627   0.938478311746      -0.341041689997     0.938478311746      -0.341041689997     0.000709496291016   -0.00132079277627   
9500000000.0        0.000701204232714   -0.00133019722363   0.937191415018      -0.344552874015     0.937191415018      -0.344552874015     0.000701204232714   -0.00133019722363   
9600000000.0        0.000692937469579   -0.00133931508552   0.935891067227      -0.348060041775     0.935891067227      -0.348060041775     0.00069293746958    -0.00133931508552   
9700000000.0        0.000684701367565   -0.00134814054146   0.934577276481      -0.351563142681     0.934577276481      -0.351563142681     0.000684701367565   -0.00134814054146   
9800000000.0        0.00067650138653    -0.00135666782198   0.933250051075      -0.355062126096     0.933250051075      -0.355062126096     0.00067650138653    -0.00135666782198   
9900000000.0        0.000668343079656   -0.00136489121043   0.931909399491      -0.358556941345     0.931909399491      -0.358556941345     0.000668343079656   -0.00136489121043   
10000000000.0       0.000660232092819   -0.00137280504491   0.930555330403      -0.362047537715     0.930555330403      -0.362047537715     0.000660232092819   -0.00137280504491   
