# Hz S RI R 50.00 
100000000.0         0.000138119875799   -0.00947496845342   0.999631258265      -0.0109973107642    0.999631258265      -0.0109973107642    0.000138119875799   -0.00947496845342   
200000000.0         -0.000182719686432  -0.0189437463797    0.99930350797       -0.0219885095676    0.99930350797       -0.0219885095676    -0.000182719686432  -0.0189437463797    
300000000.0         -0.00071197618857   -0.0284003102451    0.998765894543      -0.0329676315993    0.998765894543      -0.0329676315993    -0.00071197618857   -0.0284003102451    
400000000.0         -0.00144885454801   -0.0378385987506    0.998018775888      -0.0439286633719    0.998018775888      -0.0439286633719    -0.00144885454801   -0.0378385987506    
500000000.0         -0.00239245964081   -0.047252552727     0.997062878456      -0.0548655887834    0.997062878456      -0.0548655887834    -0.00239245964081   -0.047252552727     
600000000.0         -0.00354170330701   -0.0566361368319    0.995899203799      -0.0657724126029    0.995899203799      -0.0657724126029    -0.00354170330701   -0.0566361368319    
700000000.0         -0.00489528217035   -0.0659833562194    0.994529003442      -0.0766431780006    0.994529003442      -0.0766431780006    -0.00489528217035   -0.0659833562194    
800000000.0         -0.00645167148196   -0.075288270983     0.992953767806      -0.0874719814882    0.992953767806      -0.0874719814882    -0.00645167148196   -0.075288270983     
900000000.0         -0.00820912460798   -0.0845450093327    0.991175219056      -0.0982529864186    0.991175219056      -0.0982529864186    -0.00820912460798   -0.0845450093327    
1000000000.0        -0.0101656751841    -0.0937477799061    0.989195305077      -0.108980435519     0.989195305077      -0.108980435519     -0.0101656751841    -0.0937477799061    
1100000000.0        -0.0123191408472    -0.102890883393     0.987016193591      -0.11964866268      0.987016193591      -0.11964866268      -0.0123191408472    -0.102890883393     
1200000000.0        -0.0146671280681    -0.111968723563     0.984640266048      -0.130252104103     0.984640266048      -0.130252104103     -0.0146671280681    -0.111968723563     
1300000000.0        -0.0172070378408    -0.120975817718     0.982070111136      -0.140785308858     0.982070111136      -0.140785308858     -0.0172070378408    -0.120975817718     
1400000000.0        -0.0199360720871    -0.129906806604     0.979308517848      -0.151242948863     0.979308517848      -0.151242948863     -0.0199360720871    -0.129906806604     
1500000000.0        -0.0228512406789    -0.138756463757     0.976358468109      -0.161619828301     0.976358468109      -0.161619828301     -0.0228512406789    -0.138756463757     
1600000000.0        -0.025949369005     -0.147519704283     0.973223128953      -0.171910892451     0.973223128953      -0.171910892451     -0.025949369005     -0.147519704283     
1700000000.0        -0.0292271060204    -0.156191593068     0.969905844299      -0.182111235943     0.969905844299      -0.182111235943     -0.0292271060204    -0.156191593068     
1800000000.0        -0.0326809327237    -0.164767352392     0.966410126341      -0.192216110411     0.966410126341      -0.192216110411     -0.0326809327237    -0.164767352392     
1900000000.0        -0.0363071710099    -0.173242368941     0.962739646595      -0.202220931538     0.962739646595      -0.202220931538     -0.0363071710099    -0.173242368941     
2000000000.0        -0.0401019928501    -0.181612200209     0.958898226646      -0.212121285491     0.958898226646      -0.212121285491     -0.0401019928501    -0.181612200209     
2100000000.0        -0.0440614297485    -0.18987258028      0.954889828635      -0.221912934722     0.954889828635      -0.221912934722     -0.0440614297485    -0.18987258028      
2200000000.0        -0.0481813824305    -0.198019424977     0.950718545521      -0.231591823147     0.950718545521      -0.231591823147     -0.0481813824305    -0.198019424977     
2300000000.0        -0.0524576307147    -0.206048836386     0.946388591178      -0.241154080688     0.946388591178      -0.241154080688     -0.0524576307147    -0.206048836386     
2400000000.0        -0.0568858435241    -0.213957106751     0.941904290351      -0.250596027187     0.941904290351      -0.250596027187     -0.0568858435241    -0.213957106751     
2500000000.0        -0.061461588991     -0.221740721734     0.937270068531      -0.25991417568      0.937270068531      -0.25991417568      -0.061461588991     -0.221740721734     
2600000000.0        -0.0661803446134    -0.229396363056     0.93249044178       -0.269105235063     0.93249044178       -0.269105235063     -0.0661803446134    -0.229396363056     
2700000000.0        -0.0710375074203    -0.236920910528     0.927570006545      -0.278166112126     0.927570006545      -0.278166112126     -0.0710375074203    -0.236920910528     
2800000000.0        -0.076028404105     -0.244311443473     0.922513429518      -0.287093912993     0.922513429518      -0.287093912993     -0.076028404105     -0.244311443473     
2900000000.0        -0.0811483010892    -0.251565241559     0.917325437558      -0.295885943969     0.917325437558      -0.295885943969     -0.0811483010892    -0.251565241559     
3000000000.0        -0.0863924144789    -0.258679785057     0.912010807725      -0.304539711808     0.912010807725      -0.304539711808     -0.0863924144789    -0.258679785057     
3100000000.0        -0.0917559198792    -0.265652754547     0.906574357459      -0.31305292343      0.906574357459      -0.31305292343      -0.0917559198792    -0.265652754547     
3200000000.0        -0.0972339620334    -0.27248203009      0.901020934933      -0.321423485095     0.901020934933      -0.321423485095     -0.0972339620334    -0.27248203009      
3300000000.0        -0.102821664257     -0.279165689872     0.895355409617      -0.329649501075     0.895355409617      -0.329649501075     -0.102821664257     -0.279165689872     
3400000000.0        -0.108514137637     -0.285702008381     0.889582663065      -0.337729271817     0.889582663065      -0.337729271817     -0.108514137637     -0.285702008381     
3500000000.0        -0.114306489973     -0.292089454097     0.88370757998       -0.345661291661     0.88370757998       -0.345661291661     -0.114306489973     -0.292089454097     
3600000000.0        -0.120193834433     -0.298326686762     0.877735039547      -0.3534442461       0.877735039547      -0.3534442461       -0.120193834433     -0.298326686762     
3700000000.0        -0.126171297907     -0.304412554222     0.871669907077      -0.361077008646     0.871669907077      -0.361077008646     -0.126171297907     -0.304412554222     
3800000000.0        -0.132234029034     -0.310346088899     0.865517025981      -0.368558637298     0.865517025981      -0.368558637298     -0.132234029034     -0.310346088899     
3900000000.0        -0.138377205894     -0.316126503905     0.85928121007       -0.375888370663     0.85928121007       -0.375888370663     -0.138377205894     -0.316126503905     
4000000000.0        -0.144596043345     -0.321753188821     0.852967236218      -0.383065623751     0.852967236218      -0.383065623751     -0.144596043345     -0.321753188821     
4100000000.0        -0.150885799992     -0.327225705196     0.846579837389      -0.390089983466     0.846579837389      -0.390089983466     -0.150885799992     -0.327225705196     
4200000000.0        -0.15724178479      -0.332543781763     0.840123696034      -0.396961203839     0.840123696034      -0.396961203839     -0.15724178479      -0.332543781763     
4300000000.0        -0.163659363262     -0.337707309427     0.833603437871      -0.403679201016     0.833603437871      -0.403679201016     -0.163659363262     -0.337707309427     
4400000000.0        -0.170133963327     -0.342716336034     0.82702362605       -0.410244048034     0.82702362605       -0.410244048034     -0.170133963327     -0.342716336034     
4500000000.0        -0.176661080753     -0.347571060967     0.820388755707      -0.416655969421     0.820388755707      -0.416655969421     -0.176661080753     -0.347571060967     
4600000000.0        -0.183236284207     -0.352271829579     0.813703248902      -0.422915335634     0.813703248902      -0.422915335634     -0.183236284207     -0.352271829579     
4700000000.0        -0.189855219928     -0.356819127501     0.806971449953      -0.429022657375     0.806971449953      -0.429022657375     -0.189855219928     -0.356819127501     
4800000000.0        -0.196513616011     -0.36121357485      0.800197621146      -0.434978579797     0.800197621146      -0.434978579797     -0.196513616011     -0.36121357485      
4900000000.0        -0.203207286309     -0.365455920352     0.793385938832      -0.440783876638     0.793385938832      -0.440783876638     -0.203207286309     -0.365455920352     
5000000000.0        -0.209932133962     -0.369547035419     0.786540489895      -0.446439444299     0.786540489895      -0.446439444299     -0.209932133962     -0.369547035419     
5100000000.0        -0.216684154564     -0.373487908189     0.779665268588      -0.451946295885     0.779665268588      -0.451946295885     -0.216684154564     -0.373487908189     
5200000000.0        -0.223459438961     -0.377279637556     0.772764173729      -0.457305555247     0.772764173729      -0.457305555247     -0.223459438961     -0.377279637556     
5300000000.0        -0.230254175704     -0.38092342721      0.765841006247      -0.462518451017     0.765841006247      -0.462518451017     -0.230254175704     -0.38092342721      
5400000000.0        -0.237064653169     -0.384420579709     0.758899467062      -0.467586310691     0.758899467062      -0.467586310691     -0.237064653169     -0.384420579709     
5500000000.0        -0.243887261338     -0.387772490592     0.751943155303      -0.47251055474      0.751943155303      -0.47251055474      -0.243887261338     -0.387772490592     
5600000000.0        -0.250718493274     -0.39098064256      0.74497556683       -0.477292690797     0.74497556683       -0.477292690797     -0.250718493274     -0.39098064256      
5700000000.0        -0.257554946285     -0.39404659973      0.738000093067      -0.481934307916     0.738000093067      -0.481934307916     -0.257554946285     -0.39404659973      
5800000000.0        -0.264393322804     -0.396972001983     0.731020020126      -0.48643707092      0.731020020126      -0.48643707092      -0.264393322804     -0.396972001983     
5900000000.0        -0.271230430987     -0.399758559417     0.724038528201      -0.490802714859     0.724038528201      -0.490802714859     -0.271230430987     -0.399758559417     
6000000000.0        -0.278063185053     -0.402408046915     0.717058691229      -0.495033039579     0.717058691229      -0.495033039579     -0.278063185053     -0.402408046915     
6100000000.0        -0.284888605371     -0.404922298834     0.710083476804      -0.499129904421     0.710083476804      -0.499129904421     -0.284888605371     -0.404922298834     
6200000000.0        -0.291703818312     -0.407303203839     0.70311574632       -0.503095223045     0.70311574632       -0.503095223045     -0.291703818312     -0.407303203839     
6300000000.0        -0.298506055884     -0.409552699865     0.696158255334      -0.50693095841      0.696158255334      -0.50693095841      -0.298506055884     -0.409552699865     
6400000000.0        -0.305292655155     -0.411672769242     0.689213654146      -0.51063911789      0.689213654146      -0.51063911789      -0.305292655155     -0.411672769242     
6500000000.0        -0.312061057485     -0.413665433967     0.68228448856       -0.514221748555     0.68228448856       -0.514221748555     -0.312061057485     -0.413665433967     
6600000000.0        -0.318808807579     -0.415532751135     0.67537320083       -0.517680932601     0.67537320083       -0.517680932601     -0.318808807579     -0.415532751135     
6700000000.0        -0.325533552376     -0.417276808537     0.668482130777      -0.521018782957     0.668482130777      -0.521018782957     -0.325533552376     -0.417276808537     
6800000000.0        -0.332233039777     -0.418899720423     0.661613517046      -0.52423743904      0.661613517046      -0.52423743904      -0.332233039777     -0.418899720423     
6900000000.0        -0.338905117245     -0.420403623431     0.654769498516      -0.527339062698     0.654769498516      -0.527339062698     -0.338905117245     -0.420403623431     
7000000000.0        -0.345547730268     -0.421790672688     0.647952115828      -0.530325834304     0.647952115828      -0.530325834304     -0.345547730268     -0.421790672688     
7100000000.0        -0.352158920713     -0.423063038077     0.641163313035      -0.533199949033     0.641163313035      -0.533199949033     -0.352158920713     -0.423063038077     
7200000000.0        -0.358736825071     -0.424222900682     0.634404939348      -0.535963613304     0.634404939348      -0.535963613304     -0.358736825071     -0.424222900682     
7300000000.0        -0.365279672614     -0.425272449393     0.627678750983      -0.538619041389     0.627678750983      -0.538619041389     -0.365279672614     -0.425272449393     
7400000000.0        -0.37178578347      -0.42621387768      0.620986413082      -0.541168452191     0.620986413082      -0.541168452191     -0.37178578347      -0.42621387768      
7500000000.0        -0.378253566625     -0.427049380543     0.614329501712      -0.543614066192     0.614329501712      -0.543614066192     -0.378253566625     -0.427049380543     
7600000000.0        -0.384681517864     -0.42778115161      0.607709505915      -0.545958102561     0.607709505915      -0.545958102561     -0.384681517864     -0.42778115161      
7700000000.0        -0.39106821766      -0.428411380408     0.601127829823      -0.548202776417     0.601127829823      -0.548202776417     -0.39106821766      -0.428411380408     
7800000000.0        -0.397412329022     -0.428942249791     0.594585794805      -0.550350296266     0.594585794805      -0.550350296266     -0.397412329022     -0.428942249791     
7900000000.0        -0.403712595308     -0.429375933511     0.588084641657      -0.552402861574     0.588084641657      -0.552402861574     -0.403712595308     -0.429375933511     
8000000000.0        -0.409967838006     -0.429714593956     0.581625532812      -0.554362660504     0.581625532812      -0.554362660504     -0.409967838006     -0.429714593956     
8100000000.0        -0.416176954499     -0.429960380025     0.575209554575      -0.556231867795     0.575209554575      -0.556231867795     -0.416176954499     -0.429960380025     
8200000000.0        -0.422338915822     -0.430115425146     0.568837719367      -0.55801264278      0.568837719367      -0.55801264278      -0.422338915822     -0.430115425146     
8300000000.0        -0.428452764405     -0.430181845438     0.562510967977      -0.559707127553     0.562510967977      -0.559707127553     -0.428452764405     -0.430181845438     
8400000000.0        -0.434517611819     -0.430161737998     0.556230171814      -0.561317445258     0.556230171814      -0.561317445258     -0.434517611819     -0.430161737998     
8500000000.0        -0.440532636529     -0.430057179331     0.549996135152      -0.562845698516     0.549996135152      -0.562845698516     -0.440532636529     -0.430057179331     
8600000000.0        -0.446497081653     -0.429870223889     0.543809597367      -0.56429396797      0.543809597367      -0.56429396797      -0.446497081653     -0.429870223889     
8700000000.0        -0.452410252745     -0.429602902744     0.537671235158      -0.565664310961     0.537671235158      -0.565664310961     -0.452410252745     -0.429602902744     
8800000000.0        -0.458271515585     -0.429257222365     0.531581664745      -0.566958760304     0.531581664745      -0.566958760304     -0.458271515585     -0.429257222365     
8900000000.0        -0.464080294001     -0.428835163517     0.525541444051      -0.568179323189     0.525541444051      -0.568179323189     -0.464080294001     -0.428835163517     
9000000000.0        -0.469836067718     -0.428338680257     0.519551074849      -0.569327980179     0.519551074849      -0.569327980179     -0.469836067718     -0.428338680257     
9100000000.0        -0.475538370235     -0.427769699032     0.513611004884      -0.570406684314     0.513611004884      -0.570406684314     -0.475538370235     -0.427769699032     
9200000000.0        -0.481186786729     -0.427130117882     0.507721629961      -0.571417360307     0.507721629961      -0.571417360307     -0.481186786729     -0.427130117882     
9300000000.0        -0.48678095201      -0.426421805725     0.501883295995      -0.572361903839     0.501883295995      -0.572361903839     -0.48678095201      -0.426421805725     
9400000000.0        -0.492320548497     -0.425646601733     0.496096301027      -0.573242180934     0.496096301027      -0.573242180934     -0.492320548497     -0.425646601733     
9500000000.0        -0.497805304243     -0.424806314795     0.490360897197      -0.574060027421     0.490360897197      -0.574060027421     -0.497805304243     -0.424806314795     
9600000000.0        -0.503234991002     -0.423902723053     0.484677292676      -0.574817248475     0.484677292676      -0.574817248475     -0.503234991002     -0.423902723053     
9700000000.0        -0.508609422333     -0.422937573516     0.479045653558      -0.575515618231     0.479045653558      -0.575515618231     -0.508609422333     -0.422937573516     
9800000000.0        -0.513928451755     -0.421912581742     0.473466105702      -0.576156879469     0.473466105702      -0.576156879469     -0.513928451755     -0.421912581742     
9900000000.0        -0.519191970941     -0.420829431589     0.467938736536      -0.576742743366     0.467938736536      -0.576742743366     -0.519191970941     -0.420829431589     
10000000000.0       -0.524399907963     -0.419689775025     0.462463596808      -0.577274889307     0.462463596808      -0.577274889307     -0.524399907963     -0.419689775025     
