# Hz S RI R 50.00 
100000000.0         0.00110063078699    -0.000433219230966  0.998892877824      -0.00206071074041   0.998892877824      -0.00206071074041   0.00110063078699    -0.000433219230966  
200000000.0         0.00110415441215    -0.000866456313081  0.99887764072       -0.00412139546763   0.99887764072       -0.00412139546763   0.00110415441215    -0.000866456313081  
300000000.0         0.00110395724079    -0.00129969795795   0.998859902188      -0.00618206054721   0.998859902188      -0.00618206054721   0.00110395724079    -0.00129969795795   
400000000.0         0.00110099437416    -0.0017329362547    0.998838706984      -0.00824270440791   0.998838706984      -0.00824270440791   0.00110099437416    -0.0017329362547    
500000000.0         0.00109563319529    -0.00216616430089   0.998813687578      -0.0103033231876    0.998813687578      -0.0103033231876    0.00109563319529    -0.00216616430089   
600000000.0         0.00108806084278    -0.00259937554458   0.998784656694      -0.0123639118368    0.998784656694      -0.0123639118368    0.00108806084278    -0.00259937554458   
700000000.0         0.00107838773483    -0.00303256357239   0.998751503788      -0.0144244645596    0.998751503788      -0.0144244645596    0.00107838773483    -0.00303256357239   
800000000.0         0.0010666853316     -0.00346572202127   0.998714157289      -0.0164849750374    0.998714157289      -0.0164849750374    0.0010666853316     -0.00346572202127   
900000000.0         0.00105300294016    -0.00389884453741   0.998672567803      -0.0185454365596    0.998672567803      -0.0185454365596    0.00105300294016    -0.00389884453741   
1000000000.0        0.00103737622827    -0.00433192475515   0.998626699594      -0.0206058421078    0.998626699594      -0.0206058421078    0.00103737622827    -0.00433192475515   
1100000000.0        0.00101983195474    -0.00476495628603   0.998576525863      -0.0226661844132    0.998576525863      -0.0226661844132    0.00101983195474    -0.00476495628603   
1200000000.0        0.00100039078685    -0.00519793271296   0.99852202593       -0.0247264559974    0.99852202593       -0.0247264559974    0.00100039078685    -0.00519793271296   
1300000000.0        0.00097906907209    -0.00563084758732   0.998463183464      -0.0267866492036    0.998463183464      -0.0267866492036    0.00097906907209    -0.00563084758732   
1400000000.0        0.00095588000225    -0.00606369442765   0.998399985322      -0.0288467562201    0.998399985322      -0.0288467562201    0.00095588000225    -0.00606369442765   
1500000000.0        0.000930834406376   -0.00649646671936   0.998332420756      -0.0309067690988    0.998332420756      -0.0309067690988    0.000930834406376   -0.00649646671936   
1600000000.0        0.000903941307449   -0.00692915791502   0.998260480859      -0.0329666797707    0.998260480859      -0.0329666797707    0.000903941307449   -0.00692915791502   
1700000000.0        0.000875208323463   -0.00736176143496   0.998184158165      -0.0350264800577    0.998184158165      -0.0350264800577    0.000875208323463   -0.00736176143496   
1800000000.0        0.000844641962839   -0.00779427066807   0.998103446353      -0.0370861616832    0.998103446353      -0.0370861616832    0.000844641962839   -0.00779427066807   
1900000000.0        0.000812247846299   -0.00822667897276   0.998018340029      -0.0391457162806    0.998018340029      -0.0391457162806    0.000812247846299   -0.00822667897276   
2000000000.0        0.000778030876359   -0.00865897967787   0.997928834559      -0.0412051354009    0.997928834559      -0.0412051354009    0.000778030876359   -0.00865897967787   
2100000000.0        0.000741995368779   -0.00909116608371   0.997834925931      -0.0432644105189    0.997834925931      -0.0432644105189    0.000741995368779   -0.00909116608371   
2200000000.0        0.000704145155896   -0.00952323146305   0.997736610661      -0.0453235330386    0.997736610661      -0.0453235330386    0.000704145155895   -0.00952323146305   
2300000000.0        0.000664483668844   -0.00995516906208   0.997633885709      -0.0473824942987    0.997633885709      -0.0473824942987    0.000664483668844   -0.00995516906208   
2400000000.0        0.000623014003706   -0.0103869721014    0.997526748409      -0.049441285576     0.997526748409      -0.049441285576     0.000623014003706   -0.0103869721014    
2500000000.0        0.000579738975253   -0.0108186337768    0.997415196423      -0.0514998980901    0.997415196423      -0.0514998980901    0.000579738975253   -0.0108186337768    
2600000000.0        0.000534661161017   -0.0112501472603    0.997299227695      -0.0535583230062    0.997299227695      -0.0535583230062    0.000534661161017   -0.0112501472603    
2700000000.0        0.00048778293773    -0.0116815057012    0.997178840413      -0.0556165514385    0.997178840413      -0.0556165514385    0.00048778293773    -0.0116815057012    
2800000000.0        0.000439106511687   -0.0121127022263    0.997054032983      -0.0576745744529    0.997054032983      -0.0576745744529    0.000439106511687   -0.0121127022263    
2900000000.0        0.000388633944225   -0.0125437299413    0.996924804         -0.0597323830697    0.996924804         -0.0597323830697    0.000388633944225   -0.0125437299413    
3000000000.0        0.00033636717324    -0.0129745819313    0.996791152233      -0.0617899682657    0.996791152233      -0.0617899682657    0.00033636717324    -0.0129745819313    
3100000000.0        0.000282308031487   -0.0134052512614    0.996653076602      -0.0638473209762    0.996653076602      -0.0638473209762    0.000282308031487   -0.0134052512614    
3200000000.0        0.000226458262209   -0.0138357309778    0.996510576163      -0.0659044320975    0.996510576163      -0.0659044320975    0.000226458262209   -0.0138357309778    
3300000000.0        0.000168819532569   -0.0142660141081    0.9963636501        -0.0679612924882    0.9963636501        -0.0679612924882    0.000168819532569   -0.0142660141081    
3400000000.0        0.000109393445265   -0.0146960936622    0.996212297708      -0.0700178929711    0.996212297708      -0.0700178929711    0.000109393445265   -0.0146960936622    
3500000000.0        4.81815485889e-05   -0.0151259626327    0.99605651839       -0.0720742243349    0.99605651839       -0.0720742243349    4.81815485889e-05   -0.0151259626327    
3600000000.0        -1.48146547956e-05  -0.0155556139958    0.99589631164       -0.0741302773352    0.99589631164       -0.0741302773352    -1.48146547956e-05  -0.0155556139958    
3700000000.0        -7.95937001709e-05  -0.0159850407116    0.995731677045      -0.0761860426963    0.995731677045      -0.0761860426963    -7.95937001711e-05  -0.0159850407116    
3800000000.0        -0.000146154154019  -0.016414235725     0.995562614272      -0.0782415111123    0.995562614272      -0.0782415111123    -0.000146154154019  -0.016414235725     
3900000000.0        -0.000214494608068  -0.0168431919659    0.995389123066      -0.0802966732483    0.995389123066      -0.0802966732483    -0.000214494608068  -0.0168431919659    
4000000000.0        -0.000284613674024  -0.01727190235      0.995211203243      -0.0823515197416    0.995211203243      -0.0823515197416    -0.000284613674024  -0.01727190235      
4100000000.0        -0.000356509978896  -0.0177003597792    0.995028854689      -0.0844060412028    0.995028854689      -0.0844060412028    -0.000356509978896  -0.0177003597792    
4200000000.0        -0.000430182160822  -0.018128557142     0.994842077351      -0.0864602282165    0.994842077351      -0.0864602282165    -0.000430182160822  -0.018128557142     
4300000000.0        -0.000505628865349  -0.0185564873144    0.994650871238      -0.0885140713428    0.994650871238      -0.0885140713428    -0.000505628865349  -0.0185564873144    
4400000000.0        -0.000582848742093  -0.0189841431598    0.994455236419      -0.0905675611176    0.994455236419      -0.0905675611176    -0.000582848742093  -0.0189841431598    
4500000000.0        -0.000661840441735  -0.0194115175302    0.994255173014      -0.0926206880541    0.994255173014      -0.0926206880541    -0.000661840441735  -0.0194115175302    
4600000000.0        -0.000742602613324  -0.0198386032657    0.994050681199      -0.094673442643     0.994050681199      -0.094673442643     -0.000742602613324  -0.0198386032657    
4700000000.0        -0.00082513390183   -0.0202653931958    0.993841761199      -0.0967258153538    0.993841761199      -0.0967258153538    -0.00082513390183   -0.0202653931958    
4800000000.0        -0.000909432945932  -0.0206918801396    0.993628413288      -0.0987777966354    0.993628413288      -0.0987777966354    -0.000909432945932  -0.0206918801396    
4900000000.0        -0.000995498376012  -0.0211180569059    0.993410637787      -0.100829376917     0.993410637787      -0.100829376917     -0.000995498376012  -0.0211180569059    
5000000000.0        -0.00108332881233   -0.021543916294     0.993188435062      -0.102880546607     0.993188435062      -0.102880546607     -0.00108332881233   -0.021543916294     
5100000000.0        -0.00117292286335   -0.0219694510939    0.992961805525      -0.104931296098     0.992961805525      -0.104931296098     -0.00117292286335   -0.0219694510939    
5200000000.0        -0.00126427912422   -0.0223946540868    0.992730749628      -0.106981615762     0.992730749628      -0.106981615762     -0.00126427912422   -0.0223946540868    
5300000000.0        -0.00135739617541   -0.0228195180455    0.992495267868      -0.109031495956     0.992495267868      -0.109031495956     -0.00135739617541   -0.0228195180455    
5400000000.0        -0.00145227258138   -0.0232440357347    0.992255360781      -0.111080927019     0.992255360781      -0.111080927019     -0.00145227258138   -0.0232440357347    
5500000000.0        -0.00154890688945   -0.0236681999114    0.992011028941      -0.113129899274     0.992011028941      -0.113129899274     -0.00154890688945   -0.0236681999114    
5600000000.0        -0.00164729762871   -0.0240920033254    0.991762272965      -0.115178403028     0.991762272965      -0.115178403028     -0.00164729762871   -0.0240920033254    
5700000000.0        -0.00174744330902   -0.0245154387194    0.991509093506      -0.117226428574     0.991509093506      -0.117226428574     -0.00174744330902   -0.0245154387194    
5800000000.0        -0.00184934242008   -0.0249384988296    0.991251491254      -0.119273966191     0.991251491254      -0.119273966191     -0.00184934242008   -0.0249384988296    
5900000000.0        -0.00195299343062   -0.0253611763861    0.990989466938      -0.121321006142     0.990989466938      -0.121321006142     -0.00195299343062   -0.0253611763861    
6000000000.0        -0.00205839478756   -0.025783464113     0.990723021321      -0.123367538677     0.990723021321      -0.123367538677     -0.00205839478756   -0.025783464113     
6100000000.0        -0.00216554491532   -0.0262053547289    0.990452155204      -0.125413554036     0.990452155204      -0.125413554036     -0.00216554491532   -0.0262053547289    
6200000000.0        -0.00227444221514   -0.0266268409472    0.990176869422      -0.127459042442     0.990176869422      -0.127459042442     -0.00227444221514   -0.0266268409472    
6300000000.0        -0.00238508506442   -0.0270479154765    0.989897164845      -0.12950399411      0.989897164845      -0.12950399411      -0.00238508506442   -0.0270479154765    
6400000000.0        -0.00249747181617   -0.0274685710208    0.98961304238       -0.131548399239     0.98961304238       -0.131548399239     -0.00249747181617   -0.0274685710208    
6500000000.0        -0.00261160079845   -0.02788880028      0.989324502965      -0.133592248022     0.989324502965      -0.133592248022     -0.00261160079845   -0.02788880028      
6600000000.0        -0.00272747031385   -0.0283085959501    0.989031547573      -0.135635530636     0.989031547573      -0.135635530636     -0.00272747031385   -0.0283085959501    
6700000000.0        -0.00284507863904   -0.0287279507235    0.988734177211      -0.137678237252     0.988734177211      -0.137678237252     -0.00284507863904   -0.0287279507235    
6800000000.0        -0.00296442402428   -0.0291468572893    0.98843239292       -0.139720358028     0.98843239292       -0.139720358028     -0.00296442402428   -0.0291468572893    
6900000000.0        -0.00308550469307   -0.029565308334     0.988126195773      -0.141761883115     0.988126195773      -0.141761883115     -0.00308550469307   -0.029565308334     
7000000000.0        -0.0032083188417    -0.029983296541     0.987815586875      -0.143802802652     0.987815586875      -0.143802802652     -0.00320831884169   -0.029983296541     
7100000000.0        -0.00333286463891   -0.0304008145918    0.987500567366      -0.145843106772     0.987500567366      -0.145843106772     -0.00333286463891   -0.0304008145918    
7200000000.0        -0.00345914022557   -0.0308178551658    0.987181138417      -0.147882785597     0.987181138417      -0.147882785597     -0.00345914022557   -0.0308178551658    
7300000000.0        -0.00358714371431   -0.0312344109404    0.98685730123       -0.149921829244     0.98685730123       -0.149921829244     -0.00358714371431   -0.0312344109404    
7400000000.0        -0.00371687318927   -0.0316504745921    0.986529057043      -0.151960227818     0.986529057043      -0.151960227818     -0.00371687318927   -0.0316504745921    
7500000000.0        -0.00384832670576   -0.0320660387957    0.986196407121      -0.153997971422     0.986196407121      -0.153997971422     -0.00384832670576   -0.0320660387957    
7600000000.0        -0.00398150229006   -0.0324810962257    0.985859352765      -0.156035050147     0.985859352765      -0.156035050147     -0.00398150229007   -0.0324810962257    
7700000000.0        -0.00411639793913   -0.0328956395557    0.985517895305      -0.15807145408      0.985517895305      -0.15807145408      -0.00411639793913   -0.0328956395557    
7800000000.0        -0.00425301162035   -0.0333096614591    0.985172036104      -0.160107173302     0.985172036104      -0.160107173302     -0.00425301162035   -0.0333096614591    
7900000000.0        -0.00439134127137   -0.0337231546096    0.984821776555      -0.162142197887     0.984821776555      -0.162142197887     -0.00439134127137   -0.0337231546096    
8000000000.0        -0.00453138479983   -0.0341361116809    0.984467118084      -0.164176517903     0.984467118084      -0.164176517903     -0.00453138479983   -0.0341361116809    
8100000000.0        -0.00467314008322   -0.0345485253474    0.984108062148      -0.166210123414     0.984108062148      -0.166210123414     -0.00467314008322   -0.0345485253474    
8200000000.0        -0.00481660496865   -0.0349603882843    0.983744610233      -0.168243004477     0.983744610233      -0.168243004477     -0.00481660496865   -0.0349603882843    
8300000000.0        -0.00496177727272   -0.035371693168     0.983376763859      -0.170275151146     0.983376763859      -0.170275151146     -0.00496177727272   -0.035371693168     
8400000000.0        -0.00510865478131   -0.0357824326765    0.983004524576      -0.17230655347      0.983004524576      -0.17230655347      -0.00510865478131   -0.0357824326765    
8500000000.0        -0.00525723524946   -0.036192599489     0.982627893963      -0.174337201493     0.982627893963      -0.174337201493     -0.00525723524946   -0.036192599489     
8600000000.0        -0.00540751640122   -0.0366021862872    0.982246873633      -0.176367085257     0.982246873633      -0.176367085257     -0.00540751640122   -0.0366021862872    
8700000000.0        -0.00555949592951   -0.0370111857546    0.981861465226      -0.178396194799     0.981861465226      -0.178396194799     -0.00555949592951   -0.0370111857546    
8800000000.0        -0.00571317149598   -0.0374195905774    0.981471670418      -0.180424520152     0.981471670418      -0.180424520152     -0.00571317149598   -0.0374195905774    
8900000000.0        -0.0058685407309    -0.0378273934445    0.98107749091       -0.182452051349     0.98107749091       -0.182452051349     -0.0058685407309    -0.0378273934445    
9000000000.0        -0.00602560123307   -0.0382345870477    0.980678928438      -0.184478778418     0.980678928438      -0.184478778418     -0.00602560123307   -0.0382345870477    
9100000000.0        -0.00618435056966   -0.0386411640824    0.980275984766      -0.186504691384     0.980275984766      -0.186504691384     -0.00618435056966   -0.0386411640824    
9200000000.0        -0.00634478627619   -0.039047117247     0.979868661689      -0.188529780271     0.979868661689      -0.188529780271     -0.00634478627619   -0.039047117247     
9300000000.0        -0.00650690585634   -0.0394524392442    0.979456961034      -0.190554035101     0.979456961034      -0.190554035101     -0.00650690585634   -0.0394524392442    
9400000000.0        -0.00667070678194   -0.0398571227804    0.979040884656      -0.192577445895     0.979040884656      -0.192577445895     -0.00667070678194   -0.0398571227804    
9500000000.0        -0.00683618649287   -0.0402611605664    0.978620434442      -0.194600002671     0.978620434442      -0.194600002671     -0.00683618649287   -0.0402611605664    
9600000000.0        -0.00700334239696   -0.0406645453176    0.978195612309      -0.196621695448     0.978195612309      -0.196621695448     -0.00700334239696   -0.0406645453176    
9700000000.0        -0.00717217186995   -0.0410672697541    0.977766420205      -0.198642514242     0.977766420205      -0.198642514242     -0.00717217186995   -0.0410672697541    
9800000000.0        -0.00734267225541   -0.041469326601     0.977332860107      -0.20066244907      0.977332860107      -0.20066244907      -0.00734267225541   -0.041469326601     
9900000000.0        -0.00751484086467   -0.041870708589     0.976894934023      -0.202681489947     0.976894934023      -0.202681489947     -0.00751484086467   -0.041870708589     
10000000000.0       -0.0076886749768    -0.0422714084539    0.97645264399       -0.20469962689      0.97645264399       -0.20469962689      -0.0076886749768    -0.0422714084539    
