# Hz S RI R 50.00 
100000000.0         0.00418513892992    0.00188088708705    0.995809945983      -0.00389491708849   0.995809945983      -0.00389491708849   0.00418513892992    0.00188088708705    
200000000.0         0.004234058555      0.00376133445363    0.995753048972      -0.00778942543747   0.995753048972      -0.00778942543747   0.004234058555      0.00376133445363    
300000000.0         0.00429034862703    0.00564134562844    0.99568471871       -0.0116835479878    0.99568471871       -0.0116835479878    0.00429034862703    0.00564134562844    
400000000.0         0.0043576208798     0.00752083960441    0.995601342816      -0.0155772184498    0.995601342816      -0.0155772184498    0.0043576208798     0.00752083960441    
500000000.0         0.00443726287695    0.0093997157566     0.995501532948      -0.0194703485211    0.995501532948      -0.0194703485211    0.00443726287695    0.0093997157566     
600000000.0         0.00452997882094    0.0112778648422     0.995384584001      -0.0233628396983    0.995384584001      -0.0233628396983    0.00452997882094    0.0112778648422     
700000000.0         0.0046361811798     0.0131551729643     0.995250082491      -0.0272545876567    0.995250082491      -0.0272545876567    0.0046361811798     0.0131551729643     
800000000.0         0.00475613359177    0.0150315234177     0.995097763654      -0.0311454843463    0.995097763654      -0.0311454843463    0.00475613359177    0.0150315234177     
900000000.0         0.00489001448052    0.0169067976869     0.994927447838      -0.0350354191552    0.994927447838      -0.0350354191552    0.00489001448052    0.0169067976869     
1000000000.0        0.0050379492933     0.0187808760416     0.99473900827       -0.0389242796225    0.99473900827       -0.0389242796225    0.0050379492933     0.0187808760416     
1100000000.0        0.00520002841771    0.0206536379189     0.994532353139      -0.0428119519071    0.994532353139      -0.0428119519071    0.00520002841771    0.0206536379189     
1200000000.0        0.0053763178556     0.0225249621837     0.994307414931      -0.046698321115     0.994307414931      -0.046698321115     0.0053763178556     0.0225249621837     
1300000000.0        0.00556686593726    0.0243947273137     0.994064143713      -0.0505832715368    0.994064143713      -0.0505832715368    0.00556686593726    0.0243947273137     
1400000000.0        0.0057717077342     0.0262628115363     0.993802502729      -0.0544666868277    0.993802502729      -0.0544666868277    0.0057717077342     0.0262628115363     
1500000000.0        0.00599086806592    0.0281290929337     0.99352246539       -0.0583484501471    0.99352246539       -0.0583484501471    0.00599086806592    0.0281290929337     
1600000000.0        0.00622436361192    0.0299934495247     0.993224013166      -0.0622284442705    0.993224013166      -0.0622284442705    0.00622436361192    0.0299934495247     
1700000000.0        0.00647220443409    0.0318557593319     0.992907134068      -0.0661065516815    0.992907134068      -0.0661065516815    0.00647220443409    0.0318557593319     
1800000000.0        0.00673439509898    0.0337159004367     0.992571821525      -0.0699826546483    0.992571821525      -0.0699826546483    0.00673439509898    0.0337159004367     
1900000000.0        0.00701093552155    0.0355737510251     0.992218073545      -0.0738566352885    0.992218073545      -0.0738566352885    0.00701093552155    0.0355737510251     
2000000000.0        0.00730182161047    0.0374291894285     0.991845892067      -0.0777283756259    0.991845892067      -0.0777283756259    0.00730182161047    0.0374291894285     
2100000000.0        0.0076070457696     0.0392820941582     0.991455282467      -0.0815977576394    0.991455282467      -0.0815977576394    0.0076070457696     0.0392820941582     
2200000000.0        0.00792659729299    0.0411323439361     0.991046253158      -0.0854646633074    0.991046253158      -0.0854646633074    0.00792659729299    0.0411323439361     
2300000000.0        0.00826046268005    0.0429798177232     0.990618815283      -0.0893289746468    0.990618815283      -0.0893289746468    0.00826046268005    0.0429798177232     
2400000000.0        0.00860862589009    0.0448243947444     0.990172982456      -0.0931905737489    0.990172982456      -0.0931905737489    0.00860862589009    0.0448243947444     
2500000000.0        0.00897106854996    0.0466659545121     0.989708770558      -0.0970493428118    0.989708770558      -0.0970493428118    0.00897106854996    0.0466659545121     
2600000000.0        0.00934777012529    0.0485043768478     0.98922619757       -0.100905164171     0.98922619757       -0.100905164171     0.00934777012529    0.0485043768478     
2700000000.0        0.00973870806294    0.0503395419024     0.988725283424      -0.104757920328     0.988725283424      -0.104757920328     0.00973870806294    0.0503395419024     
2800000000.0        0.0101438579107     0.052171330175      0.988206049894      -0.108607493974     0.988206049894      -0.108607493974     0.0101438579107     0.052171330175      
2900000000.0        0.0105631934185     0.0539996225317     0.987668520487      -0.112453768018     0.987668520487      -0.112453768018     0.0105631934185     0.0539996225317     
3000000000.0        0.0109966866253     0.0558243002221     0.987112720364      -0.116296625609     0.987112720364      -0.116296625609     0.0109966866253     0.0558243002221     
3100000000.0        0.0114443079331     0.0576452448964     0.986538676262      -0.120135950156     0.986538676262      -0.120135950156     0.0114443079331     0.0576452448964     
3200000000.0        0.011906026172      0.0594623386211     0.985946416433      -0.123971625353     0.985946416433      -0.123971625353     0.011906026172      0.0594623386211     
3300000000.0        0.0123818086563     0.0612754638944     0.985335970586      -0.127803535193     0.985335970586      -0.127803535193     0.0123818086563     0.0612754638944     
3400000000.0        0.0128716212347     0.063084503661      0.984707369841      -0.131631563997     0.984707369841      -0.131631563997     0.0128716212347     0.063084503661      
3500000000.0        0.0133754283338     0.0648893413268     0.984060646684      -0.135455596424     0.984060646684      -0.135455596424     0.0133754283338     0.0648893413268     
3600000000.0        0.013893192998      0.0666898607727     0.983395834927      -0.139275517491     0.983395834927      -0.139275517491     0.013893192998      0.0666898607727     
3700000000.0        0.0144248769247     0.0684859463683     0.982712969676      -0.143091212594     0.982712969676      -0.143091212594     0.0144248769247     0.0684859463683     
3800000000.0        0.0149704404963     0.0702774829854     0.982012087299      -0.146902567521     0.982012087299      -0.146902567521     0.0149704404963     0.0702774829854     
3900000000.0        0.0155298428092     0.0720643560109     0.981293225395      -0.15070946847      0.981293225395      -0.15070946847      0.0155298428092     0.0720643560109     
4000000000.0        0.0161030417013     0.0738464513599     0.980556422772      -0.154511802064     0.980556422772      -0.154511802064     0.0161030417013     0.0738464513599     
4100000000.0        0.0166899937759     0.0756236554877     0.97980171942       -0.158309455368     0.97980171942       -0.158309455368     0.0166899937759     0.0756236554877     
4200000000.0        0.0172906544253     0.0773958554026     0.979029156488      -0.162102315903     0.979029156488      -0.162102315903     0.0172906544253     0.0773958554026     
4300000000.0        0.0179049778517     0.0791629386774     0.978238776265      -0.165890271658     0.978238776265      -0.165890271658     0.0179049778517     0.0791629386774     
4400000000.0        0.0185329170877     0.0809247934617     0.97743062216       -0.169673211111     0.97743062216       -0.169673211111     0.0185329170877     0.0809247934617     
4500000000.0        0.0191744240152     0.0826813084932     0.976604738685      -0.173451023236     0.976604738685      -0.173451023236     0.0191744240152     0.0826813084932     
4600000000.0        0.0198294493836     0.0844323731094     0.975761171432      -0.177223597519     0.975761171432      -0.177223597519     0.0198294493836     0.0844323731094     
4700000000.0        0.0204979428266     0.0861778772582     0.974899967063      -0.180990823975     0.974899967063      -0.180990823975     0.0204979428266     0.0861778772582     
4800000000.0        0.021179852879      0.0879177115094     0.97402117329       -0.184752593155     0.97402117329       -0.184752593155     0.021179852879      0.0879177115094     
4900000000.0        0.0218751269926     0.0896517670655     0.973124838861      -0.188508796161     0.973124838861      -0.188508796161     0.0218751269926     0.0896517670655     
5000000000.0        0.0225837115511     0.0913799357719     0.972211013544      -0.192259324661     0.972211013544      -0.192259324661     0.0225837115511     0.0913799357719     
5100000000.0        0.0233055518855     0.0931021101279     0.971279748115      -0.196004070898     0.971279748115      -0.196004070898     0.0233055518855     0.0931021101279     
5200000000.0        0.0240405922881     0.0948181832965     0.97033109434       -0.199742927703     0.97033109434       -0.199742927703     0.0240405922881     0.0948181832965     
5300000000.0        0.0247887760265     0.0965280491145     0.969365104966      -0.203475788508     0.969365104966      -0.203475788508     0.0247887760265     0.0965280491145     
5400000000.0        0.0255500453579     0.0982316021027     0.968381833703      -0.207202547353     0.968381833703      -0.207202547353     0.0255500453579     0.0982316021027     
5500000000.0        0.0263243415421     0.0999287374755     0.967381335214      -0.210923098903     0.967381335214      -0.210923098903     0.0263243415421     0.0999287374755     
5600000000.0        0.0271116048546     0.10161935115       0.966363665102      -0.214637338455     0.966363665102      -0.214637338455     0.0271116048546     0.10161935115       
5700000000.0        0.0279117746004     0.103303339757      0.965328879896      -0.21834516195      0.965328879896      -0.21834516195      0.0279117746004     0.103303339757      
5800000000.0        0.0287247891262     0.104980600647      0.964277037038      -0.222046465985     0.964277037038      -0.222046465985     0.0287247891262     0.104980600647      
5900000000.0        0.0295505858334     0.106651031902      0.963208194872      -0.225741147818     0.963208194872      -0.225741147818     0.0295505858334     0.106651031902      
6000000000.0        0.0303891011907     0.108314532345      0.962122412633      -0.229429105385     0.962122412633      -0.229429105385     0.0303891011907     0.108314532345      
6100000000.0        0.0312402707466     0.109971001546      0.96101975043       -0.233110237305     0.96101975043       -0.233110237305     0.0312402707466     0.109971001546      
6200000000.0        0.032104029142      0.111620339831      0.959900269238      -0.23678444289      0.959900269238      -0.23678444289      0.032104029142      0.111620339831      
6300000000.0        0.0329803101219     0.113262448294      0.958764030886      -0.240451622159     0.958764030886      -0.240451622159     0.0329803101219     0.113262448294      
6400000000.0        0.0338690465485     0.114897228798      0.957611098041      -0.244111675841     0.957611098041      -0.244111675841     0.0338690465485     0.114897228798      
6500000000.0        0.034770170413      0.116524583992      0.956441534201      -0.247764505385     0.956441534201      -0.247764505385     0.034770170413      0.116524583992      
6600000000.0        0.0356836128476     0.118144417311      0.955255403681      -0.251410012974     0.955255403681      -0.251410012974     0.0356836128476     0.118144417311      
6700000000.0        0.0366093041378     0.119756632988      0.954052771599      -0.255048101527     0.954052771599      -0.255048101527     0.0366093041378     0.119756632988      
6800000000.0        0.0375471737349     0.12136113606       0.952833703868      -0.258678674713     0.952833703868      -0.258678674713     0.0375471737349     0.12136113606       
6900000000.0        0.0384971502671     0.122957832377      0.95159826718       -0.262301636954     0.95159826718       -0.262301636954     0.0384971502671     0.122957832377      
7000000000.0        0.0394591615527     0.124546628607      0.950346529         -0.265916893435     0.950346529         -0.265916893435     0.0394591615527     0.124546628607      
7100000000.0        0.0404331346112     0.126127432244      0.949078557547      -0.269524350116     0.949078557547      -0.269524350116     0.0404331346112     0.126127432244      
7200000000.0        0.0414189956759     0.127700151615      0.947794421786      -0.273123913731     0.947794421786      -0.273123913731     0.0414189956759     0.127700151615      
7300000000.0        0.0424166702056     0.129264695885      0.946494191419      -0.276715491802     0.946494191419      -0.276715491802     0.0424166702056     0.129264695885      
7400000000.0        0.0434260828968     0.130820975067      0.945177936867      -0.280298992646     0.945177936867      -0.280298992646     0.0434260828968     0.130820975067      
7500000000.0        0.0444471576956     0.132368900025      0.943845729262      -0.283874325376     0.943845729262      -0.283874325376     0.0444471576956     0.132368900025      
7600000000.0        0.0454798178097     0.133908382482      0.942497640434      -0.287441399915     0.942497640434      -0.287441399915     0.0454798178097     0.133908382482      
7700000000.0        0.0465239857207     0.135439335025      0.941133742901      -0.291000127        0.941133742901      -0.291000127        0.0465239857207     0.135439335025      
7800000000.0        0.0475795831954     0.136961671111      0.939754109854      -0.294550418184     0.939754109854      -0.294550418184     0.0475795831954     0.136961671111      
7900000000.0        0.0486465312988     0.138475305073      0.938358815147      -0.298092185851     0.938358815147      -0.298092185851     0.0486465312988     0.138475305073      
8000000000.0        0.0497247504051     0.139980152126      0.936947933286      -0.301625343212     0.936947933286      -0.301625343212     0.0497247504051     0.139980152126      
8100000000.0        0.0508141602104     0.141476128371      0.935521539416      -0.305149804321     0.935521539416      -0.305149804321     0.0508141602104     0.141476128371      
8200000000.0        0.0519146797445     0.142963150799      0.934079709307      -0.308665484072     0.934079709307      -0.308665484072     0.0519146797445     0.142963150799      
8300000000.0        0.0530262273828     0.144441137302      0.932622519348      -0.312172298208     0.932622519348      -0.312172298208     0.0530262273828     0.144441137302      
8400000000.0        0.0541487208585     0.145910006669      0.931150046527      -0.315670163327     0.931150046527      -0.315670163327     0.0541487208585     0.145910006669      
8500000000.0        0.0552820772744     0.147369678598      0.929662368427      -0.319158996888     0.929662368427      -0.319158996888     0.0552820772744     0.147369678598      
8600000000.0        0.0564262131152     0.148820073696      0.92815956321       -0.32263871721      0.92815956321       -0.32263871721      0.0564262131152     0.148820073696      
8700000000.0        0.0575810442591     0.150261113485      0.926641709604      -0.326109243484     0.926641709604      -0.326109243484     0.0575810442591     0.150261113485      
8800000000.0        0.0587464859903     0.151692720407      0.925108886895      -0.329570495773     0.925108886895      -0.329570495773     0.0587464859903     0.151692720407      
8900000000.0        0.0599224530105     0.153114817826      0.92356117491       -0.333022395017     0.92356117491       -0.333022395017     0.0599224530105     0.153114817826      
9000000000.0        0.0611088594512     0.154527330033      0.921998654012      -0.336464863041     0.921998654012      -0.336464863041     0.0611088594512     0.154527330033      
9100000000.0        0.0623056188856     0.15593018225       0.920421405081      -0.33989782255      0.920421405081      -0.33989782255      0.0623056188856     0.15593018225       
9200000000.0        0.0635126443407     0.157323300631      0.918829509506      -0.343321197144     0.918829509506      -0.343321197144     0.0635126443407     0.157323300631      
9300000000.0        0.064729848309      0.158706612269      0.917223049173      -0.346734911314     0.917223049173      -0.346734911314     0.064729848309      0.158706612269      
9400000000.0        0.0659571427607     0.160080045196      0.915602106452      -0.350138890445     0.915602106452      -0.350138890445     0.0659571427607     0.160080045196      
9500000000.0        0.0671944391554     0.161443528387      0.913966764184      -0.353533060826     0.913966764184      -0.353533060826     0.0671944391554     0.161443528387      
9600000000.0        0.0684416484543     0.162796991763      0.912317105674      -0.356917349646     0.912317105674      -0.356917349646     0.0684416484543     0.162796991763      
9700000000.0        0.069698681132      0.164140366196      0.910653214673      -0.360291685        0.910653214673      -0.360291685        0.069698681132      0.164140366196      
9800000000.0        0.0709654471883     0.165473583504      0.908975175371      -0.363655995893     0.908975175371      -0.363655995893     0.0709654471883     0.165473583504      
9900000000.0        0.0722418561601     0.166796576464      0.907283072382      -0.367010212239     0.907283072382      -0.367010212239     0.0722418561601     0.166796576464      
10000000000.0       0.0735278171332     0.168109278803      0.905576990733      -0.370354264866     0.905576990733      -0.370354264866     0.0735278171332     0.168109278803      
