# Hz S RI R 50.00 
100000000.0         0.000141549148939   -0.00151204302392   0.999845673342      -0.00247227809982   0.999845673342      -0.00247227809982   0.000141549148939   -0.00151204302392   
200000000.0         0.000129411743233   -0.00302413499993   0.999830155745      -0.0049446385213    0.999830155745      -0.0049446385213    0.000129411743233   -0.00302413499993   
300000000.0         0.000109538000502   -0.00453628462692   0.999806493563      -0.00741711084785   0.999806493563      -0.00741711084785   0.000109538000502   -0.00453628462692   
400000000.0         8.20534493335e-05   -0.00604848783826   0.999774557003      -0.00988970665827   0.999774557003      -0.00988970665827   8.20534493338e-05   -0.00604848783826   
500000000.0         4.70048018366e-05   -0.00756073377124   0.999734294544      -0.0123624283894    0.999734294544      -0.0123624283894    4.70048018373e-05   -0.00756073377124   
600000000.0         4.41454281885e-06   -0.00907300695881   0.999685678542      -0.0148352724041    0.999685678542      -0.0148352724041    4.41454281885e-06   -0.00907300695881   
700000000.0         -4.57051705719e-05  -0.0105852884705    0.999628691453      -0.0173082305585    0.999628691453      -0.0173082305585    -4.57051705719e-05  -0.0105852884705    
800000000.0         -0.000103347415786  -0.0120975566078    0.999563320849      -0.0197812911462    0.999563320849      -0.0197812911462    -0.000103347415786  -0.0120975566078    
900000000.0         -0.000168508221322  -0.0136097873702    0.999489557221      -0.0222544395256    0.999489557221      -0.0222544395256    -0.000168508221322  -0.0136097873702    
1000000000.0        -0.000241185396765  -0.0151219547891    0.999407392874      -0.0247276585644    0.999407392874      -0.0247276585644    -0.000241185396766  -0.0151219547891    
1100000000.0        -0.000321377872467  -0.0166340311777    0.999316821334      -0.0272009289724    0.999316821334      -0.0272009289724    -0.000321377872467  -0.0166340311777    
1200000000.0        -0.000409085298026  -0.0181459873267    0.999217837         -0.0296742295574    0.999217837         -0.0296742295574    -0.000409085298026  -0.0181459873267    
1300000000.0        -0.000504307783034  -0.0196577926604    0.999110434931      -0.0321475374304    0.999110434931      -0.0321475374304    -0.000504307783034  -0.0196577926604    
1400000000.0        -0.000607045721113  -0.0211694153654    0.998994610715      -0.0346208281724    0.998994610715      -0.0346208281724    -0.000607045721113  -0.0211694153654    
1500000000.0        -0.000717299665355  -0.0226808224984    0.998870360383      -0.0370940759738    0.998870360383      -0.0370940759738    -0.000717299665355  -0.0226808224984    
1600000000.0        -0.000835070236831  -0.0241919800779    0.998737680357      -0.0395672537519    0.998737680357      -0.0395672537519    -0.000835070236832  -0.0241919800779    
1700000000.0        -0.000960358055241  -0.025702853164     0.99859656741       -0.0420403332525    0.99859656741       -0.0420403332525    -0.000960358055241  -0.025702853164     
1800000000.0        -0.00109316368484   -0.0272134059276    0.998447018642      -0.0445132851379    0.998447018642      -0.0445132851379    -0.00109316368484   -0.0272134059276    
1900000000.0        -0.00123348759122   -0.0287236017119    0.99828903147       -0.0469860790647    0.99828903147       -0.0469860790647    -0.00123348759122   -0.0287236017119    
2000000000.0        -0.0013813301061    -0.0302334030877    0.998122603614      -0.0494586837524    0.998122603614      -0.0494586837524    -0.0013813301061    -0.0302334030877    
2100000000.0        -0.00153669139789   -0.0317427719028    0.997947733095      -0.0519310670452    0.997947733095      -0.0519310670452    -0.00153669139789   -0.0317427719028    
2200000000.0        -0.00169957144696   -0.0332516693268    0.997764418234      -0.054403195968     0.997764418234      -0.054403195968     -0.00169957144696   -0.0332516693268    
2300000000.0        -0.00186997002428   -0.0347600558926    0.997572657647      -0.0568750367768    0.997572657647      -0.0568750367768    -0.00186997002428   -0.0347600558926    
2400000000.0        -0.00204788667292   -0.036267891534     0.997372450253      -0.0593465550054    0.997372450253      -0.0593465550054    -0.00204788667292   -0.036267891534     
2500000000.0        -0.00223332069185   -0.0377751356207    0.997163795273      -0.0618177155073    0.997163795273      -0.0618177155073    -0.00223332069185   -0.0377751356207    
2600000000.0        -0.00242627112144   -0.0392817469906    0.996946692233      -0.064288482496     0.996946692233      -0.064288482496     -0.00242627112144   -0.0392817469906    
2700000000.0        -0.00262673673067   -0.0407876839805    0.99672114097       -0.0667588195809    0.99672114097       -0.0667588195809    -0.00262673673067   -0.0407876839805    
2800000000.0        -0.00283471600548   -0.042292904454     0.996487141633      -0.0692286898016    0.996487141633      -0.0692286898016    -0.00283471600548   -0.042292904454     
2900000000.0        -0.00305020713834   -0.0437973658285    0.99624469469       -0.0716980556598    0.99624469469       -0.0716980556598    -0.00305020713834   -0.0437973658285    
3000000000.0        -0.00327320801871   -0.0453010251002    0.99599380093       -0.0741668791494    0.99599380093       -0.0741668791494    -0.00327320801871   -0.0453010251002    
3100000000.0        -0.00350371622432   -0.046803838868     0.995734461469      -0.0766351217844    0.995734461469      -0.0766351217844    -0.00350371622432   -0.046803838868     
3200000000.0        -0.00374172901325   -0.0483057633561    0.995466677753      -0.0791027446257    0.995466677753      -0.0791027446257    -0.00374172901325   -0.0483057633561    
3300000000.0        -0.00398724331659   -0.0498067544354    0.995190451562      -0.0815697083065    0.995190451562      -0.0815697083065    -0.00398724331659   -0.0498067544354    
3400000000.0        -0.00424025573173   -0.0513067676439    0.994905785015      -0.0840359730559    0.994905785015      -0.0840359730559    -0.00424025573173   -0.0513067676439    
3500000000.0        -0.00450076251616   -0.0528057582063    0.994612680573      -0.0865014987221    0.994612680573      -0.0865014987221    -0.00450076251616   -0.0528057582063    
3600000000.0        -0.00476875958175   -0.0543036810529    0.994311141043      -0.0889662447937    0.994311141043      -0.0889662447937    -0.00476875958175   -0.0543036810529    
3700000000.0        -0.0050442424895    -0.0558004908374    0.994001169581      -0.091430170421     0.994001169581      -0.091430170421     -0.0050442424895    -0.0558004908374    
3800000000.0        -0.00532720644463   -0.0572961419539    0.993682769697      -0.0938932344353    0.993682769697      -0.0938932344353    -0.00532720644463   -0.0572961419539    
3900000000.0        -0.00561764629211   -0.058790588554     0.993355945256      -0.0963553953685    0.993355945256      -0.0963553953685    -0.0056176462921    -0.058790588554     
4000000000.0        -0.0059155565125    -0.0602837845622    0.99302070048       -0.0988166114709    0.99302070048       -0.0988166114709    -0.0059155565125    -0.0602837845622    
4100000000.0        -0.00622093121816   -0.0617756836916    0.992677039957      -0.101276840729     0.992677039957      -0.101276840729     -0.00622093121816   -0.0617756836916    
4200000000.0        -0.00653376414971   -0.0632662394589    0.992324968635      -0.103736040883     0.992324968635      -0.103736040883     -0.00653376414971   -0.0632662394589    
4300000000.0        -0.00685404867278   -0.0647554051984    0.991964491832      -0.106194169442     0.991964491832      -0.106194169442     -0.00685404867278   -0.0647554051984    
4400000000.0        -0.00718177777509   -0.0662431340762    0.991595615233      -0.1086511837       0.991595615233      -0.1086511837       -0.00718177777509   -0.0662431340762    
4500000000.0        -0.00751694406375   -0.0677293791034    0.991218344894      -0.111107040752     0.991218344894      -0.111107040752     -0.00751694406375   -0.0677293791034    
4600000000.0        -0.00785953976277   -0.0692140931497    0.990832687246      -0.113561697509     0.990832687246      -0.113561697509     -0.00785953976277   -0.0692140931497    
4700000000.0        -0.00820955671083   -0.0706972289553    0.990438649094      -0.116015110709     0.990438649094      -0.116015110709     -0.00820955671083   -0.0706972289553    
4800000000.0        -0.00856698635931   -0.0721787391438    0.990036237617      -0.118467236936     0.990036237617      -0.118467236936     -0.00856698635931   -0.0721787391438    
4900000000.0        -0.00893181977047   -0.0736585762341    0.989625460375      -0.120918032628     0.989625460375      -0.120918032628     -0.00893181977047   -0.0736585762341    
5000000000.0        -0.00930404761583   -0.0751366926518    0.989206325306      -0.123367454094     0.989206325306      -0.123367454094     -0.00930404761583   -0.0751366926518    
5100000000.0        -0.0096836601748    -0.0766130407405    0.988778840726      -0.125815457525     0.988778840726      -0.125815457525     -0.0096836601748    -0.0766130407405    
5200000000.0        -0.0100706473334    -0.0780875727732    0.988343015335      -0.128261999006     0.988343015335      -0.128261999006     -0.0100706473334    -0.0780875727732    
5300000000.0        -0.0104649985834    -0.0795602409626    0.987898858214      -0.130707034528     0.987898858214      -0.130707034528     -0.0104649985834    -0.0795602409626    
5400000000.0        -0.0108667030211    -0.0810309974718    0.987446378825      -0.13315052         0.987446378825      -0.13315052         -0.0108667030211    -0.0810309974718    
5500000000.0        -0.0112757493469    -0.0824997944247    0.986985587015      -0.13559241126      0.986985587015      -0.13559241126      -0.0112757493469    -0.0824997944247    
5600000000.0        -0.0116921258646    -0.0839665839153    0.986516493013      -0.138032664087     0.986516493013      -0.138032664087     -0.0116921258646    -0.0839665839153    
5700000000.0        -0.0121158204814    -0.0854313180182    0.986039107433      -0.140471234209     0.986039107433      -0.140471234209     -0.0121158204814    -0.0854313180182    
5800000000.0        -0.0125468207067    -0.0868939487976    0.985553441271      -0.142908077316     0.985553441271      -0.142908077316     -0.0125468207067    -0.0868939487976    
5900000000.0        -0.0129851136532    -0.0883544283168    0.985059505908      -0.145343149069     0.985059505908      -0.145343149069     -0.0129851136532    -0.0883544283168    
6000000000.0        -0.0134306860359    -0.0898127086469    0.984557313108      -0.147776405111     0.984557313108      -0.147776405111     -0.0134306860359    -0.0898127086469    
6100000000.0        -0.0138835241728    -0.0912687418763    0.984046875019      -0.150207801075     0.984046875019      -0.150207801075     -0.0138835241728    -0.0912687418763    
6200000000.0        -0.0143436139851    -0.0927224801187    0.983528204172      -0.152637292593     0.983528204172      -0.152637292593     -0.0143436139851    -0.0927224801187    
6300000000.0        -0.0148109409974    -0.0941738755219    0.983001313479      -0.155064835309     0.983001313479      -0.155064835309     -0.0148109409974    -0.0941738755219    
6400000000.0        -0.0152854903386    -0.0956228802762    0.982466216235      -0.157490384884     0.982466216235      -0.157490384884     -0.0152854903386    -0.0956228802762    
6500000000.0        -0.0157672467422    -0.0970694466221    0.981922926115      -0.159913897006     0.981922926115      -0.159913897006     -0.0157672467422    -0.0970694466221    
6600000000.0        -0.0162561945471    -0.0985135268586    0.981371457177      -0.162335327399     0.981371457177      -0.162335327399     -0.0162561945471    -0.0985135268586    
6700000000.0        -0.0167523176987    -0.0999550733508    0.980811823855      -0.16475463183      0.980811823855      -0.16475463183      -0.0167523176987    -0.0999550733508    
6800000000.0        -0.0172555997496    -0.101394038538     0.980244040964      -0.167171766122     0.980244040964      -0.167171766122     -0.0172555997496    -0.101394038538     
6900000000.0        -0.0177660238608    -0.102830374939     0.979668123693      -0.169586686154     0.979668123693      -0.169586686154     -0.0177660238608    -0.102830374939     
7000000000.0        -0.0182835728028    -0.104264035163     0.979084087611      -0.171999347875     0.979084087611      -0.171999347875     -0.0182835728028    -0.104264035163     
7100000000.0        -0.0188082289572    -0.105694971915     0.978491948658      -0.174409707311     0.978491948658      -0.174409707311     -0.0188082289572    -0.105694971915     
7200000000.0        -0.0193399743173    -0.107123138001     0.977891723151      -0.176817720569     0.977891723151      -0.176817720569     -0.0193399743173    -0.107123138001     
7300000000.0        -0.0198787904906    -0.108548486336     0.977283427774      -0.179223343849     0.977283427774      -0.179223343849     -0.0198787904906    -0.108548486336     
7400000000.0        -0.0204246586994    -0.109970969955     0.976667079586      -0.181626533447     0.976667079586      -0.181626533447     -0.0204246586994    -0.109970969955     
7500000000.0        -0.0209775597829    -0.111390542011     0.976042696011      -0.184027245765     0.976042696011      -0.184027245765     -0.0209775597829    -0.111390542011     
7600000000.0        -0.0215374741989    -0.112807155789     0.975410294842      -0.186425437315     0.975410294842      -0.186425437315     -0.0215374741989    -0.112807155789     
7700000000.0        -0.0221043820255    -0.114220764709     0.974769894235      -0.188821064732     0.974769894235      -0.188821064732     -0.0221043820255    -0.114220764709     
7800000000.0        -0.0226782629629    -0.115631322332     0.97412151271       -0.19121408477      0.97412151271       -0.19121408477      -0.0226782629629    -0.115631322332     
7900000000.0        -0.0232590963358    -0.117038782369     0.973465169148      -0.193604454319     0.973465169148      -0.193604454319     -0.0232590963358    -0.117038782369     
8000000000.0        -0.0238468610946    -0.118443098683     0.97280088279       -0.195992130405     0.97280088279       -0.195992130405     -0.0238468610946    -0.118443098683     
8100000000.0        -0.0244415358183    -0.119844225296     0.972128673233      -0.198377070199     0.972128673233      -0.198377070199     -0.0244415358183    -0.119844225296     
8200000000.0        -0.0250430987162    -0.121242116396     0.971448560427      -0.200759231021     0.971448560427      -0.200759231021     -0.0250430987162    -0.121242116396     
8300000000.0        -0.0256515276305    -0.122636726344     0.970760564677      -0.203138570348     0.970760564677      -0.203138570348     -0.0256515276305    -0.122636726344     
8400000000.0        -0.0262668000382    -0.124028009674     0.970064706636      -0.205515045818     0.970064706636      -0.205515045818     -0.0262668000382    -0.124028009674     
8500000000.0        -0.0268888930537    -0.125415921104     0.969361007308      -0.207888615237     0.969361007308      -0.207888615237     -0.0268888930537    -0.125415921104     
8600000000.0        -0.0275177834313    -0.126800415539     0.968649488037      -0.210259236584     0.968649488037      -0.210259236584     -0.0275177834313    -0.126800415539     
8700000000.0        -0.0281534475674    -0.128181448076     0.967930170515      -0.212626868017     0.967930170515      -0.212626868017     -0.0281534475674    -0.128181448076     
8800000000.0        -0.0287958615034    -0.129558974009     0.967203076771      -0.214991467876     0.967203076771      -0.214991467876     -0.0287958615034    -0.129558974009     
8900000000.0        -0.0294450009282    -0.130932948835     0.966468229172      -0.217352994693     0.966468229172      -0.217352994693     -0.0294450009282    -0.130932948835     
9000000000.0        -0.0301008411808    -0.132303328257     0.96572565042       -0.219711407192     0.96572565042       -0.219711407192     -0.0301008411808    -0.132303328257     
9100000000.0        -0.0307633572531    -0.133670068193     0.96497536355       -0.222066664297     0.96497536355       -0.222066664297     -0.0307633572531    -0.133670068193     
9200000000.0        -0.0314325237924    -0.135033124773     0.964217391925      -0.224418725135     0.964217391925      -0.224418725135     -0.0314325237924    -0.135033124773     
9300000000.0        -0.0321083151048    -0.136392454354     0.963451759235      -0.226767549044     0.963451759235      -0.226767549044     -0.0321083151048    -0.136392454354     
9400000000.0        -0.0327907051575    -0.137748013513     0.962678489494      -0.229113095573     0.962678489494      -0.229113095573     -0.0327907051575    -0.137748013513     
9500000000.0        -0.033479667582     -0.139099759062     0.961897607035      -0.231455324492     0.961897607035      -0.231455324492     -0.033479667582     -0.139099759062     
9600000000.0        -0.0341751756773    -0.140447648044     0.96110913651       -0.23379419579      0.96110913651       -0.23379419579      -0.0341751756773    -0.140447648044     
9700000000.0        -0.0348772024125    -0.141791637743     0.960313102886      -0.236129669687     0.960313102886      -0.236129669687     -0.0348772024125    -0.141791637743     
9800000000.0        -0.0355857204298    -0.143131685684     0.95950953144       -0.238461706631     0.95950953144       -0.238461706631     -0.0355857204298    -0.143131685684     
9900000000.0        -0.0363007020481    -0.144467749641     0.958698447759      -0.240790267308     0.958698447759      -0.240790267308     -0.0363007020481    -0.144467749641     
10000000000.0       -0.037022119266     -0.145799787637     0.957879877733      -0.243115312642     0.957879877733      -0.243115312642     -0.037022119266     -0.145799787637     
