# Hz S RI R 50.00 
100000000.0         3.53821032737e-05   -0.00525404440441   0.999892716963      -0.00571004306539   0.999892716963      -0.00571004306539   3.53821032739e-05   -0.00525404440441   
200000000.0         -5.95331146555e-05  -0.0105073090605    0.999796522626      -0.0114193380365    0.999796522626      -0.0114193380365    -5.95331146557e-05  -0.0105073090605    
300000000.0         -0.000214554183758  -0.0157589770105    0.99964026149       -0.0171270854695    0.99964026149       -0.0171270854695    -0.000214554183758  -0.0157589770105    
400000000.0         -0.00042958602114   -0.0210081933613    0.999423905626      -0.0228324440447    0.999423905626      -0.0228324440447    -0.00042958602114   -0.0210081933613    
500000000.0         -0.000704554717504  -0.0262540841648    0.999147481667      -0.0285345514591    0.999147481667      -0.0285345514591    -0.000704554717504  -0.0262540841648    
600000000.0         -0.00103938060462   -0.0314957634055    0.99881104519       -0.0342325320888    0.99881104519       -0.0342325320888    -0.00103938060462   -0.0314957634055    
700000000.0         -0.00143397113898   -0.0367323368211    0.998414674487      -0.0399255011488    0.998414674487      -0.0399255011488    -0.00143397113897   -0.0367323368211    
800000000.0         -0.00188821814654   -0.0419629044055    0.997958468468      -0.0456125673976    0.997958468468      -0.0456125673976    -0.00188821814654   -0.0419629044055    
900000000.0         -0.00240199650102   -0.0471865622413    0.997442545823      -0.0512928351023    0.997442545823      -0.0512928351023    -0.00240199650102   -0.0471865622413    
1000000000.0        -0.00297516339878   -0.0524024039496    0.99686704465       -0.0569654055811    0.99686704465       -0.0569654055811    -0.00297516339878   -0.0524024039496    
1100000000.0        -0.00360755792777   -0.0576095219006    0.996232122288      -0.0626293784824    0.996232122288      -0.0626293784824    -0.00360755792777   -0.0576095219006    
1200000000.0        -0.00429900080199   -0.0628070082677    0.995537955214      -0.068283852891     0.995537955214      -0.068283852891     -0.00429900080199   -0.0628070082677    
1300000000.0        -0.00504929420054   -0.0679939559709    0.994784738983      -0.0739279283134    0.994784738983      -0.0739279283134    -0.00504929420054   -0.0679939559709    
1400000000.0        -0.00585822167892   -0.0731694595414    0.993972688169      -0.0795607055748    0.993972688169      -0.0795607055748    -0.00585822167892   -0.0731694595414    
1500000000.0        -0.00672554813492   -0.0783326159254    0.993102036292      -0.0851812876508    0.993102036292      -0.0851812876508    -0.00672554813492   -0.0783326159254    
1600000000.0        -0.00765101981773   -0.083482525241     0.992173035747      -0.0907887804473    0.992173035747      -0.0907887804473    -0.00765101981773   -0.083482525241     
1700000000.0        -0.00863436437392   -0.0886182914984    0.9911859577        -0.0963822935398    0.9911859577        -0.0963822935398    -0.00863436437392   -0.0886182914984    
1800000000.0        -0.00967529092507   -0.0937390232871    0.990141091979      -0.101960940878     0.990141091979      -0.101960940878     -0.00967529092507   -0.0937390232871    
1900000000.0        -0.0107734901742    -0.0988438344377    0.989038746934      -0.107523841461     0.989038746934      -0.107523841461     -0.0107734901742    -0.0988438344377    
2000000000.0        -0.0119286345385    -0.10393184466      0.98787924929       -0.113070119989     0.98787924929       -0.113070119989     -0.0119286345385    -0.10393184466      
2100000000.0        -0.013140378306     -0.109002180158     0.986662943965      -0.11859890749      0.986662943965      -0.11859890749      -0.013140378306     -0.109002180158     
2200000000.0        -0.0144083578156    -0.114053974228     0.985390193887      -0.124109341928     0.985390193887      -0.124109341928     -0.0144083578156    -0.114053974228     
2300000000.0        -0.0157321916582    -0.119086367839     0.984061379776      -0.129600568791     0.984061379776      -0.129600568791     -0.0157321916582    -0.119086367839     
2400000000.0        -0.0171114808988    -0.124098510191     0.982676899915      -0.135071741658     0.982676899915      -0.135071741658     -0.0171114808988    -0.124098510191     
2500000000.0        -0.0185458093178    -0.129089559261     0.981237169905      -0.140522022756     0.981237169905      -0.140522022756     -0.0185458093178    -0.129089559261     
2600000000.0        -0.0200347436708    -0.134058682331     0.979742622397      -0.145950583489     0.979742622397      -0.145950583489     -0.0200347436708    -0.134058682331     
2700000000.0        -0.0215778339663    -0.139005056501     0.97819370681       -0.15135660496      0.97819370681       -0.15135660496      -0.0215778339663    -0.139005056501     
2800000000.0        -0.0231746137608    -0.143927869183     0.976590889035      -0.156739278474     0.976590889035      -0.156739278474     -0.0231746137608    -0.143927869183     
2900000000.0        -0.0248246004694    -0.14882631858      0.974934651118      -0.162097806016     0.974934651118      -0.162097806016     -0.0248246004694    -0.14882631858      
3000000000.0        -0.026527295692     -0.153699614154     0.973225490934      -0.167431400729     0.973225490934      -0.167431400729     -0.026527295692     -0.153699614154     
3100000000.0        -0.0282821855548    -0.158546977069     0.971463921842      -0.172739287357     0.971463921842      -0.172739287357     -0.0282821855548    -0.158546977069     
3200000000.0        -0.030088741065     -0.163367640621     0.969650472328      -0.178020702689     0.969650472328      -0.178020702689     -0.030088741065     -0.163367640621     
3300000000.0        -0.031946418479     -0.168160850659     0.967785685638      -0.183274895971     0.967785685638      -0.183274895971     -0.031946418479     -0.168160850659     
3400000000.0        -0.0338546596834    -0.172925865977     0.965870119392      -0.18850112931      0.965870119392      -0.18850112931      -0.0338546596834    -0.172925865977     
3500000000.0        -0.0358128925873    -0.1776619587       0.963904345193      -0.19369867806      0.963904345193      -0.19369867806      -0.0358128925873    -0.1776619587       
3600000000.0        -0.0378205315259    -0.182368414642     0.961888948222      -0.198866831191     0.961888948222      -0.198866831191     -0.0378205315259    -0.182368414642     
3700000000.0        -0.0398769776747    -0.187044533664     0.959824526824      -0.204004891637     0.959824526824      -0.204004891637     -0.0398769776747    -0.187044533664     
3800000000.0        -0.0419816194723    -0.191689629992     0.95771169208       -0.20911217663      0.95771169208       -0.20911217663      -0.0419816194723    -0.191689629992     
3900000000.0        -0.0441338330537    -0.196303032543     0.955551067382      -0.214188018017     0.955551067382      -0.214188018017     -0.0441338330537    -0.196303032543     
4000000000.0        -0.0463329826899    -0.200884085209     0.953343287981      -0.219231762562     0.953343287981      -0.219231762562     -0.0463329826899    -0.200884085209     
4100000000.0        -0.0485784212365    -0.205432147146     0.951089000549      -0.22424277222      0.951089000549      -0.22424277222      -0.0485784212365    -0.205432147146     
4200000000.0        -0.050869490588     -0.209946593028     0.948788862718      -0.229220424406     0.948788862718      -0.229220424406     -0.050869490588     -0.209946593028     
4300000000.0        -0.0532055221386    -0.214426813294     0.94644354262       -0.23416411224      0.94644354262       -0.23416411224      -0.0532055221386    -0.214426813294     
4400000000.0        -0.055585837248     -0.218872214372     0.944053718422      -0.239073244774     0.944053718422      -0.239073244774     -0.055585837248     -0.218872214372     
4500000000.0        -0.0580097477122    -0.223282218891     0.941620077855      -0.243947247206     0.941620077855      -0.243947247206     -0.0580097477122    -0.223282218891     
4600000000.0        -0.0604765562373    -0.227656265869     0.939143317737      -0.248785561068     0.939143317737      -0.248785561068     -0.0604765562373    -0.227656265869     
4700000000.0        -0.0629855569179    -0.231993810888     0.936624143499      -0.253587644408     0.936624143499      -0.253587644408     -0.0629855569179    -0.231993810888     
4800000000.0        -0.0655360357164    -0.236294326251     0.934063268701      -0.258352971944     0.934063268701      -0.258352971944     -0.0655360357164    -0.236294326251     
4900000000.0        -0.0681272709457    -0.240557301121     0.931461414552      -0.263081035206     0.931461414552      -0.263081035206     -0.0681272709457    -0.240557301121     
5000000000.0        -0.0707585337515    -0.244782241642     0.928819309429      -0.26777134266      0.928819309429      -0.26777134266      -0.0707585337515    -0.244782241642     
5100000000.0        -0.0734290885968    -0.248968671047     0.926137688387      -0.272423419818     0.926137688387      -0.272423419818     -0.0734290885968    -0.248968671047     
5200000000.0        -0.0761381937449    -0.253116129741     0.923417292682      -0.277036809322     0.923417292682      -0.277036809322     -0.0761381937449    -0.253116129741     
5300000000.0        -0.0788851017423    -0.257224175382     0.920658869281      -0.281611071024     0.920658869281      -0.281611071024     -0.0788851017423    -0.257224175382     
5400000000.0        -0.0816690599005    -0.261292382926     0.917863170388      -0.286145782036     0.917863170388      -0.286145782036     -0.0816690599005    -0.261292382926     
5500000000.0        -0.0844893107755    -0.265320344673     0.91503095296       -0.290640536777     0.91503095296       -0.290640536777     -0.0844893107755    -0.265320344673     
5600000000.0        -0.0873450926445    -0.26930767029      0.91216297823       -0.295094946995     0.91216297823       -0.295094946995     -0.0873450926445    -0.26930767029      
5700000000.0        -0.0902356399805    -0.273253986815     0.909260011232      -0.299508641776     0.909260011232      -0.299508641776     -0.0902356399805    -0.273253986815     
5800000000.0        -0.0931601839225    -0.277158938654     0.906322820335      -0.303881267538     0.906322820335      -0.303881267538     -0.0931601839225    -0.277158938654     
5900000000.0        -0.0961179527419    -0.281022187556     0.903352176771      -0.30821248801      0.903352176771      -0.30821248801      -0.0961179527419    -0.281022187556     
6000000000.0        -0.0991081723041    -0.284843412576     0.900348854176      -0.312501984197     0.900348854176      -0.312501984197     -0.0991081723041    -0.284843412576     
6100000000.0        -0.102130066525     -0.288622310022     0.897313628134      -0.316749454326     0.897313628134      -0.316749454326     -0.102130066525     -0.288622310022     
6200000000.0        -0.105182857824     -0.292358593394     0.894247275725      -0.320954613786     0.894247275725      -0.320954613786     -0.105182857824     -0.292358593394     
6300000000.0        -0.108265767564     -0.296051993299     0.891150575078      -0.325117195046     0.891150575078      -0.325117195046     -0.108265767564     -0.296051993299     
6400000000.0        -0.111378016497     -0.299702257364     0.888024304937      -0.329236947568     0.888024304937      -0.329236947568     -0.111378016497     -0.299702257364     
6500000000.0        -0.114518825189     -0.303309150125     0.884869244224      -0.333313637697     0.884869244224      -0.333313637697     -0.114518825189     -0.303309150125     
6600000000.0        -0.117687414451     -0.306872452914     0.881686171617      -0.337347048549     0.881686171617      -0.337347048549     -0.117687414451     -0.306872452914     
6700000000.0        -0.120883005752     -0.310391963727     0.878475865135      -0.34133697988      0.878475865135      -0.34133697988      -0.120883005752     -0.310391963727     
6800000000.0        -0.124104821626     -0.313867497081     0.875239101723      -0.345283247944     0.875239101723      -0.345283247944     -0.124104821626     -0.313867497081     
6900000000.0        -0.12735208608      -0.317298883867     0.871976656857      -0.349185685344     0.871976656857      -0.349185685344     -0.12735208608      -0.317298883867     
7000000000.0        -0.13062402498      -0.320685971177     0.86868930415       -0.353044140868     0.86868930415       -0.353044140868     -0.13062402498      -0.320685971177     
7100000000.0        -0.133919866438     -0.32402862214      0.865377814965      -0.356858479316     0.865377814965      -0.356858479316     -0.133919866438     -0.32402862214      
7200000000.0        -0.137238841183     -0.327326715733     0.862042958046      -0.360628581318     0.862042958046      -0.360628581318     -0.137238841183     -0.327326715733     
7300000000.0        -0.140580182931     -0.330580146587     0.858685499149      -0.364354343139     0.858685499149      -0.364354343139     -0.140580182931     -0.330580146587     
7400000000.0        -0.143943128737     -0.333788824789     0.855306200686      -0.368035676481     0.855306200686      -0.368035676481     -0.143943128737     -0.333788824789     
7500000000.0        -0.147326919342     -0.336952675668     0.851905821383      -0.37167250827      0.851905821383      -0.37167250827      -0.147326919342     -0.336952675668     
7600000000.0        -0.150730799509     -0.340071639575     0.848485115938      -0.37526478044      0.848485115938      -0.37526478044      -0.150730799509     -0.340071639575     
7700000000.0        -0.15415401835      -0.343145671663     0.845044834701      -0.378812449707     0.845044834701      -0.378812449707     -0.15415401835      -0.343145671663     
7800000000.0        -0.157595829642     -0.346174741645     0.841585723353      -0.382315487334     0.841585723353      -0.382315487334     -0.157595829642     -0.346174741645     
7900000000.0        -0.161055492133     -0.349158833559     0.838108522603      -0.385773878892     0.838108522603      -0.385773878892     -0.161055492133     -0.349158833559     
8000000000.0        -0.164532269833     -0.35209794552      0.83461396789       -0.389187624018     0.83461396789       -0.389187624018     -0.164532269833     -0.35209794552      
8100000000.0        -0.168025432306     -0.354992089466     0.831102789102      -0.392556736154     0.831102789102      -0.392556736154     -0.168025432306     -0.354992089466     
8200000000.0        -0.171534254941     -0.357841290902     0.827575710298      -0.3958812423       0.827575710298      -0.3958812423       -0.171534254941     -0.357841290902     
8300000000.0        -0.175058019215     -0.360645588635     0.824033449445      -0.399161182743     0.824033449445      -0.399161182743     -0.175058019215     -0.360645588635     
8400000000.0        -0.178596012947     -0.363405034509     0.820476718166      -0.402396610793     0.820476718166      -0.402396610793     -0.178596012947     -0.363405034509     
8500000000.0        -0.182147530544     -0.366119693128     0.816906221494      -0.405587592514     0.816906221494      -0.405587592514     -0.182147530544     -0.366119693128     
8600000000.0        -0.185711873229     -0.368789641586     0.813322657642      -0.408734206445     0.813322657642      -0.408734206445     -0.185711873229     -0.368789641586     
8700000000.0        -0.189288349266     -0.371414969186     0.809726717782      -0.411836543323     0.809726717782      -0.411836543323     -0.189288349266     -0.371414969186     
8800000000.0        -0.192876274168     -0.373995777155     0.806119085828      -0.414894705801     0.806119085828      -0.414894705801     -0.192876274168     -0.373995777155     
8900000000.0        -0.196474970904     -0.376532178366     0.802500438244      -0.417908808167     0.802500438244      -0.417908808167     -0.196474970904     -0.376532178366     
9000000000.0        -0.200083770083     -0.379024297044     0.798871443844      -0.420878976053     0.798871443844      -0.420878976053     -0.200083770083     -0.379024297044     
9100000000.0        -0.203702010138     -0.381472268483     0.79523276362       -0.42380534615      0.79523276362       -0.42380534615      -0.203702010138     -0.381472268483     
9200000000.0        -0.207329037496     -0.383876238753     0.791585050563      -0.426688065918     0.791585050563      -0.426688065918     -0.207329037496     -0.383876238753     
9300000000.0        -0.210964206738     -0.386236364411     0.787928949513      -0.429527293293     0.787928949513      -0.429527293293     -0.210964206738     -0.386236364411     
9400000000.0        -0.214606880747     -0.388552812205     0.784265096997      -0.432323196399     0.784265096997      -0.432323196399     -0.214606880747     -0.388552812205     
9500000000.0        -0.218256430852     -0.390825758789     0.780594121101      -0.435075953255     0.780594121101      -0.435075953255     -0.218256430852     -0.390825758789     
9600000000.0        -0.221912236957     -0.393055390421     0.77691664133       -0.43778575148      0.77691664133       -0.43778575148      -0.221912236957     -0.393055390421     
9700000000.0        -0.225573687661     -0.395241902681     0.773233268489      -0.440452788006     0.773233268489      -0.440452788006     -0.225573687661     -0.395241902681     
9800000000.0        -0.229240180371     -0.397385500171     0.769544604576      -0.443077268781     0.769544604576      -0.443077268781     -0.229240180371     -0.397385500171     
9900000000.0        -0.232911121406     -0.399486396228     0.765851242673      -0.445659408485     0.765851242673      -0.445659408485     -0.232911121406     -0.399486396228     
10000000000.0       -0.236585926086     -0.401544812633     0.762153766857      -0.448199430233     0.762153766857      -0.448199430233     -0.236585926086     -0.401544812633     
