# Hz S RI R 50.00 
100000000.0         -0.0105603945522    -0.101740078525     0.989395183994      -0.101912826859     0.989395183994      -0.101912826859     -0.0105603945522    -0.101740078525     
200000000.0         -0.040808411016     -0.197225950336     0.95914681842       -0.197571493461     0.95914681842       -0.197571493461     -0.040808411016     -0.197225950336     
300000000.0         -0.0872408176917    -0.28146186039      0.912714108546      -0.281980269692     0.912714108546      -0.281980269692     -0.0872408176917    -0.28146186039      
400000000.0         -0.145124990408     -0.351404163517     0.854829640334      -0.352095529722     0.854829640334      -0.352095529722     -0.145124990408     -0.351404163517     
500000000.0         -0.209533371631     -0.406059519736     0.790420956636      -0.406923949902     0.790420956636      -0.406923949902     -0.209533371631     -0.406059519736     
600000000.0         -0.276151279634     -0.446084727978     0.723802731695      -0.447122343398     0.723802731695      -0.447122343398     -0.276151279634     -0.446084727978     
700000000.0         -0.34168537218      -0.473176037299     0.658268303309      -0.474386971873     0.658268303309      -0.474386971873     -0.34168537218      -0.473176037299     
800000000.0         -0.403923805104     -0.489493609538     0.596029512748      -0.490878008439     0.596029512748      -0.490878008439     -0.403923805104     -0.489493609538     
900000000.0         -0.461586874098     -0.497243333618     0.538366062297      -0.498801352162     0.538366062297      -0.498801352162     -0.461586874098     -0.497243333618     
1000000000.0        -0.514098574039     -0.498432485816     0.48585395559       -0.50016428847      0.48585395559       -0.50016428847      -0.514098574039     -0.498432485816     
1100000000.0        -0.561362152717     -0.494762002119     0.438589943697      -0.496667761634     0.438589943697      -0.496667761634     -0.561362152717     -0.494762002119     
1200000000.0        -0.603577159411     -0.487606083609     0.396374476435      -0.489685980241     0.396374476435      -0.489685980241     -0.603577159411     -0.487606083609     
1300000000.0        -0.641106164696     -0.478038265782     0.358844982488      -0.480292486595     0.358844982488      -0.480292486595     -0.641106164696     -0.478038265782     
1400000000.0        -0.674385254089     -0.466876659045     0.325565375723      -0.46930539728      0.325565375723      -0.46930539728      -0.674385254089     -0.466876659045     
1500000000.0        -0.703867982699     -0.454732753117     0.296082100504      -0.457336207621     0.296082100504      -0.457336207621     -0.703867982699     -0.454732753117     
1600000000.0        -0.729992788193     -0.442056162209     0.269956718704      -0.444834536918     0.269956718704      -0.444834536918     -0.729992788193     -0.442056162209     
1700000000.0        -0.753165863787     -0.429172415947     0.2467830367        -0.432125919415     0.2467830367        -0.432125919415     -0.753165863787     -0.429172415947     
1800000000.0        -0.773753708096     -0.416313380669     0.226194555515      -0.419442225643     0.226194555515      -0.419442225643     -0.773753708096     -0.416313380669     
1900000000.0        -0.792081427578     -0.403641019826     0.207866168358      -0.406945422858     0.207866168358      -0.406945422858     -0.792081427578     -0.403641019826     
2000000000.0        -0.808434248223     -0.391265588965     0.191512648936      -0.394745770064     0.191512648936      -0.394745770064     -0.808434248223     -0.391265588965     
2100000000.0        -0.823060649697     -0.379259385796     0.176885517299      -0.382915568105     0.176885517299      -0.382915568105     -0.823060649697     -0.379259385796     
2200000000.0        -0.836176168241     -0.367667047913     0.163769236942      -0.37149945743      0.163769236942      -0.37149945743      -0.836176168241     -0.367667047913     
2300000000.0        -0.847967319565     -0.356513216652     0.151977291908      -0.360522081967     0.151977291908      -0.360522081967     -0.847967319565     -0.356513216652     
2400000000.0        -0.858595344852     -0.345808214709     0.141348440774      -0.349993766776     0.141348440774      -0.349993766776     -0.858595344852     -0.345808214709     
2500000000.0        -0.868199635393     -0.33555223725      0.131743292025      -0.339914709179     0.131743292025      -0.339914709179     -0.868199635393     -0.33555223725      
2600000000.0        -0.87690078068      -0.325738435871     0.123041255952      -0.330278062745     0.123041255952      -0.330278062745     -0.87690078068      -0.325738435871     
2700000000.0        -0.884803235053     -0.316355180532     0.115137878004      -0.321072199244     0.115137878004      -0.321072199244     -0.884803235053     -0.316355180532     
2800000000.0        -0.89199762441      -0.307387712302     0.10794253208       -0.312282361412     0.10794253208       -0.312282361412     -0.89199762441      -0.307387712302     
2900000000.0        -0.898562726843     -0.298819345217     0.101376439893      -0.303891864825     0.101376439893      -0.303891864825     -0.898562726843     -0.298819345217     
3000000000.0        -0.904567165231     -0.290632334709     0.0953709783703     -0.295882966349     0.0953709783703     -0.295882966349     -0.904567165231     -0.290632334709     
3100000000.0        -0.910070849545     -0.282808499674     0.0898662373518     -0.28823748622      0.0898662373518     -0.28823748622      -0.910070849545     -0.282808499674     
3200000000.0        -0.91512620401      -0.275329662713     0.0848097924282     -0.2809372483       0.0848097924282     -0.2809372483       -0.91512620401      -0.275329662713     
3300000000.0        -0.919779210668     -0.268177956368     0.0801556613747     -0.273964386324     0.0801556613747     -0.273964386324     -0.919779210668     -0.268177956368     
3400000000.0        -0.924070297005     -0.261336030824     0.0758634165278     -0.267301551621     0.0758634165278     -0.267301551621     -0.924070297005     -0.261336030824     
3500000000.0        -0.928035091502     -0.254787189409     0.0718974292283     -0.260932048618     0.0718974292283     -0.260932048618     -0.928035091502     -0.254787189409     
3600000000.0        -0.931705067529     -0.248515471407     0.0682262259314     -0.254839917664     0.0682262259314     -0.254839917664     -0.931705067529     -0.248515471407     
3700000000.0        -0.935108092879     -0.242505696704     0.0648219386706     -0.24900997969      0.0648219386706     -0.24900997969      -0.935108092879     -0.242505696704     
3800000000.0        -0.938268899572     -0.236743483024     0.061659835252      -0.243427853449     0.061659835252      -0.243427853449     -0.938268899572     -0.236743483024     
3900000000.0        -0.941209486252     -0.231215243739     0.0587179168618     -0.238079953336     0.0587179168618     -0.238079953336     -0.941209486252     -0.231215243739     
4000000000.0        -0.943949463519     -0.225908172166     0.0559765727288     -0.232953473692     0.0559765727288     -0.232953473692     -0.943949463519     -0.225908172166     
4100000000.0        -0.946506350917     -0.220810216719     0.0534182831376     -0.228036363962     0.0534182831376     -0.228036363962     -0.946506350917     -0.220810216719     
4200000000.0        -0.948895832883     -0.215910050125     0.0510273634823     -0.223317297916     0.0510273634823     -0.223317297916     -0.948895832883     -0.215910050125     
4300000000.0        -0.951131979799     -0.211197035062     0.0487897432103     -0.218785639294     0.0487897432103     -0.218785639294     -0.951131979799     -0.211197035062     
4400000000.0        -0.953227439329     -0.206661187927     0.0466927744879     -0.21443140558      0.0466927744879     -0.21443140558      -0.953227439329     -0.206661187927     
4500000000.0        -0.95519360239      -0.202293141965     0.0447250662287     -0.210245231133     0.0447250662287     -0.210245231133     -0.95519360239      -0.202293141965     
4600000000.0        -0.957040747429     -0.198084110633     0.0428763398133     -0.206218330554     0.0428763398133     -0.206218330554     -0.957040747429     -0.198084110633     
4700000000.0        -0.958778166125     -0.194025851802     0.0411373033935     -0.202342462895     0.0411373033935     -0.202342462895     -0.958778166125     -0.194025851802     
4800000000.0        -0.960414273118     -0.190110633202     0.039499542156      -0.198609897106     0.039499542156      -0.198609897106     -0.960414273118     -0.190110633202     
4900000000.0        -0.961956702019     -0.186331199391     0.0379554223183     -0.195013379006     0.0379554223183     -0.195013379006     -0.961956702019     -0.186331199391     
5000000000.0        -0.96341238957      -0.18268074038      0.0364980069645     -0.191546099908     0.0364980069645     -0.191546099908     -0.96341238957      -0.18268074038      
5100000000.0        -0.964787649579     -0.179152862006     0.0351209821115     -0.188201667        0.0351209821115     -0.188201667        -0.964787649579     -0.179152862006     
5200000000.0        -0.966088237998     -0.175741558069     0.0338185916334     -0.184974075483     0.0338185916334     -0.184974075483     -0.966088237998     -0.175741558069     
5300000000.0        -0.967319410308     -0.172441184223     0.0325855798699     -0.181857682457     0.0325855798699     -0.181857682457     -0.967319410308     -0.172441184223     
5400000000.0        -0.968485972236     -0.16924643356      0.0314171409162     -0.178847182514     0.0314171409162     -0.178847182514     -0.968485972236     -0.16924643356      
5500000000.0        -0.969592324644     -0.166152313838     0.0303088737315     -0.175937584965     0.0303088737315     -0.175937584965     -0.969592324644     -0.166152313838     
5600000000.0        -0.970642503339     -0.163154126262     0.0292567423268     -0.17312419262      0.0292567423268     -0.17312419262      -0.970642503339     -0.163154126262     
5700000000.0        -0.971640214446     -0.160247445753     0.0282570403934     -0.17040258206      0.0282570403934     -0.17040258206      -0.971640214446     -0.160247445753     
5800000000.0        -0.97258886589      -0.157428102596     0.0273063598225     -0.167768585288     0.0273063598225     -0.167768585288     -0.97258886589      -0.157428102596     
5900000000.0        -0.973491595457     -0.154692165406     0.0264015626398     -0.16521827269      0.0264015626398     -0.16521827269      -0.973491595457     -0.154692165406     
6000000000.0        -0.974351295861     -0.152035925301     0.0255397559432     -0.162747937213     0.0255397559432     -0.162747937213     -0.974351295861     -0.152035925301     
6100000000.0        -0.975170637159     -0.149455881218     0.0247182694854     -0.160354079679     0.0247182694854     -0.160354079679     -0.975170637159     -0.149455881218     
6200000000.0        -0.975952086833     -0.146948726283     0.023934635591      -0.158033395158     0.023934635591      -0.158033395158     -0.975952086833     -0.146948726283     
6300000000.0        -0.976697927811     -0.144511335164     0.0231865711362     -0.155782760317     0.0231865711362     -0.155782760317     -0.976697927811     -0.144511335164     
6400000000.0        -0.977410274662     -0.142140752327     0.0224719613563     -0.153599221684     0.0224719613563     -0.153599221684     -0.977410274662     -0.142140752327     
6500000000.0        -0.978091088164     -0.139834181147     0.0217888452724     -0.151479984747     0.0217888452724     -0.151479984747     -0.978091088164     -0.139834181147     
6600000000.0        -0.978742188441     -0.137588973783     0.0211354025576     -0.149422403839     0.0211354025576     -0.149422403839     -0.978742188441     -0.137588973783     
6700000000.0        -0.979365266818     -0.135402621786     0.0205099416831     -0.147423972744     0.0205099416831     -0.147423972744     -0.979365266818     -0.135402621786     
6800000000.0        -0.97996189653      -0.133272747366     0.019910889206      -0.14548231596      0.019910889206      -0.14548231596      -0.97996189653      -0.133272747366     
6900000000.0        -0.98053354242      -0.131197095282     0.0193367800737     -0.143595180594     0.0193367800737     -0.143595180594     -0.98053354242      -0.131197095282     
7000000000.0        -0.981081569721     -0.129173525297     0.0187862488394     -0.141760428812     0.0187862488394     -0.141760428812     -0.981081569721     -0.129173525297     
7100000000.0        -0.981607252032     -0.127200005162     0.0182580216908     -0.139976030826     0.0182580216908     -0.139976030826     -0.981607252032     -0.127200005162     
7200000000.0        -0.982111778551     -0.125274604083     0.017750909209      -0.13824005836      0.017750909209      -0.13824005836      -0.982111778551     -0.125274604083     
7300000000.0        -0.982596260669     -0.123395486644     0.0172637997818     -0.136550678572     0.0172637997818     -0.136550678572     -0.982596260669     -0.123395486644     
7400000000.0        -0.983061737966     -0.12156090714      0.0167956536061     -0.134906148388     0.0167956536061     -0.134906148388     -0.983061737966     -0.12156090714      
7500000000.0        -0.983509183677     -0.119769204303     0.0163454972193     -0.133304809226     0.0163454972193     -0.133304809226     -0.983509183677     -0.119769204303     
7600000000.0        -0.983939509683     -0.118018796371     0.0159124185077     -0.131745082067     0.0159124185077     -0.131745082067     -0.983939509683     -0.118018796371     
7700000000.0        -0.984353571078     -0.116308176504     0.0154955621456     -0.130225462867     0.0154955621456     -0.130225462867     -0.984353571078     -0.116308176504     
7800000000.0        -0.984752170334     -0.114635908486     0.0150941254231     -0.128744518266     0.0150941254231     -0.128744518266     -0.984752170334     -0.114635908486     
7900000000.0        -0.985136061125     -0.11300062273      0.0147073544252     -0.12730088158      0.0147073544252     -0.12730088158      -0.985136061125     -0.11300062273      
8000000000.0        -0.98550595183      -0.111401012526     0.0143345405291     -0.125893249062     0.0143345405291     -0.125893249062     -0.98550595183      -0.111401012526     
8100000000.0        -0.985862508747     -0.109835830544     0.0139750171906     -0.124520376399     0.0139750171906     -0.124520376399     -0.985862508747     -0.109835830544     
8200000000.0        -0.986206359042     -0.10830388556      0.0136281569913     -0.123181075435     0.0136281569913     -0.123181075435     -0.986206359042     -0.10830388556      
8300000000.0        -0.986538093467     -0.106804039389     0.0132933689245     -0.121874211108     0.0132933689245     -0.121874211108     -0.986538093467     -0.106804039389     
8400000000.0        -0.986858268858     -0.105335204011     0.0129700958966     -0.120598698575     0.0129700958966     -0.120598698575     -0.986858268858     -0.105335204011     
8500000000.0        -0.987167410435     -0.103896338884     0.0126578124261     -0.119353500522     0.0126578124261     -0.119353500522     -0.987167410435     -0.103896338884     
8600000000.0        -0.987466013922     -0.102486448417     0.0123560225217     -0.118137624638     0.0123560225217     -0.118137624638     -0.987466013922     -0.102486448417     
8700000000.0        -0.987754547511     -0.101104579603     0.0120642577237     -0.116950121251     0.0120642577237     -0.116950121251     -0.987754547511     -0.101104579603     
8800000000.0        -0.988033453664     -0.0997498197968    0.0117820752954     -0.115790081101     0.0117820752954     -0.115790081101     -0.988033453664     -0.0997498197968    
8900000000.0        -0.988303150789     -0.0984212946262    0.0115090565513     -0.114656633253     0.0115090565513     -0.114656633253     -0.988303150789     -0.0984212946262    
9000000000.0        -0.988564034786     -0.0971181660312    0.0112448053092     -0.113548943136     0.0112448053092     -0.113548943136     -0.988564034786     -0.0971181660312    
9100000000.0        -0.988816480481     -0.0958396304193    0.0109889464586     -0.112466210697     0.0109889464586     -0.112466210697     -0.988816480481     -0.0958396304193    
9200000000.0        -0.989060842952     -0.0945849169294    0.0107411246318     -0.111407668668     0.0107411246318     -0.111407668668     -0.989060842952     -0.0945849169294    
9300000000.0        -0.989297458759     -0.0933532857995    0.0105010029732     -0.110372580926     0.0105010029732     -0.110372580926     -0.989297458759     -0.0933532857995    
9400000000.0        -0.989526647091     -0.0921440268276    0.0102682619962     -0.109360240964     0.0102682619962     -0.109360240964     -0.989526647091     -0.0921440268276    
9500000000.0        -0.989748710825     -0.0909564579233    0.010042598521      -0.108369970435     0.010042598521      -0.108369970435     -0.989748710825     -0.0909564579233    
9600000000.0        -0.989963937514     -0.0897899237412    0.00982372468787    -0.107401117787     0.00982372468787    -0.107401117787     -0.989963937514     -0.0897899237412    
9700000000.0        -0.990172600303     -0.0886437943925    0.00961136703855    -0.106453056976     0.00961136703855    -0.106453056976     -0.990172600303     -0.0886437943925    
9800000000.0        -0.990374958788     -0.0875174642297    0.00940526566173    -0.105525186248     0.00940526566173    -0.105525186248     -0.990374958788     -0.0875174642297    
9900000000.0        -0.990571259808     -0.0864103506979    0.00920517339637    -0.104616926993     0.00920517339637    -0.104616926993     -0.990571259808     -0.0864103506979    
10000000000.0       -0.990761738192     -0.0853218932516    0.00901085508929    -0.10372772266      0.00901085508929    -0.10372772266      -0.990761738192     -0.0853218932516    
