# Hz S RI R 50.00 
100000000.0         0.0300767533284     0.00382163483732    0.969920137855      -0.00514447312226   0.969920137855      -0.00514447312226   0.0300767533284     0.00382163483732    
200000000.0         0.0303299123857     0.00763917111075    0.969663101665      -0.010284867923     0.969663101665      -0.010284867923     0.0303299123857     0.00763917111075    
300000000.0         0.0305715835502     0.0114535161103     0.969415784655      -0.0154221060778    0.969415784655      -0.0154221060778    0.0305715835502     0.0114535161103     
400000000.0         0.0308271607176     0.0152646333713     0.969152792527      -0.0205561632884    0.969152792527      -0.0205561632884    0.0308271607176     0.0152646333713     
500000000.0         0.0311064069816     0.0190722675798     0.968864361752      -0.0256867952828    0.968864361752      -0.0256867952828    0.0311064069816     0.0190722675798     
600000000.0         0.0314142781851     0.0228760671691     0.968545536006      -0.030813660796     0.968545536006      -0.030813660796     0.0314142781851     0.0228760671691     
700000000.0         0.0317536758696     0.0266756284613     0.968193413222      -0.0359363659084    0.968193413222      -0.0359363659084    0.0317536758696     0.0266756284613     
800000000.0         0.0321264524652     0.0304705162318     0.967806140397      -0.0410544847281    0.967806140397      -0.0410544847281    0.0321264524652     0.0304705162318     
900000000.0         0.0325338590356     0.0342602748355     0.967382465844      -0.0461675705953    0.967382465844      -0.0461675705953    0.0325338590356     0.0342602748355     
1000000000.0        0.0329767723229     0.0380444348658     0.966921512153      -0.0512751627954    0.966921512153      -0.0512751627954    0.0329767723229     0.0380444348658     
1100000000.0        0.0334558210132     0.0418225174477     0.96642264992       -0.0563767908936    0.96642264992       -0.0563767908936    0.0334558210132     0.0418225174477     
1200000000.0        0.0339714610151     0.0455940371718     0.965885422471      -0.0614719776991    0.965885422471      -0.0614719776991    0.0339714610151     0.0455940371718     
1300000000.0        0.0345240228523     0.0493585041959     0.965309498471      -0.0665602413919    0.965309498471      -0.0665602413919    0.0345240228523     0.0493585041959     
1400000000.0        0.0351137428439     0.0531154258118     0.964694640743      -0.0716410971092    0.964694640743      -0.0716410971092    0.0351137428439     0.0531154258118     
1500000000.0        0.0357407843763     0.0568643076535     0.964040684994      -0.0767140581694    0.964040684994      -0.0767140581694    0.0357407843763     0.0568643076535     
1600000000.0        0.0364052528701     0.0606046546571     0.963347524854      -0.0817786370463    0.963347524854      -0.0817786370463    0.0364052528701     0.0606046546571     
1700000000.0        0.0371072065894     0.0643359718426     0.962615101063      -0.0868343461623    0.962615101063      -0.0868343461623    0.0371072065894     0.0643359718426     
1800000000.0        0.0378466646322     0.0680577649674     0.961843393482      -0.0918806985511    0.961843393482      -0.0918806985511    0.0378466646322     0.0680577649674     
1900000000.0        0.0386236129558     0.0717695410804     0.961032415067      -0.0969172084216    0.961032415067      -0.0969172084216    0.0386236129558     0.0717695410804     
2000000000.0        0.0394380090057     0.075470809004      0.960182207243      -0.101943391646     0.960182207243      -0.101943391646     0.0394380090057     0.075470809004      
2100000000.0        0.0402897853299     0.0791610797563     0.959292836287      -0.106958766191     0.959292836287      -0.106958766191     0.0402897853299     0.0791610797563     
2200000000.0        0.0411788524444     0.0828398669285     0.958364390468      -0.111962852496     0.958364390468      -0.111962852496     0.0411788524444     0.0828398669285     
2300000000.0        0.042105101137      0.0865066870247     0.957396977735      -0.116955173827     0.957396977735      -0.116955173827     0.042105101137      0.0865066870247     
2400000000.0        0.0430684043449     0.0901610597722     0.956390723848      -0.12193525658      0.956390723848      -0.12193525658      0.0430684043449     0.0901610597722     
2500000000.0        0.0440686187033     0.0938025084054     0.955345770826      -0.126902630582     0.955345770826      -0.126902630582     0.0440686187033     0.0938025084054     
2600000000.0        0.0451055858386     0.0974305599297     0.954262275654      -0.131856829347     0.954262275654      -0.131856829347     0.0451055858386     0.0974305599297     
2700000000.0        0.046179133461      0.101044745366      0.953140409191      -0.136797390333     0.953140409191      -0.136797390333     0.046179133461      0.101044745366      
2800000000.0        0.0472890762971     0.104644599983      0.951980355238      -0.141723855169     0.951980355238      -0.141723855169     0.0472890762971     0.104644599983      
2900000000.0        0.0484352168961     0.108229663506      0.950782309733      -0.146635769879     0.950782309733      -0.146635769879     0.0484352168961     0.108229663506      
3000000000.0        0.049617346332      0.111799480329      0.949546480045      -0.151532685085     0.949546480045      -0.151532685085     0.049617346332      0.111799480329      
3100000000.0        0.0508352448233     0.115353599701      0.948273084362      -0.156414156199     0.948273084362      -0.156414156199     0.0508352448233     0.115353599701      
3200000000.0        0.0520886822842     0.118891575911      0.946962351131      -0.161279743617     0.946962351131      -0.161279743617     0.0520886822842     0.118891575911      
3300000000.0        0.0533774188199     0.122412968459      0.945614518571      -0.166129012882     0.945614518571      -0.166129012882     0.0533774188199     0.122412968459      
3400000000.0        0.0547012051757     0.125917342224      0.944229834218      -0.170961534862     0.944229834218      -0.170961534862     0.0547012051757     0.125917342224      
3500000000.0        0.0560597831479     0.129404267615      0.942808554518      -0.1757768859       0.942808554518      -0.1757768859       0.0560597831479     0.129404267615      
3600000000.0        0.0574528859616     0.132873320727      0.941350944449      -0.180574647971     0.941350944449      -0.180574647971     0.0574528859616     0.132873320727      
3700000000.0        0.0588802386234     0.136324083475      0.939857277167      -0.18535440882      0.939857277167      -0.18535440882      0.0588802386234     0.136324083475      
3800000000.0        0.0603415582495     0.139756143737      0.938327833678      -0.190115762104     0.938327833678      -0.190115762104     0.0603415582495     0.139756143737      
3900000000.0        0.0618365543764     0.143169095475      0.936762902529      -0.194858307517     0.936762902529      -0.194858307517     0.0618365543764     0.143169095475      
4000000000.0        0.063364929254      0.146562538863      0.935162779515      -0.199581650916     0.935162779515      -0.199581650916     0.063364929254      0.146562538863      
4100000000.0        0.0649263781257     0.149936080397      0.933527767397      -0.20428540444      0.933527767397      -0.20428540444      0.0649263781257     0.149936080397      
4200000000.0        0.0665205894961     0.153289333012      0.931858175638      -0.208969186616     0.931858175638      -0.208969186616     0.0665205894961     0.153289333012      
4300000000.0        0.0681472453889     0.156621916178      0.93015432014       -0.21363262247      0.93015432014       -0.21363262247      0.0681472453889     0.156621916178      
4400000000.0        0.0698060215955     0.159933456006      0.928416523002      -0.218275343621     0.928416523002      -0.218275343621     0.0698060215955     0.159933456006      
4500000000.0        0.0714965879165     0.163223585336      0.926645112272      -0.222896988381     0.926645112272      -0.222896988381     0.0714965879165     0.163223585336      
4600000000.0        0.0732186083959     0.166491943822      0.924840421719      -0.227497201837     0.924840421719      -0.227497201837     0.0732186083959     0.166491943822      
4700000000.0        0.0749717415498     0.169738178024      0.9230027906        -0.232075635939     0.9230027906        -0.232075635939     0.0749717415498     0.169738178024      
4800000000.0        0.0767556405899     0.172961941471      0.921132563438      -0.236631949575     0.921132563438      -0.236631949575     0.0767556405899     0.172961941471      
4900000000.0        0.0785699536421     0.176162894743      0.919230089805      -0.241165808642     0.919230089805      -0.241165808642     0.0785699536421     0.176162894743      
5000000000.0        0.0804143239612     0.179340705532      0.917295724104      -0.245676886117     0.917295724104      -0.245676886117     0.0804143239612     0.179340705532      
5100000000.0        0.0822883901417     0.182495048704      0.915329825363      -0.250164862116     0.915329825363      -0.250164862116     0.0822883901417     0.182495048704      
5200000000.0        0.0841917863251     0.185625606358      0.913332757023      -0.25462942395      0.913332757023      -0.25462942395      0.0841917863251     0.185625606358      
5300000000.0        0.0861241424045     0.18873206787       0.911304886737      -0.259070266181     0.911304886737      -0.259070266181     0.0861241424045     0.18873206787       
5400000000.0        0.0880850842257     0.191814129946      0.909246586167      -0.263487090665     0.909246586167      -0.263487090665     0.0880850842257     0.191814129946      
5500000000.0        0.0900742337859     0.194871496663      0.907158230786      -0.267879606596     0.907158230786      -0.267879606596     0.0900742337859     0.194871496663      
5600000000.0        0.0920912094296     0.1979038795        0.905040199681      -0.272247530542     0.905040199681      -0.272247530542     0.0920912094296     0.1979038795        
5700000000.0        0.0941356260425     0.200910997376      0.902892875364      -0.27659058648      0.902892875364      -0.27659058648      0.0941356260425     0.200910997376      
5800000000.0        0.0962070952421     0.203892576677      0.900716643573      -0.280908505823     0.900716643573      -0.280908505823     0.0962070952421     0.203892576677      
5900000000.0        0.0983052255673     0.206848351272      0.898511893091      -0.285201027443     0.898511893091      -0.285201027443     0.0983052255673     0.206848351272      
6000000000.0        0.100429622664      0.209778062542      0.896279015553      -0.28946789769      0.896279015553      -0.28946789769      0.100429622664      0.209778062542      
6100000000.0        0.102579889472      0.212681459386      0.894018405269      -0.293708870408     0.894018405269      -0.293708870408     0.102579889472      0.212681459386      
6200000000.0        0.104755626403      0.215558298232      0.891730459033      -0.297923706942     0.891730459033      -0.297923706942     0.104755626403      0.215558298232      
6300000000.0        0.106956431524      0.218408343047      0.889415575949      -0.30211217615      0.889415575949      -0.30211217615      0.106956431524      0.218408343047      
6400000000.0        0.109181900736      0.221231365331      0.887074157252      -0.306274054398     0.887074157252      -0.306274054398     0.109181900736      0.221231365331      
6500000000.0        0.111431627944      0.224027144122      0.884706606133      -0.310409125561     0.884706606133      -0.310409125561     0.111431627944      0.224027144122      
6600000000.0        0.113705205239      0.226795465982      0.882313327561      -0.314517181018     0.882313327561      -0.314517181018     0.113705205239      0.226795465982      
6700000000.0        0.116002223062      0.22953612499       0.879894728118      -0.31859801964      0.879894728118      -0.31859801964      0.116002223062      0.22953612499       
6800000000.0        0.118322270376      0.23224892273       0.877451215827      -0.322651447773     0.877451215827      -0.322651447773     0.118322270376      0.23224892273       
6900000000.0        0.120664934834      0.234933668264      0.874983199984      -0.326677279228     0.874983199984      -0.326677279228     0.120664934834      0.234933668264      
7000000000.0        0.123029802939      0.23759017812       0.872491090995      -0.330675335249     0.872491090995      -0.330675335249     0.123029802939      0.23759017812       
7100000000.0        0.125416460214      0.240218276257      0.869975300216      -0.334645444497     0.869975300216      -0.334645444497     0.125416460214      0.240218276257      
7200000000.0        0.127824491352      0.242817794044      0.867436239787      -0.338587443015     0.867436239787      -0.338587443015     0.127824491352      0.242817794044      
7300000000.0        0.130253480381      0.245388570222      0.864874322483      -0.342501174197     0.864874322483      -0.342501174197     0.130253480381      0.245388570222      
7400000000.0        0.132703010817      0.247930450867      0.86228996155       -0.346386488757     0.86228996155       -0.346386488757     0.132703010817      0.247930450867      
7500000000.0        0.135172665814      0.250443289357      0.859683570561      -0.350243244681     0.859683570561      -0.350243244681     0.135172665814      0.250443289357      
7600000000.0        0.137662028318      0.252926946322      0.857055563259      -0.354071307194     0.857055563259      -0.354071307194     0.137662028318      0.252926946322      
7700000000.0        0.140170681211      0.255381289604      0.854406353415      -0.35787054871      0.854406353415      -0.35787054871      0.140170681211      0.255381289604      
7800000000.0        0.142698207457      0.257806194206      0.851736354679      -0.361640848784     0.851736354679      -0.361640848784     0.142698207457      0.257806194206      
7900000000.0        0.145244190246      0.260201542241      0.849045980438      -0.365382094061     0.849045980438      -0.365382094061     0.145244190246      0.260201542241      
8000000000.0        0.14780821313       0.262567222877      0.846335643681      -0.369094178225     0.846335643681      -0.369094178225     0.14780821313       0.262567222877      
8100000000.0        0.150389860164      0.26490313228       0.843605756857      -0.372777001938     0.843605756857      -0.372777001938     0.150389860164      0.26490313228       
8200000000.0        0.152988716039      0.267209173557      0.840856731741      -0.376430472784     0.840856731741      -0.376430472784     0.152988716039      0.267209173557      
8300000000.0        0.155604366211      0.26948525669       0.838088979305      -0.380054505205     0.838088979305      -0.380054505205     0.155604366211      0.26948525669       
8400000000.0        0.158236397033      0.271731298476      0.835302909588      -0.383649020439     0.835302909588      -0.383649020439     0.158236397033      0.271731298476      
8500000000.0        0.160884395881      0.273947222455      0.83249893157       -0.387213946451     0.83249893157       -0.387213946451     0.160884395881      0.273947222455      
8600000000.0        0.163547951275      0.276132958845      0.829677453045      -0.390749217866     0.829677453045      -0.390749217866     0.163547951275      0.276132958845      
8700000000.0        0.166226652999      0.278288444467      0.826838880509      -0.394254775897     0.826838880509      -0.394254775897     0.166226652999      0.278288444467      
8800000000.0        0.168920092224      0.280413622678      0.823983619034      -0.397730568274     0.823983619034      -0.397730568274     0.168920092224      0.280413622678      
8900000000.0        0.171627861617      0.282508443286      0.821112072157      -0.401176549166     0.821112072157      -0.401176549166     0.171627861617      0.282508443286      
9000000000.0        0.174349555454      0.284572862484      0.818224641768      -0.404592679105     0.818224641768      -0.404592679105     0.174349555454      0.284572862484      
9100000000.0        0.177084769732      0.286606842762      0.815321727999      -0.40797892491      0.815321727999      -0.40797892491      0.177084769732      0.286606842762      
9200000000.0        0.179833102273      0.28861035283       0.81240372912       -0.411335259602     0.81240372912       -0.411335259602     0.179833102273      0.28861035283       
9300000000.0        0.182594152826      0.290583367538      0.809471041435      -0.414661662326     0.809471041435      -0.414661662326     0.182594152826      0.290583367538      
9400000000.0        0.185367523171      0.292525867788      0.806524059181      -0.417958118266     0.806524059181      -0.417958118266     0.185367523171      0.292525867788      
9500000000.0        0.188152817213      0.294437840451      0.803563174429      -0.421224618561     0.803563174429      -0.421224618561     0.188152817213      0.294437840451      
9600000000.0        0.190949641079      0.296319278281      0.800588776993      -0.424461160217     0.800588776993      -0.424461160217     0.190949641079      0.296319278281      
9700000000.0        0.193757603209      0.298170179826      0.797601254335      -0.42766774602      0.797601254335      -0.42766774602      0.193757603209      0.298170179826      
9800000000.0        0.196576314443      0.299990549342      0.794600991476      -0.430844384449     0.794600991476      -0.430844384449     0.196576314443      0.299990549342      
9900000000.0        0.199405388113      0.301780396697      0.791588370912      -0.433991089584     0.791588370912      -0.433991089584     0.199405388113      0.301780396697      
10000000000.0       0.202244440118      0.303539737287      0.78856377253       -0.437107881019     0.78856377253       -0.437107881019     0.202244440118      0.303539737287      
