# Hz S RI R 50.00 
100000000.0         0.000830659099931   -0.00169916005825   0.999148980763      -0.00364028901666   0.999148980763      -0.00364028901666   0.00083065909993    -0.00169916005825   
200000000.0         0.000815205228456   -0.00339823968219   0.999116556983      -0.00728046576532   0.999116556983      -0.00728046576532   0.000815205228456   -0.00339823968219   
300000000.0         0.00078591434787    -0.00509714309842   0.999069454419      -0.0109204574146    0.999069454419      -0.0109204574146    0.00078591434787    -0.00509714309842   
400000000.0         0.00074351401217    -0.00679577727306   0.99900694859       -0.0145601810815    0.99900694859       -0.0145601810815    0.00074351401217    -0.00679577727306   
500000000.0         0.000688285577933   -0.00849404901839   0.998928762649      -0.018199550385     0.998928762649      -0.018199550385     0.000688285577933   -0.00849404901839   
600000000.0         0.000620374181731   -0.0101918647789    0.998834757451      -0.0218384769546    0.998834757451      -0.0218384769546    0.000620374181732   -0.0101918647789    
700000000.0         0.000539867467866   -0.0118891306373    0.998724852864      -0.025476871092     0.998724852864      -0.025476871092     0.000539867467866   -0.0118891306373    
800000000.0         0.000446824299585   -0.0135857523579    0.998598999082      -0.0291146421345    0.998598999082      -0.0291146421345    0.000446824299585   -0.0135857523579    
900000000.0         0.000341287534789   -0.0152816354328    0.998457163875      -0.0327516986827    0.998457163875      -0.0327516986827    0.000341287534789   -0.0152816354328    
1000000000.0        0.000223290498567   -0.0169766851245    0.998299326132      -0.0363879487548    0.998299326132      -0.0363879487548    0.000223290498567   -0.0169766851245    
1100000000.0        9.28605800059e-05   -0.0186708065044    0.998125472276      -0.0400232999       0.998125472276      -0.0400232999       9.28605800061e-05   -0.0186708065044    
1200000000.0        -4.99786250062e-05  -0.0203639044856    0.997935594142      -0.0436576592836    0.997935594142      -0.0436576592836    -4.99786250064e-05  -0.0203639044856    
1300000000.0        -0.000205205965704  -0.0220558838531    0.997729687629      -0.0472909337553    0.997729687629      -0.0472909337553    -0.000205205965704  -0.0220558838531    
1400000000.0        -0.000372801850288  -0.0237466492909    0.997507751832      -0.0509230299044    0.997507751832      -0.0509230299044    -0.000372801850288  -0.0237466492909    
1500000000.0        -0.000552747641995  -0.0254361054061    0.99726978844       -0.0545538541063    0.99726978844       -0.0545538541063    -0.000552747641995  -0.0254361054061    
1600000000.0        -0.000745025234835  -0.0271241567511    0.99701580132       -0.0581833125624    0.99701580132       -0.0581833125624    -0.000745025234835  -0.0271241567511    
1700000000.0        -0.000949616747822  -0.028810707845     0.996745796218      -0.0618113113345    0.996745796218      -0.0618113113345    -0.000949616747822  -0.028810707845     
1800000000.0        -0.00116650429966   -0.0304956631923    0.996459780537      -0.0654377563763    0.996459780537      -0.0654377563763    -0.00116650429966   -0.0304956631923    
1900000000.0        -0.00139566983954   -0.0321789273016    0.996157763171      -0.0690625535601    0.996157763171      -0.0690625535601    -0.00139566983954   -0.0321789273016    
2000000000.0        -0.00163709501794   -0.0338604047028    0.995839754379      -0.0726856087028    0.995839754379      -0.0726856087028    -0.00163709501794   -0.0338604047028    
2100000000.0        -0.00189076108654   -0.0355399999634    0.995505765691      -0.0763068275889    0.995505765691      -0.0763068275889    -0.00189076108654   -0.0355399999634    
2200000000.0        -0.00215664881976   -0.0372176177045    0.995155809825      -0.0799261159916    0.995155809825      -0.0799261159916    -0.00215664881976   -0.0372176177045    
2300000000.0        -0.00243473845242   -0.0388931626161    0.994789900632      -0.0835433796936    0.994789900632      -0.0835433796936    -0.00243473845242   -0.0388931626161    
2400000000.0        -0.00272500962996   -0.0405665394713    0.994408053042      -0.0871585245052    0.994408053042      -0.0871585245052    -0.00272500962996   -0.0405665394713    
2500000000.0        -0.00302744136821   -0.042237653141     0.994010283027      -0.090771456283     0.994010283027      -0.090771456283     -0.00302744136821   -0.042237653141     
2600000000.0        -0.00334201202067   -0.0439064086076    0.993596607567      -0.0943820809466    0.993596607567      -0.0943820809466    -0.00334201202067   -0.0439064086076    
2700000000.0        -0.00366869925188   -0.0455727109784    0.99316704462       -0.0979903044947    0.99316704462       -0.0979903044947    -0.00366869925188   -0.0455727109784    
2800000000.0        -0.00400748001551   -0.0472364654987    0.992721613103      -0.101596033022     0.992721613103      -0.101596033022     -0.00400748001551   -0.0472364654987    
2900000000.0        -0.00435833053638   -0.0488975775646    0.992260332871      -0.105199172731     0.992260332871      -0.105199172731     -0.00435833053638   -0.0488975775646    
3000000000.0        -0.00472122629566   -0.050555952736     0.991783224696      -0.108799629953     0.991783224696      -0.108799629953     -0.00472122629566   -0.050555952736     
3100000000.0        -0.00509614201873   -0.0522114967484    0.991290310258      -0.112397311154     0.991290310258      -0.112397311154     -0.00509614201873   -0.0522114967484    
3200000000.0        -0.00548305166515   -0.0538641155255    0.990781612129      -0.115992122957     0.990781612129      -0.115992122957     -0.00548305166515   -0.0538641155255    
3300000000.0        -0.00588192842062   -0.055513715191     0.99025715376       -0.119583972147     0.99025715376       -0.119583972147     -0.00588192842062   -0.055513715191     
3400000000.0        -0.00629274469033   -0.05716020208      0.989716959474      -0.123172765691     0.989716959474      -0.123172765691     -0.00629274469033   -0.05716020208      
3500000000.0        -0.00671547209379   -0.0588034827512    0.989161054453      -0.126758410748     0.989161054453      -0.126758410748     -0.00671547209379   -0.0588034827512    
3600000000.0        -0.00715008146071   -0.0604434639978    0.988589464735      -0.13034081468      0.988589464735      -0.13034081468      -0.00715008146071   -0.0604434639978    
3700000000.0        -0.00759654282791   -0.0620800528593    0.988002217197      -0.133919885068     0.988002217197      -0.133919885068     -0.00759654282791   -0.0620800528593    
3800000000.0        -0.00805482543714   -0.0637131566318    0.987399339557      -0.137495529719     0.987399339557      -0.137495529719     -0.00805482543714   -0.0637131566318    
3900000000.0        -0.00852489773353   -0.0653426828797    0.98678086036       -0.141067656683     0.98678086036       -0.141067656683     -0.00852489773353   -0.0653426828797    
4000000000.0        -0.00900672736491   -0.0669685394464    0.986146808976      -0.144636174261     0.986146808976      -0.144636174261     -0.00900672736491   -0.0669685394464    
4100000000.0        -0.00950028118152   -0.0685906344645    0.985497215589      -0.148200991019     0.985497215589      -0.148200991019     -0.00950028118152   -0.0685906344645    
4200000000.0        -0.0100055252364    -0.070208876367     0.984832111195      -0.151762015796     0.984832111195      -0.151762015796     -0.0100055252364    -0.070208876367     
4300000000.0        -0.0105224247864    -0.0718231738974    0.984151527593      -0.155319157718     0.984151527593      -0.155319157718     -0.0105224247864    -0.0718231738974    
4400000000.0        -0.0110509442929    -0.0734334361202    0.983455497382      -0.158872326207     0.983455497382      -0.158872326207     -0.0110509442929    -0.0734334361202    
4500000000.0        -0.0115910474243    -0.0750395724308    0.98274405395       -0.162421430993     0.98274405395       -0.162421430993     -0.0115910474243    -0.0750395724308    
4600000000.0        -0.0121426970573    -0.0766414925659    0.982017231474      -0.165966382124     0.982017231474      -0.165966382124     -0.0121426970573    -0.0766414925659    
4700000000.0        -0.0127058552799    -0.0782391066136    0.981275064911      -0.169507089974     0.981275064911      -0.169507089974     -0.0127058552799    -0.0782391066136    
4800000000.0        -0.0132804833935    -0.0798323250226    0.980517589993      -0.173043465259     0.980517589993      -0.173043465259     -0.0132804833935    -0.0798323250226    
4900000000.0        -0.0138665419163    -0.0814210586127    0.979744843221      -0.17657541904      0.979744843221      -0.17657541904      -0.0138665419163    -0.0814210586127    
5000000000.0        -0.0144639905865    -0.083005218584     0.97895686186       -0.180102862741     0.97895686186       -0.180102862741     -0.0144639905865    -0.083005218584     
5100000000.0        -0.0150727883657    -0.0845847165266    0.978153683933      -0.18362570815      0.978153683933      -0.18362570815      -0.0150727883657    -0.0845847165266    
5200000000.0        -0.0156928934426    -0.0861594644298    0.977335348214      -0.187143867435     0.977335348214      -0.187143867435     -0.0156928934426    -0.0861594644298    
5300000000.0        -0.016324263237     -0.0877293746918    0.976501894225      -0.190657253151     0.976501894225      -0.190657253151     -0.016324263237     -0.0877293746918    
5400000000.0        -0.0169668544043    -0.0892943601283    0.975653362225      -0.19416577825      0.975653362225      -0.19416577825      -0.0169668544043    -0.0892943601283    
5500000000.0        -0.0176206228393    -0.0908543339821    0.974789793211      -0.197669356091     0.974789793211      -0.197669356091     -0.0176206228393    -0.0908543339821    
5600000000.0        -0.0182855236813    -0.0924092099321    0.973911228906      -0.201167900447     0.973911228906      -0.201167900447     -0.0182855236813    -0.0924092099321    
5700000000.0        -0.0189615113184    -0.0939589021014    0.973017711757      -0.204661325516     0.973017711757      -0.204661325516     -0.0189615113184    -0.0939589021014    
5800000000.0        -0.019648539393     -0.0955033250672    0.972109284926      -0.208149545929     0.972109284926      -0.208149545929     -0.0196485393929    -0.0955033250672    
5900000000.0        -0.0203465608062    -0.0970423938685    0.971185992286      -0.21163247676      0.971185992286      -0.21163247676      -0.0203465608062    -0.0970423938685    
6000000000.0        -0.0210555277237    -0.0985760240148    0.970247878412      -0.215110033531     0.970247878412      -0.215110033531     -0.0210555277237    -0.0985760240148    
6100000000.0        -0.0217753915809    -0.100104131495     0.969294988579      -0.218582132226     0.969294988579      -0.218582132226     -0.0217753915809    -0.100104131495     
6200000000.0        -0.0225061030885    -0.101626632785     0.96832736875       -0.222048689295     0.96832736875       -0.222048689295     -0.0225061030885    -0.101626632785     
6300000000.0        -0.0232476122382    -0.103143444857     0.967345065576      -0.225509621664     0.967345065576      -0.225509621664     -0.0232476122382    -0.103143444857     
6400000000.0        -0.0239998683085    -0.104654485186     0.966348126383      -0.228964846742     0.966348126383      -0.228964846742     -0.0239998683085    -0.104654485186     
6500000000.0        -0.0247628198708    -0.106159671759     0.965336599169      -0.232414282431     0.965336599169      -0.232414282431     -0.0247628198708    -0.106159671759     
6600000000.0        -0.0255364147954    -0.107658923081     0.964310532599      -0.235857847132     0.964310532599      -0.235857847132     -0.0255364147954    -0.107658923081     
6700000000.0        -0.026320600258     -0.109152158187     0.963269975991      -0.239295459755     0.963269975991      -0.239295459755     -0.026320600258     -0.109152158187     
6800000000.0        -0.0271153227454    -0.110639296645     0.962214979317      -0.242727039721     0.962214979317      -0.242727039721     -0.0271153227454    -0.110639296645     
6900000000.0        -0.0279205280628    -0.112120258564     0.961145593194      -0.246152506979     0.961145593194      -0.246152506979     -0.0279205280628    -0.112120258564     
7000000000.0        -0.0287361613396    -0.113594964605     0.960061868873      -0.249571782004     0.960061868873      -0.249571782004     -0.0287361613396    -0.113594964605     
7100000000.0        -0.0295621670366    -0.115063335984     0.958963858236      -0.252984785809     0.958963858236      -0.252984785809     -0.0295621670366    -0.115063335984     
7200000000.0        -0.0303984889528    -0.116525294483     0.957851613787      -0.256391439952     0.957851613787      -0.256391439952     -0.0303984889528    -0.116525294483     
7300000000.0        -0.0312450702318    -0.117980762453     0.956725188645      -0.259791666542     0.956725188645      -0.259791666542     -0.0312450702318    -0.117980762453     
7400000000.0        -0.0321018533693    -0.119429662824     0.955584636539      -0.263185388246     0.955584636539      -0.263185388246     -0.0321018533693    -0.119429662824     
7500000000.0        -0.03296878022      -0.12087191911      0.954430011795      -0.266572528294     0.954430011795      -0.266572528294     -0.03296878022      -0.12087191911      
7600000000.0        -0.0338457920048    -0.122307455417     0.953261369335      -0.269953010491     0.953261369335      -0.269953010491     -0.0338457920048    -0.122307455417     
7700000000.0        -0.0347328293179    -0.123736196448     0.952078764664      -0.273326759217     0.952078764664      -0.273326759217     -0.0347328293179    -0.123736196448     
7800000000.0        -0.0356298321343    -0.125158067511     0.950882253866      -0.276693699438     0.950882253866      -0.276693699438     -0.0356298321343    -0.125158067511     
7900000000.0        -0.0365367398174    -0.126572994524     0.949671893595      -0.280053756708     0.949671893595      -0.280053756708     -0.0365367398174    -0.126572994524     
8000000000.0        -0.0374534911262    -0.127980904023     0.948447741067      -0.283406857181     0.948447741067      -0.283406857181     -0.0374534911262    -0.127980904023     
8100000000.0        -0.0383800242231    -0.129381723165     0.947209854052      -0.28675292761      0.947209854052      -0.28675292761      -0.0383800242231    -0.129381723165     
8200000000.0        -0.0393162766814    -0.130775379736     0.945958290866      -0.290091895359     0.945958290866      -0.290091895359     -0.0393162766814    -0.130775379736     
8300000000.0        -0.0402621854932    -0.132161802157     0.944693110366      -0.293423688404     0.944693110366      -0.293423688404     -0.0402621854932    -0.132161802157     
8400000000.0        -0.0412176870771    -0.133540919489     0.943414371937      -0.296748235341     0.943414371937      -0.296748235341     -0.0412176870771    -0.133540919489     
8500000000.0        -0.0421827172863    -0.134912661438     0.942122135487      -0.300065465393     0.942122135487      -0.300065465393     -0.0421827172863    -0.134912661438     
8600000000.0        -0.0431572114161    -0.136276958362     0.940816461439      -0.30337530841      0.940816461439      -0.30337530841      -0.0431572114161    -0.136276958362     
8700000000.0        -0.0441411042124    -0.137633741274     0.939497410722      -0.306677694879     0.939497410722      -0.306677694879     -0.0441411042124    -0.137633741274     
8800000000.0        -0.0451343298794    -0.138982941849     0.938165044762      -0.309972555927     0.938165044762      -0.309972555927     -0.0451343298794    -0.138982941849     
8900000000.0        -0.0461368220878    -0.140324492429     0.936819425476      -0.313259823328     0.936819425476      -0.313259823328     -0.0461368220878    -0.140324492429     
9000000000.0        -0.0471485139832    -0.141658326027     0.935460615261      -0.316539429503     0.935460615261      -0.316539429503     -0.0471485139832    -0.141658326027     
9100000000.0        -0.0481693381938    -0.142984376331     0.934088676988      -0.319811307532     0.934088676988      -0.319811307532     -0.0481693381938    -0.142984376331     
9200000000.0        -0.0491992268394    -0.144302577712     0.932703673992      -0.323075391149     0.932703673992      -0.323075391149     -0.0491992268394    -0.144302577712     
9300000000.0        -0.050238111539     -0.145612865224     0.931305670063      -0.326331614756     0.931305670063      -0.326331614756     -0.050238111539     -0.145612865224     
9400000000.0        -0.0512859234197    -0.146915174611     0.929894729441      -0.329579913421     0.929894729441      -0.329579913421     -0.0512859234197    -0.146915174611     
9500000000.0        -0.0523425931249    -0.148209442312     0.928470916803      -0.332820222883     0.928470916803      -0.332820222883     -0.0523425931249    -0.148209442312     
9600000000.0        -0.0534080508225    -0.149495605463     0.927034297257      -0.336052479559     0.927034297257      -0.336052479559     -0.0534080508225    -0.149495605463     
9700000000.0        -0.0544822262138    -0.150773601903     0.925584936333      -0.339276620546     0.925584936333      -0.339276620546     -0.0544822262138    -0.150773601903     
9800000000.0        -0.0555650485418    -0.152043370176     0.924122899974      -0.342492583621     0.924122899974      -0.342492583621     -0.0555650485418    -0.152043370176     
9900000000.0        -0.0566564465999    -0.153304849535     0.922648254528      -0.345700307251     0.922648254528      -0.345700307251     -0.0566564465999    -0.153304849535     
10000000000.0       -0.0577563487401    -0.154557979947     0.921161066738      -0.348899730594     0.921161066738      -0.348899730594     -0.0577563487401    -0.154557979947     
