# Hz S RI R 50.00 
100000000.0         -0.000260224140276  -0.0165110129414    0.999672958763      -0.0167496968432    0.999672958763      -0.0167496968432    -0.000260224140277  -0.0165110129414    
200000000.0         -0.00110539872353   -0.0329930162723    0.998827243425      -0.0334704198261    0.998827243425      -0.0334704198261    -0.00110539872353   -0.0329930162723    
300000000.0         -0.00250004384527   -0.0494184546982    0.997432115616      -0.0501346324935    0.997432115616      -0.0501346324935    -0.00250004384527   -0.0494184546982    
400000000.0         -0.00443944598837   -0.0657601360388    0.995492231329      -0.0667151572041    0.995492231329      -0.0667151572041    -0.00443944598837   -0.0657601360388    
500000000.0         -0.00691713808147   -0.0819913555179    0.993014035546      -0.0831853015157    0.993014035546      -0.0831853015157    -0.00691713808147   -0.0819913555179    
600000000.0         -0.00992494253418   -0.0980860294976    0.990005694602      -0.0995189926492    0.990005694602      -0.0995189926492    -0.00992494253418   -0.0980860294976    
700000000.0         -0.0134530361144    -0.114018826105     0.986477025072      -0.115690908488     0.986477025072      -0.115690908488     -0.0134530361144    -0.114018826105     
800000000.0         -0.0174900287522    -0.129765289062     0.982439412699      -0.13167660163      0.982439412699      -0.13167660163      -0.0174900287522    -0.129765289062     
900000000.0         -0.0220230538749    -0.145301952666     0.977905721046      -0.147452614521     0.977905721046      -0.147452614521     -0.0220230538749    -0.145301952666     
1000000000.0        -0.0270378686571    -0.160606446523     0.972890190736      -0.162996584287     0.972890190736      -0.162996584287     -0.0270378686571    -0.160606446523     
1100000000.0        -0.0325189626776    -0.175657588968     0.967408330514      -0.178287336238     0.967408330514      -0.178287336238     -0.0325189626776    -0.175657588968     
1200000000.0        -0.0384496734659    -0.190435468421     0.961476801534      -0.193304965286     0.961476801534      -0.193304965286     -0.0384496734659    -0.190435468421     
1300000000.0        -0.0448123074007    -0.204921512148     0.955113296351      -0.208030904748     0.955113296351      -0.208030904748     -0.0448123074007    -0.204921512148     
1400000000.0        -0.0515882644154    -0.219098542138     0.948336414148      -0.22244798227      0.948336414148      -0.22244798227      -0.0515882644154    -0.219098542138     
1500000000.0        -0.0587581649869    -0.232950818011     0.941165533703      -0.236540462767     0.941165533703      -0.236540462767     -0.0587581649869    -0.232950818011     
1600000000.0        -0.0663019779284    -0.246464067083     0.93362068556       -0.250294078514     0.93362068556       -0.250294078514     -0.0663019779284    -0.246464067083     
1700000000.0        -0.0741991475748    -0.259625501879     0.925722424823      -0.263696046686     0.925722424823      -0.263696046686     -0.0741991475748    -0.259625501879     
1800000000.0        -0.0824287190414    -0.272423825567     0.917491705876      -0.276735074812     0.917491705876      -0.276735074812     -0.0824287190414    -0.272423825567     
1900000000.0        -0.0909694603432    -0.28484922591      0.908949760255      -0.289401354751     0.908949760255      -0.289401354751     -0.0909694603432    -0.28484922591      
2000000000.0        -0.0997999802827    -0.296893358476     0.900117978751      -0.301686545911     0.900117978751      -0.301686545911     -0.0997999802827    -0.296893358476     
2100000000.0        -0.10889884115      -0.30854931992      0.891017798696      -0.313583748555     0.891017798696      -0.313583748555     -0.10889884115      -0.30854931992      
2200000000.0        -0.118244665414     -0.319811612265     0.881670597273      -0.325087468091     0.881670597273      -0.325087468091     -0.118244665414     -0.319811612265     
2300000000.0        -0.127816235727     -0.330676099116     0.872097591504      -0.336193571298     0.872097591504      -0.336193571298     -0.127816235727     -0.330676099116     
2400000000.0        -0.137592587708     -0.34113995482      0.862319745462      -0.346899235506     0.862319745462      -0.346899235506     -0.137592587708     -0.34113995482      
2500000000.0        -0.147553095099     -0.351201607578     0.852357685113      -0.357202891708     0.852357685113      -0.357202891708     -0.147553095099     -0.351201607578     
2600000000.0        -0.157677547044     -0.360860677496     0.842231621036      -0.367104162631     0.842231621036      -0.367104162631     -0.157677547044     -0.360860677496     
2700000000.0        -0.167946217324     -0.370117910581     0.83196127918       -0.376603796734     0.83196127918       -0.376603796734     -0.167946217324     -0.370117910581     
2800000000.0        -0.178339925546     -0.378975109611     0.821565839683      -0.385703599092     0.821565839683      -0.385703599092     -0.178339925546     -0.378975109611     
2900000000.0        -0.188840090344     -0.38743506279      0.811063883661      -0.394406360058     0.811063883661      -0.394406360058     -0.188840090344     -0.38743506279      
3000000000.0        -0.199428774763     -0.395501471026     0.800473347829      -0.402715782546     0.800473347829      -0.402715782546     -0.199428774763     -0.395501471026     
3100000000.0        -0.210088724079     -0.40317887462      0.789811486673      -0.410636408737     0.789811486673      -0.410636408737     -0.210088724079     -0.40317887462      
3200000000.0        -0.220803396362     -0.410472580083     0.779094841896      -0.418173546887     0.779094841896      -0.418173546887     -0.220803396362     -0.410472580083     
3300000000.0        -0.231556986154     -0.417388587699     0.768339218731      -0.425333198914     0.768339218731      -0.425333198914     -0.231556986154     -0.417388587699     
3400000000.0        -0.242334441669     -0.423933520433     0.757559668741      -0.4321219893       0.757559668741      -0.4321219893       -0.242334441669     -0.423933520433     
3500000000.0        -0.253121475973     -0.430114554652     0.746770478646      -0.438547095822     0.746770478646      -0.438547095822     -0.253121475973     -0.430114554652     
3600000000.0        -0.263904572589     -0.43593935309      0.735985164709      -0.444616182526     0.735985164709      -0.444616182526     -0.263904572589     -0.43593935309      
3700000000.0        -0.274670986027     -0.441416000409     0.725216472211      -0.450337335289     0.725216472211      -0.450337335289     -0.274670986027     -0.441416000409     
3800000000.0        -0.285408737704     -0.446552941637     0.714476379526      -0.455719000263     0.714476379526      -0.455719000263     -0.285408737704     -0.446552941637     
3900000000.0        -0.29610660775      -0.451358923704     0.70377610632       -0.460769925418     0.70377610632       -0.460769925418     -0.29610660775      -0.451358923704     
4000000000.0        -0.306754123162     -0.455842940248     0.693126125394      -0.46549910535      0.693126125394      -0.46549910535      -0.306754123162     -0.455842940248     
4100000000.0        -0.317341542762     -0.460014179791     0.682536177726      -0.469915729464     0.682536177726      -0.469915729464     -0.317341542762     -0.460014179791     
4200000000.0        -0.327859839404     -0.463881977357     0.672015290262      -0.474029133595     0.672015290262      -0.474029133595     -0.327859839404     -0.463881977357     
4300000000.0        -0.338300679839     -0.467455769552     0.661571796056      -0.477848755092     0.661571796056      -0.477848755092     -0.338300679839     -0.467455769552     
4400000000.0        -0.348656402633     -0.47074505309      0.651213356346      -0.481384091347     0.651213356346      -0.481384091347     -0.348656402633     -0.47074505309      
4500000000.0        -0.358919994505     -0.473759346711     0.640946984219      -0.48464466172      0.640946984219      -0.48464466172      -0.358919994505     -0.473759346711     
4600000000.0        -0.369085065415     -0.476508156425     0.630779069523      -0.487639972783     0.630779069523      -0.487639972783     -0.369085065415     -0.476508156425     
4700000000.0        -0.379145822723     -0.479000943978     0.620715404709      -0.490379486792     0.620715404709      -0.490379486792     -0.379145822723     -0.479000943978     
4800000000.0        -0.389097044683     -0.481247098425     0.610761211329      -0.49287259326      0.610761211329      -0.49287259326      -0.389097044683     -0.481247098425     
4900000000.0        -0.398934053553     -0.483255910673     0.60092116694       -0.495128583508     0.60092116694       -0.495128583508     -0.398934053553     -0.483255910673     
5000000000.0        -0.408652688513     -0.48503655086      0.591199432172      -0.497156628042     0.591199432172      -0.497156628042     -0.408652688513     -0.48503655086      
5100000000.0        -0.418249278624     -0.486598048413     0.581599677779      -0.498965756616     0.581599677779      -0.498965756616     -0.418249278624     -0.486598048413     
5200000000.0        -0.427720615986     -0.487949274626     0.572125111474      -0.500564840815     0.572125111474      -0.500564840815     -0.427720615986     -0.487949274626     
5300000000.0        -0.437063929245     -0.489098927607     0.562778504426      -0.501962579        0.562778504426      -0.501962579        -0.437063929245     -0.489098927607     
5400000000.0        -0.446276857603     -0.490055519426     0.553562217249      -0.503167483462     0.553562217249      -0.503167483462     -0.446276857603     -0.490055519426     
5500000000.0        -0.455357425409     -0.490827365314     0.544478225409      -0.50418786962      0.544478225409      -0.50418786962      -0.455357425409     -0.490827365314     
5600000000.0        -0.464304017454     -0.491422574744     0.535528143935      -0.50503184711      0.535528143935      -0.50503184711      -0.464304017454     -0.491422574744     
5700000000.0        -0.473115355022     -0.491849044255     0.526713251359      -0.505707312606     0.526713251359      -0.505707312606     -0.473115355022     -0.491849044255     
5800000000.0        -0.48179047277      -0.492114451871     0.518034512843      -0.506221944241     0.518034512843      -0.506221944241     -0.48179047277      -0.492114451871     
5900000000.0        -0.490328696482     -0.492226252957     0.50949260242       -0.506583197469     0.50949260242       -0.506583197469     -0.490328696482     -0.492226252957     
6000000000.0        -0.498729621725     -0.4921916774       0.501087924346      -0.506798302244     0.501087924346      -0.506798302244     -0.498729621725     -0.4921916774       
6100000000.0        -0.506993093428     -0.492017727972     0.492820633509      -0.506874261387     0.492820633509      -0.506874261387     -0.506993093428     -0.492017727972     
6200000000.0        -0.515119186408     -0.491711179758     0.484690654914      -0.506817850014     0.484690654914      -0.506817850014     -0.515119186408     -0.491711179758     
6300000000.0        -0.523108186836     -0.491278580535     0.47669770221       -0.506635615919     0.47669770221       -0.506635615919     -0.523108186836     -0.491278580535     
6400000000.0        -0.530960574643     -0.490726251998     0.468841295286      -0.506333880799     0.468841295286      -0.506333880799     -0.530960574643     -0.490726251998     
6500000000.0        -0.538677006862     -0.490060291727     0.461120776934      -0.505918742224     0.461120776934      -0.505918742224     -0.538677006862     -0.490060291727     
6600000000.0        -0.546258301877     -0.489286575809     0.453535328589      -0.505396076261     0.453535328589      -0.505396076261     -0.546258301877     -0.489286575809     
6700000000.0        -0.55370542458      -0.48841076203      0.446083985183      -0.504771540665     0.446083985183      -0.504771540665     -0.55370542458      -0.48841076203      
6800000000.0        -0.561019472395     -0.487438293553     0.438765649112      -0.504050578561     0.438765649112      -0.504050578561     -0.561019472395     -0.487438293553     
6900000000.0        -0.568201662155     -0.486374403017     0.431579103369      -0.503238422541     0.431579103369      -0.503238422541     -0.568201662155     -0.486374403017     
7000000000.0        -0.575253317793     -0.485224116985     0.424523023841      -0.502340099116     0.424523023841      -0.502340099116     -0.575253317793     -0.485224116985     
7100000000.0        -0.58217585883      -0.483992260681     0.417595990832      -0.501360433455     0.417595990832      -0.501360433455     -0.58217585883      -0.483992260681     
7200000000.0        -0.588970789617     -0.482683462975     0.410796499813      -0.500304054366     0.410796499813      -0.500304054366     -0.588970789617     -0.482683462975     
7300000000.0        -0.595639689304     -0.481302161544     0.404122971458      -0.499175399464     0.404122971458      -0.499175399464     -0.595639689304     -0.481302161544     
7400000000.0        -0.602184202505     -0.479852608185     0.397573760976      -0.49797872048      0.397573760976      -0.49797872048      -0.602184202505     -0.479852608185     
7500000000.0        -0.608606030623     -0.478338874232     0.391147166789      -0.496718088682     0.391147166789      -0.496718088682     -0.608606030623     -0.478338874232     
7600000000.0        -0.6149069238       -0.476764856034     0.384841438577      -0.495397400354     0.384841438577      -0.495397400354     -0.6149069238       -0.476764856034     
7700000000.0        -0.621088673468     -0.475134280485     0.378654784733      -0.494020382323     0.378654784733      -0.494020382323     -0.621088673468     -0.475134280485     
7800000000.0        -0.627153105458     -0.473450710551     0.372585379248      -0.492590597491     0.372585379248      -0.492590597491     -0.627153105458     -0.473450710551     
7900000000.0        -0.63310207365      -0.471717550786     0.366631368066      -0.491111450353     0.366631368066      -0.491111450353     -0.63310207365      -0.471717550786     
8000000000.0        -0.638937454115     -0.469938052818     0.36079087494       -0.489586192474     0.36079087494       -0.489586192474     -0.638937454115     -0.469938052818     
8100000000.0        -0.644661139738     -0.468115320767     0.35506200681       -0.488017927924     0.35506200681       -0.488017927924     -0.644661139738     -0.468115320767     
8200000000.0        -0.650275035278     -0.46625231661      0.349442858738      -0.486409618624     0.349442858738      -0.486409618624     -0.650275035278     -0.46625231661      
8300000000.0        -0.655781052855     -0.464351865441     0.343931518427      -0.484764089624     0.343931518427      -0.484764089624     -0.655781052855     -0.464351865441     
8400000000.0        -0.661181107818     -0.46241666065      0.338526070353      -0.483084034273     0.338526070353      -0.483084034273     -0.661181107818     -0.46241666065      
8500000000.0        -0.666477114983     -0.460449268991     0.333224599522      -0.481372019289     0.333224599522      -0.481372019289     -0.666477114983     -0.460449268991     
8600000000.0        -0.671670985211     -0.45845213553      0.328025194896      -0.479630489711     0.328025194896      -0.479630489711     -0.671670985211     -0.45845213553      
8700000000.0        -0.676764622307     -0.456427588482     0.322925952493      -0.477861773729     0.322925952493      -0.477861773729     -0.676764622307     -0.456427588482     
8800000000.0        -0.681759920213     -0.454377843913     0.317924978192      -0.476068087396     0.317924978192      -0.476068087396     -0.681759920213     -0.454377843913     
8900000000.0        -0.686658760477     -0.452305010316     0.313020390268      -0.474251539198     0.313020390268      -0.474251539198     -0.686658760477     -0.452305010316     
9000000000.0        -0.691463009985     -0.450211093056     0.308210321656      -0.4724141345       0.308210321656      -0.4724141345       -0.691463009985     -0.450211093056     
9100000000.0        -0.696174518923     -0.448097998673     0.303492921992      -0.470557779851     0.303492921992      -0.470557779851     -0.696174518923     -0.448097998673     
9200000000.0        -0.700795118963     -0.445967539056     0.298866359426      -0.468684287159     0.298866359426      -0.468684287159     -0.700795118963     -0.445967539056     
9300000000.0        -0.705326621655     -0.443821435478     0.294328822226      -0.466795377721     0.294328822226      -0.466795377721     -0.705326621655     -0.443821435478     
9400000000.0        -0.709770817011     -0.441661322492     0.289878520202      -0.464892686129     0.289878520202      -0.464892686129     -0.709770817011     -0.441661322492     
9500000000.0        -0.714129472254     -0.439488751697     0.285513685952      -0.462977764026     0.285513685952      -0.462977764026     -0.714129472254     -0.439488751697     
9600000000.0        -0.718404330739     -0.437305195367     0.281232575939      -0.461052083743     0.281232575939      -0.461052083743     -0.718404330739     -0.437305195367     
9700000000.0        -0.722597111016     -0.435112049949     0.277033471433      -0.459117041792     0.277033471433      -0.459117041792     -0.722597111016     -0.435112049949     
9800000000.0        -0.72670950603      -0.432910639427     0.272914679306      -0.457173962234     0.272914679306      -0.457173962234     -0.72670950603      -0.432910639427     
9900000000.0        -0.730743182454     -0.430702218569     0.268874532706      -0.455224099921     0.268874532706      -0.455224099921     -0.730743182454     -0.430702218569     
10000000000.0       -0.734699780121     -0.428487976036     0.264911391615      -0.453268643613     0.264911391615      -0.453268643613     -0.734699780121     -0.428487976036     
