# Hz S RI R 50.00 
100000000.0         0.006935751084      0.00198333741898    0.993060392203      -0.00362221377818   0.993060392203      -0.00362221377818   0.006935751084      0.00198333741898    
200000000.0         0.0070025480882     0.00396604143292    0.992988046168      -0.00724380167175   0.992988046168      -0.00724380167175   0.0070025480882     0.00396604143292    
300000000.0         0.00707163618926    0.0059481988595     0.992910716513      -0.0108648573963    0.992910716513      -0.0108648573963    0.00707163618926    0.0059481988595     
400000000.0         0.00714899506059    0.00792976098704    0.992822423324      -0.0144853377891    0.992822423324      -0.0144853377891    0.00714899506059    0.00792976098704    
500000000.0         0.00723692469809    0.00991064768571    0.992720866325      -0.0181051675901    0.992720866325      -0.0181051675901    0.00723692469809    0.00991064768571    
600000000.0         0.00733659475948    0.0118907649821     0.992604875533      -0.0217242572514    0.992604875533      -0.0217242572514    0.00733659475948    0.0118907649821     
700000000.0         0.00744869266729    0.0138700113733     0.992473763159      -0.025342509371     0.992473763159      -0.025342509371     0.00744869266729    0.0138700113733     
800000000.0         0.00757366015029    0.0158482807587     0.992327087066      -0.0289598216974    0.992327087066      -0.0289598216974    0.00757366015029    0.0158482807587     
900000000.0         0.00771179856355    0.0178254640198     0.992164545448      -0.0325760887551    0.992164545448      -0.0325760887551    0.00771179856355    0.0178254640198     
1000000000.0        0.00786332227211    0.0198014499589     0.991985923448      -0.0361912028181    0.991985923448      -0.0361912028181    0.00786332227211    0.0198014499589     
1100000000.0        0.00802838832554    0.0217761259004     0.991791063484      -0.0398050545342    0.991791063484      -0.0398050545342    0.00802838832554    0.0217761259004     
1200000000.0        0.00820711413993    0.0237493780962     0.991579847569      -0.0434175333505    0.991579847569      -0.0434175333505    0.00820711413993    0.0237493780962     
1300000000.0        0.00839958862236    0.025721092014      0.991352186184      -0.0470285278152    0.991352186184      -0.0470285278152    0.00839958862236    0.025721092014      
1400000000.0        0.00860587948318    0.0276911525472     0.991108010967      -0.0506379258003    0.991108010967      -0.0506379258003    0.00860587948318    0.0276911525472     
1500000000.0        0.00882603821912    0.0296594441761     0.990847269732      -0.0542456146716    0.990847269732      -0.0542456146716    0.00882603821912    0.0296594441761     
1600000000.0        0.00906010361364    0.0316258510916     0.99056992297       -0.0578514814214    0.99056992297       -0.0578514814214    0.00906010361364    0.0316258510916     
1700000000.0        0.00930810426002    0.0335902572952     0.990275941321      -0.0614554127745    0.990275941321      -0.0614554127745    0.00930810426002    0.0335902572952     
1800000000.0        0.00957006042114    0.0355525466807     0.98996530372       -0.0650572952759    0.98996530372       -0.0650572952759    0.00957006042114    0.0355525466807     
1900000000.0        0.00984598542732    0.0375126031014     0.989637995998      -0.0686570153636    0.989637995998      -0.0686570153636    0.00984598542732    0.0375126031014     
2000000000.0        0.0101358867451     0.0394703104279     0.98929400981       -0.0722544594301    0.98929400981       -0.0722544594301    0.0101358867451     0.0394703104279     
2100000000.0        0.0104397668072     0.0414255525976     0.988933341811      -0.0758495138758    0.988933341811      -0.0758495138758    0.0104397668072     0.0414255525976     
2200000000.0        0.0107576236659     0.0433782136578     0.988555993001      -0.079442065156     0.988555993001      -0.079442065156     0.0107576236659     0.0433782136578     
2300000000.0        0.0110894515138     0.0453281778046     0.988161968201      -0.083031999822     0.988161968201      -0.083031999822     0.0110894515138     0.0453281778046     
2400000000.0        0.0114352411035     0.0472753294165     0.987751275638      -0.0866192045584    0.987751275638      -0.0866192045584    0.0114352411035     0.0472753294165     
2500000000.0        0.0117949800903     0.0492195530866     0.987323926601      -0.0902035662167    0.987323926601      -0.0902035662167    0.0117949800903     0.0492195530866     
2600000000.0        0.012168653313      0.0511607336503     0.986879935159      -0.0937849718462    0.986879935159      -0.0937849718462    0.012168653313      0.0511607336503     
2700000000.0        0.0125562430278     0.0530987562123     0.98641931793       -0.097363308722     0.98641931793       -0.097363308722     0.0125562430278     0.0530987562123     
2800000000.0        0.012957729104      0.055033506171      0.985942093883      -0.100938464372     0.985942093883      -0.100938464372     0.012957729104      0.055033506171      
2900000000.0        0.013373089189      0.0569648692416     0.985448284175      -0.104510326601     0.985448284175      -0.104510326601     0.013373089189      0.0569648692416     
3000000000.0        0.0138022988487     0.0588927314774     0.98493791201       -0.108078783514     0.98493791201       -0.108078783514     0.0138022988487     0.0588927314774     
3100000000.0        0.0142453316878     0.060816979291      0.98441100252       -0.111643723539     0.98441100252       -0.111643723539     0.0142453316878     0.060816979291      
3200000000.0        0.0147021594535     0.0627374994737     0.983867582658      -0.115205035447     0.983867582658      -0.115205035447     0.0147021594535     0.0627374994737     
3300000000.0        0.0151727521258     0.0646541792138     0.983307681113      -0.118762608371     0.983307681113      -0.118762608371     0.0151727521258     0.0646541792138     
3400000000.0        0.015657077996      0.0665669061152     0.982731328226      -0.122316331829     0.982731328226      -0.122316331829     0.015657077996      0.0665669061152     
3500000000.0        0.0161551037363     0.0684755682146     0.982138555927      -0.125866095736     0.982138555927      -0.125866095736     0.0161551037363     0.0684755682146     
3600000000.0        0.0166667944611     0.0703800539978     0.981529397667      -0.129411790429     0.981529397667      -0.129411790429     0.0166667944611     0.0703800539978     
3700000000.0        0.0171921137816     0.0722802524165     0.98090388837       -0.132953306679     0.98090388837       -0.132953306679     0.0171921137816     0.0722802524165     
3800000000.0        0.017731023855      0.0741760529034     0.980262064378      -0.136490535707     0.980262064378      -0.136490535707     0.017731023855      0.0741760529034     
3900000000.0        0.0182834854287     0.0760673453879     0.979603963412      -0.140023369204     0.979603963412      -0.140023369204     0.0182834854287     0.0760673453879     
4000000000.0        0.0188494578802     0.0779540203107     0.978929624529      -0.143551699345     0.978929624529      -0.143551699345     0.0188494578802     0.0779540203107     
4100000000.0        0.0194288992538     0.0798359686383     0.978239088086      -0.147075418801     0.978239088086      -0.147075418801     0.0194288992538     0.0798359686383     
4200000000.0        0.0200217662943     0.0817130818771     0.977532395708      -0.15059442076      0.977532395708      -0.15059442076      0.0200217662943     0.0817130818771     
4300000000.0        0.0206280144775     0.0835852520872     0.976809590254      -0.154108598934     0.976809590254      -0.154108598934     0.0206280144775     0.0835852520872     
4400000000.0        0.0212475980394     0.0854523718958     0.976070715795      -0.15761784758      0.976070715795      -0.15761784758      0.0212475980394     0.0854523718958     
4500000000.0        0.0218804700025     0.0873143345104     0.975315817577      -0.161122061508     0.975315817577      -0.161122061508     0.0218804700025     0.0873143345104     
4600000000.0        0.0225265822012     0.0891710337313     0.974544942007      -0.164621136099     0.974544942007      -0.164621136099     0.0225265822012     0.0891710337313     
4700000000.0        0.0231858853051     0.091022363965      0.973758136622      -0.168114967313     0.973758136622      -0.168114967313     0.0231858853051     0.091022363965      
4800000000.0        0.0238583288413     0.0928682202356     0.972955450069      -0.171603451708     0.972955450069      -0.171603451708     0.0238583288413     0.0928682202356     
4900000000.0        0.0245438612158     0.0947084981974     0.972136932087      -0.175086486447     0.972136932087      -0.175086486447     0.0245438612158     0.0947084981974     
5000000000.0        0.0252424297333     0.0965430941467     0.97130263348       -0.178563969312     0.97130263348       -0.178563969312     0.0252424297333     0.0965430941467     
5100000000.0        0.025953980617      0.0983719050332     0.970452606106      -0.182035798718     0.970452606106      -0.182035798718     0.025953980617      0.0983719050332     
5200000000.0        0.0266784590266     0.100194828471      0.969586902852      -0.185501873722     0.969586902852      -0.185501873722     0.0266784590266     0.100194828471      
5300000000.0        0.0274158090769     0.102011762752      0.968705577618      -0.188962094037     0.968705577618      -0.188962094037     0.0274158090769     0.102011762752      
5400000000.0        0.0281659738545     0.103822606851      0.967808685303      -0.192416360039     0.967808685303      -0.192416360039     0.0281659738545     0.103822606851      
5500000000.0        0.028928895435      0.105627260445      0.966896281782      -0.195864572783     0.966896281782      -0.195864572783     0.028928895435      0.105627260445      
5600000000.0        0.0297045148992     0.107425623916      0.965968423896      -0.19930663401      0.965968423896      -0.19930663401      0.0297045148992     0.107425623916      
5700000000.0        0.0304927723492     0.109217598365      0.965025169433      -0.202742446161     0.965025169433      -0.202742446161     0.0304927723492     0.109217598365      
5800000000.0        0.0312936069241     0.11100308562       0.96406657711       -0.206171912384     0.96406657711       -0.206171912384     0.0312936069241     0.11100308562       
5900000000.0        0.0321069568151     0.112781988249      0.963092706563      -0.209594936545     0.963092706563      -0.209594936545     0.0321069568151     0.112781988249      
6000000000.0        0.0329327592808     0.114554209567      0.96210361833       -0.213011423238     0.96210361833       -0.213011423238     0.0329327592808     0.114554209567      
6100000000.0        0.0337709506619     0.116319653645      0.961099373832      -0.216421277796     0.961099373832      -0.216421277796     0.0337709506619     0.116319653645      
6200000000.0        0.0346214663959     0.118078225321      0.960080035365      -0.219824406299     0.960080035365      -0.219824406299     0.0346214663959     0.118078225321      
6300000000.0        0.0354842410316     0.119829830207      0.959045666083      -0.223220715582     0.959045666083      -0.223220715582     0.0354842410316     0.119829830207      
6400000000.0        0.0363592082432     0.121574374701      0.95799632998       -0.226610113247     0.95799632998       -0.226610113247     0.0363592082432     0.121574374701      
6500000000.0        0.0372463008446     0.123311765991      0.956932091883      -0.22999250767      0.956932091883      -0.22999250767      0.0372463008446     0.123311765991      
6600000000.0        0.0381454508032     0.125041912068      0.955853017432      -0.233367808008     0.955853017432      -0.233367808008     0.0381454508032     0.125041912068      
6700000000.0        0.0390565892544     0.126764721731      0.954759173069      -0.23673592421      0.954759173069      -0.23673592421      0.0390565892544     0.126764721731      
6800000000.0        0.0399796465145     0.128480104595      0.953650626023      -0.240096767026     0.953650626023      -0.240096767026     0.0399796465145     0.128480104595      
6900000000.0        0.0409145520953     0.1301879711        0.952527444298      -0.243450248009     0.952527444298      -0.243450248009     0.0409145520953     0.1301879711        
7000000000.0        0.0418612347171     0.131888232521      0.951389696657      -0.24679627953      0.951389696657      -0.24679627953      0.0418612347171     0.131888232521      
7100000000.0        0.0428196223227     0.133580800967      0.950237452612      -0.250134774781     0.950237452612      -0.250134774781     0.0428196223227     0.133580800967      
7200000000.0        0.0437896420909     0.1352655894        0.949070782404      -0.253465647784     0.949070782404      -0.253465647784     0.0437896420909     0.1352655894        
7300000000.0        0.0447712204497     0.136942511631      0.947889756999      -0.256788813396     0.947889756999      -0.256788813396     0.0447712204497     0.136942511631      
7400000000.0        0.04576428309       0.138611482332      0.946694448065      -0.260104187319     0.946694448065      -0.260104187319     0.04576428309       0.138611482332      
7500000000.0        0.046768754979      0.140272417045      0.945484927965      -0.263411686105     0.945484927965      -0.263411686105     0.046768754979      0.140272417045      
7600000000.0        0.0477845603733     0.141925232181      0.944261269741      -0.266711227162     0.944261269741      -0.266711227162     0.0477845603733     0.141925232181      
7700000000.0        0.0488116228326     0.143569845033      0.943023547102      -0.270002728761     0.943023547102      -0.270002728761     0.0488116228326     0.143569845033      
7800000000.0        0.0498498652327     0.14520617378       0.941771834409      -0.273286110041     0.941771834409      -0.273286110041     0.0498498652327     0.14520617378       
7900000000.0        0.0508992097788     0.14683413749       0.940506206662      -0.276561291017     0.940506206662      -0.276561291017     0.0508992097788     0.14683413749       
8000000000.0        0.0519595780191     0.148453656128      0.939226739491      -0.279828192584     0.939226739491      -0.279828192584     0.0519595780191     0.148453656128      
8100000000.0        0.0530308908575     0.150064650562      0.937933509135      -0.283086736521     0.937933509135      -0.283086736521     0.0530308908575     0.150064650562      
8200000000.0        0.0541130685671     0.151667042566      0.936626592435      -0.2863368455       0.936626592435      -0.2863368455       0.0541130685671     0.151667042566      
8300000000.0        0.0552060308033     0.153260754828      0.93530606682       -0.289578443089     0.93530606682       -0.289578443089     0.0552060308033     0.153260754828      
8400000000.0        0.0563096966173     0.15484571095       0.933972010291      -0.292811453755     0.933972010291      -0.292811453755     0.0563096966173     0.15484571095       
8500000000.0        0.0574239844685     0.156421835458      0.932624501411      -0.296035802873     0.932624501411      -0.296035802873     0.0574239844685     0.156421835458      
8600000000.0        0.0585488122382     0.157989053802      0.931263619288      -0.299251416725     0.931263619288      -0.299251416725     0.0585488122382     0.157989053802      
8700000000.0        0.0596840972428     0.159547292364      0.929889443568      -0.302458222509     0.929889443568      -0.302458222509     0.0596840972428     0.159547292364      
8800000000.0        0.0608297562463     0.161096478457      0.928502054415      -0.305656148341     0.928502054415      -0.305656148341     0.0608297562463     0.161096478457      
8900000000.0        0.0619857054738     0.162636540333      0.927101532504      -0.308845123258     0.927101532504      -0.308845123258     0.0619857054738     0.162636540333      
9000000000.0        0.0631518606245     0.164167407187      0.925687959003      -0.312025077224     0.925687959003      -0.312025077224     0.0631518606245     0.164167407187      
9100000000.0        0.0643281368844     0.165689009157      0.924261415564      -0.315195941131     0.924261415564      -0.315195941131     0.0643281368844     0.165689009157      
9200000000.0        0.0655144489396     0.167201277329      0.922821984307      -0.318357646803     0.922821984307      -0.318357646803     0.0655144489396     0.167201277329      
9300000000.0        0.0667107109893     0.16870414374       0.921369747809      -0.321510127001     0.921369747809      -0.321510127001     0.0667107109893     0.16870414374       
9400000000.0        0.0679168367583     0.17019754138       0.919904789089      -0.324653315423     0.919904789089      -0.324653315423     0.0679168367583     0.17019754138       
9500000000.0        0.0691327395105     0.171681404198      0.918427191599      -0.327787146707     0.918427191599      -0.327787146707     0.0691327395105     0.171681404198      
9600000000.0        0.0703583320611     0.1731556671        0.916937039206      -0.330911556437     0.916937039206      -0.330911556437     0.0703583320611     0.1731556671        
9700000000.0        0.07159352679       0.174620265951      0.915434416182      -0.334026481141     0.915434416182      -0.334026481141     0.07159352679       0.174620265951      
9800000000.0        0.0728382356543     0.176075137585      0.913919407194      -0.337131858294     0.913919407194      -0.337131858294     0.0728382356543     0.176075137585      
9900000000.0        0.0740923702012     0.177520219795      0.912392097283      -0.340227626322     0.912392097283      -0.340227626322     0.0740923702012     0.177520219795      
10000000000.0       0.0753558415806     0.178955451344      0.91085257186       -0.343313724603     0.91085257186       -0.343313724603     0.0753558415806     0.178955451344      
