# Hz S RI R 50.00 
100000000.0         -0.0066065672655    -0.0805247831894    0.993362207717      -0.0806892595219    0.993362207717      -0.0806892595219    -0.0066065672655    -0.0805247831894    
200000000.0         -0.025795823153     -0.157908953547     0.974172697556      -0.158237989273     0.974172697556      -0.158237989273     -0.025795823153     -0.157908953547     
300000000.0         -0.0561202946094    -0.22943832049      0.943847998088      -0.229932040787     0.943847998088      -0.229932040787     -0.0561202946094    -0.22943832049      
400000000.0         -0.0954885124397    -0.293081840835     0.9044795516        -0.293740402065     0.9044795516        -0.293740402065     -0.0954885124397    -0.293081840835     
500000000.0         -0.141481661898     -0.347622958269     0.858486162464      -0.348446541883     0.858486162464      -0.348446541883     -0.141481661898     -0.347622958269     
600000000.0         -0.191672980568     -0.392635730951     0.808294587772      -0.393624539136     0.808294587772      -0.393624539136     -0.191672980568     -0.392635730951     
700000000.0         -0.243871285254     -0.428348701289     0.756096007532      -0.429502953549     0.756096007532      -0.429502953549     -0.243871285254     -0.428348701289     
800000000.0         -0.296263594273     -0.455455948359     0.703703401327      -0.456775878694     0.703703401327      -0.456775878694     -0.296263594273     -0.455455948359     
900000000.0         -0.347464706035     -0.474926936972     0.65250196925       -0.476412791481     0.65250196925       -0.476412791481     -0.347464706035     -0.474926936972     
1000000000.0        -0.396499250078     -0.487847280015     0.603467080648      -0.489499314823     0.603467080648      -0.489499314823     -0.396499250078     -0.487847280015     
1100000000.0        -0.442745054424     -0.495302959211     0.557220906625      -0.49712143867      0.557220906625      -0.49712143867      -0.442745054424     -0.495302959211     
1200000000.0        -0.485861466613     -0.498306888938     0.514104098934      -0.500292084039     0.514104098934      -0.500292084039     -0.485861466613     -0.498306888938     
1300000000.0        -0.525718251939     -0.497759829135     0.474246891692      -0.499912016121     0.474246891692      -0.499912016121     -0.525718251939     -0.497759829135     
1400000000.0        -0.562333397948     -0.494435816088     0.437631296851      -0.496755275232     0.437631296851      -0.496755275232     -0.562333397948     -0.494435816088     
1500000000.0        -0.595822936036     -0.488983241272     0.404141282577      -0.491470255799     0.404141282577      -0.491470255799     -0.595822936036     -0.488983241272     
1600000000.0        -0.626362776943     -0.481934744483     0.373600937743      -0.484589599632     0.373600937743      -0.484589599632     -0.626362776943     -0.481934744483     
1700000000.0        -0.654161034689     -0.473721197548     0.345802147981      -0.476544179747     0.345802147981      -0.476544179747     -0.654161034689     -0.473721197548     
1800000000.0        -0.679438799867     -0.464686799851     0.320523822385      -0.467678195999     0.320523822385      -0.467678195999     -0.679438799867     -0.464686799851     
1900000000.0        -0.702417356959     -0.455103580695     0.297544676179      -0.458263677549     0.297544676179      -0.458263677549     -0.702417356959     -0.455103580695     
2000000000.0        -0.723310118277     -0.445184454995     0.276651296787      -0.44851353863      0.276651296787      -0.44851353863      -0.723310118277     -0.445184454995     
2100000000.0        -0.742317895148     -0.435094506953     0.257642872631      -0.438592862313     0.257642872631      -0.438592862313     -0.742317895148     -0.435094506953     
2200000000.0        -0.759626458524     -0.424960479604     0.240333632524      -0.428628390115     0.240333632524      -0.428628390115     -0.759626458524     -0.424960479604     
2300000000.0        -0.775405621119     -0.414878605317     0.224553763533      -0.41871635257      0.224553763533      -0.41871635257      -0.775405621119     -0.414878605317     
2400000000.0        -0.789809293948     -0.404920980377     0.210149354434      -0.408928843863     0.210149354434      -0.408928843863     -0.789809293948     -0.404920980377     
2500000000.0        -0.802976136683     -0.395140703702     0.196981745355      -0.399318960599     0.196981745355      -0.399318960599     -0.802976136683     -0.395140703702     
2600000000.0        -0.815030542943     -0.385575989637     0.184926542488      -0.389924914644     0.184926542488      -0.389924914644     -0.815030542943     -0.385575989637     
2700000000.0        -0.826083788524     -0.376253442203     0.173872469855      -0.380773307415     0.173872469855      -0.380773307415     -0.826083788524     -0.376253442203     
2800000000.0        -0.836235231418     -0.367190651389     0.163720169289      -0.371881726204     0.163720169289      -0.371881726204     -0.836235231418     -0.367190651389     
2900000000.0        -0.84557349431      -0.358398245559     0.154381017939      -0.363260796623     0.154381017939      -0.363260796623     -0.84557349431      -0.358398245559     
3000000000.0        -0.854177588597     -0.349881509963     0.145776004242      -0.354915801138     0.145776004242      -0.354915801138     -0.854177588597     -0.349881509963     
3100000000.0        -0.862117957798     -0.341641660436     0.137834684525      -0.346847952795     0.137834684525      -0.346847952795     -0.862117957798     -0.341641660436     
3200000000.0        -0.869457430476     -0.333676843839     0.130494230069      -0.339055395683     0.130494230069      -0.339055395683     -0.869457430476     -0.333676843839     
3300000000.0        -0.876252080602     -0.325982922364     0.123698566757      -0.331533989258     0.123698566757      -0.331533989258     -0.876252080602     -0.325982922364     
3400000000.0        -0.882551997953     -0.318554087105     0.117397604668      -0.324277921924     0.117397604668      -0.324277921924     -0.882551997953     -0.318554087105     
3500000000.0        -0.888401973905     -0.311383336863     0.111546552281      -0.317280189865     0.111546552281      -0.317280189865     -0.888401973905     -0.311383336863     
3600000000.0        -0.893842109333     -0.304462850684     0.106105308585      -0.310532969585     0.106105308585      -0.310532969585     -0.893842109333     -0.304462850684     
3700000000.0        -0.898908351857     -0.297784276596     0.101037925824      -0.304027906655     0.101037925824      -0.304027906655     -0.898908351857     -0.297784276596     
3800000000.0        -0.903632969703     -0.291338954324     0.0963121356391     -0.297756338441     0.0963121356391     -0.297756338441     -0.903632969703     -0.291338954324     
3900000000.0        -0.908044969117     -0.285118086011     0.0918989316519     -0.291709464832     0.0918989316519     -0.291709464832     -0.908044969117     -0.285118086011     
4000000000.0        -0.912170461801     -0.279112866019     0.0877722020312     -0.285878478042     0.0877722020312     -0.285878478042     -0.912170461801     -0.279112866019     
4100000000.0        -0.916032988272     -0.273314578554     0.0839084061322     -0.280254660246     0.0839084061322     -0.280254660246     -0.916032988272     -0.273314578554     
4200000000.0        -0.919653802462     -0.267714670039     0.0802862898975     -0.274829455951     0.0802862898975     -0.274829455951     -0.919653802462     -0.267714670039     
4300000000.0        -0.923052122298     -0.262304801687     0.0768866352742     -0.269594524572     0.0768866352742     -0.269594524572     -0.923052122298     -0.262304801687     
4400000000.0        -0.926245350468     -0.257076886594     0.0736920394489     -0.264541777533     0.0736920394489     -0.264541777533     -0.926245350468     -0.257076886594     
4500000000.0        -0.929249269076     -0.252023114777     0.0706867201957     -0.259663403299     0.0706867201957     -0.259663403299     -0.929249269076     -0.252023114777     
4600000000.0        -0.932078211421     -0.247135968851     0.0678563440924     -0.254951883057     0.0678563440924     -0.254951883057     -0.932078211421     -0.247135968851     
4700000000.0        -0.934745213763     -0.242408232475     0.0651878747571     -0.250399999162     0.0651878747571     -0.250399999162     -0.934745213763     -0.242408232475     
4800000000.0        -0.937262149546     -0.237832993272     0.0626694386221     -0.246000838056     0.0626694386221     -0.246000838056     -0.937262149546     -0.237832993272     
4900000000.0        -0.93963984826      -0.233403641541     0.0602902060754     -0.241747788977     0.0602902060754     -0.241747788977     -0.93963984826      -0.233403641541     
5000000000.0        -0.941888200823     -0.229113865819     0.0580402860793     -0.237634539525     0.0580402860793     -0.237634539525     -0.941888200823     -0.229113865819     
5100000000.0        -0.944016253129     -0.224957646127     0.0559106326163     -0.233655068901     0.0559106326163     -0.233655068901     -0.944016253129     -0.224957646127     
5200000000.0        -0.946032289214     -0.220929245539     0.053892961527      -0.229803639479     0.053892961527      -0.229803639479     -0.946032289214     -0.220929245539     
5300000000.0        -0.947943905284     -0.217023200596     0.0519796764851     -0.226074787214     0.0519796764851     -0.226074787214     -0.947943905284     -0.217023200596     
5400000000.0        -0.949758075686     -0.21323431096      0.0501638030176     -0.222463311297     0.0501638030176     -0.222463311297     -0.949758075686     -0.21323431096      
5500000000.0        -0.951481211807     -0.209557628614     0.048438929617      -0.218964263349     0.048438929617      -0.218964263349     -0.951481211807     -0.209557628614     
5600000000.0        -0.953119214693     -0.205988446849     0.0467991551093     -0.215572936414     0.0467991551093     -0.215572936414     -0.953119214693     -0.205988446849     
5700000000.0        -0.954677522163     -0.202522289227     0.0452390415533     -0.212284853907     0.0452390415533     -0.212284853907     -0.954677522163     -0.202522289227     
5800000000.0        -0.956161151008     -0.199154898643     0.0437535720299     -0.209095758687     0.0437535720299     -0.209095758687     -0.956161151008     -0.199154898643     
5900000000.0        -0.957574734875     -0.195882226612     0.0423381127655     -0.20600160233      0.0423381127655     -0.20600160233      -0.957574734875     -0.195882226612     
6000000000.0        -0.958922558298     -0.192700422831     0.0409883790985     -0.202998534694     0.0409883790985     -0.202998534694     -0.958922558298     -0.192700422831     
6100000000.0        -0.960208587317     -0.189605825086     0.0397004048593     -0.200082893827     0.0397004048593     -0.200082893827     -0.960208587317     -0.189605825086     
6200000000.0        -0.961436497064     -0.18659494954      0.0384705147861     -0.197251196244     0.0384705147861     -0.197251196244     -0.961436497064     -0.18659494954      
6300000000.0        -0.962609696642     -0.183664481415     0.0372952996429     -0.194500127614     0.0372952996429     -0.194500127614     -0.962609696642     -0.183664481415     
6400000000.0        -0.9637313516       -0.180811266091     0.0361715937482     -0.191826533852     0.0361715937482     -0.191826533852     -0.9637313516       -0.180811266091     
6500000000.0        -0.96480440425      -0.178032300616     0.035096454655      -0.189227412627     0.035096454655      -0.189227412627     -0.96480440425      -0.178032300616     
6600000000.0        -0.965831592068     -0.175324725634     0.0340671447525     -0.186699905292     0.0340671447525     -0.186699905292     -0.965831592068     -0.175324725634     
6700000000.0        -0.966815464365     -0.172685817725     0.0330811145911     -0.184241289215     0.0330811145911     -0.184241289215     -0.966815464365     -0.172685817725     
6800000000.0        -0.967758397425     -0.170112982133     0.0321359877475     -0.181848970512     0.0321359877475     -0.181848970512     -0.967758397425     -0.170112982133     
6900000000.0        -0.968662608256     -0.167603745894     0.0312295470747     -0.179520477164     0.0312295470747     -0.179520477164     -0.968662608256     -0.167603745894     
7000000000.0        -0.969530167092     -0.165155751325     0.0303597221946     -0.177253452513     0.0303597221946     -0.177253452513     -0.969530167092     -0.165155751325     
7100000000.0        -0.970363008788     -0.162766749872     0.0295245781086     -0.175045649101     0.0295245781086     -0.175045649101     -0.970363008788     -0.162766749872     
7200000000.0        -0.9711629432       -0.160434596308     0.0287223048147     -0.172894922868     0.0287223048147     -0.172894922868     -0.9711629432       -0.160434596308     
7300000000.0        -0.971931664661     -0.158157243241     0.0279512078317     -0.170799227664     0.0279512078317     -0.170799227664     -0.971931664661     -0.158157243241     
7400000000.0        -0.972670760637     -0.15593273595      0.0272096995433     -0.168756610069     0.0272096995433     -0.168756610069     -0.972670760637     -0.15593273595      
7500000000.0        -0.973381719647     -0.153759207494     0.0264962912808     -0.166765204514     0.0264962912808     -0.166765204514     -0.973381719647     -0.153759207494     
7600000000.0        -0.974065938503     -0.151634874115     0.0258095860764     -0.164823228677     0.0258095860764     -0.164823228677     -0.974065938503     -0.151634874115     
7700000000.0        -0.974724728958     -0.149558030892     0.0251482720218     -0.162928979135     0.0251482720218     -0.162928979135     -0.974724728958     -0.149558030892     
7800000000.0        -0.975359323794     -0.147527047653     0.0245111161765     -0.161080827271     0.0245111161765     -0.161080827271     -0.975359323794     -0.147527047653     
7900000000.0        -0.975970882419     -0.145540365108     0.0238969589748     -0.159277215413     0.0238969589748     -0.159277215413     -0.975970882419     -0.145540365108     
8000000000.0        -0.976560496        -0.143596491216     0.0233047090854     -0.157516653194     0.0233047090854     -0.157516653194     -0.976560496        -0.143596491216     
8100000000.0        -0.977129192198     -0.141693997747     0.0227333386835     -0.155797714113     0.0227333386835     -0.155797714113     -0.977129192198     -0.141693997747     
8200000000.0        -0.977677939518     -0.139831517047     0.0221818790967     -0.154119032301     0.0221818790967     -0.154119032301     -0.977677939518     -0.139831517047     
8300000000.0        -0.978207651324     -0.138007738986     0.021649416794      -0.152479299464     0.021649416794      -0.152479299464     -0.978207651324     -0.138007738986     
8400000000.0        -0.978719189534     -0.136221408072     0.021135089685      -0.150877261998     0.021135089685      -0.150877261998     -0.978719189534     -0.136221408072     
8500000000.0        -0.979213368039     -0.134471320737     0.0206380837043     -0.149311718275     0.0206380837043     -0.149311718275     -0.979213368039     -0.134471320737     
8600000000.0        -0.979690955861     -0.132756322767     0.0201576296556     -0.14778151607      0.0201576296556     -0.14778151607      -0.979690955861     -0.132756322767     
8700000000.0        -0.980152680066     -0.131075306883     0.0196930002933     -0.146285550138     0.0196930002933     -0.146285550138     -0.980152680066     -0.131075306883     
8800000000.0        -0.980599228469     -0.129427210449     0.0192435076223     -0.144822759929     0.0192435076223     -0.144822759929     -0.980599228469     -0.129427210449     
8900000000.0        -0.981031252132     -0.127811013315     0.0188085003967     -0.14339212742      0.0188085003967     -0.14339212742      -0.981031252132     -0.127811013315     
9000000000.0        -0.981449367685     -0.126225735773     0.0183873618012     -0.141992675078     0.0183873618012     -0.141992675078     -0.981449367685     -0.126225735773     
9100000000.0        -0.981854159473     -0.124670436626     0.0179795073009     -0.140623463924     0.0179795073009     -0.140623463924     -0.981854159473     -0.124670436626     
9200000000.0        -0.982246181557     -0.123144211365     0.0175843826451     -0.13928359171      0.0175843826451     -0.13928359171      -0.982246181557     -0.123144211365     
9300000000.0        -0.982625959563     -0.121646190443     0.0172014620123     -0.137972191192     0.0172014620123     -0.137972191192     -0.982625959563     -0.121646190443     
9400000000.0        -0.982993992413     -0.120175537641     0.0168302462866     -0.136688428495     0.0168302462866     -0.136688428495     -0.982993992413     -0.120175537641     
9500000000.0        -0.983350753921     -0.118731448526     0.0164702614534     -0.135431501571     0.0164702614534     -0.135431501571     -0.983350753921     -0.118731448526     
9600000000.0        -0.983696694291     -0.117313148985     0.0161210571063     -0.134200638733     0.0161210571063     -0.134200638733     -0.983696694291     -0.117313148985     
9700000000.0        -0.984032241509     -0.115919893841     0.0157822050555     -0.132995097267     0.0157822050555     -0.132995097267     -0.984032241509     -0.115919893841     
9800000000.0        -0.984357802637     -0.114550965543     0.0154532980316     -0.131814162123     0.0154532980316     -0.131814162123     -0.984357802637     -0.114550965543     
9900000000.0        -0.984673765023     -0.113205672919     0.0151339484749     -0.13065714467      0.0151339484749     -0.13065714467      -0.984673765023     -0.113205672919     
10000000000.0       -0.984980497435     -0.111883349999     0.0148237874065     -0.129523381516     0.0148237874065     -0.129523381516     -0.984980497435     -0.111883349999     
