# Hz S RI R 50.00 
100000000.0         0.011713329907      0.00228382155436    0.988282835443      -0.00390150249024   0.988282835443      -0.00390150249024   0.011713329907      0.00228382155436    
200000000.0         0.0118164819437     0.00456652373178    0.988174221293      -0.0078019007796    0.988174221293      -0.0078019007796    0.0118164819437     0.00456652373178    
300000000.0         0.0119171312549     0.00684833001697    0.988065482088      -0.0117014295945    0.988065482088      -0.0117014295945    0.0119171312549     0.00684833001697    
400000000.0         0.0120253433179     0.00912921069092    0.987946551998      -0.0156000683097    0.987946551998      -0.0156000683097    0.0120253433179     0.00912921069092    
500000000.0         0.0121449922182     0.0114090772335     0.98781355653       -0.0194977364147    0.98781355653       -0.0194977364147    0.0121449922182     0.0114090772335     
600000000.0         0.0122780496545     0.0136878151769     0.987664523522      -0.0233943267411    0.987664523522      -0.0233943267411    0.0122780496545     0.0136878151769     
700000000.0         0.0124256755806     0.0159652959175     0.987498292504      -0.0272897174649    0.987498292504      -0.0272897174649    0.0124256755806     0.0159652959175     
800000000.0         0.0125886163536     0.0182413822044     0.987314116548      -0.0311837777094    0.987314116548      -0.0311837777094    0.0125886163536     0.0182413822044     
900000000.0         0.0127673820487     0.0205159310968     0.987111484954      -0.0350763705776    0.987111484954      -0.0350763705776    0.0127673820487     0.0205159310968     
1000000000.0        0.0129623363539     0.0227887957227     0.986890033358      -0.0389673549644    0.986890033358      -0.0389673549644    0.0129623363539     0.0227887957227     
1100000000.0        0.0131737465509     0.0250598264038     0.986649493749      -0.04285658672      0.986649493749      -0.04285658672      0.0131737465509     0.0250598264038     
1200000000.0        0.0134018133031     0.0273288714157     0.986389664685      -0.0467439194402    0.986389664685      -0.0467439194402    0.0134018133031     0.0273288714157     
1300000000.0        0.0136466894004     0.0295957775254     0.986110392548      -0.0506292050274    0.986110392548      -0.0506292050274    0.0136466894004     0.0295957775254     
1400000000.0        0.0139084920831     0.0318603903849     0.985811559219      -0.0545122941034    0.985811559219      -0.0545122941034    0.0139084920831     0.0318603903849     
1500000000.0        0.0141873114422     0.0341225548301     0.98549307368       -0.0583930363233    0.98549307368       -0.0583930363233    0.0141873114422     0.0341225548301     
1600000000.0        0.0144832163217     0.0363821151121     0.985154866114      -0.0622712806204    0.985154866114      -0.0622712806204    0.0144832163217     0.0363821151121     
1700000000.0        0.0147962585739     0.0386389150825     0.984796883645      -0.0661468754017    0.984796883645      -0.0661468754017    0.0147962585739     0.0386389150825     
1800000000.0        0.0151264761967     0.0408927983439     0.984419087209      -0.0700196687083    0.984419087209      -0.0700196687083    0.0151264761967     0.0408927983439     
1900000000.0        0.0154738956927     0.0431436083742     0.984021449188      -0.073889508348     0.984021449188      -0.073889508348     0.0154738956927     0.0431436083742     
2000000000.0        0.0158385338737     0.0453911886327     0.983603951611      -0.0777562420078    0.983603951611      -0.0777562420078    0.0158385338737     0.0453911886327     
2100000000.0        0.0162203992614     0.0476353826502     0.98316658475       -0.0816197173506    0.98316658475       -0.0816197173506    0.0162203992614     0.0476353826502     
2200000000.0        0.0166194931918     0.049876034108      0.982709346021      -0.0854797820998    0.982709346021      -0.0854797820998    0.0166194931918     0.049876034108      
2300000000.0        0.0170358106954     0.0521129869069     0.982232239099      -0.089336284113     0.982232239099      -0.089336284113     0.0170358106954     0.0521129869069     
2400000000.0        0.0174693412068     0.0543460852298     0.981735273212      -0.0931890714489    0.981735273212      -0.0931890714489    0.0174693412068     0.0543460852298     
2500000000.0        0.0179200691439     0.0565751735969     0.981218462561      -0.0970379924269    0.981218462561      -0.0970379924269    0.0179200691439     0.0565751735969     
2600000000.0        0.0183879743843     0.0588000969173     0.980681825845      -0.100882895682     0.980681825845      -0.100882895682     0.0183879743843     0.0588000969173     
2700000000.0        0.0188730326612     0.0610207005351     0.980125385865      -0.104723630214     0.980125385865      -0.104723630214     0.0188730326612     0.0610207005351     
2800000000.0        0.019375215895      0.0632368302732     0.979549169189      -0.108560045434     0.979549169189      -0.108560045434     0.019375215895      0.0632368302732     
2900000000.0        0.0198944924738     0.065448332473      0.978953205881      -0.112391991208     0.978953205881      -0.112391991208     0.0198944924738     0.065448332473      
3000000000.0        0.0204308274917     0.0676550540329     0.978337529254      -0.116219317898     0.978337529254      -0.116219317898     0.0204308274916     0.0676550540329     
3100000000.0        0.0209841829532     0.0698568424435     0.977702175668      -0.120041876396     0.977702175668      -0.120041876396     0.0209841829532     0.0698568424435     
3200000000.0        0.0215545179506     0.0720535458214     0.977047184357      -0.123859518165     0.977047184357      -0.123859518165     0.0215545179506     0.0720535458214     
3300000000.0        0.0221417888172     0.0742450129415     0.976372597273      -0.127672095271     0.976372597273      -0.127672095271     0.0221417888172     0.0742450129415     
3400000000.0        0.0227459492617     0.0764310932676     0.97567845895       -0.131479460413     0.97567845895       -0.131479460413     0.0227459492617     0.0764310932676     
3500000000.0        0.0233669504876     0.0786116369815     0.974964816388      -0.13528146696      0.974964816388      -0.13528146696      0.0233669504876     0.0786116369815     
3600000000.0        0.0240047412977     0.0807864950116     0.974231718948      -0.139077968973     0.974231718948      -0.139077968973     0.0240047412977     0.0807864950116     
3700000000.0        0.0246592681884     0.0829555190597     0.973479218258      -0.142868821241     0.973479218258      -0.142868821241     0.0246592681884     0.0829555190597     
3800000000.0        0.0253304754339     0.0851185616277     0.972707368127      -0.146653879305     0.972707368127      -0.146653879305     0.0253304754339     0.0851185616277     
3900000000.0        0.0260183051627     0.0872754760423     0.971916224471      -0.150432999484     0.971916224471      -0.150432999484     0.0260183051627     0.0872754760423     
4000000000.0        0.0267226974265     0.08942611648       0.971105845245      -0.154206038902     0.971105845245      -0.154206038902     0.0267226974265     0.08942611648       
4100000000.0        0.0274435902637     0.0915703379906     0.970276290377      -0.157972855515     0.970276290377      -0.157972855515     0.0274435902637     0.0915703379906     
4200000000.0        0.0281809197576     0.0937079965205     0.96942762171       -0.161733308131     0.96942762171       -0.161733308131     0.0281809197576     0.0937079965205     
4300000000.0        0.0289346200903     0.0958389489348     0.968559902953      -0.165487256436     0.968559902953      -0.165487256436     0.0289346200903     0.0958389489348     
4400000000.0        0.0297046235927     0.0979630530395     0.967673199626      -0.169234561016     0.967673199626      -0.169234561016     0.0297046235927     0.0979630530395     
4500000000.0        0.0304908607907     0.100080167602      0.966767579014      -0.172975083381     0.966767579014      -0.172975083381     0.0304908607907     0.100080167602      
4600000000.0        0.03129326045       0.102190152373      0.965843110128      -0.176708685982     0.965843110128      -0.176708685982     0.03129326045       0.102190152373      
4700000000.0        0.0321117496164     0.104292868106      0.964899863657      -0.180435232237     0.964899863657      -0.180435232237     0.0321117496164     0.104292868106      
4800000000.0        0.0329462536558     0.106388176574      0.963937911934      -0.18415458655      0.963937911934      -0.18415458655      0.0329462536558     0.106388176574      
4900000000.0        0.0337966962907     0.108475940595      0.962957328899      -0.187866614328     0.962957328899      -0.187866614328     0.0337966962907     0.108475940595      
5000000000.0        0.0346629996365     0.110556024045      0.961958190059      -0.191571182004     0.961958190059      -0.191571182004     0.0346629996365     0.110556024045      
5100000000.0        0.0355450842351     0.112628291876      0.960940572459      -0.195268157052     0.960940572459      -0.195268157052     0.0355450842351     0.112628291876      
5200000000.0        0.0364428690881     0.114692610139      0.959904554646      -0.198957408011     0.959904554646      -0.198957408011     0.0364428690881     0.114692610139      
5300000000.0        0.0373562716882     0.116748845996      0.95885021664       -0.202638804495     0.95885021664       -0.202638804495     0.0373562716882     0.116748845996      
5400000000.0        0.0382852080504     0.118796867737      0.9577776399        -0.206312217219     0.9577776399        -0.206312217219     0.0382852080504     0.118796867737      
5500000000.0        0.039229592741      0.1208365448        0.956686907298      -0.209977518007     0.956686907298      -0.209977518007     0.039229592741      0.1208365448        
5600000000.0        0.0401893389078     0.122867747784      0.955578103087      -0.213634579817     0.955578103087      -0.213634579817     0.0401893389078     0.122867747784      
5700000000.0        0.0411643583073     0.124890348463      0.954451312876      -0.217283276749     0.954451312876      -0.217283276749     0.0411643583073     0.124890348463      
5800000000.0        0.0421545613335     0.126904219806      0.953306623599      -0.220923484066     0.953306623599      -0.220923484066     0.0421545613335     0.126904219806      
5900000000.0        0.0431598570444     0.128909235984      0.952144123489      -0.224555078208     0.952144123489      -0.224555078208     0.0431598570444     0.128909235984      
6000000000.0        0.0441801531892     0.130905272394      0.950963902052      -0.228177936806     0.950963902052      -0.228177936806     0.0441801531892     0.130905272394      
6100000000.0        0.0452153562344     0.132892205663      0.94976605004       -0.231791938693     0.94976605004       -0.231791938693     0.0452153562344     0.132892205663      
6200000000.0        0.0462653713899     0.134869913668      0.948550659426      -0.235396963925     0.948550659426      -0.235396963925     0.0462653713899     0.134869913668      
6300000000.0        0.0473301026344     0.136838275546      0.947317823377      -0.238992893787     0.947317823377      -0.238992893787     0.0473301026344     0.136838275546      
6400000000.0        0.0484094527409     0.138797171706      0.946067636232      -0.242579610812     0.946067636232      -0.242579610812     0.0484094527409     0.138797171706      
6500000000.0        0.0495033233018     0.140746483845      0.944800193472      -0.246156998789     0.944800193472      -0.246156998789     0.0495033233018     0.140746483845      
6600000000.0        0.0506116147535     0.142686094953      0.943515591699      -0.249724942775     0.943515591699      -0.249724942775     0.0506116147535     0.142686094953      
6700000000.0        0.051734226401      0.144615889333      0.94221392861       -0.253283329113     0.94221392861       -0.253283329113     0.051734226401      0.144615889333      
6800000000.0        0.0528710564424     0.146535752604      0.940895302975      -0.256832045434     0.940895302975      -0.256832045434     0.0528710564424     0.146535752604      
6900000000.0        0.054022001993      0.148445571716      0.939559814609      -0.260370980675     0.939559814609      -0.260370980675     0.054022001993      0.148445571716      
7000000000.0        0.0551869591093     0.150345234958      0.938207564351      -0.263900025087     0.938207564351      -0.263900025087     0.0551869591093     0.150345234958      
7100000000.0        0.0563658228131     0.152234631969      0.936838654039      -0.267419070246     0.936838654039      -0.267419070246     0.0563658228131     0.152234631969      
7200000000.0        0.0575584871149     0.154113653749      0.935453186486      -0.270928009059     0.935453186486      -0.270928009059     0.0575584871149     0.154113653749      
7300000000.0        0.0587648450376     0.155982192664      0.934051265459      -0.274426735778     0.934051265459      -0.274426735778     0.0587648450376     0.155982192664      
7400000000.0        0.0599847886404     0.157840142457      0.93263299565       -0.277915146007     0.93263299565       -0.277915146007     0.0599847886404     0.157840142457      
7500000000.0        0.0612182090415     0.159687398258      0.93119848266       -0.28139313671      0.93119848266       -0.28139313671      0.0612182090415     0.159687398258      
7600000000.0        0.062464996442      0.161523856586      0.929747832969      -0.28486060622      0.929747832969      -0.28486060622      0.062464996442      0.161523856586      
7700000000.0        0.0637250401484     0.163349415365      0.928281153918      -0.288317454245     0.928281153918      -0.288317454245     0.0637250401484     0.163349415365      
7800000000.0        0.0649982285964     0.165163973923      0.926798553683      -0.291763581879     0.926798553683      -0.291763581879     0.0649982285964     0.165163973923      
7900000000.0        0.0662844493732     0.166967433002      0.925300141253      -0.295198891606     0.925300141253      -0.295198891606     0.0662844493732     0.166967433002      
8000000000.0        0.0675835892409     0.168759694768      0.923786026406      -0.298623287304     0.923786026406      -0.298623287304     0.0675835892409     0.168759694768      
8100000000.0        0.068895534159      0.170540662811      0.922256319688      -0.302036674259     0.922256319688      -0.302036674259     0.068895534159      0.170540662811      
8200000000.0        0.0702201693071     0.172310242152      0.92071113239       -0.305438959163     0.92071113239       -0.305438959163     0.0702201693071     0.172310242152      
8300000000.0        0.0715573791075     0.174068339253      0.919150576526      -0.308830050124     0.919150576526      -0.308830050124     0.0715573791075     0.174068339253      
8400000000.0        0.0729070472479     0.175814862014      0.917574764806      -0.31220985667      0.917574764806      -0.31220985667      0.0729070472479     0.175814862014      
8500000000.0        0.0742690567037     0.177549719787      0.915983810621      -0.315578289752     0.915983810621      -0.315578289752     0.0742690567037     0.177549719787      
8600000000.0        0.0756432897601     0.17927282337       0.914377828014      -0.318935261752     0.914377828014      -0.318935261752     0.0756432897601     0.17927282337       
8700000000.0        0.0770296280348     0.180984085019      0.912756931663      -0.322280686484     0.912756931663      -0.322280686484     0.0770296280348     0.180984085019      
8800000000.0        0.0784279524998     0.182683418449      0.911121236854      -0.325614479197     0.911121236854      -0.325614479197     0.0784279524998     0.182683418449      
8900000000.0        0.0798381435035     0.184370738833      0.909470859463      -0.328936556581     0.909470859463      -0.328936556581     0.0798381435035     0.184370738833      
9000000000.0        0.0812600807928     0.186045962811      0.907805915932      -0.332246836769     0.907805915932      -0.332246836769     0.0812600807928     0.186045962811      
9100000000.0        0.0826936435346     0.187709008491      0.906126523248      -0.33554523934      0.906126523248      -0.33554523934      0.0826936435346     0.187709008491      
9200000000.0        0.0841387103381     0.189359795445      0.904432798919      -0.338831685318     0.904432798919      -0.338831685318     0.0841387103381     0.189359795445      
9300000000.0        0.0855951592759     0.190998244722      0.902724860958      -0.342106097178     0.902724860958      -0.342106097178     0.0855951592759     0.190998244722      
9400000000.0        0.0870628679059     0.192624278837      0.901002827853      -0.345368398847     0.901002827853      -0.345368398847     0.0870628679059     0.192624278837      
9500000000.0        0.0885417132923     0.194237821782      0.899266818554      -0.348618515701     0.899266818554      -0.348618515701     0.0885417132923     0.194237821782      
9600000000.0        0.0900315720275     0.195838799021      0.897516952446      -0.351856374572     0.897516952446      -0.351856374572     0.0900315720275     0.195838799021      
9700000000.0        0.0915323202528     0.197427137495      0.89575334933       -0.355081903745     0.89575334933       -0.355081903745     0.0915323202528     0.197427137495      
9800000000.0        0.0930438336795     0.199002765615      0.893976129403      -0.358295032957     0.893976129403      -0.358295032957     0.0930438336795     0.199002765615      
9900000000.0        0.0945659876103     0.200565613271      0.892185413234      -0.361495693402     0.892185413234      -0.361495693402     0.0945659876103     0.200565613271      
10000000000.0       0.0960986569595     0.202115611822      0.890381321745      -0.364683817723     0.890381321745      -0.364683817723     0.0960986569595     0.202115611822      
