# Hz S RI R 50.00 
100000000.0         1.93944491962e-05   -0.00230308018607   0.999963815029      -0.00241701628407   0.999963815029      -0.00241701628407   1.93944491962e-05   -0.00230308018607   
200000000.0         5.57959739078e-07   -0.00460609063766   0.999944581647      -0.00483396710575   0.999944581647      -0.00483396710575   5.57959739078e-07   -0.00460609063766   
300000000.0         -2.94592366923e-05  -0.00690896861724   0.999914250835      -0.00725079201718   0.999914250835      -0.00725079201718   -2.94592366922e-05  -0.00690896861724   
400000000.0         -7.06320879494e-05  -0.00921164777127   0.999872799756      -0.00966742642678   0.999872799756      -0.00966742642678   -7.06320879494e-05  -0.00921164777127   
500000000.0         -0.000122949761127  -0.0115140599003    0.999820220873      -0.0120838036378    0.999820220873      -0.0120838036378    -0.000122949761127  -0.0115140599003    
600000000.0         -0.000186405373864  -0.0138161355949    0.999756511735      -0.0144998555756    0.999756511735      -0.0144998555756    -0.000186405373864  -0.0138161355949    
700000000.0         -0.000260993376935  -0.0161178045609    0.999681672397      -0.0169155131581    0.999681672397      -0.0169155131581    -0.000260993376935  -0.0161178045609    
800000000.0         -0.000346708593154  -0.0184189958177    0.999595704492      -0.0193307065219    0.999595704492      -0.0193307065219    -0.000346708593154  -0.0184189958177    
900000000.0         -0.000443545785081  -0.0207196378333    0.999498610816      -0.0217453651752    0.999498610816      -0.0217453651752    -0.000443545785081  -0.0207196378333    
1000000000.0        -0.000551499432357  -0.0230196586202    0.999390395129      -0.0241594181059    0.999390395129      -0.0241594181059    -0.000551499432357  -0.0230196586202    
1100000000.0        -0.000670563605478  -0.0253189858077    0.999271062043      -0.0265727938635    0.999271062043      -0.0265727938635    -0.000670563605478  -0.0253189858077    
1200000000.0        -0.00080073188851   -0.0276175467022    0.99914061696       -0.0289854206259    0.99914061696       -0.0289854206259    -0.00080073188851   -0.0276175467022    
1300000000.0        -0.000941997328857  -0.0299152683335    0.998999066032      -0.0313972262516    0.998999066032      -0.0313972262516    -0.000941997328857  -0.0299152683335    
1400000000.0        -0.00109435240299   -0.0322120774942    0.998846416142      -0.0338081383236    0.998846416142      -0.0338081383236    -0.00109435240299   -0.0322120774942    
1500000000.0        -0.0012577889921    -0.034507900776     0.998682674881      -0.036218084189     0.998682674881      -0.036218084189     -0.0012577889921    -0.034507900776     
1600000000.0        -0.00143229836411   -0.0368026645979    0.998507850546      -0.0386269909904    0.998507850546      -0.0386269909904    -0.00143229836411   -0.0368026645979    
1700000000.0        -0.00161787116024   -0.0390962952341    0.99832195213       -0.0410347856965    0.99832195213       -0.0410347856965    -0.00161787116024   -0.0390962952341    
1800000000.0        -0.0018144973844    -0.041388718838     0.99812498932       -0.0434413951279    0.99812498932       -0.0434413951279    -0.0018144973844    -0.041388718838     
1900000000.0        -0.00202216639509   -0.0436798614646    0.997916972489      -0.0458467459817    0.997916972489      -0.0458467459817    -0.00202216639509   -0.0436798614646    
2000000000.0        -0.00224086689867   -0.0459696490907    0.997697912702      -0.0482507648534    0.997697912702      -0.0482507648534    -0.00224086689867   -0.0459696490907    
2100000000.0        -0.00247058694417   -0.048258007634     0.997467821709      -0.0506533782571    0.997467821709      -0.0506533782571    -0.00247058694416   -0.048258007634     
2200000000.0        -0.00271131391893   -0.0505448629711    0.997226711947      -0.0530545126453    0.997226711947      -0.0530545126453    -0.00271131391893   -0.0505448629711    
2300000000.0        -0.00296303454517   -0.0528301409545    0.996974596539      -0.0554540944263    0.996974596539      -0.0554540944263    -0.00296303454517   -0.0528301409545    
2400000000.0        -0.00322573487719   -0.0551137674286    0.99671148929       -0.0578520499823    0.99671148929       -0.0578520499823    -0.00322573487719   -0.0551137674286    
2500000000.0        -0.00349940029912   -0.0573956682451    0.996437404695      -0.0602483056847    0.996437404695      -0.0602483056847    -0.00349940029912   -0.0573956682451    
2600000000.0        -0.00378401552326   -0.0596757692781    0.996152357929      -0.0626427879105    0.996152357929      -0.0626427879105    -0.00378401552326   -0.0596757692781    
2700000000.0        -0.00407956458872   -0.0619539964382    0.995856364854      -0.0650354230574    0.995856364854      -0.0650354230574    -0.00407956458872   -0.0619539964382    
2800000000.0        -0.00438603086047   -0.0642302756857    0.995549442012      -0.0674261375573    0.995549442012      -0.0674261375573    -0.00438603086047   -0.0642302756857    
2900000000.0        -0.00470339702889   -0.0665045330448    0.995231606631      -0.0698148578913    0.995231606631      -0.0698148578913    -0.00470339702889   -0.0665045330448    
3000000000.0        -0.00503164510938   -0.0687766946162    0.99490287662       -0.0722015106031    0.99490287662       -0.0722015106031    -0.00503164510938   -0.0687766946162    
3100000000.0        -0.00537075644252   -0.0710466865897    0.994563270568      -0.0745860223119    0.994563270568      -0.0745860223119    -0.00537075644252   -0.0710466865897    
3200000000.0        -0.00572071169424   -0.0733144352565    0.994212807744      -0.0769683197252    0.994212807744      -0.0769683197252    -0.00572071169424   -0.0733144352565    
3300000000.0        -0.00608149085649   -0.0755798670218    0.993851508097      -0.0793483296522    0.993851508097      -0.0793483296522    -0.00608149085649   -0.0755798670218    
3400000000.0        -0.00645307324795   -0.0778429084155    0.993479392254      -0.0817259790147    0.993479392254      -0.0817259790147    -0.00645307324795   -0.0778429084155    
3500000000.0        -0.00683543751511   -0.080103486105     0.993096481515      -0.0841011948603    0.993096481515      -0.0841011948603    -0.00683543751511   -0.080103486105     
3600000000.0        -0.00722856163348   -0.0823615269057    0.992702797858      -0.0864739043735    0.992702797858      -0.0864739043735    -0.00722856163348   -0.0823615269057    
3700000000.0        -0.00763242290905   -0.0846169577925    0.99229836393       -0.0888440348875    0.99229836393       -0.0888440348875    -0.00763242290905   -0.0846169577925    
3800000000.0        -0.0080469979799    -0.0868697059106    0.991883203052      -0.0912115138952    0.991883203052      -0.0912115138952    -0.0080469979799    -0.0868697059106    
3900000000.0        -0.00847226281806   -0.0891196985865    0.991457339211      -0.0935762690608    0.991457339211      -0.0935762690608    -0.00847226281806   -0.0891196985865    
4000000000.0        -0.00890819273156   -0.0913668633383    0.991020797061      -0.0959382282302    0.991020797061      -0.0959382282302    -0.00890819273156   -0.0913668633383    
4100000000.0        -0.0093547623666    -0.0936111278864    0.99057360192       -0.0982973194422    0.99057360192       -0.0982973194422    -0.0093547623666    -0.0936111278864    
4200000000.0        -0.0098119457099    -0.0958524201636    0.990115779767      -0.100653470939     0.990115779767      -0.100653470939     -0.0098119457099    -0.0958524201636    
4300000000.0        -0.0102797160913    -0.0980906683251    0.989647357239      -0.103006611175     0.989647357239      -0.103006611175     -0.0102797160913    -0.0980906683251    
4400000000.0        -0.0107580461865    -0.100325800759     0.98916836163       -0.105356668831     0.98916836163       -0.105356668831     -0.0107580461865    -0.100325800759     
4500000000.0        -0.0112469080199    -0.102557746095     0.988678820885      -0.10770357282      0.988678820885      -0.10770357282      -0.0112469080199    -0.102557746095     
4600000000.0        -0.0117462729675    -0.104786433216     0.9881787636        -0.110047252299     0.9881787636        -0.110047252299     -0.0117462729675    -0.104786433216     
4700000000.0        -0.0122561117605    -0.107011791267     0.987668219015      -0.112387636679     0.987668219015      -0.112387636679     -0.0122561117605    -0.107011791267     
4800000000.0        -0.012776394488     -0.10923374966      0.987147217015      -0.114724655634     0.987147217015      -0.114724655634     -0.012776394488     -0.10923374966      
4900000000.0        -0.0133070906012    -0.111452238093     0.986615788124      -0.117058239112     0.986615788124      -0.117058239112     -0.0133070906012    -0.111452238093     
5000000000.0        -0.0138481689166    -0.11366718655      0.986073963499      -0.119388317342     0.986073963499      -0.119388317342     -0.0138481689166    -0.11366718655      
5100000000.0        -0.0143995976197    -0.115878525315     0.985521774932      -0.121714820845     0.985521774932      -0.121714820845     -0.0143995976197    -0.115878525315     
5200000000.0        -0.0149613442693    -0.118086184977     0.98495925484       -0.124037680442     0.98495925484       -0.124037680442     -0.0149613442693    -0.118086184977     
5300000000.0        -0.0155333758012    -0.120290096445     0.984386436265      -0.126356827264     0.984386436265      -0.126356827264     -0.0155333758012    -0.120290096445     
5400000000.0        -0.0161156585327    -0.122490190949     0.983803352868      -0.12867219276      0.983803352868      -0.12867219276      -0.0161156585327    -0.122490190949     
5500000000.0        -0.0167081581665    -0.124686400056     0.983210038924      -0.130983708706     0.983210038924      -0.130983708706     -0.0167081581665    -0.124686400056     
5600000000.0        -0.0173108397957    -0.126878655672     0.982606529319      -0.133291307215     0.982606529319      -0.133291307215     -0.0173108397957    -0.126878655672     
5700000000.0        -0.0179236679076    -0.129066890054     0.981992859546      -0.135594920741     0.981992859546      -0.135594920741     -0.0179236679076    -0.129066890054     
5800000000.0        -0.0185466063893    -0.131251035819     0.981369065697      -0.137894482093     0.981369065697      -0.137894482093     -0.0185466063893    -0.131251035819     
5900000000.0        -0.0191796185319    -0.133431025947     0.980735184462      -0.140189924441     0.980735184462      -0.140189924441     -0.0191796185319    -0.133431025947     
6000000000.0        -0.0198226670353    -0.135606793794     0.980091253121      -0.14248118132      0.980091253121      -0.14248118132      -0.0198226670353    -0.135606793794     
6100000000.0        -0.0204757140138    -0.1377782731       0.97943730954       -0.144768186647     0.97943730954       -0.144768186647     -0.0204757140138    -0.1377782731       
6200000000.0        -0.0211387210011    -0.139945397991     0.978773392169      -0.147050874718     0.978773392169      -0.147050874718     -0.0211387210011    -0.139945397991     
6300000000.0        -0.021811648955     -0.142108102992     0.978099540031      -0.149329180225     0.978099540031      -0.149329180225     -0.021811648955     -0.142108102992     
6400000000.0        -0.0224944582634    -0.144266323034     0.977415792719      -0.151603038257     0.977415792719      -0.151603038257     -0.0224944582634    -0.144266323034     
6500000000.0        -0.0231871087497    -0.146419993457     0.976722190392      -0.153872384312     0.976722190392      -0.153872384312     -0.0231871087497    -0.146419993457     
6600000000.0        -0.0238895596781    -0.148569050022     0.97601877377       -0.156137154301     0.97601877377       -0.156137154301     -0.0238895596781    -0.148569050022     
6700000000.0        -0.0246017697593    -0.150713428917     0.975305584123      -0.158397284558     0.975305584123      -0.158397284558     -0.0246017697593    -0.150713428917     
6800000000.0        -0.0253236971566    -0.152853066762     0.974582663272      -0.160652711845     0.974582663272      -0.160652711845     -0.0253236971566    -0.152853066762     
6900000000.0        -0.0260552994913    -0.154987900617     0.973850053578      -0.162903373357     0.973850053578      -0.162903373357     -0.0260552994913    -0.154987900617     
7000000000.0        -0.0267965338491    -0.157117867989     0.973107797939      -0.165149206737     0.973107797939      -0.165149206737     -0.0267965338491    -0.157117867989     
7100000000.0        -0.0275473567858    -0.159242906837     0.972355939782      -0.16739015007      0.972355939782      -0.16739015007      -0.0275473567858    -0.159242906837     
7200000000.0        -0.0283077243335    -0.161362955583     0.97159452306       -0.169626141903     0.97159452306       -0.169626141903     -0.0283077243335    -0.161362955583     
7300000000.0        -0.0290775920072    -0.163477953111     0.97082359224       -0.171857121241     0.97082359224       -0.171857121241     -0.0290775920072    -0.163477953111     
7400000000.0        -0.0298569148103    -0.165587838779     0.970043192303      -0.174083027558     0.970043192303      -0.174083027558     -0.0298569148103    -0.165587838779     
7500000000.0        -0.0306456472418    -0.167692552424     0.969253368735      -0.176303800804     0.969253368735      -0.176303800804     -0.0306456472418    -0.167692552424     
7600000000.0        -0.0314437433023    -0.169792034367     0.968454167519      -0.178519381407     0.968454167519      -0.178519381407     -0.0314437433023    -0.169792034367     
7700000000.0        -0.0322511565006    -0.171886225416     0.96764563513       -0.180729710282     0.96764563513       -0.180729710282     -0.0322511565006    -0.171886225416     
7800000000.0        -0.0330678398602    -0.173975066879     0.966827818529      -0.182934728838     0.966827818529      -0.182934728838     -0.0330678398602    -0.173975066879     
7900000000.0        -0.0338937459262    -0.176058500563     0.966000765156      -0.18513437898      0.966000765156      -0.18513437898      -0.0338937459262    -0.176058500563     
8000000000.0        -0.0347288267721    -0.178136468781     0.965164522922      -0.187328603117     0.965164522922      -0.187328603117     -0.0347288267721    -0.178136468781     
8100000000.0        -0.0355730340061    -0.18020891436      0.964319140203      -0.189517344165     0.964319140203      -0.189517344165     -0.0355730340061    -0.18020891436      
8200000000.0        -0.0364263187784    -0.182275780642     0.963464665834      -0.191700545556     0.963464665834      -0.191700545556     -0.0364263187784    -0.182275780642     
8300000000.0        -0.037288631788     -0.184337011493     0.9626011491        -0.19387815124      0.9626011491        -0.19387815124      -0.037288631788     -0.184337011493     
8400000000.0        -0.0381599232897    -0.186392551304     0.961728639733      -0.196050105691     0.961728639733      -0.196050105691     -0.0381599232897    -0.186392551304     
8500000000.0        -0.0390401431012    -0.188442345        0.960847187898      -0.198216353912     0.960847187898      -0.198216353912     -0.0390401431012    -0.188442345        
8600000000.0        -0.0399292406099    -0.190486338042     0.959956844195      -0.20037684144      0.959956844195      -0.20037684144      -0.0399292406099    -0.190486338042     
8700000000.0        -0.0408271647804    -0.192524476431     0.959057659642      -0.20253151435      0.959057659642      -0.20253151435      -0.0408271647804    -0.192524476431     
8800000000.0        -0.0417338641613    -0.194556706714     0.958149685678      -0.20468031926      0.958149685678      -0.20468031926      -0.0417338641613    -0.194556706714     
8900000000.0        -0.042649286893     -0.196582975989     0.957232974146      -0.206823203334     0.957232974146      -0.206823203334     -0.042649286893     -0.196582975989     
9000000000.0        -0.0435733807143    -0.198603231906     0.956307577293      -0.208960114288     0.956307577293      -0.208960114288     -0.0435733807143    -0.198603231906     
9100000000.0        -0.0445060929701    -0.200617422674     0.95537354776       -0.211091000393     0.95537354776       -0.211091000393     -0.0445060929701    -0.200617422674     
9200000000.0        -0.0454473706189    -0.202625497064     0.954430938574      -0.213215810481     0.954430938574      -0.213215810481     -0.0454473706189    -0.202625497064     
9300000000.0        -0.0463971602397    -0.204627404413     0.953479803141      -0.215334493944     0.953479803141      -0.215334493944     -0.0463971602397    -0.204627404413     
9400000000.0        -0.0473554080398    -0.206623094625     0.952520195239      -0.217447000743     0.952520195239      -0.217447000743     -0.0473554080398    -0.206623094625     
9500000000.0        -0.0483220598623    -0.208612518178     0.951552169011      -0.21955328141      0.951552169011      -0.21955328141      -0.0483220598623    -0.208612518178     
9600000000.0        -0.0492970611932    -0.210595626128     0.950575778956      -0.221653287048     0.950575778956      -0.221653287048     -0.0492970611932    -0.210595626128     
9700000000.0        -0.0502803571693    -0.212572370109     0.949591079923      -0.223746969341     0.949591079923      -0.223746969341     -0.0502803571693    -0.212572370109     
9800000000.0        -0.0512718925857    -0.214542702335     0.948598127102      -0.225834280551     0.948598127102      -0.225834280551     -0.0512718925857    -0.214542702335     
9900000000.0        -0.0522716119029    -0.21650657561      0.94759697602       -0.227915173523     0.94759697602       -0.227915173523     -0.0522716119029    -0.21650657561      
10000000000.0       -0.0532794592551    -0.218463943323     0.946587682526      -0.229989601689     0.946587682526      -0.229989601689     -0.0532794592551    -0.218463943323     
