# Hz S RI R 50.00 
100000000.0         0.0744461618961     0.00481572298631    0.925550664784      -0.00616865536533   0.925550664784      -0.00616865536533   0.0744461618961     0.00481572298631    
200000000.0         0.0749958560415     0.00961953875722    0.924996917105      -0.012325418734     0.924996917105      -0.012325418734     0.0749958560415     0.00961953875722    
300000000.0         0.0754861287033     0.0144147532579     0.924500709955      -0.018473609438     0.924500709955      -0.018473609438     0.0754861287033     0.0144147532579     
400000000.0         0.0759771052996     0.0192018013841     0.924001917281      -0.0246136744908    0.924001917281      -0.0246136744908    0.0759771052996     0.0192018013841     
500000000.0         0.0764918944038     0.0239804533007     0.923477429888      -0.0307453955365    0.923477429888      -0.0307453955365    0.0764918944038     0.0239804533007     
600000000.0         0.0770422159245     0.0287501873799     0.922915527224      -0.036868262009     0.922915527224      -0.036868262009     0.0770422159245     0.0287501873799     
700000000.0         0.0776349209382     0.0335103244422     0.922309357537      -0.0429816054858    0.922309357537      -0.0429816054858    0.0776349209382     0.0335103244422     
800000000.0         0.0782743726964     0.0382600902975     0.921654556856      -0.0490846622974    0.921654556856      -0.0490846622974    0.0782743726964     0.0382600902975     
900000000.0         0.0789635073756     0.0429986495915     0.920948188238      -0.0551766074174    0.920948188238      -0.0551766074174    0.0789635073756     0.0429986495915     
1000000000.0        0.0797043720616     0.047725126077      0.920188203782      -0.0612565747661    0.920188203782      -0.0612565747661    0.0797043720616     0.047725126077      
1100000000.0        0.080498424007      0.0524386156988     0.919373145365      -0.0673236703177    0.919373145365      -0.0673236703177    0.080498424007      0.0524386156988     
1200000000.0        0.0813467091009     0.057138195547      0.918501966173      -0.0733769810722    0.918501966173      -0.0733769810722    0.0813467091009     0.057138195547      
1300000000.0        0.0822499742798     0.0618229302828     0.917573918291      -0.0794155814943    0.917573918291      -0.0794155814943    0.0822499742798     0.0618229302828     
1400000000.0        0.0832087415326     0.0664918769371     0.916588478693      -0.0854385383243    0.916588478693      -0.0854385383243    0.0832087415326     0.0664918769371     
1500000000.0        0.0842233584402     0.0711440886172     0.915545298703      -0.091444914293     0.915545298703      -0.091444914293     0.0842233584402     0.0711440886172     
1600000000.0        0.0852940337803     0.075778617456      0.914444168391      -0.0974337710796    0.914444168391      -0.0974337710796    0.0852940337803     0.075778617456      
1700000000.0        0.0864208632926     0.0803945170182     0.913284990809      -0.103404171724     0.913284990809      -0.103404171724     0.0864208632926     0.0803945170182     
1800000000.0        0.0876038487689     0.0849908443073     0.912067762895      -0.109355182639     0.912067762895      -0.109355182639     0.0876038487689     0.0849908443073     
1900000000.0        0.0888429124985     0.0895666614723     0.910792561032      -0.115285875323     0.910792561032      -0.115285875323     0.0888429124985     0.0895666614723     
2000000000.0        0.0901379084095     0.0941210372831     0.909459529905      -0.121195327839     0.909459529905      -0.121195327839     0.0901379084095     0.0941210372831     
2100000000.0        0.0914886308138     0.0986530484231     0.908068873756      -0.127082626111     0.908068873756      -0.127082626111     0.0914886308138     0.0986530484231     
2200000000.0        0.0928948213847     0.103161780637      0.906620849405      -0.132946865075     0.906620849405      -0.132946865075     0.0928948213847     0.103161780637      
2300000000.0        0.0943561748098     0.107646329759      0.905115760602      -0.13878714971      0.905115760602      -0.13878714971      0.0943561748098     0.107646329759      
2400000000.0        0.0958723434386     0.11210580264       0.90355395337       -0.144602595971     0.90355395337       -0.144602595971     0.0958723434386     0.11210580264       
2500000000.0        0.0974429411572     0.116539317998      0.90193581214       -0.150392331635     0.90193581214       -0.150392331635     0.0974429411572     0.116539317998      
2600000000.0        0.0990675466621     0.120946007184      0.900261756471      -0.156155497077     0.900261756471      -0.156155497077     0.0990675466621     0.120946007184      
2700000000.0        0.100745706262      0.1253250149        0.89853223825       -0.161891245984     0.89853223825       -0.161891245984     0.100745706262      0.1253250149        
2800000000.0        0.102476936307      0.12967549985       0.896747739264      -0.167598746011     0.896747739264      -0.167598746011     0.102476936307      0.12967549985       
2900000000.0        0.104260725315      0.133996635345      0.89490876907       -0.17327717939      0.89490876907       -0.17327717939      0.104260725315      0.133996635345      
3000000000.0        0.106096535863      0.138287609867      0.893015863108      -0.178925743486     0.893015863108      -0.178925743486     0.106096535863      0.138287609867      
3100000000.0        0.10798380628       0.142547627582      0.891069581006      -0.184543651325     0.891069581006      -0.184543651325     0.10798380628       0.142547627582      
3200000000.0        0.109921952176      0.146775908825      0.889070505049      -0.19013013207      0.889070505049      -0.19013013207      0.109921952176      0.146775908825      
3300000000.0        0.111910367848      0.150971690542      0.887019238776      -0.195684431468     0.887019238776      -0.195684431468     0.111910367848      0.150971690542      
3400000000.0        0.113948427571      0.155134226698      0.884916405689      -0.201205812261     0.884916405689      -0.201205812261     0.113948427571      0.155134226698      
3500000000.0        0.116035486795      0.159262788661      0.882762648053      -0.206693554564     0.882762648053      -0.206693554564     0.116035486795      0.159262788661      
3600000000.0        0.118170883276      0.163356665542      0.880558625767      -0.212146956219     0.880558625767      -0.212146956219     0.118170883276      0.163356665542      
3700000000.0        0.12035393813       0.167415164517      0.87830501531       -0.217565333105     0.87830501531       -0.217565333105     0.12035393813       0.167415164517      
3800000000.0        0.122583956841      0.171437611116      0.876002508733      -0.222948019434     0.876002508733      -0.222948019434     0.122583956841      0.171437611116      
3900000000.0        0.124860230217      0.175423349485      0.873651812703      -0.228294368015     0.873651812703      -0.228294368015     0.124860230217      0.175423349485      
4000000000.0        0.127182035303      0.179371742621      0.871253647586      -0.233603750486     0.871253647586      -0.233603750486     0.127182035303      0.179371742621      
4100000000.0        0.129548636268      0.183282172583      0.86880874657       -0.238875557528     0.86880874657       -0.238875557528     0.129548636268      0.183282172583      
4200000000.0        0.131959285244      0.187154040676      0.866317854812      -0.244109199052     0.866317854812      -0.244109199052     0.131959285244      0.187154040676      
4300000000.0        0.134413223153      0.190986767612      0.863781728623      -0.249304104357     0.863781728623      -0.249304104357     0.134413223153      0.190986767612      
4400000000.0        0.136909680502      0.194779793648      0.861201134668      -0.254459722269     0.861201134668      -0.254459722269     0.136909680502      0.194779793648      
4500000000.0        0.139447878148      0.198532578699      0.858576849199      -0.259575521259     0.858576849199      -0.259575521259     0.139447878148      0.198532578699      
4600000000.0        0.142027028056      0.202244602431      0.855909657299      -0.26465098953      0.855909657299      -0.26465098953      0.142027028056      0.202244602431      
4700000000.0        0.144646334029      0.205915364333      0.853200352155      -0.269685635094     0.853200352155      -0.269685635094     0.144646334029      0.205915364333      
4800000000.0        0.147304992417      0.209544383759      0.850449734342      -0.274678985817     0.850449734342      -0.274678985817     0.147304992417      0.209544383759      
4900000000.0        0.150002192816      0.213131199964      0.847658611129      -0.279630589449     0.847658611129      -0.279630589449     0.150002192816      0.213131199964      
5000000000.0        0.152737118751      0.216675372108      0.844827795799      -0.284540013633     0.844827795799      -0.284540013633     0.152737118751      0.216675372108      
5100000000.0        0.15550894833       0.220176479247      0.841958106982      -0.289406845894     0.841958106982      -0.289406845894     0.15550894833       0.220176479247      
5200000000.0        0.158316854904      0.223634120297      0.839050368011      -0.294230693609     0.839050368011      -0.294230693609     0.158316854904      0.223634120297      
5300000000.0        0.161160007691      0.227047913994      0.836105406285      -0.29901118396      0.836105406285      -0.29901118396      0.161160007691      0.227047913994      
5400000000.0        0.164037572401      0.23041749882       0.833124052653      -0.303747963865     0.833124052653      -0.303747963865     0.164037572401      0.23041749882       
5500000000.0        0.166948711841      0.233742532923      0.830107140804      -0.308440699899     0.830107140804      -0.308440699899     0.166948711841      0.233742532923      
5600000000.0        0.1698925865        0.237022694016      0.827055506681      -0.313089078189     0.827055506681      -0.313089078189     0.1698925865        0.237022694016      
5700000000.0        0.172868355132      0.240257679259      0.823969987901      -0.317692804304     0.823969987901      -0.317692804304     0.172868355132      0.240257679259      
5800000000.0        0.175875175317      0.243447205127      0.820851423194      -0.322251603115     0.820851423194      -0.322251603115     0.175875175317      0.243447205127      
5900000000.0        0.178912204008      0.246591007267      0.817700651853      -0.326765218656     0.817700651853      -0.326765218656     0.178912204008      0.246591007267      
6000000000.0        0.181978598068      0.24968884033       0.814518513198      -0.331233413962     0.814518513198      -0.331233413962     0.181978598068      0.24968884033       
6100000000.0        0.185073514788      0.2527404778        0.811305846058      -0.335655970888     0.811305846058      -0.335655970888     0.185073514788      0.2527404778        
6200000000.0        0.188196112399      0.255745711807      0.80806348826       -0.340032689929     0.80806348826       -0.340032689929     0.188196112399      0.255745711807      
6300000000.0        0.191345550562      0.258704352922      0.804792276137      -0.344363390015     0.804792276137      -0.344363390015     0.191345550562      0.258704352922      
6400000000.0        0.194520990848      0.261616229945      0.801493044051      -0.348647908299     0.801493044051      -0.348647908299     0.194520990848      0.261616229945      
6500000000.0        0.197721597203      0.264481189684      0.798166623921      -0.352886099933     0.798166623921      -0.352886099933     0.197721597203      0.264481189684      
6600000000.0        0.200946536399      0.267299096717      0.794813844781      -0.357077837835     0.794813844781      -0.357077837835     0.200946536399      0.267299096717      
6700000000.0        0.204194978473      0.270069833146      0.791435532332      -0.361223012441     0.791435532332      -0.361223012441     0.204194978473      0.270069833146      
6800000000.0        0.20746609715       0.272793298344      0.788032508526      -0.365321531455     0.788032508526      -0.365321531455     0.20746609715       0.272793298344      
6900000000.0        0.210759070249      0.275469408689      0.784605591155      -0.369373319577     0.784605591155      -0.369373319577     0.210759070249      0.275469408689      
7000000000.0        0.214073080084      0.278098097292      0.781155593453      -0.37337831824      0.781155593453      -0.37337831824      0.214073080084      0.278098097292      
7100000000.0        0.21740731384       0.280679313719      0.777683323715      -0.377336485322     0.777683323715      -0.377336485322     0.21740731384       0.280679313719      
7200000000.0        0.220760963944      0.283213023695      0.774189584934      -0.381247794865     0.774189584934      -0.381247794865     0.220760963944      0.283213023695      
7300000000.0        0.224133228415      0.285699208821      0.770675174442      -0.385112236773     0.770675174442      -0.385112236773     0.224133228415      0.285699208821      
7400000000.0        0.227523311209      0.28813786626       0.767140883571      -0.388929816518     0.767140883571      -0.388929816518     0.227523311209      0.28813786626       
7500000000.0        0.230930422537      0.290529008441      0.763587497329      -0.392700554828     0.763587497329      -0.392700554828     0.230930422537      0.290529008441      
7600000000.0        0.234353779185      0.292872662738      0.760015794088      -0.39642448738      0.760015794088      -0.39642448738      0.234353779185      0.292872662738      
7700000000.0        0.237792604806      0.295168871159      0.756426545282      -0.400101664477     0.756426545282      -0.400101664477     0.237792604806      0.295168871159      
7800000000.0        0.241246130209      0.297417690023      0.752820515128      -0.403732150732     0.752820515128      -0.403732150732     0.241246130209      0.297417690023      
7900000000.0        0.244713593629      0.299619189632      0.749198460347      -0.407316024743     0.749198460347      -0.407316024743     0.244713593629      0.299619189632      
8000000000.0        0.248194240983      0.301773453948      0.745561129911      -0.410853378763     0.745561129911      -0.410853378763     0.248194240983      0.301773453948      
8100000000.0        0.251687326118      0.303880580257      0.741909264795      -0.414344318369     0.741909264795      -0.414344318369     0.251687326118      0.303880580257      
8200000000.0        0.255192111045      0.305940678839      0.738243597746      -0.41778896213      0.738243597746      -0.41778896213      0.255192111045      0.305940678839      
8300000000.0        0.258707866149      0.307953872632      0.734564853064      -0.421187441273     0.734564853064      -0.421187441273     0.258707866149      0.307953872632      
8400000000.0        0.262233870407      0.309920296894      0.730873746395      -0.424539899344     0.730873746395      -0.424539899344     0.262233870407      0.309920296894      
8500000000.0        0.265769411574      0.311840098865      0.727170984535      -0.427846491874     0.727170984535      -0.427846491874     0.265769411574      0.311840098865      
8600000000.0        0.269313786366      0.313713437431      0.72345726525       -0.431107386035     0.72345726525       -0.431107386035     0.269313786366      0.313713437431      
8700000000.0        0.272866300634      0.315540482783      0.719733277107      -0.434322760309     0.719733277107      -0.434322760309     0.272866300634      0.315540482783      
8800000000.0        0.276426269515      0.317321416081      0.715999699312      -0.437492804144     0.715999699312      -0.437492804144     0.276426269515      0.317321416081      
8900000000.0        0.279993017583      0.319056429111      0.712257201569      -0.440617717617     0.712257201569      -0.440617717617     0.279993017583      0.319056429111      
9000000000.0        0.283565878983      0.320745723956      0.70850644394       -0.443697711101     0.70850644394       -0.443697711101     0.283565878983      0.320745723956      
9100000000.0        0.287144197551      0.32238951265       0.704748076725      -0.446733004925     0.704748076725      -0.446733004925     0.287144197551      0.32238951265       
9200000000.0        0.290727326931      0.323988016853      0.700982740348      -0.44972382904      0.700982740348      -0.44972382904      0.290727326931      0.323988016853      
9300000000.0        0.294314630674      0.325541467511      0.697211065255      -0.45267042269      0.697211065255      -0.45267042269      0.294314630674      0.325541467511      
9400000000.0        0.297905482329      0.327050104532      0.693433671821      -0.455573034078     0.693433671821      -0.455573034078     0.297905482329      0.327050104532      
9500000000.0        0.301499265525      0.32851417645       0.689651170272      -0.458431920042     0.689651170272      -0.458431920042     0.301499265525      0.32851417645       
9600000000.0        0.305095374041      0.329933940107      0.685864160611      -0.461247345724     0.685864160611      -0.461247345724     0.305095374041      0.329933940107      
9700000000.0        0.308693211871      0.331309660329      0.682073232558      -0.464019584253     0.682073232558      -0.464019584253     0.308693211871      0.331309660329      
9800000000.0        0.312292193269      0.332641609601      0.678278965493      -0.466748916424     0.678278965493      -0.466748916424     0.312292193269      0.332641609601      
9900000000.0        0.315891742799      0.333930067757      0.674481928423      -0.469435630382     0.674481928423      -0.469435630382     0.315891742799      0.333930067757      
10000000000.0       0.319491295362      0.335175321667      0.670682679935      -0.472080021309     0.670682679935      -0.472080021309     0.319491295362      0.335175321667      
