# Hz S RI R 50.00 
100000000.0         1.12284591263e-05   -0.00591803416737   0.999899066007      -0.00645787078616   0.999899066007      -0.00645787078616   1.12284591263e-05   -0.00591803416737   
200000000.0         -0.0001091015028    -0.0118348678673    0.999777537701      -0.0129145959465    0.999777537701      -0.0129145959465    -0.0001091015028    -0.0118348678673    
300000000.0         -0.000305924834492  -0.0177492745206    0.999579418167      -0.0193689783017    0.999579418167      -0.0193689783017    -0.000305924834492  -0.0177492745206    
400000000.0         -0.000579131872466  -0.0236599841478    0.999304720359      -0.0258197705453    0.999304720359      -0.0258197705453    -0.000579131872466  -0.0236599841478    
500000000.0         -0.000928613963159  -0.0295657051881    0.998953515679      -0.032265700408     0.998953515679      -0.032265700408     -0.000928613963159  -0.0295657051881    
600000000.0         -0.00135424195209   -0.035465132865     0.998525914217      -0.0387054801735    0.998525914217      -0.0387054801735    -0.00135424195209   -0.035465132865     
700000000.0         -0.00185586036525   -0.041356953968     0.99802206009       -0.0451378120442    0.99802206009       -0.0451378120442    -0.00185586036524   -0.041356953968     
800000000.0         -0.00243328509825   -0.0472398501376    0.997442129942      -0.0515613917778    0.997442129942      -0.0515613917778    -0.00243328509825   -0.0472398501376    
900000000.0         -0.00308630229366   -0.0531125003869    0.996786332375      -0.0579749114408    0.996786332375      -0.0579749114408    -0.00308630229366   -0.0531125003869    
1000000000.0        -0.0038146677377    -0.0589735831861    0.996054907694      -0.0643770616574    0.996054907694      -0.0643770616574    -0.0038146677377    -0.0589735831861    
1100000000.0        -0.00461810653187   -0.0648217782696    0.995248127762      -0.0707665335391    0.995248127762      -0.0707665335391    -0.00461810653187   -0.0648217782696    
1200000000.0        -0.00549631293424   -0.0706557682609    0.994366295873      -0.0771420204039    0.994366295873      -0.0771420204039    -0.00549631293424   -0.0706557682609    
1300000000.0        -0.00644895031904   -0.076474240165     0.993409746623      -0.0835022193438    0.993409746623      -0.0835022193438    -0.00644895031904   -0.076474240165     
1400000000.0        -0.00747565122686   -0.0822758867627    0.992378845737      -0.0898458326803    0.992378845737      -0.0898458326803    -0.00747565122686   -0.0822758867627    
1500000000.0        -0.00857601748941   -0.0880594079288    0.991273989871      -0.0961715693335    0.991273989871      -0.0961715693335    -0.00857601748941   -0.0880594079288    
1600000000.0        -0.00974962041872   -0.093823511888     0.990095606364      -0.102478146121     0.990095606364      -0.102478146121     -0.00974962041872   -0.093823511888     
1700000000.0        -0.0109960010535    -0.0995669164169    0.988844152956      -0.108764288997     0.988844152956      -0.108764288997     -0.0109960010535    -0.0995669164169    
1800000000.0        -0.0123146704583    -0.10528835         0.987520117458      -0.11502873424      0.987520117458      -0.11502873424      -0.0123146704583    -0.10528835         
1900000000.0        -0.0137051100707    -0.110986552944     0.986124017385      -0.121270229596     0.986124017385      -0.121270229596     -0.0137051100707    -0.110986552944     
2000000000.0        -0.0151667720943    -0.116660278451     0.984656399544      -0.127487535375     0.984656399544      -0.127487535375     -0.0151667720943    -0.116660278451     
2100000000.0        -0.0166990799349    -0.122308293658     0.983117839591      -0.133679425515     0.983117839591      -0.133679425515     -0.0166990799349    -0.122308293658     
2200000000.0        -0.0183014286761    -0.127929380633     0.981508941537      -0.139844688596     0.981508941537      -0.139844688596     -0.0183014286761    -0.127929380633     
2300000000.0        -0.0199731855941    -0.133522337348     0.979830337236      -0.145982128833     0.979830337236      -0.145982128833     -0.0199731855941    -0.133522337348     
2400000000.0        -0.0217136907085    -0.139085978603     0.978082685819      -0.152090567016     0.978082685819      -0.152090567016     -0.0217136907085    -0.139085978603     
2500000000.0        -0.0235222573673    -0.144619136927     0.97626667311       -0.158168841425     0.97626667311       -0.158168841425     -0.0235222573673    -0.144619136927     
2600000000.0        -0.0253981728645    -0.150120663438     0.974383011002      -0.164215808703     0.974383011002      -0.164215808703     -0.0253981728645    -0.150120663438     
2700000000.0        -0.0273406990885    -0.155589428666     0.972432436806      -0.170230344699     0.972432436806      -0.170230344699     -0.0273406990885    -0.155589428666     
2800000000.0        -0.0293490731986    -0.161024323351     0.970415712573      -0.176211345266     0.970415712573      -0.176211345266     -0.0293490731986    -0.161024323351     
2900000000.0        -0.0314225083298    -0.166424259191     0.968333624384      -0.182157727032     0.968333624384      -0.182157727032     -0.0314225083298    -0.166424259191     
3000000000.0        -0.0335601943213    -0.17178816957      0.966186981624      -0.188068428127     0.966186981624      -0.188068428127     -0.0335601943213    -0.17178816957      
3100000000.0        -0.0357612984696    -0.177115010234     0.963976616224      -0.193942408878     0.963976616224      -0.193942408878     -0.0357612984696    -0.177115010234     
3200000000.0        -0.0380249663024    -0.182403759943     0.961703381886      -0.199778652468     0.961703381886      -0.199778652468     -0.0380249663024    -0.182403759943     
3300000000.0        -0.0403503223733    -0.187653421082     0.959368153291      -0.205576165549     0.959368153291      -0.205576165549     -0.0403503223733    -0.187653421082     
3400000000.0        -0.0427364710735    -0.192863020232     0.956971825282      -0.211333978829     0.956971825282      -0.211333978829     -0.0427364710735    -0.192863020232     
3500000000.0        -0.045182497461     -0.19803160871      0.954515312036      -0.217051147616     0.954515312036      -0.217051147616     -0.045182497461     -0.19803160871      
3600000000.0        -0.0476874681033    -0.203158263068     0.951999546221      -0.222726752321     0.951999546221      -0.222726752321     -0.0476874681033    -0.203158263068     
3700000000.0        -0.0502504319336    -0.208242085552     0.949425478138      -0.228359898931     0.949425478138      -0.228359898931     -0.0502504319336    -0.208242085552     
3800000000.0        -0.0528704211184    -0.213282204535     0.946794074856      -0.233949719441     0.946794074856      -0.233949719441     -0.0528704211184    -0.213282204535     
3900000000.0        -0.0555464519336    -0.218277774897     0.94410631933       -0.239495372244     0.94410631933       -0.239495372244     -0.0555464519336    -0.218277774897     
4000000000.0        -0.0582775256492    -0.223227978382     0.941363209521      -0.244996042492     0.941363209521      -0.244996042492     -0.0582775256492    -0.223227978382     
4100000000.0        -0.06106262942      -0.22813202391      0.938565757504      -0.250450942414     0.938565757504      -0.250450942414     -0.06106262942      -0.22813202391      
4200000000.0        -0.0639007371802    -0.232989147852     0.935714988572      -0.255859311599     0.935714988572      -0.255859311599     -0.0639007371802    -0.232989147852     
4300000000.0        -0.0667908105418    -0.23779861428      0.932811940337      -0.261220417242     0.932811940337      -0.261220417242     -0.0667908105418    -0.23779861428      
4400000000.0        -0.0697317996933    -0.242559715162     0.929857661832      -0.266533554352     0.929857661832      -0.266533554352     -0.0697317996933    -0.242559715162     
4500000000.0        -0.0727226442992    -0.247271770538     0.926853212613      -0.271798045932     0.926853212613      -0.271798045932     -0.0727226442992    -0.247271770538     
4600000000.0        -0.0757622743972    -0.251934128655     0.923799661858      -0.277013243111     0.923799661858      -0.277013243111     -0.0757622743972    -0.251934128655     
4700000000.0        -0.0788496112925    -0.256546166065     0.920698087475      -0.282178525254     0.920698087475      -0.282178525254     -0.0788496112925    -0.256546166065     
4800000000.0        -0.0819835684474    -0.261107287694     0.917549575212      -0.287293300029     0.917549575212      -0.287293300029     -0.0819835684474    -0.261107287694     
4900000000.0        -0.0851630523653    -0.265616926871     0.914355217773      -0.292357003446     0.914355217773      -0.292357003446     -0.0851630523653    -0.265616926871     
5000000000.0        -0.0883869634674    -0.270074545336     0.911116113942      -0.297369099859     0.911116113942      -0.297369099859     -0.0883869634674    -0.270074545336     
5100000000.0        -0.091654196961     -0.274479633203     0.90783336771       -0.302329081939     0.90783336771       -0.302329081939     -0.091654196961     -0.274479633203     
5200000000.0        -0.0949636436982    -0.278831708897     0.904508087424      -0.307236470615     0.904508087424      -0.307236470615     -0.0949636436982    -0.278831708897     
5300000000.0        -0.0983141910236    -0.283130319069     0.901141384931      -0.312090814987     0.901141384931      -0.312090814987     -0.0983141910236    -0.283130319069     
5400000000.0        -0.101704723611     -0.287375038466     0.89773437475       -0.316891692203     0.89773437475       -0.316891692203     -0.101704723611     -0.287375038466     
5500000000.0        -0.105134124284     -0.291565469788     0.894288173242      -0.321638707314     0.894288173242      -0.321638707314     -0.105134124284     -0.291565469788     
5600000000.0        -0.108601274831     -0.295701243504     0.890803897803      -0.326331493099     0.890803897803      -0.326331493099     -0.108601274831     -0.295701243504     
5700000000.0        -0.112105056792     -0.299782017653     0.88728266607       -0.330969709862     0.88728266607       -0.330969709862     -0.112105056792     -0.299782017653     
5800000000.0        -0.115644352243     -0.303807477612     0.883725595144      -0.335553045206     0.883725595144      -0.335553045206     -0.115644352243     -0.303807477612     
5900000000.0        -0.119218044558     -0.307777335843     0.880133800822      -0.340081213782     0.880133800822      -0.340081213782     -0.119218044558     -0.307777335843     
6000000000.0        -0.122825019151     -0.311691331611     0.87650839686       -0.344553957009     0.87650839686       -0.344553957009     -0.122825019151     -0.311691331611     
6100000000.0        -0.126464164205     -0.315549230691     0.872850494236      -0.348971042781     0.872850494236      -0.348971042781     -0.126464164205     -0.315549230691     
6200000000.0        -0.130134371381     -0.319350825039     0.869161200451      -0.353332265141     0.869161200451      -0.353332265141     -0.130134371381     -0.319350825039     
6300000000.0        -0.133834536507     -0.323095932455     0.865441618833      -0.357637443948     0.865441618833      -0.357637443948     -0.133834536507     -0.323095932455     
6400000000.0        -0.137563560248     -0.326784396217     0.861692847868      -0.361886424511     0.861692847868      -0.361886424511     -0.137563560248     -0.326784396217     
6500000000.0        -0.141320348755     -0.330416084706     0.857915980555      -0.366079077212     0.857915980555      -0.366079077212     -0.141320348755     -0.330416084706     
6600000000.0        -0.145103814296     -0.333990891003     0.854112103768      -0.370215297113     0.854112103768      -0.370215297113     -0.145103814296     -0.333990891003     
6700000000.0        -0.148912875862     -0.337508732481     0.850282297658      -0.374295003542     0.850282297658      -0.374295003542     -0.148912875862     -0.337508732481     
6800000000.0        -0.152746459757     -0.340969550374     0.846427635057      -0.378318139669     0.846427635057      -0.378318139669     -0.152746459757     -0.340969550374     
6900000000.0        -0.156603500159     -0.344373309336     0.842549180917      -0.382284672058     0.842549180917      -0.382284672058     -0.156603500159     -0.344373309336     
7000000000.0        -0.16048293967      -0.347719996984     0.838647991765      -0.386194590222     0.838647991765      -0.386194590222     -0.16048293967      -0.347719996984     
7100000000.0        -0.164383729833     -0.351009623431     0.834725115181      -0.390047906151     0.834725115181      -0.390047906151     -0.164383729833     -0.351009623431     
7200000000.0        -0.168304831637     -0.35424222081      0.830781589295      -0.393844653836     0.830781589295      -0.393844653836     -0.168304831637     -0.35424222081      
7300000000.0        -0.17224521599      -0.357417842782     0.826818442313      -0.397584888784     0.826818442313      -0.397584888784     -0.17224521599      -0.357417842782     
7400000000.0        -0.176203864182     -0.360536564043     0.822836692058      -0.40126868752      0.822836692058      -0.40126868752      -0.176203864182     -0.360536564043     
7500000000.0        -0.180179768312     -0.363598479815     0.818837345536      -0.404896147083     0.818837345536      -0.404896147083     -0.180179768312     -0.363598479815     
7600000000.0        -0.184171931707     -0.366603705338     0.814821398521      -0.408467384516     0.814821398521      -0.408467384516     -0.184171931707     -0.366603705338     
7700000000.0        -0.188179369308     -0.369552375347     0.810789835169      -0.411982536349     0.810789835169      -0.411982536349     -0.188179369308     -0.369552375347     
7800000000.0        -0.192201108043     -0.372444643554     0.806743627646      -0.415441758074     0.806743627646      -0.415441758074     -0.192201108043     -0.372444643554     
7900000000.0        -0.196236187171     -0.375280682117     0.802683735781      -0.418845223622     0.802683735781      -0.418845223622     -0.196236187171     -0.375280682117     
8000000000.0        -0.200283658612     -0.37806068111      0.798611106739      -0.42219312483      0.798611106739      -0.42219312483      -0.200283658612     -0.37806068111      
8100000000.0        -0.204342587246     -0.380784847988     0.794526674717      -0.42548567091      0.794526674717      -0.42548567091      -0.204342587246     -0.380784847988     
8200000000.0        -0.208412051207     -0.383453407056     0.790431360657      -0.428723087913     0.790431360657      -0.428723087913     -0.208412051207     -0.383453407056     
8300000000.0        -0.212491142139     -0.386066598925     0.786326071986      -0.431905618195     0.786326071986      -0.431905618195     -0.212491142139     -0.386066598925     
8400000000.0        -0.216578965442     -0.388624679985     0.782211702367      -0.435033519879     0.782211702367      -0.435033519879     -0.216578965442     -0.388624679985     
8500000000.0        -0.220674640498     -0.39112792186      0.778089131479      -0.438107066321     0.778089131479      -0.438107066321     -0.220674640498     -0.39112792186      
8600000000.0        -0.224777300875     -0.393576610878     0.773959224812      -0.441126545574     0.773959224812      -0.441126545574     -0.224777300875     -0.393576610878     
8700000000.0        -0.22888609451      -0.395971047538     0.769822833478      -0.444092259859     0.769822833478      -0.444092259859     -0.22888609451      -0.395971047538     
8800000000.0        -0.233000183879     -0.398311545977     0.765680794048      -0.447004525031     0.765680794048      -0.447004525031     -0.233000183879     -0.398311545977     
8900000000.0        -0.237118746145     -0.400598433444     0.7615339284        -0.449863670053     0.7615339284        -0.449863670053     -0.237118746145     -0.400598433444     
9000000000.0        -0.241240973289     -0.402832049773     0.75738304359       -0.452670036475     0.75738304359       -0.452670036475     -0.241240973289     -0.402832049773     
9100000000.0        -0.245366072221     -0.40501274687      0.753228931739      -0.45542397791      0.753228931739      -0.45542397791      -0.245366072221     -0.40501274687      
9200000000.0        -0.249493264882     -0.40714088819      0.749072369933      -0.458125859525     0.749072369933      -0.458125859525     -0.249493264882     -0.40714088819      
9300000000.0        -0.253621788318     -0.409216848233     0.744914120147      -0.460776057526     0.744914120147      -0.460776057526     -0.253621788318     -0.409216848233     
9400000000.0        -0.25775089475      -0.411241012038     0.740754929177      -0.46337495866      0.740754929177      -0.46337495866      -0.25775089475      -0.411241012038     
9500000000.0        -0.261879851621     -0.413213774683     0.736595528591      -0.465922959713     0.736595528591      -0.465922959713     -0.261879851621     -0.413213774683     
9600000000.0        -0.266007941627     -0.415135540797     0.732436634699      -0.468420467019     0.732436634699      -0.468420467019     -0.266007941627     -0.415135540797     
9700000000.0        -0.270134462741     -0.417006724071     0.72827894853       -0.470867895978     0.72827894853       -0.470867895978     -0.270134462741     -0.417006724071     
9800000000.0        -0.274258728218     -0.418827746784     0.724123155825      -0.473265670578     0.724123155825      -0.473265670578     -0.274258728218     -0.418827746784     
9900000000.0        -0.278380066583     -0.420599039334     0.719969927048      -0.475614222924     0.719969927048      -0.475614222924     -0.278380066583     -0.420599039334     
10000000000.0       -0.282497821616     -0.422321039771     0.715819917406      -0.477913992777     0.715819917406      -0.477913992777     -0.282497821616     -0.422321039771     
