# Hz S RI R 50.00 
100000000.0         0.000392016405563   -0.0026710087838    0.999575581153      -0.00434192522272   0.999575581153      -0.00434192522272   0.000392016405563   -0.0026710087838    
200000000.0         0.000356565389631   -0.00534187225001   0.999530440268      -0.00868373179892   0.999530440268      -0.00868373179892   0.000356565389631   -0.00534187225001   
300000000.0         0.000297207091711   -0.00801241464134   0.999460017753      -0.0130252757432    0.999460017753      -0.0130252757432    0.000297207091711   -0.00801241464134   
400000000.0         0.000214295595953   -0.0106824464349    0.99936396289       -0.0173663897343    0.99936396289       -0.0173663897343    0.000214295595953   -0.0106824464349    
500000000.0         0.000107969922978   -0.0133517703915    0.999242143473      -0.0217068952434    0.999242143473      -0.0217068952434    0.000107969922978   -0.0133517703915    
600000000.0         -2.16953842086e-05  -0.016020184046     0.999094495603      -0.0260466064894    0.999094495603      -0.0260466064894    -2.16953842087e-05  -0.016020184046     
700000000.0         -0.000174651940389  -0.0186874810462    0.998920985644      -0.0303853324323    0.998920985644      -0.0303853324323    -0.000174651940389  -0.0186874810462    
800000000.0         -0.000350863494999  -0.021353451989     0.998721596405      -0.0347228779678    0.998721596405      -0.0347228779678    -0.000350863494999  -0.021353451989     
900000000.0         -0.000550299658647  -0.0240178849926    0.998496321037      -0.0390590447244    0.998496321037      -0.0390590447244    -0.000550299658647  -0.0240178849926    
1000000000.0        -0.000772932700201  -0.026680566116     0.998245159968      -0.0433936316336    0.998245159968      -0.0433936316336    -0.0007729327002    -0.026680566116     
1100000000.0        -0.00101873574843   -0.0293412796828    0.997968119225      -0.0477264353611    0.997968119225      -0.0477264353611    -0.00101873574843   -0.0293412796828    
1200000000.0        -0.00128768170632   -0.0319998085402    0.997665209447      -0.0520572506456    0.997665209447      -0.0520572506456    -0.00128768170632   -0.0319998085402    
1300000000.0        -0.00157974255688   -0.0346559342744    0.99733644528       -0.0563858705754    0.99733644528       -0.0563858705754    -0.00157974255688   -0.0346559342744    
1400000000.0        -0.00189488889791   -0.0373094373929    0.996981844993      -0.0607120868196    0.996981844993      -0.0607120868196    -0.00189488889791   -0.0373094373929    
1500000000.0        -0.0022330896179    -0.0399600974836    0.996601430216      -0.0650356898257    0.996601430216      -0.0650356898257    -0.0022330896179    -0.0399600974836    
1600000000.0        -0.00259431166277   -0.0426076933561    0.996195225769      -0.0693564689923    0.996195225769      -0.0693564689923    -0.00259431166277   -0.0426076933561    
1700000000.0        -0.00297851986327   -0.0452520031677    0.995763259542      -0.073674212823     0.995763259542      -0.073674212823     -0.00297851986328   -0.0452520031677    
1800000000.0        -0.00338567680439   -0.0478928045398    0.995305562413      -0.0779887090639    0.995305562413      -0.0779887090639    -0.00338567680439   -0.0478928045398    
1900000000.0        -0.00381574272451   -0.0505298746643    0.994822168183      -0.0822997448299    0.994822168183      -0.0822997448299    -0.00381574272451   -0.0505298746643    
2000000000.0        -0.00426867543651   -0.0531629904031    0.994313113536      -0.0866071067203    0.994313113536      -0.0866071067203    -0.00426867543651   -0.0531629904031    
2100000000.0        -0.00474443026518   -0.0557919283819    0.993778438003      -0.0909105809267    0.993778438003      -0.0909105809267    -0.00474443026518   -0.0557919283819    
2200000000.0        -0.00524295999722   -0.058416465078     0.993218183941      -0.0952099533341    0.993218183941      -0.0952099533341    -0.00524295999723   -0.058416465078     
2300000000.0        -0.00576421484106   -0.0610363769051    0.992632396513      -0.0995050096158    0.992632396513      -0.0995050096158    -0.00576421484106   -0.0610363769051    
2400000000.0        -0.00630814239463   -0.0636514402937    0.992021123671      -0.103795535324     0.992021123671      -0.103795535324     -0.00630814239463   -0.0636514402937    
2500000000.0        -0.00687468761952   -0.0662614317683    0.991384416147      -0.108081315976     0.991384416147      -0.108081315976     -0.00687468761952   -0.0662614317683    
2600000000.0        -0.00746379282055   -0.0688661280224    0.990722327438      -0.112362137137     0.990722327438      -0.112362137137     -0.00746379282055   -0.0688661280224    
2700000000.0        -0.00807539762987   -0.0714653059908    0.990034913799      -0.116637784498     0.990034913799      -0.116637784498     -0.00807539762987   -0.0714653059908    
2800000000.0        -0.00870943899487   -0.0740587429193    0.989322234233      -0.120908043954     0.989322234233      -0.120908043954     -0.00870943899487   -0.0740587429193    
2900000000.0        -0.00936585116964   -0.0766462164337    0.988584350481      -0.125172701677     0.988584350481      -0.125172701677     -0.00936585116964   -0.0766462164337    
3000000000.0        -0.0100445657093    -0.0792275046056    0.987821327015      -0.129431544189     0.987821327015      -0.129431544189     -0.0100445657093    -0.0792275046056    
3100000000.0        -0.0107455114671    -0.0818023860176    0.987033231023      -0.133684358431     0.987033231023      -0.133684358431     -0.0107455114671    -0.0818023860176    
3200000000.0        -0.0114686145939    -0.0843706398268    0.986220132405      -0.13793093183      0.986220132405      -0.13793093183      -0.0114686145939    -0.0843706398268    
3300000000.0        -0.0122137985401    -0.0869320458269    0.985382103757      -0.142171052365     0.985382103757      -0.142171052365     -0.0122137985401    -0.0869320458269    
3400000000.0        -0.0129809840591    -0.0894863845088    0.984519220362      -0.146404508634     0.984519220362      -0.146404508634     -0.0129809840591    -0.0894863845088    
3500000000.0        -0.0137700892133    -0.0920334371204    0.983631560178      -0.150631089916     0.983631560178      -0.150631089916     -0.0137700892133    -0.0920334371204    
3600000000.0        -0.0145810293816    -0.0945729857254    0.98271920382       -0.15485058623      0.98271920382       -0.15485058623      -0.0145810293816    -0.0945729857254    
3700000000.0        -0.0154137172682    -0.0971048132598    0.981782234552      -0.159062788401     0.981782234552      -0.159062788401     -0.0154137172682    -0.0971048132598    
3800000000.0        -0.0162680629139    -0.0996287035894    0.980820738269      -0.163267488111     0.980820738269      -0.163267488111     -0.0162680629139    -0.0996287035894    
3900000000.0        -0.0171439737081    -0.102144441564     0.979834803477      -0.167464477966     0.979834803477      -0.167464477966     -0.0171439737081    -0.102144441564     
4000000000.0        -0.0180413544026    -0.104651813073     0.978824521282      -0.171653551547     0.978824521282      -0.171653551547     -0.0180413544026    -0.104651813073     
4100000000.0        -0.0189601071264    -0.107150605098     0.977789985368      -0.175834503467     0.977789985368      -0.175834503467     -0.0189601071264    -0.107150605098     
4200000000.0        -0.0199001314028    -0.109640605765     0.97673129198       -0.180007129424     0.97673129198       -0.180007129424     -0.0199001314028    -0.109640605765     
4300000000.0        -0.0208613241665    -0.112121604397     0.975648539902      -0.184171226259     0.975648539902      -0.184171226259     -0.0208613241665    -0.112121604397     
4400000000.0        -0.0218435797827    -0.114593391563     0.974541830437      -0.188326592004     0.974541830437      -0.188326592004     -0.0218435797827    -0.114593391563     
4500000000.0        -0.0228467900674    -0.11705575913      0.973411267384      -0.192473025935     0.973411267384      -0.192473025935     -0.0228467900674    -0.11705575913      
4600000000.0        -0.0238708443082    -0.119508500309     0.972256957016      -0.196610328623     0.972256957016      -0.196610328623     -0.0238708443082    -0.119508500309     
4700000000.0        -0.0249156292873    -0.121951409705     0.971079008056      -0.200738301983     0.971079008056      -0.200738301983     -0.0249156292873    -0.121951409705     
4800000000.0        -0.0259810293044    -0.124384283366     0.969877531652      -0.204856749322     0.969877531652      -0.204856749322     -0.0259810293044    -0.124384283366     
4900000000.0        -0.0270669262012    -0.126806918821     0.968652641352      -0.208965475387     0.968652641352      -0.208965475387     -0.0270669262012    -0.126806918821     
5000000000.0        -0.0281731993872    -0.129219115136     0.967404453076      -0.213064286412     0.967404453076      -0.213064286412     -0.0281731993872    -0.129219115136     
5100000000.0        -0.0292997258657    -0.131620672951     0.966133085089      -0.217152990161     0.966133085089      -0.217152990161     -0.0292997258657    -0.131620672951     
5200000000.0        -0.0304463802613    -0.134011394525     0.964838657972      -0.221231395977     0.964838657972      -0.221231395977     -0.0304463802613    -0.134011394525     
5300000000.0        -0.0316130348482    -0.136391083781     0.963521294597      -0.225299314822     0.963521294597      -0.225299314822     -0.0316130348482    -0.136391083781     
5400000000.0        -0.0327995595795    -0.138759546343     0.962181120091      -0.229356559321     0.962181120091      -0.229356559321     -0.0327995595795    -0.138759546343     
5500000000.0        -0.0340058221167    -0.141116589582     0.960818261809      -0.233402943803     0.960818261809      -0.233402943803     -0.0340058221167    -0.141116589582     
5600000000.0        -0.0352316878608    -0.143462022651     0.959432849301      -0.237438284344     0.959432849301      -0.237438284344     -0.0352316878608    -0.143462022651     
5700000000.0        -0.036477019984     -0.145795656529     0.958025014283      -0.241462398802     0.958025014283      -0.241462398802     -0.036477019984     -0.145795656529     
5800000000.0        -0.0377416794618    -0.148117304053     0.956594890598      -0.245475106861     0.956594890598      -0.245475106861     -0.0377416794618    -0.148117304053     
5900000000.0        -0.0390255251061    -0.150426779961     0.95514261419       -0.249476230066     0.95514261419       -0.249476230066     -0.0390255251061    -0.150426779961     
6000000000.0        -0.0403284135991    -0.152723900923     0.953668323061      -0.253465591861     0.953668323061      -0.253465591861     -0.0403284135991    -0.152723900923     
6100000000.0        -0.0416501995278    -0.155008485579     0.952172157245      -0.257443017625     0.952172157245      -0.257443017625     -0.0416501995278    -0.155008485579     
6200000000.0        -0.0429907354189    -0.157280354573     0.950654258765      -0.261408334703     0.950654258765      -0.261408334703     -0.0429907354189    -0.157280354573     
6300000000.0        -0.0443498717746    -0.159539330587     0.949114771603      -0.265361372446     0.949114771603      -0.265361372446     -0.0443498717746    -0.159539330587     
6400000000.0        -0.0457274571094    -0.16178523837      0.947553841656      -0.269301962241     0.947553841656      -0.269301962241     -0.0457274571094    -0.16178523837      
6500000000.0        -0.0471233379862    -0.164017904773     0.945971616707      -0.273229937543     0.945971616707      -0.273229937543     -0.0471233379862    -0.164017904773     
6600000000.0        -0.0485373590546    -0.166237158779     0.944368246382      -0.277145133905     0.944368246382      -0.277145133905     -0.0485373590546    -0.166237158779     
6700000000.0        -0.0499693630883    -0.16844283153      0.94274388211       -0.281047389009     0.94274388211       -0.281047389009     -0.0499693630883    -0.16844283153      
6800000000.0        -0.0514191910238    -0.170634756358     0.941098677091      -0.284936542697     0.941098677091      -0.284936542697     -0.0514191910238    -0.170634756358     
6900000000.0        -0.0528866819997    -0.172812768811     0.93943278625       -0.288812436996     0.93943278625       -0.288812436996     -0.0528866819997    -0.172812768811     
7000000000.0        -0.0543716733954    -0.174976706682     0.937746366199      -0.292674916144     0.937746366199      -0.292674916144     -0.0543716733954    -0.174976706682     
7100000000.0        -0.0558740008717    -0.17712641003      0.936039575201      -0.296523826622     0.936039575201      -0.296523826622     -0.0558740008717    -0.17712641003      
7200000000.0        -0.0573934984103    -0.179261721209     0.934312573124      -0.300359017171     0.934312573124      -0.300359017171     -0.0573934984103    -0.179261721209     
7300000000.0        -0.0589299983553    -0.181382484891     0.932565521402      -0.304180338825     0.932565521402      -0.304180338825     -0.0589299983553    -0.181382484891     
7400000000.0        -0.0604833314532    -0.183488548088     0.930798582996      -0.307987644924     0.930798582996      -0.307987644924     -0.0604833314532    -0.183488548088     
7500000000.0        -0.0620533268949    -0.185579760171     0.929011922348      -0.311780791145     0.929011922348      -0.311780791145     -0.0620533268949    -0.185579760171     
7600000000.0        -0.0636398123567    -0.187655972896     0.927205705342      -0.315559635518     0.927205705342      -0.315559635518     -0.0636398123567    -0.187655972896     
7700000000.0        -0.0652426140429    -0.189717040421     0.925380099265      -0.319324038447     0.925380099265      -0.319324038447     -0.0652426140429    -0.189717040421     
7800000000.0        -0.066861556727     -0.191762819323     0.923535272757      -0.32307386273      0.923535272757      -0.32307386273      -0.066861556727     -0.191762819323     
7900000000.0        -0.0684964637949    -0.193793168619     0.921671395775      -0.326808973577     0.921671395775      -0.326808973577     -0.0684964637949    -0.193793168619     
8000000000.0        -0.0701471572866    -0.195807949783     0.919788639546      -0.330529238627     0.919788639546      -0.330529238627     -0.0701471572866    -0.195807949783     
8100000000.0        -0.0718134579397    -0.19780702676      0.917887176528      -0.334234527962     0.917887176528      -0.334234527962     -0.0718134579397    -0.19780702676      
8200000000.0        -0.0734951852316    -0.199790265979     0.915967180364      -0.337924714126     0.915967180364      -0.337924714126     -0.0734951852316    -0.199790265979     
8300000000.0        -0.0751921574229    -0.201757536373     0.914028825839      -0.341599672137     0.914028825839      -0.341599672137     -0.0751921574229    -0.201757536373     
8400000000.0        -0.0769041916005    -0.203708709388     0.912072288837      -0.345259279498     0.912072288837      -0.345259279498     -0.0769041916005    -0.203708709388     
8500000000.0        -0.0786311037204    -0.205643658994     0.910097746298      -0.348903416216     0.910097746298      -0.348903416216     -0.0786311037204    -0.205643658994     
8600000000.0        -0.0803727086517    -0.207562261699     0.908105376176      -0.352531964806     0.908105376176      -0.352531964806     -0.0803727086517    -0.207562261699     
8700000000.0        -0.0821288202189    -0.20946439656      0.906095357391      -0.356144810306     0.906095357391      -0.356144810306     -0.0821288202189    -0.20946439656      
8800000000.0        -0.0838992512463    -0.211349945187     0.904067869789      -0.359741840283     0.904067869789      -0.359741840283     -0.0838992512463    -0.211349945187     
8900000000.0        -0.0856838136005    -0.213218791757     0.902023094099      -0.363322944844     0.902023094099      -0.363322944844     -0.0856838136005    -0.213218791757     
9000000000.0        -0.0874823182341    -0.21507082302      0.899961211886      -0.366888016645     0.899961211886      -0.366888016645     -0.0874823182341    -0.21507082302      
9100000000.0        -0.0892945752289    -0.216905928303     0.89788240551       -0.370436950893     0.89788240551       -0.370436950893     -0.0892945752289    -0.216905928303     
9200000000.0        -0.091120393839     -0.218723999518     0.895786858083      -0.373969645355     0.895786858083      -0.373969645355     -0.091120393839     -0.218723999518     
9300000000.0        -0.0929595825342    -0.220524931167     0.893674753425      -0.377486000362     0.893674753425      -0.377486000362     -0.0929595825342    -0.220524931167     
9400000000.0        -0.0948119490425    -0.222308620343     0.891546276018      -0.380985918813     0.891546276018      -0.380985918813     -0.0948119490425    -0.222308620343     
9500000000.0        -0.0966773003937    -0.224074966738     0.889401610968      -0.384469306178     0.889401610968      -0.384469306178     -0.0966773003937    -0.224074966738     
9600000000.0        -0.0985554429615    -0.22582387264      0.887240943958      -0.3879360705       0.887240943958      -0.3879360705       -0.0985554429615    -0.22582387264      
9700000000.0        -0.100446182507     -0.227555242937     0.885064461206      -0.391386122396     0.885064461206      -0.391386122396     -0.100446182507     -0.227555242937     
9800000000.0        -0.102349324219     -0.229268985117     0.882872349424      -0.394819375059     0.882872349424      -0.394819375059     -0.102349324219     -0.229268985117     
9900000000.0        -0.104264672759     -0.230965009266     0.880664795773      -0.398235744254     0.880664795773      -0.398235744254     -0.104264672759     -0.230965009266     
10000000000.0       -0.106192032302     -0.232643228069     0.878441987824      -0.40163514832      0.878441987824      -0.40163514832      -0.106192032302     -0.232643228069     
