# Hz S RI R 50.00 
100000000.0         -0.00100167713551   -0.031681824914     0.998899893433      -0.0321196011649    0.998899893433      -0.0321196011649    -0.00100167713551   -0.031681824914     
200000000.0         -0.00407619151886   -0.0631645508214    0.995824420086      -0.0640402035446    0.995824420086      -0.0640402035446    -0.00407619151886   -0.0631645508214    
300000000.0         -0.00913772341562   -0.0942577195768    0.990761906022      -0.0955714031519    0.990761906022      -0.0955714031519    -0.00913772341562   -0.0942577195768    
400000000.0         -0.0161253587091    -0.124778818253     0.98377318046       -0.126530729358     0.98377318046       -0.126530729358     -0.0161253587091    -0.124778818253     
500000000.0         -0.0249567303849    -0.154556638093     0.97494057764       -0.156747009549     0.97494057764       -0.156747009549     -0.0249567303849    -0.154556638093     
600000000.0         -0.0355303790862    -0.183434218823     0.964365540058      -0.186063315427     0.964365540058      -0.186063315427     -0.0355303790862    -0.183434218823     
700000000.0         -0.0477285665597    -0.211271249187     0.952165795845      -0.214339364567     0.952165795845      -0.214339364567     -0.0477285665597    -0.211271249187     
800000000.0         -0.0614203929026    -0.2379458548       0.938472238174      -0.2414533089       0.938472238174      -0.2414533089       -0.0614203929026    -0.2379458548       
900000000.0         -0.0764650710927    -0.263355745744     0.923425649254      -0.267302882706     0.923425649254      -0.267302882706     -0.0764650710927    -0.263355745744     
1000000000.0        -0.0927152183148    -0.287418732989     0.907173408248      -0.291805919346     0.907173408248      -0.291805919346     -0.0927152183148    -0.287418732989     
1100000000.0        -0.110020037338     -0.310072654245     0.889866309488      -0.314900277336     0.889866309488      -0.314900277336     -0.110020037338     -0.310072654245     
1200000000.0        -0.128228281222     -0.331274774677     0.871655597517      -0.336543241233     0.871655597517      -0.336543241233     -0.128228281222     -0.331274774677     
1300000000.0        -0.147190918606     -0.351000745261     0.852690301651      -0.356710480141     0.852690301651      -0.356710480141     -0.147190918606     -0.351000745261     
1400000000.0        -0.166763442325     -0.369243211298     0.833114927262      -0.375394656341     0.833114927262      -0.375394656341     -0.166763442325     -0.369243211298     
1500000000.0        -0.186807789022     -0.386010166251     0.813067536095      -0.392603779227     0.813067536095      -0.392603779227     -0.186807789022     -0.386010166251     
1600000000.0        -0.20719386         -0.401323142765     0.792678225373      -0.408359396419     0.792678225373      -0.408359396419     -0.20719386         -0.401323142765     
1700000000.0        -0.227800652695     -0.41521532481      0.772067996287      -0.422694705976     0.772067996287      -0.422694705976     -0.227800652695     -0.41521532481      
1800000000.0        -0.248517027202     -0.427729653795     0.751347987449      -0.435652662584     0.751347987449      -0.435652662584     -0.248517027202     -0.427729653795     
1900000000.0        -0.269242143062     -0.438916988733     0.730619038082      -0.447284137776     0.730619038082      -0.447284137776     -0.269242143062     -0.438916988733     
2000000000.0        -0.289885608347     -0.448834367164     0.709971538929      -0.457646180918     0.709971538929      -0.457646180918     -0.289885608347     -0.448834367164     
2100000000.0        -0.310367386281     -0.457543400672     0.689485525614      -0.466800414766     0.689485525614      -0.466800414766     -0.310367386281     -0.457543400672     
2200000000.0        -0.330617504995     -0.465108827        0.669230968883      -0.474811587638     0.669230968883      -0.474811587638     -0.330617504995     -0.465108827        
2300000000.0        -0.350575614096     -0.471597230595     0.649268218027      -0.48174629399      0.649268218027      -0.48174629399      -0.350575614096     -0.471597230595     
2400000000.0        -0.370190428226     -0.477075934897     0.629648557321      -0.487671866756     0.629648557321      -0.487671866756     -0.370190428226     -0.477075934897     
2500000000.0        -0.389419093322     -0.481612063059     0.610414839758      -0.492655438094     0.610414839758      -0.492655438094     -0.389419093322     -0.481612063059     
2600000000.0        -0.408226506287     -0.485271758779     0.591602167372      -0.49676316026      0.591602167372      -0.49676316026      -0.408226506287     -0.485271758779     
2700000000.0        -0.4265846137       -0.488119555528     0.573238592532      -0.500059574861     0.573238592532      -0.500059574861     -0.4265846137       -0.488119555528     
2800000000.0        -0.444471710274     -0.490217880278     0.555345819477      -0.502607116615     0.555345819477      -0.502607116615     -0.444471710274     -0.490217880278     
2900000000.0        -0.461871753235     -0.491626676785     0.537939889936      -0.504465736668     0.537939889936      -0.504465736668     -0.461871753235     -0.491626676785     
3000000000.0        -0.478773704748     -0.492403133242     0.521031840703      -0.505692630262     0.521031840703      -0.505692630262     -0.478773704748     -0.492403133242     
3100000000.0        -0.495170910999     -0.492601499466     0.504628324549      -0.506342053954     0.504628324549      -0.506342053954     -0.495170910999     -0.492601499466     
3200000000.0        -0.511060523624     -0.49227297965      0.488732188802      -0.50646521839      0.488732188802      -0.50646521839      -0.511060523624     -0.49227297965      
3300000000.0        -0.526442966721     -0.491465687753     0.473343008318      -0.506110243713     0.473343008318      -0.506110243713     -0.526442966721     -0.491465687753     
3400000000.0        -0.54132145081      -0.490224653903     0.458457571537      -0.505322165996     0.458457571537      -0.505322165996     -0.54132145081      -0.490224653903     
3500000000.0        -0.555701533566     -0.488591871505     0.444070319739      -0.504142984355     0.444070319739      -0.504142984355     -0.555701533566     -0.488591871505     
3600000000.0        -0.569590726068     -0.486606376039     0.430173740798      -0.502611739778     0.430173740798      -0.502611739778     -0.569590726068     -0.486606376039     
3700000000.0        -0.582998142509     -0.48430434784      0.41675871947       -0.500764617916     0.41675871947       -0.500764617916     -0.582998142509     -0.48430434784      
3800000000.0        -0.595934190755     -0.481719232303     0.403814846836      -0.498635069306     0.403814846836      -0.498635069306     -0.595934190755     -0.481719232303     
3900000000.0        -0.608410300833     -0.47888187204      0.391330691811      -0.496253941543     0.391330691811      -0.496253941543     -0.608410300833     -0.47888187204      
4000000000.0        -0.620438688236     -0.475820646493     0.379294037841      -0.493649618906     0.379294037841      -0.493649618906     -0.620438688236     -0.475820646493     
4100000000.0        -0.632032148929     -0.472561615313     0.367692087895      -0.490848165757     0.367692087895      -0.490848165757     -0.632032148929     -0.472561615313     
4200000000.0        -0.643203882936     -0.469128662608     0.356511640877      -0.487873470791     0.356511640877      -0.487873470791     -0.643203882936     -0.469128662608     
4300000000.0        -0.653967343564     -0.465543639728     0.345739242404      -0.484747389844     0.345739242404      -0.484747389844     -0.653967343564     -0.465543639728     
4400000000.0        -0.664336109434     -0.461826504839     0.335361312774      -0.481489885474     0.335361312774      -0.481489885474     -0.664336109434     -0.461826504839     
4500000000.0        -0.674323776699     -0.457995457957     0.325364254745      -0.478119162002     0.325364254745      -0.478119162002     -0.674323776699     -0.457995457957     
4600000000.0        -0.683943869045     -0.45406707048      0.31573454354       -0.474651795065     0.31573454354       -0.474651795065     -0.683943869045     -0.45406707048      
4700000000.0        -0.693209763239     -0.450056408576     0.30645880129       -0.471102855002     0.30645880129       -0.471102855002     -0.693209763239     -0.450056408576     
4800000000.0        -0.702134628259     -0.445977150017     0.297523857913      -0.467486023703     0.297523857913      -0.467486023703     -0.702134628259     -0.445977150017     
4900000000.0        -0.710731376173     -0.441841694234     0.288916800226      -0.463813704675     0.288916800226      -0.463813704675     -0.710731376173     -0.441841694234     
5000000000.0        -0.71901262319      -0.437661265552     0.280625010901      -0.46009712628      0.280625010901      -0.46009712628      -0.71901262319      -0.437661265552     
5100000000.0        -0.726990659432     -0.433446009648     0.27263619869       -0.456346438204     0.27263619869       -0.456346438204     -0.726990659432     -0.433446009648     
5200000000.0        -0.734677426173     -0.429205083397     0.264938421182      -0.452570801308     0.264938421182      -0.452570801308     -0.734677426173     -0.429205083397     
5300000000.0        -0.742084499436     -0.424946738303     0.257520101213      -0.448778471069     0.257520101213      -0.448778471069     -0.742084499436     -0.424946738303     
5400000000.0        -0.749223078963     -0.420678397799     0.250370037891      -0.444976874884     0.250370037891      -0.444976874884     -0.749223078963     -0.420678397799     
5500000000.0        -0.756103981716     -0.4164067287       0.243477413095      -0.44117268353      0.243477413095      -0.44117268353      -0.756103981716     -0.4164067287       
5600000000.0        -0.76273763916      -0.412137707126     0.236831794191      -0.437371877091     0.236831794191      -0.437371877091     -0.76273763916      -0.412137707126     
5700000000.0        -0.769134097693     -0.407876679218     0.230423133607      -0.433579805684     0.230423133607      -0.433579805684     -0.769134097693     -0.407876679218     
5800000000.0        -0.775303021656     -0.403628416988     0.224241765815      -0.429801245309     0.224241765815      -0.429801245309     -0.775303021656     -0.403628416988     
5900000000.0        -0.781253698461     -0.399397169603     0.218278402211      -0.426040449141     0.218278402211      -0.426040449141     -0.781253698461     -0.399397169603     
6000000000.0        -0.786995045409     -0.395186710443     0.212524124289      -0.42230119459      0.212524124289      -0.42230119459      -0.786995045409     -0.395186710443     
6100000000.0        -0.792535617859     -0.391000380223     0.206970375476      -0.418586826431     0.206970375476      -0.418586826431     -0.792535617859     -0.391000380223     
6200000000.0        -0.797883618442     -0.386841126478     0.201608951918      -0.414900296289     0.201608951918      -0.414900296289     -0.797883618442     -0.386841126478     
6300000000.0        -0.803046907074     -0.382711539689     0.196431992464      -0.411244198771     0.196431992464      -0.411244198771     -0.803046907074     -0.382711539689     
6400000000.0        -0.808033011539     -0.378613886302     0.191431968086      -0.407620804489     0.191431968086      -0.407620804489     -0.808033011539     -0.378613886302     
6500000000.0        -0.812849138477     -0.374550138906     0.186601670888      -0.404032090238     0.186601670888      -0.404032090238     -0.812849138477     -0.374550138906     
6600000000.0        -0.817502184614     -0.370522003777     0.181934202878      -0.400479766547     0.181934202878      -0.400479766547     -0.817502184614     -0.370522003777     
6700000000.0        -0.821998748115     -0.366530946021     0.177422964612      -0.396965302824     0.177422964612      -0.396965302824     -0.821998748115     -0.366530946021     
6800000000.0        -0.82634513995      -0.362578212507     0.173061643832      -0.393489950291     0.173061643832      -0.393489950291     -0.82634513995      -0.362578212507     
6900000000.0        -0.830547395194     -0.35866485278      0.168844204158      -0.390054762897     0.168844204158      -0.390054762897     -0.830547395194     -0.35866485278      
7000000000.0        -0.834611284187     -0.354791738115     0.164764873941      -0.386660616381     0.164764873941      -0.386660616381     -0.834611284187     -0.354791738115     
7100000000.0        -0.838542323495     -0.35095957888      0.160818135285      -0.383308225631     0.160818135285      -0.383308225631     -0.838542323495     -0.35095957888      
7200000000.0        -0.842345786638     -0.347168940356     0.156998713333      -0.379998160509     0.156998713333      -0.379998160509     -0.842345786638     -0.347168940356     
7300000000.0        -0.84602671454      -0.343420257131     0.153301565806      -0.376730860246     0.153301565806      -0.376730860246     -0.84602671454      -0.343420257131     
7400000000.0        -0.849589925684     -0.339713846208     0.149721872859      -0.373506646554     0.149721872859      -0.373506646554     -0.849589925684     -0.339713846208     
7500000000.0        -0.853040025942     -0.33604991893      0.14625502724       -0.370325735548     0.14625502724       -0.370325735548     -0.853040025942     -0.33604991893      
7600000000.0        -0.856381418079     -0.33242859183      0.142896624791      -0.367188248605     0.142896624791      -0.367188248605     -0.856381418079     -0.33242859183      
7700000000.0        -0.859618310911     -0.328849896498     0.139642455289      -0.364094222226     0.139642455289      -0.364094222226     -0.859618310911     -0.328849896498     
7800000000.0        -0.862754728128     -0.325313788552     0.136488493622      -0.361043617008     0.136488493622      -0.361043617008     -0.862754728128     -0.325313788552     
7900000000.0        -0.865794516762     -0.321820155786     0.133430891325      -0.358036325802     0.133430891325      -0.358036325802     -0.865794516762     -0.321820155786     
8000000000.0        -0.868741355314     -0.318368825586     0.130465968442      -0.355072181118     0.130465968442      -0.355072181118     -0.868741355314     -0.318368825586     
8100000000.0        -0.871598761549     -0.314959571652     0.127590205743      -0.352150961859     0.127590205743      -0.352150961859     -0.871598761549     -0.314959571652     
8200000000.0        -0.874370099951     -0.311592120112     0.124800237264      -0.34927239943      0.124800237264      -0.34927239943      -0.874370099951     -0.311592120112     
8300000000.0        -0.877058588851     -0.308266155067     0.122092843174      -0.346436183285     0.122092843174      -0.346436183285     -0.877058588851     -0.308266155067     
8400000000.0        -0.879667307244     -0.304981323625     0.119464942965      -0.343641965964     0.119464942965      -0.343641965964     -0.879667307244     -0.304981323625     
8500000000.0        -0.882199201294     -0.301737240461     0.116913588943      -0.34088936765      0.116913588943      -0.34088936765      -0.882199201294     -0.301737240461     
8600000000.0        -0.88465709054      -0.298533491959     0.114435960022      -0.338177980317     0.114435960022      -0.338177980317     -0.88465709054      -0.298533491959     
8700000000.0        -0.887043673818     -0.295369639956     0.112029355802      -0.335507371472     0.112029355802      -0.335507371472     -0.887043673818     -0.295369639956     
8800000000.0        -0.889361534901     -0.292245225144     0.109691190929      -0.332877087556     0.109691190929      -0.332877087556     -0.889361534901     -0.292245225144     
8900000000.0        -0.891613147876     -0.289159770134     0.107418989717      -0.330286657012     0.107418989717      -0.330286657012     -0.891613147876     -0.289159770134     
9000000000.0        -0.893800882264     -0.286112782244     0.105210381029      -0.327735593072     0.105210381029      -0.327735593072     -0.893800882264     -0.286112782244     
9100000000.0        -0.895927007892     -0.283103756004     0.103063093401      -0.325223396263     0.103063093401      -0.325223396263     -0.895927007892     -0.283103756004     
9200000000.0        -0.897993699539     -0.280132175428     0.100974950403      -0.322749556677     0.100974950403      -0.322749556677     -0.897993699539     -0.280132175428     
9300000000.0        -0.900003041343     -0.277197516057     0.0989438662237     -0.320313556024     0.0989438662237     -0.320313556024     -0.900003041343     -0.277197516057     
9400000000.0        -0.901957031007     -0.274299246808     0.0969678414678     -0.317914869467     0.0969678414678     -0.317914869467     -0.901957031007     -0.274299246808     
9500000000.0        -0.903857583797     -0.271436831633     0.0950449591603     -0.315552967294     0.0950449591603     -0.315552967294     -0.903857583797     -0.271436831633     
9600000000.0        -0.905706536339     -0.268609731014     0.0931733809443     -0.313227316405     0.0931733809443     -0.313227316405     -0.905706536339     -0.268609731014     
9700000000.0        -0.907505650236     -0.265817403299     0.091351343465      -0.310937381656     0.091351343465      -0.310937381656     -0.907505650236     -0.265817403299     
9800000000.0        -0.90925661551      -0.263059305916     0.089577154931      -0.308682627066     0.089577154931      -0.308682627066     -0.90925661551      -0.263059305916     
9900000000.0        -0.910961053868     -0.260334896437     0.0878491918434     -0.306462516888     0.0878491918434     -0.306462516888     -0.910961053868     -0.260334896437     
10000000000.0       -0.912620521815     -0.257643633551     0.086165895885      -0.304276516579     0.086165895885      -0.304276516579     -0.912620521815     -0.257643633551     
