# Hz S RI R 50.00 
100000000.0         -0.000118774889622  -0.0119913059914    0.999794543706      -0.0124662769209    0.999794543706      -0.0124662769209    -0.000118774889623  -0.0119913059914    
200000000.0         -0.00057879515485   -0.0239713901425    0.999333595454      -0.0249214172915    0.999333595454      -0.0249214172915    -0.00057879515485   -0.0239713901425    
300000000.0         -0.00133685416507   -0.0359295141035    0.998574531879      -0.0373547276041    0.998574531879      -0.0373547276041    -0.00133685416507   -0.0359295141035    
400000000.0         -0.00239160833525   -0.0478549661926    0.997518621777      -0.0497555306023    0.997518621777      -0.0497555306023    -0.00239160833525   -0.0478549661926    
500000000.0         -0.00374122541664   -0.0597371086658    0.996167668515      -0.0621132175886    0.996167668515      -0.0621132175886    -0.00374122541664   -0.0597371086658    
600000000.0         -0.00538337468105   -0.0715654141587    0.994523987958      -0.0744172866282    0.994523987958      -0.0744172866282    -0.00538337468105   -0.0715654141587    
700000000.0         -0.00731523160869   -0.0833294987002    0.992590395703      -0.0866573764682    0.992590395703      -0.0866573764682    -0.00731523160869   -0.0833294987002    
800000000.0         -0.00953348749793   -0.0950191527105    0.990370194519      -0.0988232980836    0.990370194519      -0.0988232980836    -0.00953348749793   -0.0950191527105    
900000000.0         -0.0120343620701    -0.106624370376     0.987867160445      -0.110905064419     0.987867160445      -0.110905064419     -0.0120343620701    -0.106624370376     
1000000000.0        -0.014813618422     -0.118135377486     0.985085527169      -0.122892918484     0.985085527169      -0.122892918484     -0.014813618422     -0.118135377486     
1100000000.0        -0.0178665800022    -0.129542657699     0.982029968693      -0.134777359825     0.982029968693      -0.134777359825     -0.0178665800022    -0.129542657699     
1200000000.0        -0.0211881493853    -0.140836977186     0.978705580341      -0.146549169315     0.978705580341      -0.146549169315     -0.0211881493853    -0.140836977186     
1300000000.0        -0.024772828654     -0.152009407552     0.975117858238      -0.158199432205     0.975117858238      -0.158199432205     -0.024772828654     -0.152009407552     
1400000000.0        -0.028614741207     -0.163051346976     0.971272677419      -0.16971955936      0.971272677419      -0.16971955936      -0.028614741207     -0.163051346976     
1500000000.0        -0.0327076548172    -0.173954539473     0.967176268709      -0.18110130662      0.967176268709      -0.18110130662      -0.0327076548172    -0.173954539473     
1600000000.0        -0.0370450057591    -0.184711092249     0.962835194553      -0.192336792216     0.962835194553      -0.192336792216     -0.0370450057591    -0.184711092249     
1700000000.0        -0.0416199238305    -0.195313491069     0.958256323966      -0.203418512212     0.958256323966      -0.203418512212     -0.0416199238305    -0.195313491069     
1800000000.0        -0.0464252580868    -0.205754613627     0.953446806778      -0.214339353931     0.953446806778      -0.214339353931     -0.0464252580868    -0.205754613627     
1900000000.0        -0.0514536031128    -0.216027740903     0.948414047344      -0.225092607357     0.948414047344      -0.225092607357     -0.0514536031128    -0.216027740903     
2000000000.0        -0.0566973256581    -0.226126566486     0.943165677899      -0.23567197451      0.943165677899      -0.23567197451      -0.0566973256581    -0.226126566486     
2100000000.0        -0.0621485914635    -0.236045203899     0.93770953172       -0.24607157681      0.93770953172       -0.24607157681      -0.0621485914635    -0.236045203899     
2200000000.0        -0.0677993921166    -0.245778191942     0.932053616267      -0.256285960458     0.932053616267      -0.256285960458     -0.0677993921166    -0.245778191942     
2300000000.0        -0.0736415717763    -0.255320498101     0.926206086449      -0.266310099876     0.926206086449      -0.266310099876     -0.0736415717763    -0.255320498101     
2400000000.0        -0.0796668536171    -0.264667520075     0.920175218177      -0.276139399268     0.920175218177      -0.276139399268     -0.0796668536171    -0.264667520075     
2500000000.0        -0.0858668658522    -0.273815085484     0.91396938234       -0.285769692361     0.91396938234       -0.285769692361     -0.0858668658522    -0.273815085484     
2600000000.0        -0.0922331672031    -0.28275944985      0.907597019328      -0.295197240406     0.907597019328      -0.295197240406     -0.0922331672031    -0.28275944985      
2700000000.0        -0.0987572716967    -0.291497292921     0.901066614236      -0.304418728528     0.901066614236      -0.304418728528     -0.0987572716967    -0.291497292921     
2800000000.0        -0.105430672679     -0.300025713439     0.894386672848      -0.313431260522     0.894386672848      -0.313431260522     -0.105430672679     -0.300025713439     
2900000000.0        -0.112244865947     -0.308342222458     0.887565698503      -0.32223235219      0.887565698503      -0.32223235219      -0.112244865947     -0.308342222458     
3000000000.0        -0.119191371917     -0.316444735314     0.880612169927      -0.330819923326     0.880612169927      -0.330819923326     -0.119191371917     -0.316444735314     
3100000000.0        -0.126261756744     -0.324331562347     0.873534520109      -0.339192288468     0.873534520109      -0.339192288468     -0.126261756744     -0.324331562347     
3200000000.0        -0.133447652345     -0.332001398517     0.866341116281      -0.347348146521     0.866341116281      -0.347348146521     -0.133447652345     -0.332001398517     
3300000000.0        -0.140740775264     -0.339453311991     0.85904024105       -0.355286569366     0.85904024105       -0.355286569366     -0.140740775264     -0.339453311991     
3400000000.0        -0.148132944342     -0.346686731849     0.851640074729      -0.36300698958      0.851640074729      -0.36300698958      -0.148132944342     -0.346686731849     
3500000000.0        -0.155616097162     -0.353701434997     0.84414867889       -0.370509187368     0.84414867889       -0.370509187368     -0.155616097162     -0.353701434997     
3600000000.0        -0.163182305257     -0.360497532423     0.836573981156      -0.377793276824     0.836573981156      -0.377793276824     -0.163182305257     -0.360497532423     
3700000000.0        -0.170823788063     -0.367075454887     0.828923761249      -0.384859691641     0.828923761249      -0.384859691641     -0.170823788063     -0.367075454887     
3800000000.0        -0.178532925626     -0.373435938155     0.821205638278      -0.391709170356     0.821205638278      -0.391709170356     -0.178532925626     -0.373435938155     
3900000000.0        -0.186302270069     -0.379580007895     0.813427059283      -0.398342741256     0.813427059283      -0.398342741256     -0.186302270069     -0.379580007895     
4000000000.0        -0.194124555829     -0.385508964306     0.805595288981      -0.404761707019     0.805595288981      -0.404761707019     -0.194124555829     -0.385508964306     
4100000000.0        -0.201992708704     -0.3912243666       0.797717400732      -0.410967629207     0.797717400732      -0.410967629207     -0.201992708704     -0.3912243666       
4200000000.0        -0.209899853725     -0.396728017403     0.789800268665      -0.416962312673     0.789800268665      -0.416962312673     -0.209899853725     -0.396728017403     
4300000000.0        -0.217839321897     -0.402021947168     0.781850560931      -0.422747789987     0.781850560931      -0.422747789987     -0.217839321897     -0.402021947168     
4400000000.0        -0.225804655842     -0.407108398672     0.773874734065      -0.428326305941     0.773874734065      -0.428326305941     -0.225804655842     -0.407108398672     
4500000000.0        -0.233789614401     -0.411989811664     0.76587902838       -0.433700302204     0.76587902838       -0.433700302204     -0.233789614401     -0.411989811664     
4600000000.0        -0.241788176231     -0.416668807735     0.757869464376      -0.4388724022       0.757869464376      -0.4388724022       -0.241788176231     -0.416668807735     
4700000000.0        -0.249794542452     -0.421148175453     0.749851840087      -0.443845396249     0.749851840087      -0.443845396249     -0.249794542452     -0.421148175453     
4800000000.0        -0.257803138394     -0.425430855827     0.741831729333      -0.448622227042     0.741831729333      -0.448622227042     -0.257803138394     -0.425430855827     
4900000000.0        -0.265808614509     -0.429519928144     0.733814480815      -0.453205975478     0.733814480815      -0.453205975478     -0.265808614509     -0.429519928144     
5000000000.0        -0.273805846482     -0.433418596198     0.725805217998      -0.457599846906     0.725805217998      -0.457599846906     -0.273805846482     -0.433418596198     
5100000000.0        -0.281789934618     -0.437130174982     0.717808839725      -0.461807157817     0.717808839725      -0.461807157817     -0.281789934618     -0.437130174982     
5200000000.0        -0.289756202546     -0.44065807783      0.709830021513      -0.465831322994     0.709830021513      -0.465831322994     -0.289756202546     -0.44065807783      
5300000000.0        -0.297700195301     -0.444005804061     0.701873217473      -0.469675843161     0.701873217473      -0.469675843161     -0.297700195301     -0.444005804061     
5400000000.0        -0.305617676832     -0.447176927131     0.693942662798      -0.47334429314      0.693942662798      -0.47334429314      -0.305617676832     -0.447176927131     
5500000000.0        -0.313504627        -0.450175083312     0.68604237677       -0.476840310534     0.68604237677       -0.476840310534     -0.313504627        -0.450175083312     
5600000000.0        -0.321357238099     -0.453003960898     0.678176166232      -0.480167584936     0.678176166232      -0.480167584936     -0.321357238099     -0.453003960898     
5700000000.0        -0.329171910973     -0.455667289957     0.670347629477      -0.48332984769      0.670347629477      -0.48332984769      -0.329171910973     -0.455667289957     
5800000000.0        -0.336945250752     -0.458168832626     0.66256016051       -0.48633086218      0.66256016051       -0.48633086218      -0.336945250752     -0.458168832626     
5900000000.0        -0.344674062272     -0.460512373938     0.654816953628      -0.489174414672     0.654816953628      -0.489174414672     -0.344674062272     -0.460512373938     
6000000000.0        -0.352355345209     -0.462701713196     0.647121008282      -0.491864305683     0.647121008282      -0.491864305683     -0.352355345209     -0.462701713196     
6100000000.0        -0.35998628898      -0.464740655874     0.639475134185      -0.49440434189      0.639475134185      -0.49440434189      -0.35998628898      -0.464740655874     
6200000000.0        -0.367564267437     -0.466633006041     0.631881956607      -0.496798328554     0.631881956607      -0.496798328554     -0.367564267437     -0.466633006041     
6300000000.0        -0.375086833403     -0.468382559293     0.624343921848      -0.499050062457     0.624343921848      -0.499050062457     -0.375086833403     -0.468382559293     
6400000000.0        -0.382551713071     -0.469993096194     0.616863302833      -0.50116332534      0.616863302833      -0.50116332534      -0.382551713071     -0.469993096194     
6500000000.0        -0.389956800314     -0.471468376189     0.609442204803      -0.503141877831     0.609442204803      -0.503141877831     -0.389956800314     -0.471468376189     
6600000000.0        -0.397300150919     -0.472812132003     0.602082571086      -0.504989453829     0.602082571086      -0.504989453829     -0.397300150919     -0.472812132003     
6700000000.0        -0.40457997678      -0.47402806448      0.594786188895      -0.506709755362     0.594786188895      -0.506709755362     -0.40457997678      -0.47402806448      
6800000000.0        -0.411794640079     -0.475119837869     0.587554695154      -0.508306447863     0.587554695154      -0.508306447863     -0.411794640079     -0.475119837869     
6900000000.0        -0.418942647467     -0.476091075531     0.580389582314      -0.509783155883     0.580389582314      -0.509783155883     -0.418942647467     -0.476091075531     
7000000000.0        -0.426022644276     -0.476945356037     0.573292204142      -0.511143459194     0.573292204142      -0.511143459194     -0.426022644276     -0.476945356037     
7100000000.0        -0.433033408775     -0.477686209666     0.566263781464      -0.512390889283     0.566263781464      -0.512390889283     -0.433033408775     -0.477686209666     
7200000000.0        -0.439973846485     -0.478317115254     0.559305407849      -0.513528926208     0.559305407849      -0.513528926208     -0.439973846485     -0.478317115254     
7300000000.0        -0.446842984577     -0.478841497403     0.552418055214      -0.5145609958       0.552418055214      -0.5145609958       -0.446842984577     -0.478841497403     
7400000000.0        -0.453639966354     -0.479262724006     0.54560257934       -0.515490467201     0.54560257934       -0.515490467201     -0.453639966354     -0.479262724006     
7500000000.0        -0.460364045837     -0.479584104094     0.538859725284      -0.516320650703     0.538859725284      -0.516320650703     -0.460364045837     -0.479584104094     
7600000000.0        -0.467014582464     -0.479808885969     0.532190132682      -0.517054795887     0.532190132682      -0.517054795887     -0.467014582464     -0.479808885969     
7700000000.0        -0.473591035908     -0.479940255616     0.525594340933      -0.517696090033     0.525594340933      -0.517696090033     -0.473591035908     -0.479940255616     
7800000000.0        -0.480092961019     -0.47998133537      0.519072794251      -0.51824765679      0.519072794251      -0.51824765679      -0.480092961019     -0.47998133537      
7900000000.0        -0.486520002911     -0.479935182826     0.512625846586      -0.518712555087     0.512625846586      -0.518712555087     -0.486520002911     -0.479935182826     
8000000000.0        -0.492871892171     -0.479804789977     0.506253766406      -0.519093778269     0.506253766406      -0.519093778269     -0.492871892171     -0.479804789977     
8100000000.0        -0.499148440226     -0.479593082555     0.499956741336      -0.519394253444     0.499956741336      -0.519394253444     -0.499148440226     -0.479593082555     
8200000000.0        -0.505349534846     -0.479302919574     0.493734882654      -0.519616841024     0.493734882654      -0.519616841024     -0.505349534846     -0.479302919574     
8300000000.0        -0.511475135795     -0.478937093051     0.487588229637      -0.519764334442     0.487588229637      -0.519764334442     -0.511475135795     -0.478937093051     
8400000000.0        -0.51752527064      -0.478498327886     0.481516753756      -0.519839460043     0.481516753756      -0.519839460043     -0.51752527064      -0.478498327886     
8500000000.0        -0.523500030695     -0.477989281908     0.47552036273       -0.519844877121     0.47552036273       -0.519844877121     -0.523500030695     -0.477989281908     
8600000000.0        -0.529399567124     -0.477412546054     0.469598904418      -0.519783178102     0.469598904418      -0.519783178102     -0.529399567124     -0.477412546054     
8700000000.0        -0.535224087194     -0.476770644672     0.463752170578      -0.519656888851     0.463752170578      -0.519656888851     -0.535224087194     -0.476770644672     
8800000000.0        -0.540973850665     -0.476066035952     0.457979900463      -0.519468469096     0.457979900463      -0.519468469096     -0.540973850665     -0.476066035952     
8900000000.0        -0.546649166338     -0.475301112455     0.452281784285      -0.519220312965     0.452281784285      -0.519220312965     -0.546649166338     -0.475301112455     
9000000000.0        -0.552250388735     -0.47447820174      0.446657466523      -0.518914749609     0.446657466523      -0.518914749609     -0.552250388735     -0.47447820174      
9100000000.0        -0.557777914934     -0.473599567081     0.441106549101      -0.518554043918     0.441106549101      -0.518554043918     -0.557777914934     -0.473599567081     
9200000000.0        -0.563232181525     -0.472667408254     0.435628594419      -0.518140397316     0.435628594419      -0.518140397316     -0.563232181525     -0.472667408254     
9300000000.0        -0.568613661721     -0.471683862403     0.430223128253      -0.517675948615     0.430223128253      -0.517675948615     -0.568613661721     -0.471683862403     
9400000000.0        -0.573922862583     -0.470651004957     0.424889642521      -0.517162774943     0.424889642521      -0.517162774943     -0.573922862583     -0.470651004957     
9500000000.0        -0.579160322391     -0.469570850606     0.419627597918      -0.516602892717     0.419627597918      -0.516602892717     -0.579160322391     -0.469570850606     
9600000000.0        -0.584326608124     -0.468445354323     0.414436426433      -0.515998258665     0.414436426433      -0.515998258665     -0.584326608124     -0.468445354323     
9700000000.0        -0.589422313079     -0.467276412428     0.409315533731      -0.515350770885     0.409315533731      -0.515350770885     -0.589422313079     -0.467276412428     
9800000000.0        -0.594448054593     -0.466065863681     0.404264301431      -0.514662269948     0.404264301431      -0.514662269948     -0.594448054593     -0.466065863681     
9900000000.0        -0.599404471889     -0.464815490407     0.399282089258      -0.513934540016     0.399282089258      -0.513934540016     -0.599404471889     -0.464815490407     
10000000000.0       -0.604292224029     -0.463527019646     0.394368237092      -0.513169309993     0.394368237092      -0.513169309993     -0.604292224029     -0.463527019646     
