# Hz S RI R 50.00 
100000000.0         0.00146756680618    -0.00566293947457   0.998419187271      -0.00837732896912   0.998419187271      -0.00837732896912   0.00146756680618    -0.00566293947457   
200000000.0         0.00132865600787    -0.011323852979     0.99824866463       -0.0167525587439    0.99824866463       -0.0167525587439    0.00132865600787    -0.011323852979     
300000000.0         0.00109228068591    -0.0169807990215    0.99797857245       -0.0251238215662    0.99797857245       -0.0251238215662    0.00109228068591    -0.0169807990215    
400000000.0         0.000759882122758   -0.0226318462417    0.997607721451      -0.033489229194     0.997607721451      -0.033489229194     0.000759882122758   -0.0226318462417    
500000000.0         0.000332141672085   -0.0282750676902    0.997135780907      -0.0418468902282    0.997135780907      -0.0418468902282    0.000332141672085   -0.0282750676902    
600000000.0         -0.00019045795263   -0.033908541874     0.996562717188      -0.0501949152031    0.996562717188      -0.0501949152031    -0.00019045795263   -0.033908541874     
700000000.0         -0.000807490306629  -0.0395303543457    0.995888651042      -0.0585314196736    0.995888651042      -0.0585314196736    -0.000807490306629  -0.0395303543457    
800000000.0         -0.00151853350362   -0.0451385993728    0.995113805354      -0.0668545265974    0.995113805354      -0.0668545265974    -0.00151853350362   -0.0451385993728    
900000000.0         -0.00232314743613   -0.0507313815986    0.994238481697      -0.0751623683911    0.994238481697      -0.0751623683911    -0.00232314743613   -0.0507313815986    
1000000000.0        -0.00322086247761   -0.0563068176775    0.993263048218      -0.0834530888038    0.993263048218      -0.0834530888038    -0.00322086247761   -0.0563068176775    
1100000000.0        -0.00421117345658   -0.0618630378758    0.992187932664      -0.0917248446746    0.992187932664      -0.0917248446746    -0.00421117345658   -0.0618630378758    
1200000000.0        -0.00529353632536   -0.0673981876395    0.991013617976      -0.0999758076071    0.991013617976      -0.0999758076071    -0.00529353632536   -0.0673981876395    
1300000000.0        -0.00646736632761   -0.0729104291259    0.989740639255      -0.108204165577     0.989740639255      -0.108204165577     -0.00646736632761   -0.0729104291259    
1400000000.0        -0.00773203705991   -0.0783979426996    0.988369581511      -0.116408124486     0.988369581511      -0.116408124486     -0.00773203705991   -0.0783979426996    
1500000000.0        -0.00908688009997   -0.0838589283913    0.98690107786       -0.124585909661     0.98690107786       -0.124585909661     -0.00908688009997   -0.0838589283913    
1600000000.0        -0.0105311850138    -0.089291607318     0.985335807989      -0.132735767309     0.985335807989      -0.132735767309     -0.0105311850138    -0.089291607318     
1700000000.0        -0.0120641996291    -0.0946942230638    0.983674496789      -0.140855965926     0.983674496789      -0.140855965926     -0.0120641996291    -0.0946942230638    
1800000000.0        -0.0136851305036    -0.100065043019     0.981917913075      -0.148944797653     0.981917913075      -0.148944797653     -0.0136851305036    -0.100065043019     
1900000000.0        -0.0153931435429    -0.105402359678     0.980066868362      -0.157000579593     0.980066868362      -0.157000579593     -0.0153931435429    -0.105402359678     
2000000000.0        -0.0171873647354    -0.110704491891     0.978122215671      -0.16502165508      0.978122215671      -0.16502165508      -0.0171873647354    -0.110704491891     
2100000000.0        -0.0190668809833    -0.115969786073     0.976084848333      -0.173006394891     0.976084848333      -0.173006394891     -0.0190668809833    -0.115969786073     
2200000000.0        -0.0210307410134    -0.12119661736      0.973955698802      -0.180953198427     0.973955698802      -0.180953198427     -0.0210307410134    -0.12119661736      
2300000000.0        -0.0230779563551    -0.126383390729     0.971735737447      -0.188860494822     0.971735737447      -0.188860494822     -0.0230779563551    -0.126383390729     
2400000000.0        -0.0252075023775    -0.131528542053     0.969425971341      -0.196726744021     0.969425971341      -0.196726744021     -0.0252075023775    -0.131528542053     
2500000000.0        -0.0274183193768    -0.13663053912      0.967027443021      -0.204550437799     0.967027443021      -0.204550437799     -0.0274183193768    -0.13663053912      
2600000000.0        -0.0297093137087    -0.141687882591     0.964541229241      -0.212330100722     0.964541229241      -0.212330100722     -0.0297093137087    -0.141687882591     
2700000000.0        -0.0320793589602    -0.146699106908     0.961968439695      -0.220064291064     0.961968439695      -0.220064291064     -0.0320793589602    -0.146699106908     
2800000000.0        -0.0345272971555    -0.151662781153     0.959310215733      -0.227751601666     0.959310215733      -0.227751601666     -0.0345272971555    -0.151662781153     
2900000000.0        -0.0370519399928    -0.156577509847     0.956567729054      -0.235390660741     0.956567729054      -0.235390660741     -0.0370519399928    -0.156577509847     
3000000000.0        -0.0396520701079    -0.161441933701     0.95374218038       -0.242980132627     0.95374218038       -0.242980132627     -0.0396520701079    -0.161441933701     
3100000000.0        -0.0423264423601    -0.166254730305     0.950834798124      -0.250518718479     0.950834798124      -0.250518718479     -0.0423264423601    -0.166254730305     
3200000000.0        -0.0450737851383    -0.17101461477      0.947846837039      -0.25800515691      0.947846837039      -0.25800515691      -0.0450737851383    -0.17101461477      
3300000000.0        -0.0478928016838    -0.175720340309     0.944779576858      -0.26543822458      0.944779576858      -0.26543822458      -0.0478928016838    -0.175720340309     
3400000000.0        -0.0507821714259    -0.180370698766     0.941634320928      -0.272816736719     0.941634320928      -0.272816736719     -0.0507821714259    -0.180370698766     
3500000000.0        -0.0537405513288    -0.184964521088     0.938412394833      -0.280139547609     0.938412394833      -0.280139547609     -0.0537405513288    -0.184964521088     
3600000000.0        -0.0567665772453    -0.189500677744     0.935115145014      -0.287405550996     0.935115145014      -0.287405550996     -0.0567665772453    -0.189500677744     
3700000000.0        -0.059858865277     -0.193978079089     0.931743937394      -0.294613680458     0.931743937394      -0.294613680458     -0.059858865277     -0.193978079089     
3800000000.0        -0.0630160131354    -0.19839567567      0.928300155991      -0.301762909718     0.928300155991      -0.301762909718     -0.0630160131354    -0.19839567567      
3900000000.0        -0.0662366015037    -0.202752458489     0.92478520154       -0.308852252896     0.92478520154       -0.308852252896     -0.0662366015037    -0.202752458489     
4000000000.0        -0.0695191953963    -0.2070474592       0.921200490122      -0.315880764713     0.921200490122      -0.315880764713     -0.0695191953963    -0.2070474592       
4100000000.0        -0.072862345513     -0.211279750261     0.917547451793      -0.322847540648     0.917547451793      -0.322847540648     -0.072862345513     -0.211279750261     
4200000000.0        -0.076264589586     -0.215448445038     0.913827529222      -0.329751717031     0.913827529222      -0.329751717031     -0.076264589586     -0.215448445038     
4300000000.0        -0.0797244537181    -0.219552697851     0.91004217635       -0.336592471097     0.91004217635       -0.336592471097     -0.0797244537181    -0.219552697851     
4400000000.0        -0.0832404537089    -0.223591703972     0.906192857042      -0.343369020988     0.906192857042      -0.343369020988     -0.0832404537089    -0.223591703972     
4500000000.0        -0.0868110963684    -0.227564699585     0.902281043773      -0.350080625697     0.902281043773      -0.350080625697     -0.0868110963684    -0.227564699585     
4600000000.0        -0.0904348808142    -0.231470961681     0.898308216318      -0.356726584983     0.898308216318      -0.356726584983     -0.0904348808142    -0.231470961681     
4700000000.0        -0.094110299753     -0.235309807927     0.894275860464      -0.363306239224     0.894275860464      -0.363306239224     -0.094110299753     -0.235309807927     
4800000000.0        -0.0978358407418    -0.239080596473     0.890185466739      -0.369818969233     0.890185466739      -0.369818969233     -0.0978358407418    -0.239080596473     
4900000000.0        -0.10160998743      -0.24278272573      0.886038529164      -0.376264196029     0.886038529164      -0.376264196029     -0.10160998743      -0.24278272573      
5000000000.0        -0.105431220777     -0.246415634094     0.881836544029      -0.382641380568     0.881836544029      -0.382641380568     -0.105431220777     -0.246415634094     
5100000000.0        -0.109298020252     -0.249978799644     0.877581008688      -0.388950023433     0.877581008688      -0.388950023433     -0.109298020252     -0.249978799644     
5200000000.0        -0.113208865001     -0.253471739787     0.873273420384      -0.395189664483     0.873273420384      -0.395189664483     -0.113208865001     -0.253471739787     
5300000000.0        -0.117162234994     -0.256894010874     0.868915275096      -0.40135988247      0.868915275096      -0.40135988247      -0.117162234994     -0.256894010874     
5400000000.0        -0.121156612142     -0.260245207784     0.864508066417      -0.407460294614     0.864508066417      -0.407460294614     -0.121156612142     -0.260245207784     
5500000000.0        -0.125190481389     -0.26352496346      0.860053284461      -0.413490556148     0.860053284461      -0.413490556148     -0.125190481389     -0.26352496346      
5600000000.0        -0.129262331769     -0.266732948432     0.855552414792      -0.419450359835     0.855552414792      -0.419450359835     -0.129262331769     -0.266732948432     
5700000000.0        -0.133370657439     -0.269868870293     0.851006937395      -0.425339435443     0.851006937395      -0.425339435443     -0.133370657439     -0.269868870293     
5800000000.0        -0.137513958677     -0.272932473153     0.846418325669      -0.431157549203     0.846418325669      -0.431157549203     -0.137513958677     -0.272932473153     
5900000000.0        -0.141690742849     -0.275923537072     0.841788045453      -0.43690450323      0.841788045453      -0.43690450323      -0.141690742849     -0.275923537072     
6000000000.0        -0.145899525347     -0.278841877452     0.837117554091      -0.442580134929     0.837117554091      -0.442580134929     -0.145899525347     -0.278841877452     
6100000000.0        -0.150138830491     -0.281687344421     0.832408299517      -0.448184316365     0.832408299517      -0.448184316365     -0.150138830491     -0.281687344421     
6200000000.0        -0.154407192397     -0.284459822184     0.827661719389      -0.453716953621     0.827661719389      -0.453716953621     -0.154407192397     -0.284459822184     
6300000000.0        -0.158703155815     -0.287159228361     0.822879240243      -0.45917798613      0.822879240243      -0.45917798613      -0.158703155815     -0.287159228361     
6400000000.0        -0.163025276934     -0.2897855133       0.81806227669       -0.464567385989     0.81806227669       -0.464567385989     -0.163025276934     -0.2897855133       
6500000000.0        -0.167372124143     -0.292338659375     0.813212230637      -0.469885157256     0.813212230637      -0.469885157256     -0.167372124143     -0.292338659375     
6600000000.0        -0.171742278773     -0.294818680274     0.808330490558      -0.475131335234     0.808330490558      -0.475131335234     -0.171742278773     -0.294818680274     
6700000000.0        -0.176134335795     -0.297225620259     0.803418430781      -0.480305985736     0.803418430781      -0.480305985736     -0.176134335795     -0.297225620259     
6800000000.0        -0.180546904485     -0.299559553429     0.798477410821      -0.485409204337     0.798477410821      -0.485409204337     -0.180546904485     -0.299559553429     
6900000000.0        -0.184978609057     -0.301820582965     0.793508774745      -0.490441115625     0.793508774745      -0.490441115625     -0.184978609057     -0.301820582965     
7000000000.0        -0.189428089263     -0.304008840361     0.788513850567      -0.495401872429     0.788513850567      -0.495401872429     -0.189428089263     -0.304008840361     
7100000000.0        -0.193894000955     -0.306124484655     0.783493949678      -0.500291655046     0.783493949678      -0.500291655046     -0.193894000955     -0.306124484655     
7200000000.0        -0.198375016621     -0.308167701649     0.778450366316      -0.505110670462     0.778450366316      -0.505110670462     -0.198375016621     -0.308167701649     
7300000000.0        -0.202869825877     -0.310138703124     0.773384377057      -0.509859151563     0.773384377057      -0.509859151563     -0.202869825877     -0.310138703124     
7400000000.0        -0.20737713594      -0.312037726051     0.768297240347      -0.514537356349     0.768297240347      -0.514537356349     -0.20737713594      -0.312037726051     
7500000000.0        -0.211895672057     -0.313865031803     0.763190196068      -0.519145567134     0.763190196068      -0.519145567134     -0.211895672057     -0.313865031803     
7600000000.0        -0.216424177909     -0.315620905356     0.758064465126      -0.52368408976      0.758064465126      -0.52368408976      -0.216424177909     -0.315620905356     
7700000000.0        -0.220961415981     -0.317305654503     0.752921249078      -0.528153252794     0.752921249078      -0.528153252794     -0.220961415981     -0.317305654503     
7800000000.0        -0.225506167906     -0.318919609057     0.74776172979       -0.532553406738     0.74776172979       -0.532553406738     -0.225506167906     -0.318919609057     
7900000000.0        -0.230057234766     -0.32046312006      0.742587069118      -0.536884923238     0.742587069118      -0.536884923238     -0.230057234766     -0.32046312006      
8000000000.0        -0.234613437385     -0.321936558999     0.737398408629      -0.54114819429      0.737398408629      -0.54114819429      -0.234613437385     -0.321936558999     
8100000000.0        -0.239173616571     -0.323340317021     0.732196869339      -0.545343631456     0.732196869339      -0.545343631456     -0.239173616571     -0.323340317021     
8200000000.0        -0.243736633346     -0.324674804154     0.726983551488      -0.549471665087     0.726983551488      -0.549471665087     -0.243736633346     -0.324674804154     
8300000000.0        -0.248301369138     -0.325940448535     0.721759534337      -0.553532743543     0.721759534337      -0.553532743543     -0.248301369138     -0.325940448535     
8400000000.0        -0.252866725956     -0.327137695644     0.716525875996      -0.557527332427     0.716525875996      -0.557527332427     -0.252866725956     -0.327137695644     
8500000000.0        -0.257431626531     -0.328267007544     0.711283613274      -0.561455913825     0.711283613274      -0.561455913825     -0.257431626531     -0.328267007544     
8600000000.0        -0.261995014433     -0.329328862134     0.706033761556      -0.56531898555      0.706033761556      -0.56531898555      -0.261995014433     -0.329328862134     
8700000000.0        -0.266555854171     -0.330323752403     0.700777314704      -0.569117060404     0.700777314704      -0.569117060404     -0.266555854171     -0.330323752403     
8800000000.0        -0.27111313126      -0.331252185702     0.695515244982      -0.572850665438     0.695515244982      -0.572850665438     -0.27111313126      -0.331252185702     
8900000000.0        -0.275665852267     -0.332114683022     0.690248503002      -0.576520341229     0.690248503002      -0.576520341229     -0.275665852267     -0.332114683022     
9000000000.0        -0.280213044846     -0.332911778283     0.684978017694      -0.58012664117      0.684978017694      -0.58012664117      -0.280213044846     -0.332911778283     
9100000000.0        -0.284753757731     -0.333644017632     0.679704696297      -0.583670130764     0.679704696297      -0.583670130764     -0.284753757731     -0.333644017632     
9200000000.0        -0.28928706073      -0.334311958761     0.674429424369      -0.587151386938     0.674429424369      -0.587151386938     -0.28928706073      -0.334311958761     
9300000000.0        -0.293812044686     -0.334916170226     0.669153065817      -0.59057099736      0.669153065817      -0.59057099736      -0.293812044686     -0.334916170226     
9400000000.0        -0.298327821425     -0.33545723079      0.663876462947      -0.593929559777     0.663876462947      -0.593929559777     -0.298327821425     -0.33545723079      
9500000000.0        -0.30283352368      -0.335935728769     0.658600436529      -0.597227681362     0.658600436529      -0.597227681362     -0.30283352368      -0.335935728769     
9600000000.0        -0.307328305008     -0.336352261397     0.653325785883      -0.600465978072     0.653325785883      -0.600465978072     -0.307328305008     -0.336352261397     
9700000000.0        -0.311811339681     -0.336707434206     0.648053288979      -0.603645074029     0.648053288979      -0.603645074029     -0.311811339681     -0.336707434206     
9800000000.0        -0.316281822564     -0.337001860415     0.642783702551      -0.606765600901     0.642783702551      -0.606765600901     -0.316281822564     -0.337001860415     
9900000000.0        -0.320738968983     -0.337236160337     0.63751776223       -0.609828197308     0.63751776223       -0.609828197308     -0.320738968983     -0.337236160337     
10000000000.0       -0.325182014572     -0.337410960798     0.63225618269       -0.612833508239     0.63225618269       -0.612833508239     -0.325182014572     -0.337410960798     
