# Hz S RI R 50.00 
100000000.0         0.000104633258419   -0.00109931406613   0.999887199353      -0.00184516235373   0.999887199353      -0.00184516235373   0.000104633258419   -0.00109931406613   
200000000.0         9.78650653722e-05   -0.00219868377814   0.999878128678      -0.00369040786252   0.999878128678      -0.00369040786252   9.78650653722e-05   -0.00219868377814   
300000000.0         8.6849225013e-05    -0.00329813142853   0.999864631906      -0.0055357750438    0.999864631906      -0.0055357750438    8.6849225013e-05    -0.00329813142853   
400000000.0         7.16781135421e-05   -0.00439766949725   0.99984661376       -0.00738128861548   0.99984661376       -0.00738128861548   7.16781135421e-05   -0.00439766949725   
500000000.0         5.23861307207e-05   -0.00549730526101   0.999824036473      -0.00922696625648   0.999824036473      -0.00922696625648   5.23861307204e-05   -0.00549730526101   
600000000.0         2.89898122545e-05   -0.00659704247295   0.999796879773      -0.011072820962     0.999796879773      -0.011072820962     2.8989812255e-05    -0.00659704247295   
700000000.0         1.49803609273e-06   -0.0076968822374    0.999765130758      -0.0129188622509    0.999765130758      -0.0129188622509    1.49803609273e-06   -0.0076968822374    
800000000.0         -3.00842425092e-05  -0.0087968235425    0.999728780213      -0.0147650968939    0.999728780213      -0.0147650968939    -3.00842425087e-05  -0.0087968235425    
900000000.0         -6.57543194502e-05  -0.00989686361695   0.999687820993      -0.0166115293971    0.999687820993      -0.0166115293971    -6.57543194501e-05  -0.00989686361695   
1000000000.0        -0.000105510887789  -0.0109969981862    0.999642247205      -0.0184581623468    0.999642247205      -0.0184581623468    -0.000105510887789  -0.0109969981862    
1100000000.0        -0.000149353557535  -0.012097221664     0.999592053763      -0.0203049966651    0.999592053763      -0.0203049966651    -0.000149353557535  -0.012097221664     
1200000000.0        -0.000197282565065  -0.0131975273018    0.999537236131      -0.0221520318093    0.999537236131      -0.0221520318093    -0.000197282565065  -0.0131975273018    
1300000000.0        -0.000249298586649  -0.0142979073092    0.99947779016       -0.0239992659297    0.99947779016       -0.0239992659297    -0.000249298586649  -0.0142979073092    
1400000000.0        -0.00030540261276   -0.0153983529513    0.999413711989      -0.0258466959984    0.999413711989      -0.0258466959984    -0.00030540261276   -0.0153983529513    
1500000000.0        -0.000365595859885  -0.0164988546318    0.99934499798       -0.027694317917     0.99934499798       -0.027694317917     -0.000365595859885  -0.0164988546318    
1600000000.0        -0.000429879706322  -0.0175994019624    0.999271644672      -0.0295421266073    0.999271644672      -0.0295421266073    -0.000429879706322  -0.0175994019624    
1700000000.0        -0.000498255644041  -0.0186999838236    0.999193648752      -0.031390116089     0.999193648752      -0.031390116089     -0.000498255644041  -0.0186999838236    
1800000000.0        -0.000570725241534  -0.0198005884171    0.999111007037      -0.0332382795473    0.999111007037      -0.0332382795473    -0.000570725241534  -0.0198005884171    
1900000000.0        -0.000647290114494  -0.0209012033125    0.999023716459      -0.0350866093925    0.999023716459      -0.0350866093925    -0.000647290114494  -0.0209012033125    
2000000000.0        -0.000727951902136  -0.0220018154882    0.998931774055      -0.0369350973125    0.998931774055      -0.0369350973125    -0.000727951902136  -0.0220018154882    
2100000000.0        -0.000812712247731  -0.0231024113693    0.998835176963      -0.0387837343194    0.998835176963      -0.0387837343194    -0.000812712247731  -0.0231024113693    
2200000000.0        -0.000901572782311  -0.0242029768602    0.998733922419      -0.0406325107917    0.998733922419      -0.0406325107917    -0.000901572782311  -0.0242029768602    
2300000000.0        -0.000994535110845  -0.0253034973759    0.998628007754      -0.0424814165129    0.998628007754      -0.0424814165129    -0.000994535110844  -0.0253034973759    
2400000000.0        -0.00109160080035   -0.0264039578694    0.998517430394      -0.0443304407058    0.998517430394      -0.0443304407058    -0.00109160080035   -0.0264039578694    
2500000000.0        -0.00119277136952   -0.0275043428576    0.99840218786       -0.0461795720645    0.99840218786       -0.0461795720645    -0.00119277136952   -0.0275043428576    
2600000000.0        -0.00129804827966   -0.0286046364447    0.998282277769      -0.0480287987836    0.998282277769      -0.0480287987836    -0.00129804827966   -0.0286046364447    
2700000000.0        -0.00140743292657   -0.0297048223442    0.998157697835      -0.0498781085851    0.998157697835      -0.0498781085851    -0.00140743292657   -0.0297048223442    
2800000000.0        -0.00152092663335   -0.0308048838995    0.998028445872      -0.0517274887435    0.998028445872      -0.0517274887435    -0.00152092663335   -0.0308048838995    
2900000000.0        -0.00163853064392   -0.0319048041028    0.997894519792      -0.053576926109     0.997894519792      -0.053576926109     -0.00163853064392   -0.0319048041028    
3000000000.0        -0.00176024611712   -0.0330045656126    0.997755917612      -0.0554264071291    0.997755917612      -0.0554264071291    -0.00176024611712   -0.0330045656126    
3100000000.0        -0.00188607412136   -0.0341041507711    0.997612637453      -0.0572759178691    0.997612637453      -0.0572759178691    -0.00188607412136   -0.0341041507711    
3200000000.0        -0.00201601562974   -0.0352035416194    0.997464677542      -0.0591254440309    0.997464677542      -0.0591254440309    -0.00201601562974   -0.0352035416194    
3300000000.0        -0.00215007151556   -0.0363027199128    0.997312036217      -0.0609749709713    0.997312036217      -0.0609749709713    -0.00215007151556   -0.0363027199128    
3400000000.0        -0.00228824254819   -0.0374016671342    0.997154711924      -0.0628244837183    0.997154711924      -0.0628244837183    -0.00228824254819   -0.0374016671342    
3500000000.0        -0.00243052938926   -0.0385003645082    0.996992703224      -0.0646739669875    0.996992703224      -0.0646739669875    -0.00243052938926   -0.0385003645082    
3600000000.0        -0.00257693258915   -0.0395987930132    0.996826008791      -0.066523405197     0.996826008791      -0.066523405197     -0.00257693258915   -0.0395987930132    
3700000000.0        -0.00272745258368   -0.0406969333937    0.996654627419      -0.0683727824816    0.996654627419      -0.0683727824816    -0.00272745258368   -0.0406969333937    
3800000000.0        -0.00288208969112   -0.0417947661714    0.996478558017      -0.0702220827066    0.996478558017      -0.0702220827066    -0.00288208969112   -0.0417947661714    
3900000000.0        -0.00304084410935   -0.0428922716564    0.996297799618      -0.0720712894807    0.996297799618      -0.0720712894807    -0.00304084410935   -0.0428922716564    
4000000000.0        -0.00320371591324   -0.0439894299578    0.996112351375      -0.0739203861681    0.996112351375      -0.0739203861681    -0.00320371591324   -0.0439894299578    
4100000000.0        -0.00337070505218   -0.045086220993     0.995922212567      -0.0757693559002    0.995922212567      -0.0757693559002    -0.00337070505218   -0.045086220993     
4200000000.0        -0.00354181134783   -0.0461826244977    0.995727382596      -0.0776181815872    0.995727382596      -0.0776181815872    -0.00354181134783   -0.0461826244977    
4300000000.0        -0.00371703449199   -0.0472786200352    0.995527860994      -0.0794668459284    0.995527860994      -0.0794668459284    -0.00371703449199   -0.0472786200352    
4400000000.0        -0.00389637404461   -0.0483741870045    0.99532364742       -0.0813153314224    0.99532364742       -0.0813153314224    -0.00389637404461   -0.0483741870045    
4500000000.0        -0.00407982943194   -0.0494693046494    0.995114741664      -0.0831636203775    0.995114741664      -0.0831636203775    -0.00407982943194   -0.0494693046494    
4600000000.0        -0.00426739994481   -0.0505639520662    0.994901143647      -0.0850116949202    0.994901143647      -0.0850116949202    -0.00426739994481   -0.0505639520662    
4700000000.0        -0.00445908473705   -0.0516581082115    0.994682853421      -0.0868595370051    0.994682853421      -0.0868595370051    -0.00445908473705   -0.0516581082115    
4800000000.0        -0.00465488282396   -0.0527517519096    0.994459871174      -0.0887071284231    0.994459871174      -0.0887071284231    -0.00465488282396   -0.0527517519096    
4900000000.0        -0.00485479308094   -0.05384486186      0.994232197228      -0.0905544508097    0.994232197228      -0.0905544508097    -0.00485479308094   -0.05384486186      
5000000000.0        -0.00505881424221   -0.054937416644     0.993999832041      -0.0924014856533    0.993999832041      -0.0924014856533    -0.0050588142422    -0.054937416644     
5100000000.0        -0.00526694489959   -0.0560293947318    0.993762776208      -0.0942482143028    0.993762776208      -0.0942482143028    -0.00526694489959   -0.0560293947318    
5200000000.0        -0.00547918350144   -0.0571207744885    0.993521030461      -0.0960946179749    0.993521030461      -0.0960946179749    -0.00547918350144   -0.0571207744885    
5300000000.0        -0.00569552835156   -0.0582115341805    0.99327459567       -0.0979406777614    0.99327459567       -0.0979406777614    -0.00569552835156   -0.0582115341805    
5400000000.0        -0.00591597760832   -0.0593016519816    0.993023472847      -0.0997863746362    0.993023472847      -0.0997863746362    -0.00591597760832   -0.0593016519816    
5500000000.0        -0.00614052928377   -0.060391105979     0.992767663142      -0.101631689462     0.992767663142      -0.101631689462     -0.00614052928377   -0.060391105979     
5600000000.0        -0.00636918124281   -0.0614798741785    0.992507167845      -0.103476602996     0.992507167845      -0.103476602996     -0.00636918124281   -0.0614798741785    
5700000000.0        -0.00660193120253   -0.0625679345102    0.99224198839       -0.105321095898     0.99224198839       -0.105321095898     -0.00660193120253   -0.0625679345102    
5800000000.0        -0.00683877673149   -0.0636552648341    0.99197212635       -0.107165148733     0.99197212635       -0.107165148733     -0.00683877673149   -0.0636552648341    
5900000000.0        -0.00707971524916   -0.0647418429446    0.991697583443      -0.109008741982     0.991697583443      -0.109008741982     -0.00707971524916   -0.0647418429446    
6000000000.0        -0.00732474402536   -0.0658276465757    0.991418361527      -0.110851856044     0.991418361527      -0.110851856044     -0.00732474402536   -0.0658276465757    
6100000000.0        -0.00757386017983   -0.0669126534061    0.991134462605      -0.11269447124      0.991134462605      -0.11269447124      -0.00757386017983   -0.0669126534061    
6200000000.0        -0.00782706068172   -0.0679968410635    0.990845888823      -0.114536567823     0.990845888823      -0.114536567823     -0.00782706068172   -0.0679968410635    
6300000000.0        -0.00808434234932   -0.0690801871294    0.990552642472      -0.11637812598      0.990552642472      -0.11637812598      -0.00808434234932   -0.0690801871294    
6400000000.0        -0.00834570184966   -0.0701626691432    0.990254725985      -0.118219125838     0.990254725985      -0.118219125838     -0.00834570184966   -0.0701626691432    
6500000000.0        -0.00861113569829   -0.0712442646066    0.989952141942      -0.120059547468     0.989952141942      -0.120059547468     -0.00861113569829   -0.0712442646066    
6600000000.0        -0.00888064025904   -0.0723249509881    0.989644893063      -0.12189937089      0.989644893063      -0.12189937089      -0.00888064025904   -0.0723249509881    
6700000000.0        -0.00915421174383   -0.0734047057263    0.989332982219      -0.123738576079     0.989332982219      -0.123738576079     -0.00915421174383   -0.0734047057263    
6800000000.0        -0.00943184621257   -0.0744835062346    0.989016412419      -0.125577142966     0.989016412419      -0.125577142966     -0.00943184621257   -0.0744835062346    
6900000000.0        -0.00971353957301   -0.0755613299042    0.988695186822      -0.127415051445     0.988695186822      -0.127415051445     -0.00971353957301   -0.0755613299042    
7000000000.0        -0.00999928758077   -0.0766381541087    0.988369308729      -0.129252281379     0.988369308729      -0.129252281379     -0.00999928758077   -0.0766381541087    
7100000000.0        -0.0102890858392    -0.077713956207     0.988038781587      -0.131088812597     0.988038781587      -0.131088812597     -0.0102890858392    -0.077713956207     
7200000000.0        -0.0105829297996    -0.0787887135471    0.987703608986      -0.132924624905     0.987703608986      -0.132924624905     -0.0105829297996    -0.0787887135471    
7300000000.0        -0.0108808147611    -0.0798624034696    0.987363794663      -0.134759698088     0.987363794663      -0.134759698088     -0.0108808147611    -0.0798624034696    
7400000000.0        -0.0111827358707    -0.0809350033107    0.987019342498      -0.136594011912     0.987019342498      -0.136594011912     -0.0111827358707    -0.0809350033107    
7500000000.0        -0.0114886881238    -0.0820064904057    0.986670256514      -0.138427546128     0.986670256514      -0.138427546128     -0.0114886881238    -0.0820064904057    
7600000000.0        -0.0117986663637    -0.0830768420924    0.986316540882      -0.140260280475     0.986316540882      -0.140260280475     -0.0117986663637    -0.0830768420924    
7700000000.0        -0.0121126652825    -0.0841460357136    0.985958199913      -0.142092194688     0.985958199913      -0.142092194688     -0.0121126652825    -0.0841460357136    
7800000000.0        -0.0124306794208    -0.0852140486206    0.985595238065      -0.143923268494     0.985595238065      -0.143923268494     -0.0124306794208    -0.0852140486206    
7900000000.0        -0.0127527031681    -0.0862808581757    0.985227659936      -0.145753481622     0.985227659936      -0.145753481622     -0.0127527031681    -0.0862808581757    
8000000000.0        -0.0130787307633    -0.0873464417555    0.984855470269      -0.1475828138       0.984855470269      -0.1475828138       -0.0130787307633    -0.0873464417555    
8100000000.0        -0.0134087562947    -0.0884107767535    0.984478673951      -0.149411244764     0.984478673951      -0.149411244764     -0.0134087562947    -0.0884107767535    
8200000000.0        -0.0137427737004    -0.0894738405826    0.98409727601       -0.151238754256     0.98409727601       -0.151238754256     -0.0137427737004    -0.0894738405826    
8300000000.0        -0.0140807767689    -0.0905356106784    0.983711281616      -0.153065322031     0.983711281616      -0.153065322031     -0.0140807767689    -0.0905356106784    
8400000000.0        -0.0144227591391    -0.0915960645008    0.98332069608       -0.154890927856     0.98332069608       -0.154890927856     -0.0144227591391    -0.0915960645008    
8500000000.0        -0.0147687143009    -0.0926551795376    0.982925524856      -0.156715551517     0.982925524856      -0.156715551517     -0.0147687143009    -0.0926551795376    
8600000000.0        -0.0151186355957    -0.0937129333062    0.982525773539      -0.158539172817     0.982525773539      -0.158539172817     -0.0151186355957    -0.0937129333062    
8700000000.0        -0.0154725162169    -0.0947693033563    0.982121447862      -0.160361771582     0.982121447862      -0.160361771582     -0.0154725162169    -0.0947693033563    
8800000000.0        -0.0158303492101    -0.0958242672725    0.9817125537        -0.162183327663     0.9817125537        -0.162183327663     -0.0158303492101    -0.0958242672725    
8900000000.0        -0.0161921274736    -0.0968778026761    0.981299097067      -0.164003820938     0.981299097067      -0.164003820938     -0.0161921274736    -0.0968778026761    
9000000000.0        -0.0165578437595    -0.0979298872278    0.980881084116      -0.165823231313     0.980881084116      -0.165823231313     -0.0165578437595    -0.0979298872278    
9100000000.0        -0.0169274906734    -0.0989804986297    0.980458521137      -0.167641538728     0.980458521137      -0.167641538728     -0.0169274906734    -0.0989804986297    
9200000000.0        -0.0173010606755    -0.100029614627     0.980031414559      -0.169458723156     0.980031414559      -0.169458723156     -0.0173010606755    -0.100029614627     
9300000000.0        -0.0176785460811    -0.101077213013     0.979599770948      -0.171274764607     0.979599770948      -0.171274764607     -0.0176785460811    -0.101077213013     
9400000000.0        -0.0180599390609    -0.102123271624     0.979163597007      -0.173089643129     0.979163597007      -0.173089643129     -0.0180599390609    -0.102123271624     
9500000000.0        -0.0184452316422    -0.103167768352     0.978722899574      -0.174903338812     0.978722899574      -0.174903338812     -0.0184452316422    -0.103167768352     
9600000000.0        -0.0188344157087    -0.104210681136     0.978277685623      -0.176715831789     0.978277685623      -0.176715831789     -0.0188344157087    -0.104210681136     
9700000000.0        -0.019227483002     -0.105251987971     0.977827962263      -0.178527102236     0.977827962263      -0.178527102236     -0.019227483002     -0.105251987971     
9800000000.0        -0.0196244251215    -0.106291666907     0.977373736736      -0.180337130379     0.977373736736      -0.180337130379     -0.0196244251215    -0.106291666907     
9900000000.0        -0.0200252335258    -0.107329696052     0.976915016417      -0.182145896492     0.976915016417      -0.182145896492     -0.0200252335258    -0.107329696052     
10000000000.0       -0.0204298995328    -0.108366053574     0.976451808816      -0.183953380899     0.976451808816      -0.183953380899     -0.0204298995328    -0.108366053574     
