# Hz S RI R 50.00 
100000000.0         0.0259478405467     0.00228517617547    0.974047291985      -0.00427958462773   0.974047291985      -0.00427958462773   0.0259478405467     0.00228517617547    
200000000.0         0.0261444830845     0.00456789315945    0.973842768473      -0.00855670870628   0.973842768473      -0.00855670870628   0.0261444830845     0.00456789315945    
300000000.0         0.0263162429654     0.00684886189962    0.973659113566      -0.012832087146     0.973659113566      -0.012832087146     0.0263162429654     0.00684886189962    
400000000.0         0.0264851418321     0.00912819753045    0.97347430513       -0.0171058385249    0.97347430513       -0.0171058385249    0.0264851418321     0.00912819753045    
500000000.0         0.0266596633148     0.0114058770106     0.97327985903       -0.0213779429854    0.97327985903       -0.0213779429854    0.0266596633148     0.0114058770106     
600000000.0         0.0268441309788     0.0136818163312     0.973071451158      -0.0256483195338    0.973071451158      -0.0256483195338    0.0268441309788     0.0136818163312     
700000000.0         0.02704109362       0.0159558982306     0.972846532129      -0.0299168538009    0.972846532129      -0.0299168538009    0.02704109362       0.0159558982306     
800000000.0         0.0272521962394     0.018227985047      0.972603456302      -0.0341834109221    0.972603456302      -0.0341834109221    0.0272521962394     0.018227985047      
900000000.0         0.0274785680167     0.0204979256269     0.9723410938        -0.0384478424642    0.9723410938        -0.0384478424642    0.0274785680167     0.0204979256269     
1000000000.0        0.0277210190474     0.022765559422      0.972058633769      -0.0427099905341    0.972058633769      -0.0427099905341    0.0277210190474     0.022765559422      
1100000000.0        0.0279801497503     0.0250307190988     0.971755474973      -0.046969690398     0.971755474973      -0.046969690398     0.0279801497503     0.0250307190988     
1200000000.0        0.0282564160862     0.027293232294      0.971431160574      -0.0512267722438    0.971431160574      -0.0512267722438    0.0282564160862     0.027293232294      
1300000000.0        0.0285501706067     0.029552922848      0.971085337075      -0.0554810624196    0.971085337075      -0.0554810624196    0.0285501706067     0.029552922848      
1400000000.0        0.0288616894464     0.0318096117034     0.970717727338      -0.0597323843369    0.970717727338      -0.0597323843369    0.0288616894464     0.0318096117034     
1500000000.0        0.0291911907251     0.0340631175795     0.970328112172      -0.0639805591481    0.970328112172      -0.0639805591481    0.0291911907251     0.0340631175795     
1600000000.0        0.0295388474781     0.0363132574915     0.969916317409      -0.0682254062689    0.969916317409      -0.0682254062689    0.0295388474781     0.0363132574915     
1700000000.0        0.0299047969804     0.0385598471607     0.969482204572      -0.0724667437905    0.969482204572      -0.0724667437905    0.0299047969804     0.0385598471607     
1800000000.0        0.0302891476213     0.0408027013431     0.96902566401       -0.0767043888106    0.96902566401       -0.0767043888106    0.0302891476213     0.0408027013431     
1900000000.0        0.0306919840732     0.0430416341        0.96854660972       -0.0809381577052    0.96854660972       -0.0809381577052    0.0306919840732     0.0430416341        
2000000000.0        0.0311133712442     0.0452764590217     0.968044975399      -0.0851678663541    0.968044975399      -0.0851678663541    0.0311133712442     0.0452764590217     
2100000000.0        0.0315533573485     0.047506989418      0.967520711371      -0.0893933303323    0.967520711371      -0.0893933303323    0.0315533573485     0.047506989418      
2200000000.0        0.032011976323      0.0497330384803     0.966973782175      -0.0936143650732    0.966973782175      -0.0936143650732    0.032011976323      0.0497330384803     
2300000000.0        0.0324892497541     0.0519544194226     0.96640416463       -0.0978307860108    0.96640416463       -0.0978307860108    0.0324892497541     0.0519544194226     
2400000000.0        0.0329851884311     0.0541709456055     0.96581184629       -0.102042408704     0.96581184629       -0.102042408704     0.0329851884311     0.0541709456055     
2500000000.0        0.0334997936111     0.0563824306453     0.965196824173      -0.106249048947     0.965196824173      -0.106249048947     0.0334997936111     0.0563824306453     
2600000000.0        0.0340330580598     0.0585886885129     0.964559103724      -0.110450522867     0.964559103724      -0.110450522867     0.0340330580598     0.0585886885129     
2700000000.0        0.0345849669145     0.0607895336216     0.963898697949      -0.114646647017     0.963898697949      -0.114646647017     0.0345849669145     0.0607895336216     
2800000000.0        0.0351554984067     0.0629847809083     0.963215626693      -0.118837238451     0.963215626693      -0.118837238451     0.0351554984067     0.0629847809083     
2900000000.0        0.0357446244707     0.0651742459073     0.962509916035      -0.123022114803     0.962509916035      -0.123022114803     0.0357446244707     0.0651742459073     
3000000000.0        0.0363523112615     0.0673577448183     0.961781597764      -0.127201094354     0.961781597764      -0.127201094354     0.0363523112615     0.0673577448183     
3100000000.0        0.0369785195966     0.0695350945703     0.961030708941      -0.131373996095     0.961030708941      -0.131373996095     0.0369785195966     0.0695350945703     
3200000000.0        0.0376232053376     0.0717061128802     0.960257291518      -0.135540639789     0.960257291518      -0.135540639789     0.0376232053376     0.0717061128802     
3300000000.0        0.0382863197201     0.0738706183084     0.959461392006      -0.139700846023     0.959461392006      -0.139700846023     0.0382863197201     0.0738706183084     
3400000000.0        0.038967809642      0.0760284303112     0.958643061187      -0.143854436263     0.958643061187      -0.143854436263     0.038967809642      0.0760284303112     
3500000000.0        0.0396676179161     0.07817936929       0.95780235386       -0.148001232901     0.95780235386       -0.148001232901     0.0396676179161     0.07817936929       
3600000000.0        0.0403856834932     0.0803232566383     0.956939328624      -0.152141059307     0.956939328624      -0.152141059307     0.0403856834932     0.0803232566383     
3700000000.0        0.0411219416601     0.082459914786      0.956054047673      -0.156273739867     0.956054047673      -0.156273739867     0.0411219416601     0.082459914786      
3800000000.0        0.0418763242162     0.0845891672423     0.95514657662       -0.160399100031     0.95514657662       -0.160399100031     0.0418763242162     0.0845891672423     
3900000000.0        0.0426487596322     0.0867108386362     0.954216984344      -0.16451696635      0.954216984344      -0.16451696635      0.0426487596322     0.0867108386362     
4000000000.0        0.0434391731931     0.0888247547552     0.953265342841      -0.168627166519     0.953265342841      -0.168627166519     0.0434391731931     0.0888247547552     
4100000000.0        0.0442474871282     0.0909307425834     0.952291727097      -0.17272952941      0.952291727097      -0.17272952941      0.0442474871282     0.0909307425834     
4200000000.0        0.0450736207292     0.0930286303367     0.951296214969      -0.176823885111     0.951296214969      -0.176823885111     0.0450736207292     0.0930286303367     
4300000000.0        0.0459174904588     0.0951182474981     0.950278887075      -0.18091006496      0.950278887075      -0.18091006496      0.0459174904588     0.0951182474981     
4400000000.0        0.0467790100503     0.0971994248505     0.949239826698      -0.184987901578     0.949239826698      -0.184987901578     0.0467790100503     0.0971994248505     
4500000000.0        0.0476580906004     0.0992719945095     0.948179119691      -0.189057228901     0.948179119691      -0.189057228901     0.0476580906004     0.0992719945095     
4600000000.0        0.0485546406544     0.101335789954      0.947096854389      -0.19311788221      0.947096854389      -0.19311788221      0.0485546406544     0.101335789954      
4700000000.0        0.049468566287      0.103390646056      0.945993121533      -0.197169698166     0.945993121533      -0.197169698166     0.049468566287      0.103390646056      
4800000000.0        0.0503997711772     0.105436399111      0.944868014194      -0.201212514831     0.944868014194      -0.201212514831     0.0503997711772     0.105436399111      
4900000000.0        0.051348156679      0.107472886864      0.943721627699      -0.205246171703     0.943721627699      -0.205246171703     0.051348156679      0.107472886864      
5000000000.0        0.0523136218884     0.109499948538      0.942554059567      -0.209270509739     0.942554059567      -0.209270509739     0.0523136218884     0.109499948538      
5100000000.0        0.0532960637069     0.11151742486       0.941365409444      -0.213285371383     0.941365409444      -0.213285371383     0.0532960637069     0.11151742486       
5200000000.0        0.0542953769023     0.113525158088      0.940155779046      -0.21729060059      0.940155779046      -0.21729060059      0.0542953769023     0.113525158088      
5300000000.0        0.0553114541659     0.11552299203       0.938925272095      -0.221286042851     0.938925272095      -0.221286042851     0.0553114541659     0.11552299203       
5400000000.0        0.0563441861686     0.117510772074      0.937673994267      -0.225271545219     0.937673994267      -0.225271545219     0.0563441861686     0.117510772074      
5500000000.0        0.0573934616139     0.119488345209      0.93640205314       -0.229246956325     0.93640205314       -0.229246956325     0.0573934616139     0.119488345209      
5600000000.0        0.0584591672895     0.121455560045      0.93510955814       -0.233212126409     0.93510955814       -0.233212126409     0.0584591672895     0.121455560045      
5700000000.0        0.0595411881171     0.123412266837      0.933796620491      -0.237166907334     0.933796620491      -0.237166907334     0.0595411881171     0.123412266837      
5800000000.0        0.0606394072005     0.125358317504      0.932463353169      -0.241111152609     0.932463353169      -0.241111152609     0.0606394072005     0.125358317504      
5900000000.0        0.061753705873      0.127293565649      0.931109870853      -0.245044717411     0.931109870853      -0.245044717411     0.061753705873      0.127293565649      
6000000000.0        0.0628839637426     0.12921786658       0.929736289879      -0.248967458601     0.929736289879      -0.248967458601     0.0628839637426     0.12921786658       
6100000000.0        0.0640300587368     0.131131077325      0.928342728199      -0.252879234741     0.928342728199      -0.252879234741     0.0640300587368     0.131131077325      
6200000000.0        0.0651918671467     0.133033056654      0.926929305331      -0.256779906118     0.926929305331      -0.256779906118     0.0651918671467     0.133033056654      
6300000000.0        0.0663692636689     0.134923665092      0.925496142321      -0.260669334753     0.925496142321      -0.260669334753     0.0663692636689     0.134923665092      
6400000000.0        0.0675621214484     0.136802764939      0.9240433617        -0.264547384423     0.9240433617        -0.264547384423     0.0675621214484     0.136802764939      
6500000000.0        0.0687703121189     0.138670220282      0.922571087442      -0.268413920673     0.922571087442      -0.268413920673     0.0687703121189     0.138670220282      
6600000000.0        0.0699937058441     0.140525897014      0.921079444924      -0.272268810834     0.921079444924      -0.272268810834     0.0699937058441     0.140525897014      
6700000000.0        0.0712321713571     0.142369662844      0.919568560886      -0.276111924035     0.919568560886      -0.276111924035     0.0712321713571     0.142369662844      
6800000000.0        0.0724855759998     0.144201387315      0.91803856339       -0.279943131216     0.91803856339       -0.279943131216     0.0724855759998     0.144201387315      
6900000000.0        0.0737537857622     0.146020941815      0.916489581784      -0.283762305143     0.916489581784      -0.283762305143     0.0737537857622     0.146020941815      
7000000000.0        0.0750366653201     0.147828199588      0.914921746661      -0.287569320418     0.914921746661      -0.287569320418     0.0750366653201     0.147828199588      
7100000000.0        0.0763340780734     0.149623035749      0.913335189823      -0.291364053492     0.913335189823      -0.291364053492     0.0763340780734     0.149623035749      
7200000000.0        0.0776458861832     0.151405327292      0.911730044242      -0.295146382678     0.911730044242      -0.295146382678     0.0776458861832     0.151405327292      
7300000000.0        0.0789719506094     0.153174953102      0.910106444024      -0.298916188155     0.910106444024      -0.298916188155     0.0789719506094     0.153174953102      
7400000000.0        0.0803121311469     0.154931793968      0.908464524371      -0.302673351984     0.908464524371      -0.302673351984     0.0803121311469     0.154931793968      
7500000000.0        0.0816662864622     0.156675732584      0.906804421547      -0.306417758115     0.906804421547      -0.306417758115     0.0816662864622     0.156675732584      
7600000000.0        0.0830342741293     0.158406653568      0.905126272837      -0.310149292395     0.905126272837      -0.310149292395     0.0830342741293     0.158406653568      
7700000000.0        0.0844159506655     0.16012444346       0.903430216517      -0.313867842575     0.903430216517      -0.313867842575     0.0844159506655     0.16012444346       
7800000000.0        0.0858111715665     0.161828990739      0.901716391815      -0.317573298319     0.901716391815      -0.317573298319     0.0858111715665     0.161828990739      
7900000000.0        0.087219791342      0.163520185823      0.899984938877      -0.321265551211     0.899984938877      -0.321265551211     0.087219791342      0.163520185823      
8000000000.0        0.0886416635499     0.165197921077      0.898235998733      -0.324944494758     0.898235998733      -0.324944494758     0.0886416635499     0.165197921077      
8100000000.0        0.0900766408312     0.166862090821      0.896469713259      -0.3286100244       0.896469713259      -0.3286100244       0.0900766408312     0.166862090821      
8200000000.0        0.0915245749442     0.168512591332      0.894686225146      -0.332262037511     0.894686225146      -0.332262037511     0.0915245749442     0.168512591332      
8300000000.0        0.0929853167982     0.170149320852      0.892885677866      -0.335900433406     0.892885677866      -0.335900433406     0.0929853167982     0.170149320852      
8400000000.0        0.0944587164877     0.171772179588      0.891068215637      -0.339525113341     0.891068215637      -0.339525113341     0.0944587164877     0.171772179588      
8500000000.0        0.0959446233252     0.173381069719      0.889233983387      -0.343135980522     0.889233983387      -0.343135980522     0.0959446233252     0.173381069719      
8600000000.0        0.0974428858749     0.174975895396      0.887383126726      -0.346732940104     0.887383126726      -0.346732940104     0.0974428858749     0.174975895396      
8700000000.0        0.0989533519855     0.176556562747      0.885515791911      -0.350315899191     0.885515791911      -0.350315899191     0.0989533519855     0.176556562747      
8800000000.0        0.100475868823      0.178122979877      0.883632125809      -0.353884766843     0.883632125809      -0.353884766843     0.100475868823      0.178122979877      
8900000000.0        0.102010282902      0.179675056872      0.881732275872      -0.357439454073     0.881732275872      -0.357439454073     0.102010282902      0.179675056872      
9000000000.0        0.10355644012       0.181212705793      0.879816390098      -0.360979873849     0.879816390098      -0.360979873849     0.10355644012       0.181212705793      
9100000000.0        0.105114185787      0.182735840685      0.877884617004      -0.364505941094     0.877884617004      -0.364505941094     0.105114185787      0.182735840685      
9200000000.0        0.106683364659      0.184244377572      0.875937105589      -0.368017572684     0.875937105589      -0.368017572684     0.106683364659      0.184244377572      
9300000000.0        0.108263820969      0.185738234455      0.87397400531       -0.37151468745      0.87397400531       -0.37151468745      0.108263820969      0.185738234455      
9400000000.0        0.109855398455      0.187217331314      0.871995466042      -0.374997206172     0.871995466042      -0.374997206172     0.109855398455      0.187217331314      
9500000000.0        0.111457940396      0.188681590105      0.870001638055      -0.378465051582     0.870001638055      -0.378465051582     0.111457940396      0.188681590105      
9600000000.0        0.11307128964       0.190130934756      0.867992671978      -0.381918148358     0.867992671978      -0.381918148358     0.11307128964       0.190130934756      
9700000000.0        0.114695288633      0.191565291166      0.86596871877       -0.385356423121     0.86596871877       -0.385356423121     0.114695288633      0.191565291166      
9800000000.0        0.116329779452      0.192984587204      0.863929929692      -0.388779804435     0.863929929692      -0.388779804435     0.116329779452      0.192984587204      
9900000000.0        0.11797460383       0.1943887527        0.861876456275      -0.392188222796     0.861876456275      -0.392188222796     0.11797460383       0.1943887527        
10000000000.0       0.119629603192      0.195777719444      0.85980845029       -0.395581610637     0.85980845029       -0.395581610637     0.119629603192      0.195777719444      
