# Hz S RI R 50.00 
100000000.0         0.000151010793228   -0.00516807033766   0.999773778088      -0.00607733108933   0.999773778088      -0.00607733108933   0.000151010793228   -0.00516807033766   
200000000.0         5.25752280924e-05   -0.0103351563743    0.999671548525      -0.0121537041021    0.999671548525      -0.0121537041021    5.25752280924e-05   -0.0103351563743    
300000000.0         -0.000108973247864  -0.0155003078181    0.999506032379      -0.0182281881395    0.999506032379      -0.0182281881395    -0.000108973247864  -0.0155003078181    
400000000.0         -0.000333425363186  -0.020662554633     0.999277113658      -0.0242998281929    0.999277113658      -0.0242998281929    -0.000333425363186  -0.020662554633     
500000000.0         -0.000620651994312  -0.0258209174778    0.998984796481      -0.0303676580857    0.998984796481      -0.0303676580857    -0.000620651994312  -0.0258209174778    
600000000.0         -0.000970534358006  -0.0309744118177    0.998629135936      -0.0364307052956    0.998629135936      -0.0364307052956    -0.000970534358006  -0.0309744118177    
700000000.0         -0.00138294617576   -0.0361220503101    0.998210220646      -0.0424879936782    0.998210220646      -0.0424879936782    -0.00138294617576   -0.0361220503101    
800000000.0         -0.00185774712517   -0.0412628444631    0.997728166469      -0.0485385453208    0.997728166469      -0.0485385453208    -0.00185774712517   -0.0412628444631    
900000000.0         -0.0023947799172    -0.0463958059233    0.99718311371       -0.054581381955     0.99718311371       -0.054581381955     -0.0023947799172    -0.0463958059233    
1000000000.0        -0.00299386882908   -0.0515199475498    0.996575225695      -0.0606155261173    0.996575225695      -0.0606155261173    -0.00299386882908   -0.0515199475498    
1100000000.0        -0.00365481891787   -0.0566342843538    0.995904687955      -0.0666400021508    0.995904687955      -0.0666400021508    -0.00365481891787   -0.0566342843538    
1200000000.0        -0.00437741559182   -0.0617378343477    0.995171707701      -0.0726538371023    0.995171707701      -0.0726538371023    -0.00437741559182   -0.0617378343477    
1300000000.0        -0.00516142438847   -0.0668296193299    0.994376513445      -0.0786560615438    0.994376513445      -0.0786560615438    -0.00516142438847   -0.0668296193299    
1400000000.0        -0.0060065908829    -0.0719086656224    0.9935193547        -0.0846457103392    0.9935193547        -0.0846457103392    -0.0060065908829    -0.0719086656224    
1500000000.0        -0.00691264068386   -0.0769740047695    0.992600501718      -0.0906218233681    0.992600501718      -0.0906218233681    -0.00691264068386   -0.0769740047695    
1600000000.0        -0.00787927949374   -0.0820246742083    0.99162024524       -0.0965834462149    0.99162024524       -0.0965834462149    -0.00787927949374   -0.0820246742083    
1700000000.0        -0.00890619321717   -0.0870597179111    0.990578896252      -0.102529630829     0.990578896252      -0.102529630829     -0.00890619321717   -0.0870597179111    
1800000000.0        -0.00999304810897   -0.0920781870079    0.989476785744      -0.108459436162     0.989476785744      -0.108459436162     -0.00999304810897   -0.0920781870079    
1900000000.0        -0.011139490955     -0.0970791403867    0.988314264447      -0.114371928778     0.988314264447      -0.114371928778     -0.011139490955     -0.0970791403867    
2000000000.0        -0.0123451492815    -0.102061645277     0.987091702576      -0.120266183451     0.987091702576      -0.120266183451     -0.0123451492815    -0.102061645277     
2100000000.0        -0.0136096315898    -0.107024777814     0.985809489542      -0.126141283737     0.985809489542      -0.126141283737     -0.0136096315898    -0.107024777814     
2200000000.0        -0.0149325276136    -0.111967623589     0.984468033669      -0.13199632253      0.984468033669      -0.13199632253      -0.0149325276136    -0.111967623589     
2300000000.0        -0.016313408598     -0.116889278179     0.983067761884      -0.137830402607     0.983067761884      -0.137830402607     -0.016313408598     -0.116889278179     
2400000000.0        -0.0177518275969    -0.121788847667     0.981609119396      -0.143642637144     0.981609119396      -0.143642637144     -0.0177518275969    -0.121788847667     
2500000000.0        -0.0192473197897    -0.126665449137     0.980092569365      -0.149432150227     0.980092569365      -0.149432150227     -0.0192473197897    -0.126665449137     
2600000000.0        -0.020799402814     -0.131518211164     0.978518592556      -0.155198077339     0.978518592556      -0.155198077339     -0.020799402814     -0.131518211164     
2700000000.0        -0.0224075771149    -0.136346274277     0.976887686972      -0.160939565839     0.976887686972      -0.160939565839     -0.0224075771149    -0.136346274277     
2800000000.0        -0.0240713263096    -0.14114879142      0.975200367486      -0.166655775411     0.975200367486      -0.166655775411     -0.0240713263096    -0.14114879142      
2900000000.0        -0.025790117565     -0.145924928378     0.973457165452      -0.172345878513     0.973457165452      -0.172345878513     -0.025790117565     -0.145924928378     
3000000000.0        -0.0275634019905    -0.150673864207     0.971658628305      -0.178009060795     0.971658628305      -0.178009060795     -0.0275634019905    -0.150673864207     
3100000000.0        -0.0293906150415    -0.155394791633     0.969805319153      -0.183644521511     0.969805319153      -0.183644521511     -0.0293906150415    -0.155394791633     
3200000000.0        -0.0312711769361    -0.160086917438     0.967897816355      -0.189251473907     0.967897816355      -0.189251473907     -0.0312711769361    -0.160086917438     
3300000000.0        -0.033204493082     -0.164749462838     0.965936713091      -0.194829145595     0.965936713091      -0.194829145595     -0.033204493082     -0.164749462838     
3400000000.0        -0.0351899545137    -0.169381663828     0.963922616918      -0.200376778912     0.963922616918      -0.200376778912     -0.0351899545137    -0.169381663828     
3500000000.0        -0.0372269383399    -0.173982771525     0.961856149323      -0.205893631257     0.961856149323      -0.205893631257     -0.0372269383399    -0.173982771525     
3600000000.0        -0.0393148081989    -0.178552052486     0.959737945263      -0.211378975416     0.959737945263      -0.211378975416     -0.0393148081989    -0.178552052486     
3700000000.0        -0.0414529147226    -0.183088789009     0.957568652699      -0.216832099861     0.957568652699      -0.216832099861     -0.0414529147226    -0.183088789009     
3800000000.0        -0.0436405960073    -0.187592279422     0.955348932123      -0.222252309047     0.955348932123      -0.222252309047     -0.0436405960073    -0.187592279422     
3900000000.0        -0.0458771780918    -0.192061838346     0.953079456079      -0.227638923673     0.953079456079      -0.227638923673     -0.0458771780918    -0.192061838346     
4000000000.0        -0.0481619754407    -0.19649679695      0.950760908678      -0.232991280939     0.950760908678      -0.232991280939     -0.0481619754407    -0.19649679695      
4100000000.0        -0.0504942914337    -0.200896503179     0.948393985106      -0.238308734779     0.948393985106      -0.238308734779     -0.0504942914337    -0.200896503179     
4200000000.0        -0.0528734188586    -0.205260321974     0.945979391129      -0.243590656078     0.945979391129      -0.243590656078     -0.0528734188586    -0.205260321974     
4300000000.0        -0.0552986404084    -0.209587635467     0.943517842601      -0.248836432873     0.943517842601      -0.248836432873     -0.0552986404084    -0.209587635467     
4400000000.0        -0.0577692291824    -0.213877843161     0.941010064953      -0.254045470535     0.941010064953      -0.254045470535     -0.0577692291824    -0.213877843161     
4500000000.0        -0.0602844491878    -0.218130362096     0.938456792697      -0.259217191929     0.938456792697      -0.259217191929     -0.0602844491878    -0.218130362096     
4600000000.0        -0.0628435558456    -0.222344626992     0.935858768918      -0.264351037568     0.935858768918      -0.264351037568     -0.0628435558456    -0.222344626992     
4700000000.0        -0.0654457964951    -0.226520090378     0.933216744766      -0.269446465739     0.933216744766      -0.269446465739     -0.0654457964951    -0.226520090378     
4800000000.0        -0.0680904109012    -0.230656222703     0.930531478951      -0.274502952615     0.930531478951      -0.274502952615     -0.0680904109012    -0.230656222703     
4900000000.0        -0.0707766317599    -0.234752512432     0.927803737238      -0.279519992352     0.927803737238      -0.279519992352     -0.0707766317599    -0.234752512432     
5000000000.0        -0.0735036852039    -0.238808466123     0.925034291937      -0.28449709717      0.925034291937      -0.28449709717      -0.0735036852039    -0.238808466123     
5100000000.0        -0.0762707913068    -0.242823608489     0.922223921401      -0.289433797412     0.922223921401      -0.289433797412     -0.0762707913068    -0.242823608489     
5200000000.0        -0.079077164585     -0.24679748244      0.919373409523      -0.294329641592     0.919373409523      -0.294329641592     -0.079077164585     -0.24679748244      
5300000000.0        -0.0819220144974    -0.250729649116     0.916483545236      -0.299184196423     0.916483545236      -0.299184196423     -0.0819220144974    -0.250729649116     
5400000000.0        -0.0848045459421    -0.254619687898     0.913555122016      -0.303997046834     0.913555122016      -0.303997046834     -0.0848045459421    -0.254619687898     
5500000000.0        -0.0877239597493    -0.258467196403     0.91058893739       -0.308767795968     0.91058893739       -0.308767795968     -0.0877239597493    -0.258467196403     
5600000000.0        -0.0906794531704    -0.262271790472     0.907585792443      -0.313496065162     0.907585792443      -0.313496065162     -0.0906794531704    -0.262271790472     
5700000000.0        -0.0936702203618    -0.266033104132     0.904546491339      -0.318181493919     0.904546491339      -0.318181493919     -0.0936702203618    -0.266033104132     
5800000000.0        -0.0966954528645    -0.269750789551     0.901471840837      -0.322823739858     0.901471840837      -0.322823739858     -0.0966954528645    -0.269750789551     
5900000000.0        -0.0997543400775    -0.273424516977     0.898362649817      -0.327422478657     0.898362649817      -0.327422478657     -0.0997543400775    -0.273424516977     
6000000000.0        -0.102846069726     -0.27705397466      0.895219728818      -0.331977403976     0.895219728818      -0.331977403976     -0.102846069726     -0.27705397466      
6100000000.0        -0.10596982832      -0.280638868765     0.892043889571      -0.336488227368     0.892043889571      -0.336488227368     -0.10596982832      -0.280638868765     
6200000000.0        -0.109124801614     -0.28417892327      0.888835944544      -0.34095467818      0.888835944544      -0.34095467818      -0.109124801614     -0.28417892327      
6300000000.0        -0.112310175047     -0.287673879849     0.8855967065        -0.345376503438     0.8855967065        -0.345376503438     -0.112310175047     -0.287673879849     
6400000000.0        -0.115525134188     -0.291123497746     0.882326988053      -0.349753467718     0.882326988053      -0.349753467718     -0.115525134188     -0.291123497746     
6500000000.0        -0.118768865165     -0.294527553636     0.879027601238      -0.35408535301      0.879027601238      -0.35408535301      -0.118768865165     -0.294527553636     
6600000000.0        -0.122040555087     -0.297885841472     0.875699357087      -0.358371958565     0.875699357087      -0.358371958565     -0.122040555087     -0.297885841472     
6700000000.0        -0.125339392461     -0.301198172325     0.872343065214      -0.362613100739     0.872343065214      -0.362613100739     -0.125339392461     -0.301198172325     
6800000000.0        -0.128664567596     -0.30446437421      0.868959533411      -0.366808612813     0.868959533411      -0.366808612813     -0.128664567596     -0.30446437421      
6900000000.0        -0.132015273002     -0.307684291904     0.865549567248      -0.370958344816     0.865549567248      -0.370958344816     -0.132015273002     -0.307684291904     
7000000000.0        -0.135390703775     -0.31085778675      0.862113969688      -0.375062163333     0.862113969688      -0.375062163333     -0.135390703775     -0.31085778675      
7100000000.0        -0.138790057975     -0.313984736461     0.858653540709      -0.3791199513       0.858653540709      -0.3791199513       -0.138790057975     -0.313984736461     
7200000000.0        -0.142212536996     -0.317065034901     0.855169076935      -0.383131607795     0.855169076935      -0.383131607795     -0.142212536996     -0.317065034901     
7300000000.0        -0.14565734592      -0.320098591871     0.851661371277      -0.387097047818     0.851661371277      -0.387097047818     -0.14565734592      -0.320098591871     
7400000000.0        -0.149123693871     -0.323085332879     0.848131212589      -0.391016202067     0.848131212589      -0.391016202067     -0.149123693871     -0.323085332879     
7500000000.0        -0.152610794345     -0.326025198905     0.844579385325      -0.394889016698     0.844579385325      -0.394889016698     -0.152610794345     -0.326025198905     
7600000000.0        -0.156117865545     -0.328918146158     0.841006669215      -0.398715453086     0.841006669215      -0.398715453086     -0.156117865545     -0.328918146158     
7700000000.0        -0.15964413069      -0.331764145826     0.837413838949      -0.402495487577     0.837413838949      -0.402495487577     -0.15964413069      -0.331764145826     
7800000000.0        -0.163188818327     -0.334563183823     0.833801663867      -0.406229111231     0.833801663867      -0.406229111231     -0.163188818327     -0.334563183823     
7900000000.0        -0.166751162625     -0.337315260524     0.830170907668      -0.40991632956      0.830170907668      -0.40991632956      -0.166751162625     -0.337315260524     
8000000000.0        -0.170330403657     -0.340020390502     0.826522328122      -0.413557162267     0.826522328122      -0.413557162267     -0.170330403657     -0.340020390502     
8100000000.0        -0.173925787677     -0.342678602254     0.822856676797      -0.417151642966     0.822856676797      -0.417151642966     -0.173925787677     -0.342678602254     
8200000000.0        -0.177536567383     -0.345289937921     0.819174698796      -0.420699818914     0.819174698796      -0.420699818914     -0.177536567383     -0.345289937921     
8300000000.0        -0.181162002167     -0.347854453017     0.815477132504      -0.424201750728     0.815477132504      -0.424201750728     -0.181162002167     -0.347854453017     
8400000000.0        -0.184801358359     -0.350372216133     0.811764709346      -0.427657512098     0.811764709346      -0.427657512098     -0.184801358359     -0.350372216133     
8500000000.0        -0.188453909458     -0.35284330866      0.808038153556      -0.431067189504     0.808038153556      -0.431067189504     -0.188453909458     -0.35284330866      
8600000000.0        -0.192118936351     -0.35526782449      0.804298181958      -0.434430881926     0.804298181958      -0.434430881926     -0.192118936351     -0.35526782449      
8700000000.0        -0.195795727524     -0.357645869728     0.800545503754      -0.437748700545     0.800545503754      -0.437748700545     -0.195795727524     -0.357645869728     
8800000000.0        -0.199483579259     -0.359977562393     0.796780820326      -0.441020768457     0.796780820326      -0.441020768457     -0.199483579259     -0.359977562393     
8900000000.0        -0.203181795826     -0.362263032125     0.793004825048      -0.444247220368     0.793004825048      -0.444247220368     -0.203181795826     -0.362263032125     
9000000000.0        -0.206889689658     -0.364502419881     0.789218203104      -0.447428202301     0.789218203104      -0.447428202301     -0.206889689658     -0.364502419881     
9100000000.0        -0.210606581521     -0.366695877641     0.785421631326      -0.450563871293     0.785421631326      -0.450563871293     -0.210606581521     -0.366695877641     
9200000000.0        -0.214331800672     -0.368843568101     0.78161577803       -0.453654395099     0.78161577803       -0.453654395099     -0.214331800672     -0.368843568101     
9300000000.0        -0.218064685004     -0.370945664379     0.777801302873      -0.456699951887     0.777801302873      -0.456699951887     -0.218064685004     -0.370945664379     
9400000000.0        -0.221804581189     -0.373002349708     0.773978856709      -0.459700729937     0.773978856709      -0.459700729937     -0.221804581189     -0.373002349708     
9500000000.0        -0.2255508448       -0.375013817137     0.770149081469      -0.462656927347     0.770149081469      -0.462656927347     -0.2255508448       -0.375013817137     
9600000000.0        -0.229302840436     -0.376980269232     0.766312610034      -0.465568751723     0.766312610034      -0.465568751723     -0.229302840436     -0.376980269232     
9700000000.0        -0.233059941826     -0.378901917773     0.76247006613       -0.468436419888     0.76247006613       -0.468436419888     -0.233059941826     -0.378901917773     
9800000000.0        -0.236821531932     -0.38077898346      0.75862206423       -0.471260157579     0.75862206423       -0.471260157579     -0.236821531932     -0.38077898346      
9900000000.0        -0.240587003037     -0.382611695611     0.754769209457      -0.47404019915      0.754769209457      -0.47404019915      -0.240587003037     -0.382611695611     
10000000000.0       -0.24435575683      -0.384400291867     0.750912097507      -0.47677678728      0.750912097507      -0.47677678728      -0.24435575683      -0.384400291867     
