# Hz S RI R 50.00 
100000000.0         -0.000107597789431  -0.0114306298793    0.999811997895      -0.0118725616035    0.999811997895      -0.0118725616035    -0.000107597789431  -0.0114306298793    
200000000.0         -0.000525848245933  -0.02285216758      0.999392908028      -0.0237361314501    0.999392908028      -0.0237361314501    -0.000525848245933  -0.02285216758      
300000000.0         -0.00121485502567   -0.0342556328955    0.9987030049        -0.0355817815242    0.9987030049        -0.0355817815242    -0.00121485502567   -0.0342556328955    
400000000.0         -0.00217359481272   -0.0456319726873    0.997743242383      -0.0474004985458    0.997743242383      -0.0474004985458    -0.00217359481272   -0.0456319726873    
500000000.0         -0.00340065844432   -0.0569721370772    0.996515002783      -0.0591832660936    0.996515002783      -0.0591832660936    -0.00340065844432   -0.0569721370772    
600000000.0         -0.00489423650183   -0.0682671217462    0.995020081669      -0.0709211089856    0.995020081669      -0.0709211089856    -0.00489423650183   -0.0682671217462    
700000000.0         -0.00665211876324   -0.0795080009975    0.993260680918      -0.0826051274111    0.993260680918      -0.0826051274111    -0.00665211876324   -0.0795080009975    
800000000.0         -0.00867169831987   -0.0906859566576    0.991239401868      -0.0942265264811    0.991239401868      -0.0942265264811    -0.00867169831987   -0.0906859566576    
900000000.0         -0.0109499784501    -0.101792304515     0.988959237236      -0.105776643102     0.988959237236      -0.105776643102     -0.0109499784501    -0.101792304515     
1000000000.0        -0.013483581605     -0.112818518969     0.986423561515      -0.117246970933     0.986423561515      -0.117246970933     -0.013483581605     -0.112818518969     
1100000000.0        -0.0162687601966    -0.123756256169     0.983636119853      -0.128629183769     0.983636119853      -0.128629183769     -0.0162687601966    -0.123756256169     
1200000000.0        -0.0193014089906    -0.13459737577      0.980601015459      -0.139915157472     0.980601015459      -0.139915157472     -0.0193014089906    -0.13459737577      
1300000000.0        -0.0225770789496    -0.145333961307     0.97732269563       -0.151096990503     0.97732269563       -0.151096990503     -0.0225770789496    -0.145333961307     
1400000000.0        -0.0260909923852    -0.155958339211     0.973805936523      -0.162167023057     0.973805936523      -0.162167023057     -0.0260909923852    -0.155958339211     
1500000000.0        -0.0298380592891    -0.166463096406     0.970055826766      -0.173117854769     0.970055826766      -0.173117854769     -0.0298380592891    -0.166463096406     
1600000000.0        -0.0338128947094    -0.176841096473     0.966077750044      -0.183942360967     0.966077750044      -0.183942360967     -0.0338128947094    -0.176841096473     
1700000000.0        -0.0380098370423    -0.187085494339     0.96187736678       -0.194633707441     0.96187736678       -0.194633707441     -0.0380098370423    -0.187085494339     
1800000000.0        -0.0424229671071    -0.197189749454     0.95746059504       -0.205185363692     0.95746059504       -0.205185363692     -0.0424229671071    -0.197189749454     
1900000000.0        -0.0470461278719    -0.207147637451     0.952833590793      -0.21559111465      0.952833590793      -0.21559111465      -0.0470461278719    -0.207147637451     
2000000000.0        -0.0518729446993    -0.216953260249     0.948002727656      -0.225845070839     0.948002727656      -0.225845070839     -0.0518729446993    -0.216953260249     
2100000000.0        -0.0568968459825    -0.226601054621     0.942974576247      -0.235941676991     0.942974576247      -0.235941676991     -0.0568968459825    -0.226601054621     
2200000000.0        -0.0621110840424    -0.236085799205     0.937755883282      -0.245875719109     0.937755883282      -0.245875719109     -0.0621110840424    -0.236085799205     
2300000000.0        -0.067508756162     -0.245402619997     0.932353550538      -0.255642329996     0.932353550538      -0.255642329996     -0.067508756162     -0.245402619997     
2400000000.0        -0.0730828256378    -0.254546994328     0.926774613794      -0.265236993278     0.926774613794      -0.265236993278     -0.0730828256378    -0.254546994328     
2500000000.0        -0.0788261427314    -0.263514753372     0.92102622188       -0.274655545946     0.92102622188       -0.274655545946     -0.0788261427314    -0.263514753372     
2600000000.0        -0.0847314654119    -0.272302083228     0.915115615931      -0.283894179465     0.915115615931      -0.283894179465     -0.0847314654119    -0.272302083228     
2700000000.0        -0.0907914797849    -0.280905524606     0.909050108953      -0.292949439505     0.909050108953      -0.292949439505     -0.0907914797849    -0.280905524606     
2800000000.0        -0.096998820112     -0.289321971206     0.902837065806      -0.301818224333     0.902837065806      -0.301818224333     -0.096998820112     -0.289321971206     
2900000000.0        -0.10334608833      -0.297548666816     0.896483883683      -0.310497781954     0.896483883683      -0.310497781954     -0.10334608833      -0.297548666816     
3000000000.0        -0.109825872991     -0.305583201237     0.889997973167      -0.318985706048     0.889997973167      -0.318985706048     -0.109825872991     -0.305583201237     
3100000000.0        -0.116430767545     -0.313423505073     0.883386739948      -0.327279930788     0.883386739948      -0.327279930788     -0.116430767545     -0.313423505073     
3200000000.0        -0.123153387907     -0.321067843485     0.876657567256      -0.335378724622     0.876657567256      -0.335378724622     -0.123153387907     -0.321067843485     
3300000000.0        -0.129986389242     -0.328514808986     0.869817799075      -0.343280683078     0.869817799075      -0.343280683078     -0.129986389242     -0.328514808986     
3400000000.0        -0.136922481932     -0.33576331335      0.862874724174      -0.350984720703     0.862874724174      -0.350984720703     -0.136922481932     -0.33576331335      
3500000000.0        -0.143954446675     -0.342812578736     0.855835561013      -0.358490062197     0.855835561013      -0.358490062197     -0.143954446675     -0.342812578736     
3600000000.0        -0.151075148682     -0.349662128089     0.848707443539      -0.365796232833     0.848707443539      -0.365796232833     -0.151075148682     -0.349662128089     
3700000000.0        -0.158277550958     -0.356311774919     0.841497407906      -0.372903048258     0.841497407906      -0.372903048258     -0.158277550958     -0.356311774919     
3800000000.0        -0.165554726646     -0.362761612541     0.834212380135      -0.379810603738     0.834212380135      -0.379810603738     -0.165554726646     -0.362761612541     
3900000000.0        -0.172899870414     -0.369012002842     0.826859164722      -0.386519262948     0.826859164722      -0.386519262948     -0.172899870414     -0.369012002842     
4000000000.0        -0.180306308902     -0.375063564671     0.819444434194      -0.393029646369     0.819444434194      -0.393029646369     -0.180306308902     -0.375063564671     
4100000000.0        -0.187767510212     -0.380917161923     0.811974719617      -0.399342619388     0.811974719617      -0.399342619388     -0.187767510212     -0.380917161923     
4200000000.0        -0.19527709246      -0.386573891386     0.804456402044      -0.405459280157     0.804456402044      -0.405459280157     -0.19527709246      -0.386573891386     
4300000000.0        -0.20282883141      -0.392035070427     0.796895704879      -0.411380947285     0.796895704879      -0.411380947285     -0.20282883141      -0.392035070427     
4400000000.0        -0.210416667195     -0.397302224586     0.789298687163      -0.417109147449     0.789298687163      -0.417109147449     -0.210416667195     -0.397302224586     
4500000000.0        -0.218034710159     -0.402377075128     0.781671237723      -0.422645602953     0.781671237723      -0.422645602953     -0.218034710159     -0.402377075128     
4600000000.0        -0.225677245841     -0.40726152663      0.774019070191      -0.427992219322     0.774019070191      -0.427992219322     -0.225677245841     -0.40726152663      
4700000000.0        -0.23333873914      -0.411957654643     0.766347718843      -0.433151072972     0.766347718843      -0.433151072972     -0.23333873914      -0.411957654643     
4800000000.0        -0.241013837681     -0.416467693479     0.758662535227      -0.438124399014     0.758662535227      -0.438124399014     -0.241013837681     -0.416467693479     
4900000000.0        -0.248697374431     -0.420794024184     0.75096868555       -0.44291457922      0.75096868555       -0.44291457922      -0.248697374431     -0.420794024184     
5000000000.0        -0.25638436959      -0.424939162717     0.743271148785      -0.44752413022      0.743271148785      -0.44752413022      -0.25638436959      -0.424939162717     
5100000000.0        -0.264070031807     -0.428905748384     0.735574715457      -0.451955691943     0.735574715457      -0.451955691943     -0.264070031807     -0.428905748384     
5200000000.0        -0.271749758752     -0.432696532568     0.72788398707       -0.456212016342     0.72788398707       -0.456212016342     -0.271749758752     -0.432696532568     
5300000000.0        -0.279419137088     -0.436314367756     0.720203376134      -0.460295956441     0.720203376134      -0.460295956441     -0.279419137088     -0.436314367756     
5400000000.0        -0.287073941884     -0.439762196922     0.712537106754      -0.464210455712     0.712537106754      -0.464210455712     -0.287073941884     -0.439762196922     
5500000000.0        -0.294710135507     -0.443043043259     0.704889215735      -0.467958537821     0.704889215735      -0.467958537821     -0.294710135507     -0.443043043259     
5600000000.0        -0.302323866034     -0.446160000294     0.697263554171      -0.471543296738     0.697263554171      -0.471543296738     -0.302323866034     -0.446160000294     
5700000000.0        -0.309911465231     -0.44911622239      0.689663789469      -0.474967887254     0.689663789469      -0.474967887254     -0.309911465231     -0.44911622239      
5800000000.0        -0.317469446121     -0.451914915654     0.682093407775      -0.478235515887     0.682093407775      -0.478235515887     -0.317469446121     -0.451914915654     
5900000000.0        -0.324994500198     -0.454559329254     0.674555716765      -0.481349432201     0.674555716765      -0.481349432201     -0.324994500198     -0.454559329254     
6000000000.0        -0.332483494308     -0.457052747146     0.667053848761      -0.484312920542     0.667053848761      -0.484312920542     -0.332483494308     -0.457052747146     
6100000000.0        -0.339933467247     -0.459398480221     0.659590764134      -0.487129292186     0.659590764134      -0.487129292186     -0.339933467247     -0.459398480221     
6200000000.0        -0.347341626094     -0.461599858872     0.65216925497       -0.489801877909     0.65216925497       -0.489801877909     -0.347341626094     -0.461599858872     
6300000000.0        -0.354705342327     -0.463660225971     0.644791948957      -0.492334020965     0.644791948957      -0.492334020965     -0.354705342327     -0.463660225971     
6400000000.0        -0.36202214774      -0.465582930257     0.637461313462      -0.494729070481     0.637461313462      -0.494729070481     -0.36202214774      -0.465582930257     
6500000000.0        -0.369289730201     -0.467371320131     0.630179659779      -0.49699037525      0.630179659779      -0.49699037525      -0.369289730201     -0.467371320131     
6600000000.0        -0.37650592927      -0.469028737848     0.622949147505      -0.499121277932     0.622949147505      -0.499121277932     -0.37650592927      -0.469028737848     
6700000000.0        -0.383668731712     -0.470558514102     0.615771789034      -0.501125109629     0.615771789034      -0.501125109629     -0.383668731712     -0.470558514102     
6800000000.0        -0.390776266916     -0.471963962981     0.608649454133      -0.503005184857     0.608649454133      -0.503005184857     -0.390776266916     -0.471963962981     
6900000000.0        -0.397826802258     -0.473248377301     0.601583874577      -0.50476479687      0.601583874577      -0.50476479687      -0.397826802258     -0.473248377301     
7000000000.0        -0.404818738419     -0.474415024293     0.594576648836      -0.506407213356     0.594576648836      -0.506407213356     -0.404818738419     -0.474415024293     
7100000000.0        -0.411750604681     -0.475467141638     0.587629246778      -0.507935672468     0.587629246778      -0.507935672468     -0.411750604681     -0.475467141638     
7200000000.0        -0.418621054216     -0.476407933827     0.580743014374      -0.509353379191     0.580743014374      -0.509353379191     -0.418621054216     -0.476407933827     
7300000000.0        -0.425428859389     -0.477240568853     0.573919178404      -0.510663502032     0.573919178404      -0.510663502032     -0.425428859389     -0.477240568853     
7400000000.0        -0.432172907087     -0.477968175199     0.567158851121      -0.511869170009     0.567158851121      -0.511869170009     -0.432172907087     -0.477968175199     
7500000000.0        -0.438852194085     -0.478593839124     0.560463034888      -0.51297346994      0.560463034888      -0.51297346994      -0.438852194085     -0.478593839124     
7600000000.0        -0.445465822465     -0.479120602226     0.553832626756      -0.513979444003     0.553832626756      -0.513979444003     -0.445465822465     -0.479120602226     
7700000000.0        -0.452012995101     -0.47955145927      0.547268422984      -0.514890087572     0.547268422984      -0.514890087572     -0.452012995101     -0.47955145927      
7800000000.0        -0.458493011211     -0.47988935627      0.540771123482      -0.515708347295     0.540771123482      -0.515708347295     -0.458493011211     -0.47988935627      
7900000000.0        -0.464905261991     -0.480137188808     0.534341336178      -0.516437119411     0.534341336178      -0.516437119411     -0.464905261991     -0.480137188808     
8000000000.0        -0.471249226342     -0.480297800576     0.527979581295      -0.517079248301     0.527979581295      -0.517079248301     -0.471249226342     -0.480297800576     
8100000000.0        -0.477524466679     -0.480373982136     0.521686295533      -0.517637525241     0.521686295533      -0.517637525241     -0.477524466679     -0.480373982136     
8200000000.0        -0.483730624858     -0.480368469871     0.515461836154      -0.518114687359     0.515461836154      -0.518114687359     -0.483730624858     -0.480368469871     
8300000000.0        -0.489867418188     -0.480283945132     0.509306484957      -0.518513416777     0.509306484957      -0.518513416777     -0.489867418188     -0.480283945132     
8400000000.0        -0.495934635564     -0.48012303355      0.503220452156      -0.518836339928     0.503220452156      -0.518836339928     -0.495934635564     -0.48012303355      
8500000000.0        -0.501932133707     -0.479888304523     0.497203880131      -0.519086027042     0.497203880131      -0.519086027042     -0.501932133707     -0.479888304523     
8600000000.0        -0.507859833517     -0.479582270841     0.491256847084      -0.51926499177      0.491256847084      -0.51926499177      -0.507859833517     -0.479582270841     
8700000000.0        -0.513717716538     -0.479207388465     0.485379370564      -0.519375690965     0.485379370564      -0.519375690965     -0.513717716538     -0.479207388465     
8800000000.0        -0.519505821544     -0.478766056428     0.479571410888      -0.519420524585     0.479571410888      -0.519420524585     -0.519505821544     -0.478766056428     
8900000000.0        -0.52522424124      -0.478260616861     0.473832874438      -0.519401835713     0.473832874438      -0.519401835713     -0.52522424124      -0.478260616861     
9000000000.0        -0.530873119074     -0.477693355129     0.468163616848      -0.5193219107       0.468163616848      -0.5193219107       -0.530873119074     -0.477693355129     
9100000000.0        -0.536452646173     -0.477066500068     0.462563446068      -0.519182979398     0.462563446068      -0.519182979398     -0.536452646173     -0.477066500068     
9200000000.0        -0.54196305839      -0.476382224315     0.457032125319      -0.518987215494     0.457032125319      -0.518987215494     -0.54196305839      -0.476382224315     
9300000000.0        -0.547404633464     -0.475642644731     0.451569375929      -0.518736736925     0.451569375929      -0.518736736925     -0.547404633464     -0.475642644731     
9400000000.0        -0.552777688296     -0.474849822885     0.446174880062      -0.518433606373     0.446174880062      -0.518433606373     -0.552777688296     -0.474849822885     
9500000000.0        -0.558082576331     -0.474005765625     0.440848283331      -0.51807983183      0.440848283331      -0.51807983183      -0.558082576331     -0.474005765625     
9600000000.0        -0.563319685057     -0.473112425705     0.4355891973        -0.517677367221     0.4355891973        -0.517677367221     -0.563319685057     -0.473112425705     
9700000000.0        -0.568489433604     -0.472171702463     0.430397201891      -0.517228113092     0.430397201891      -0.517228113092     -0.568489433604     -0.472171702463     
9800000000.0        -0.573592270448     -0.471185442562     0.425271847669      -0.516733917342     0.425271847669      -0.516733917342     -0.573592270448     -0.471185442562     
9900000000.0        -0.578628671221     -0.470155440762     0.42021265804       -0.516196576001     0.42021265804       -0.516196576001     -0.578628671221     -0.470155440762     
10000000000.0       -0.58359913662      -0.469083440742     0.415219131341      -0.515617834049     0.415219131341      -0.515617834049     -0.58359913662      -0.469083440742     
