# Hz S RI R 50.00 
100000000.0         0.000184357421271   -0.00532558770408   0.999742029323      -0.00578447763483   0.999742029323      -0.00578447763483   0.000184357421271   -0.00532558770408   
200000000.0         8.79966243896e-05   -0.0106500711446    0.999642354339      -0.0115678536555    0.999642354339      -0.0115678536555    8.79966243894e-05   -0.0106500711446    
300000000.0         -7.0318907414e-05   -0.0159724511025    0.999481280781      -0.0173491331927    0.999481280781      -0.0173491331927    -7.0318907414e-05   -0.0159724511025    
400000000.0         -0.000290342265172  -0.0212917264147    0.999258674221      -0.0231273182272    0.999258674221      -0.0231273182272    -0.000290342265172  -0.0212917264147    
500000000.0         -0.000571922362644  -0.0266068960471    0.998974539403      -0.0289014104573    0.998974539403      -0.0289014104573    -0.000571922362644  -0.0266068960471    
600000000.0         -0.000914922429743  -0.0319169602567    0.998628938721      -0.0346704126393    0.998628938721      -0.0346704126393    -0.000914922429743  -0.0319169602567    
700000000.0         -0.00131919937289   -0.0372209214749    0.998221971476      -0.040433329549     0.998221971476      -0.040433329549     -0.00131919937289   -0.0372209214749    
800000000.0         -0.00178459631297   -0.0425177850724    0.997753766266      -0.0461891687877    0.997753766266      -0.0461891687877    -0.00178459631297   -0.0425177850724    
900000000.0         -0.00231093933561   -0.0478065600594    0.997224477534      -0.0519369415086    0.997224477534      -0.0519369415086    -0.00231093933561   -0.0478065600594    
1000000000.0        -0.00289803591924   -0.0530862597469    0.996634283748      -0.0576756630943    0.996634283748      -0.0576756630943    -0.00289803591924   -0.0530862597469    
1100000000.0        -0.00354567413972   -0.0583559023805    0.995983386312      -0.0634043538038    0.995983386312      -0.0634043538038    -0.00354567413973   -0.0583559023805    
1200000000.0        -0.00425362227668   -0.0636145117543    0.995272008843      -0.0691220393942    0.995272008843      -0.0691220393942    -0.00425362227668   -0.0636145117543    
1300000000.0        -0.00502162864789   -0.0688611178068    0.99450039663       -0.0748277517241    0.99450039663       -0.0748277517241    -0.00502162864789   -0.0688611178068    
1400000000.0        -0.00584942158387   -0.074094757204     0.9936688162        -0.0805205293413    0.9936688162        -0.0805205293413    -0.00584942158387   -0.074094757204     
1500000000.0        -0.00673670949472   -0.0793144739069    0.992777554935      -0.0861994180555    0.992777554935      -0.0861994180555    -0.00673670949472   -0.0793144739069    
1600000000.0        -0.00768318100199   -0.0845193197277    0.991826920723      -0.0918634714971    0.991826920723      -0.0918634714971    -0.00768318100199   -0.0845193197277    
1700000000.0        -0.00868850511878   -0.0897083548726    0.990817241617      -0.0975117516637    0.990817241617      -0.0975117516637    -0.00868850511878   -0.0897083548726    
1800000000.0        -0.00975233146785   -0.0948806484723    0.989748865501      -0.103143329452     0.989748865501      -0.103143329452     -0.00975233146785   -0.0948806484723    
1900000000.0        -0.0108742905307    -0.1000352791       0.988622159753      -0.10875728518      0.988622159753      -0.10875728518      -0.0108742905307    -0.1000352791       
2000000000.0        -0.0120539939225    -0.105171335276     0.987437510906      -0.114352709089     0.987437510906      -0.114352709089     -0.0120539939225    -0.105171335276     
2100000000.0        -0.0132910346907    -0.11028791596      0.986195324293      -0.119928701844     0.986195324293      -0.119928701844     -0.0132910346907    -0.11028791596      
2200000000.0        -0.0145849876329    -0.115384131028     0.984896023695      -0.125484375007     0.984896023695      -0.125484375007     -0.0145849876329    -0.115384131028     
2300000000.0        -0.0159354096336    -0.120459101741     0.983540050965      -0.131018851506     0.983540050965      -0.131018851506     -0.0159354096336    -0.120459101741     
2400000000.0        -0.0173418400177    -0.125511961192     0.982127865655      -0.136531266088     0.982127865655      -0.136531266088     -0.0173418400177    -0.125511961192     
2500000000.0        -0.0188038009196    -0.13054185474      0.980659944623      -0.142020765752     0.980659944623      -0.142020765752     -0.0188038009196    -0.13054185474      
2600000000.0        -0.0203207976657    -0.13554794044      0.979136781632      -0.147486510175     0.979136781632      -0.147486510175     -0.0203207976657    -0.13554794044      
2700000000.0        -0.0218923191714    -0.14052938944      0.977558886942      -0.152927672119     0.977558886942      -0.152927672119     -0.0218923191714    -0.14052938944      
2800000000.0        -0.0235178383497    -0.14548538638      0.975926786888      -0.158343437823     0.975926786888      -0.158343437823     -0.0235178383497    -0.14548538638      
2900000000.0        -0.0251968125308    -0.150415129763     0.974241023451      -0.163733007375     0.974241023451      -0.163733007375     -0.0251968125308    -0.150415129763     
3000000000.0        -0.0269286838938    -0.155317832315     0.972502153817      -0.169095595082     0.972502153817      -0.169095595082     -0.0269286838938    -0.155317832315     
3100000000.0        -0.0287128799066    -0.160192721334     0.970710749932      -0.174430429803     0.970710749932      -0.174430429803     -0.0287128799066    -0.160192721334     
3200000000.0        -0.0305488137761    -0.165039039009     0.968867398044      -0.179736755287     0.968867398044      -0.179736755287     -0.0305488137761    -0.165039039009     
3300000000.0        -0.0324358849056    -0.16985604274      0.966972698241      -0.185013830477     0.966972698241      -0.185013830477     -0.0324358849056    -0.16985604274      
3400000000.0        -0.0343734793611    -0.174643005426     0.965027263982      -0.190260929811     0.965027263982      -0.190260929811     -0.0343734793611    -0.174643005426     
3500000000.0        -0.0363609703433    -0.179399215746     0.963031721617      -0.195477343495     0.963031721617      -0.195477343495     -0.0363609703433    -0.179399215746     
3600000000.0        -0.0383977186666    -0.184123978419     0.960986709911      -0.200662377769     0.960986709911      -0.200662377769     -0.0383977186666    -0.184123978419     
3700000000.0        -0.0404830732426    -0.18881661445      0.958892879551      -0.205815355147     0.958892879551      -0.205815355147     -0.0404830732426    -0.18881661445      
3800000000.0        -0.0426163715695    -0.193476461352     0.95675089266       -0.210935614649     0.95675089266       -0.210935614649     -0.0426163715695    -0.193476461352     
3900000000.0        -0.0447969402246    -0.198102873363     0.954561422295      -0.216022512008     0.954561422295      -0.216022512008     -0.0447969402246    -0.198102873363     
4000000000.0        -0.0470240953609    -0.202695221633     0.952325151958      -0.221075419863     0.952325151958      -0.221075419863     -0.0470240953609    -0.202695221633     
4100000000.0        -0.049297143206     -0.207252894404     0.950042775087      -0.22609372794      0.950042775087      -0.22609372794      -0.049297143206     -0.207252894404     
4200000000.0        -0.0516153805631    -0.211775297169     0.947714994557      -0.231076843205     0.947714994557      -0.231076843205     -0.0516153805631    -0.211775297169     
4300000000.0        -0.053978095314     -0.21626185281      0.945342522177      -0.236024190011     0.945342522177      -0.236024190011     -0.053978095314     -0.21626185281      
4400000000.0        -0.0563845669219    -0.220712001731     0.942926078184      -0.240935210224     0.942926078184      -0.240935210224     -0.0563845669219    -0.220712001731     
4500000000.0        -0.0588340669353    -0.225125201959     0.940466390736      -0.245809363331     0.940466390736      -0.245809363331     -0.0588340669353    -0.225125201959     
4600000000.0        -0.0613258594913    -0.229500929245     0.937964195412      -0.25064612653      0.937964195412      -0.25064612653      -0.0613258594913    -0.229500929245     
4700000000.0        -0.0638592018173    -0.233838677132     0.935420234709      -0.255444994814     0.935420234709      -0.255444994814     -0.0638592018173    -0.233838677132     
4800000000.0        -0.0664333447318    -0.238137957021     0.932835257536      -0.260205481022     0.932835257536      -0.260205481022     -0.0664333447318    -0.238137957021     
4900000000.0        -0.0690475331429    -0.242398298214     0.93021001872       -0.264927115891     0.93021001872       -0.264927115891     -0.0690475331429    -0.242398298214     
5000000000.0        -0.0717010065435    -0.246619247941     0.927545278507      -0.269609448082     0.927545278507      -0.269609448082     -0.0717010065435    -0.246619247941     
5100000000.0        -0.0743929995043    -0.250800371375     0.924841802069      -0.274252044193     0.924841802069      -0.274252044193     -0.0743929995043    -0.250800371375     
5200000000.0        -0.0771227421621    -0.254941251628     0.922100359016      -0.278854488758     0.922100359016      -0.278854488758     -0.0771227421621    -0.254941251628     
5300000000.0        -0.0798894607043    -0.259041489738     0.91932172291       -0.28341638423      0.91932172291       -0.28341638423      -0.0798894607043    -0.259041489738     
5400000000.0        -0.0826923778486    -0.263100704636     0.916506670788      -0.28793735095      0.916506670788      -0.28793735095      -0.0826923778486    -0.263100704636     
5500000000.0        -0.0855307133174    -0.267118533097     0.91365598268       -0.292417027102     0.91365598268       -0.292417027102     -0.0855307133174    -0.267118533097     
5600000000.0        -0.0884036843069    -0.271094629688     0.910770441148      -0.296855068656     0.910770441148      -0.296855068656     -0.0884036843069    -0.271094629688     
5700000000.0        -0.0913105059494    -0.275028666688     0.907850830818      -0.30125114929      0.907850830818      -0.30125114929      -0.0913105059494    -0.275028666688     
5800000000.0        -0.09425039177      -0.278920334007     0.904897937925      -0.305604960309     0.904897937925      -0.305604960309     -0.09425039177      -0.278920334007     
5900000000.0        -0.0972225541356    -0.282769339085     0.901912549864      -0.309916210545     0.901912549864      -0.309916210545     -0.0972225541356    -0.282769339085     
6000000000.0        -0.100226204698     -0.286575406782     0.898895454743      -0.314184626244     0.898895454743      -0.314184626244     -0.100226204698     -0.286575406782     
6100000000.0        -0.103260554826     -0.290338279252     0.895847440956      -0.318409950947     0.895847440956      -0.318409950947     -0.103260554826     -0.290338279252     
6200000000.0        -0.106324816037     -0.294057715814     0.89276929675       -0.322591945351     0.89276929675       -0.322591945351     -0.106324816037     -0.294057715814     
6300000000.0        -0.109418200409     -0.297733492799     0.889661809808      -0.326730387166     0.889661809808      -0.326730387166     -0.109418200409     -0.297733492799     
6400000000.0        -0.112539920996     -0.301365403398     0.886525766839      -0.330825070956     0.886525766839      -0.330825070956     -0.112539920996     -0.301365403398     
6500000000.0        -0.115689192228     -0.304953257493     0.883361953177      -0.334875807974     0.883361953177      -0.334875807974     -0.115689192228     -0.304953257493     
6600000000.0        -0.1188652303       -0.308496881481     0.880171152388      -0.338882425987     0.880171152388      -0.338882425987     -0.1188652303       -0.308496881481     
6700000000.0        -0.12206725356      -0.311996118087     0.876954145886      -0.342844769081     0.876954145886      -0.342844769081     -0.12206725356      -0.311996118087     
6800000000.0        -0.125294482878     -0.315450826167     0.873711712563      -0.346762697477     0.873711712563      -0.346762697477     -0.125294482878     -0.315450826167     
6900000000.0        -0.128546142013     -0.318860880505     0.870444628419      -0.350636087316     0.870444628419      -0.350636087316     -0.128546142013     -0.318860880505     
7000000000.0        -0.131821457965     -0.322226171599     0.867153666214      -0.354464830455     0.867153666214      -0.354464830455     -0.131821457965     -0.322226171599     
7100000000.0        -0.135119661322     -0.325546605444     0.863839595119      -0.358248834241     0.863839595119      -0.358248834241     -0.135119661322     -0.325546605444     
7200000000.0        -0.138439986591     -0.328822103299     0.860503180385      -0.361988021286     0.860503180385      -0.361988021286     -0.138439986591     -0.328822103299     
7300000000.0        -0.141781672522     -0.332052601458     0.857145183016      -0.36568232923      0.857145183016      -0.36568232923      -0.141781672522     -0.332052601458     
7400000000.0        -0.145143962426     -0.335238051004     0.853766359458      -0.369331710504     0.853766359458      -0.369331710504     -0.145143962426     -0.335238051004     
7500000000.0        -0.148526104472     -0.338378417564     0.850367461295      -0.372936132078     0.850367461295      -0.372936132078     -0.148526104472     -0.338378417564     
7600000000.0        -0.151927351984     -0.341473681055     0.846949234955      -0.376495575213     0.846949234955      -0.376495575213     -0.151927351984     -0.341473681055     
7700000000.0        -0.155346963723     -0.344523835429     0.843512421428      -0.380010035199     0.843512421428      -0.380010035199     -0.155346963723     -0.344523835429     
7800000000.0        -0.158784204156     -0.347528888404     0.840057755995      -0.383479521091     0.840057755995      -0.383479521091     -0.158784204156     -0.347528888404     
7900000000.0        -0.162238343723     -0.350488861203     0.836585967966      -0.386904055448     0.836585967966      -0.386904055448     -0.162238343723     -0.350488861203     
8000000000.0        -0.16570865908      -0.353403788277     0.833097780429      -0.390283674056     0.833097780429      -0.390283674056     -0.16570865908      -0.353403788277     
8100000000.0        -0.169194433347     -0.356273717035     0.829593910008      -0.393618425652     0.829593910008      -0.393618425652     -0.169194433347     -0.356273717035     
8200000000.0        -0.172694956334     -0.359098707562     0.826075066637      -0.396908371653     0.826075066637      -0.396908371653     -0.172694956334     -0.359098707562     
8300000000.0        -0.176209524761     -0.361878832338     0.822541953335      -0.400153585867     0.822541953335      -0.400153585867     -0.176209524761     -0.361878832338     
8400000000.0        -0.179737442466     -0.364614175956     0.818995266002      -0.403354154212     0.818995266002      -0.403354154212     -0.179737442466     -0.364614175956     
8500000000.0        -0.183278020607     -0.367304834836     0.815435693217      -0.406510174432     0.815435693217      -0.406510174432     -0.183278020607     -0.367304834836     
8600000000.0        -0.18683057785      -0.369950916936     0.81186391605       -0.409621755807     0.81186391605       -0.409621755807     -0.18683057785      -0.369950916936     
8700000000.0        -0.190394440545     -0.372552541462     0.808280607883      -0.412689018868     0.808280607883      -0.412689018868     -0.190394440545     -0.372552541462     
8800000000.0        -0.193968942896     -0.375109838583     0.804686434241      -0.415712095099     0.804686434241      -0.415712095099     -0.193968942896     -0.375109838583     
8900000000.0        -0.197553427123     -0.377622949133     0.801082052634      -0.418691126656     0.801082052634      -0.418691126656     -0.197553427123     -0.377622949133     
9000000000.0        -0.201147243605     -0.380092024327     0.797468112409      -0.421626266068     0.797468112409      -0.421626266068     -0.201147243605     -0.380092024327     
9100000000.0        -0.204749751024     -0.382517225462     0.793845254608      -0.424517675949     0.793845254608      -0.424517675949     -0.204749751024     -0.382517225462     
9200000000.0        -0.208360316495     -0.384898723632     0.790214111838      -0.427365528706     0.790214111838      -0.427365528706     -0.208360316495     -0.384898723632     
9300000000.0        -0.211978315684     -0.387236699433     0.786575308154      -0.430170006249     0.786575308154      -0.430170006249     -0.211978315684     -0.387236699433     
9400000000.0        -0.215603132919     -0.389531342675     0.782929458943      -0.432931299697     0.782929458943      -0.432931299697     -0.215603132919     -0.389531342675     
9500000000.0        -0.219234161297     -0.391782852091     0.779277170826      -0.435649609096     0.779277170826      -0.435649609096     -0.219234161297     -0.391782852091     
9600000000.0        -0.222870802774     -0.39399143505      0.775619041558      -0.438325143124     0.775619041558      -0.438325143124     -0.222870802774     -0.39399143505      
9700000000.0        -0.22651246825      -0.396157307271     0.771955659951      -0.440958118808     0.771955659951      -0.440958118808     -0.22651246825      -0.396157307271     
9800000000.0        -0.230158577646     -0.398280692538     0.76828760579       -0.443548761238     0.76828760579       -0.443548761238     -0.230158577646     -0.398280692538     
9900000000.0        -0.233808559975     -0.400361822416     0.764615449771      -0.446097303287     0.764615449771      -0.446097303287     -0.233808559975     -0.400361822416     
10000000000.0       -0.237461853396     -0.40240093597      0.760939753436      -0.448603985324     0.760939753436      -0.448603985324     -0.237461853396     -0.40240093597      
