# Hz S RI R 50.00 
100000000.0         0.0548324282867     0.00398027656229    0.94516325444       -0.00577401169947   0.94516325444       -0.00577401169947   0.0548324282867     0.00398027656229    
200000000.0         0.0552466734426     0.00795274861664    0.944742411376      -0.0115402355853    0.944742411376      -0.0115402355853    0.0552466734426     0.00795274861664    
300000000.0         0.0556168972743     0.0119195658442     0.944362307992      -0.0173008372484    0.944362307992      -0.0173008372484    0.0556168972743     0.0119195658442     
400000000.0         0.0559883016987     0.0158810012663     0.94397774146       -0.0230561039533    0.94397774146       -0.0230561039533    0.0559883016987     0.0158810012663     
500000000.0         0.0563782754344     0.0198368929467     0.943571322129      -0.02880588717      0.943571322129      -0.02880588717      0.0563782754344     0.0198368929467     
600000000.0         0.0567956532057     0.0237868875925     0.94313421428       -0.0345498464661    0.94313421428       -0.0345498464661    0.0567956532057     0.0237868875925     
700000000.0         0.0572456151554     0.0277305281746     0.9426612367        -0.0402875372743    0.9426612367        -0.0402875372743    0.0572456151554     0.0277305281746     
800000000.0         0.0577314760537     0.0316672946925     0.94214907346       -0.046018451747     0.94214907346       -0.046018451747     0.0577314760537     0.0316672946925     
900000000.0         0.0582554823828     0.035596626188      0.941595476825      -0.0517420408279    0.941595476825      -0.0517420408279    0.0582554823828     0.035596626188      
1000000000.0        0.0588192165778     0.0395179338891     0.940998863013      -0.0574577274368    0.940998863013      -0.0574577274368    0.0588192165778     0.0395179338891     
1100000000.0        0.0594238218655     0.0434306096568     0.940358087346      -0.0631649149469    0.940358087346      -0.0631649149469    0.0594238218655     0.0434306096568     
1200000000.0        0.0600701363258     0.0473340317356     0.939672310195      -0.0688629929581    0.939672310195      -0.0688629929581    0.0600701363258     0.0473340317356     
1300000000.0        0.0607587773027     0.0512275688526     0.938940912563      -0.0745513414142    0.938940912563      -0.0745513414142    0.0607587773027     0.0512275688526     
1400000000.0        0.0614901969447     0.0551105832561     0.938163440544      -0.0802293336565    0.938163440544      -0.0802293336565    0.0614901969447     0.0551105832561     
1500000000.0        0.0622647201019     0.0589824330437     0.937339567427      -0.0858963387629    0.937339567427      -0.0858963387629    0.0622647201019     0.0589824330437     
1600000000.0        0.0630825709917     0.0628424739974     0.936469067028      -0.0915517233944    0.936469067028      -0.0915517233944    0.0630825709917     0.0628424739974     
1700000000.0        0.0639438924621     0.0666900610687     0.935551794428      -0.0971948532868    0.935551794428      -0.0971948532868    0.0639438924621     0.0666900610687     
1800000000.0        0.0648487602304     0.0705245496046     0.934587671731      -0.102825094486     0.934587671731      -0.102825094486     0.0648487602304     0.0705245496046     
1900000000.0        0.0657971936252     0.0743452963828     0.933576677326      -0.108441814386     0.933576677326      -0.108441814386     0.0657971936252     0.0743452963828     
2000000000.0        0.0667891638374     0.0781516604989     0.932518837634      -0.114044382626     0.932518837634      -0.114044382626     0.0667891638374     0.0781516604989     
2100000000.0        0.0678246003654     0.0819430041386     0.93141422066       -0.119632171865     0.93141422066       -0.119632171865     0.0678246003654     0.0819430041386     
2200000000.0        0.0689033961252     0.0857186932601     0.930262930887      -0.125204558465     0.930262930887      -0.125204558465     0.0689033961252     0.0857186932601     
2300000000.0        0.0700254115603     0.0894780982021     0.929065105165      -0.130760923111     0.929065105165      -0.130760923111     0.0700254115603     0.0894780982021     
2400000000.0        0.0711904779908     0.0932205942325     0.927820909359      -0.136300651354     0.927820909359      -0.136300651354     0.0711904779908     0.0932205942325     
2500000000.0        0.0723984003771     0.0969455620476     0.926530535588      -0.141823134119     0.926530535588      -0.141823134119     0.0723984003771     0.0969455620476     
2600000000.0        0.0736489596281     0.100652388228      0.925194199917      -0.147327768163     0.925194199917      -0.147327768163     0.0736489596281     0.100652388228      
2700000000.0        0.0749419145508     0.104340465662      0.923812140406      -0.152813956497     0.923812140406      -0.152813956497     0.0749419145508     0.104340465662      
2800000000.0        0.0762770035157     0.108009193931      0.922384615444      -0.158281108778     0.922384615444      -0.158281108778     0.0762770035157     0.108009193931      
2900000000.0        0.077653945895      0.111657979675      0.920911902314      -0.163728641676     0.920911902314      -0.163728641676     0.077653945895      0.111657979675      
3000000000.0        0.0790724433163     0.115286236934      0.919394295934      -0.169155979214     0.919394295934      -0.169155979214     0.0790724433163     0.115286236934      
3100000000.0        0.0805321807682     0.118893387455      0.917832107758      -0.174562553081     0.917832107758      -0.174562553081     0.0805321807682     0.118893387455      
3200000000.0        0.0820328275836     0.122478861001      0.916225664786      -0.179947802938     0.916225664786      -0.179947802938     0.0820328275836     0.122478861001      
3300000000.0        0.0835740383221     0.126042095618      0.914575308686      -0.185311176693     0.914575308686      -0.185311176693     0.0835740383221     0.126042095618      
3400000000.0        0.0851554535704     0.129582537907      0.912881394992      -0.190652130765     0.912881394992      -0.190652130765     0.0851554535704     0.129582537907      
3500000000.0        0.0867767006729     0.133099643261      0.911144292374      -0.195970130333     0.911144292374      -0.195970130333     0.0867767006729     0.133099643261      
3600000000.0        0.0884373944039     0.136592876103      0.909364381964      -0.201264649567     0.909364381964      -0.201264649567     0.0884373944039     0.136592876103      
3700000000.0        0.0901371375925     0.140061710101      0.907542056733      -0.206535171847     0.907542056733      -0.206535171847     0.0901371375925     0.140061710101      
3800000000.0        0.0918755217052     0.14350562837       0.905677720908      -0.211781189967     0.905677720908      -0.211781189967     0.0918755217052     0.14350562837       
3900000000.0        0.0936521273939     0.146924123667      0.903771789422      -0.217002206329     0.903771789422      -0.217002206329     0.0936521273939     0.146924123667      
4000000000.0        0.0954665250144     0.150316698569      0.901824687399      -0.222197733123     0.901824687399      -0.222197733123     0.0954665250144     0.150316698569      
4100000000.0        0.0973182751185     0.153682865637      0.899836849659      -0.227367292494     0.899836849659      -0.227367292494     0.0973182751185     0.153682865637      
4200000000.0        0.0992069289244     0.157022147576      0.897808720246      -0.232510416696     0.897808720246      -0.232510416696     0.0992069289244     0.157022147576      
4300000000.0        0.101132028768      0.160334077376      0.895740751982      -0.237626648244     0.895740751982      -0.237626648244     0.101132028768      0.160334077376      
4400000000.0        0.103093108538      0.163618198451      0.893633406028      -0.242715540043     0.893633406028      -0.242715540043     0.103093108538      0.163618198451      
4500000000.0        0.105089694094      0.166874064754      0.891487151463      -0.247776655511     0.891487151463      -0.247776655511     0.105089694094      0.166874064754      
4600000000.0        0.107121303674      0.170101240897      0.889302464884      -0.252809568699     0.889302464884      -0.252809568699     0.107121303674      0.170101240897      
4700000000.0        0.109187448289      0.173299302251      0.887079830005      -0.257813864386     0.887079830005      -0.257813864386     0.109187448289      0.173299302251      
4800000000.0        0.111287632108      0.176467835039      0.884819737271      -0.26278913818      0.884819737271      -0.26278913818      0.111287632108      0.176467835039      
4900000000.0        0.113421352834      0.179606436417      0.882522683491      -0.267734996595     0.882522683491      -0.267734996595     0.113421352834      0.179606436417      
5000000000.0        0.115588102068      0.182714714553      0.880189171463      -0.27265105713      0.880189171463      -0.27265105713      0.115588102068      0.182714714553      
5100000000.0        0.117787365668      0.185792288684      0.877819709619      -0.277536948331     0.877819709619      -0.277536948331     0.117787365668      0.185792288684      
5200000000.0        0.120018624102      0.188838789179      0.875414811672      -0.282392309849     0.875414811672      -0.282392309849     0.120018624102      0.188838789179      
5300000000.0        0.122281352792      0.191853857579      0.872974996276      -0.287216792485     0.872974996276      -0.287216792485     0.122281352792      0.191853857579      
5400000000.0        0.124575022449      0.194837146636      0.870500786681      -0.292010058226     0.870500786681      -0.292010058226     0.124575022449      0.194837146636      
5500000000.0        0.126899099408      0.197788320344      0.867992710407      -0.296771780279     0.867992710407      -0.296771780279     0.126899099408      0.197788320344      
5600000000.0        0.129253045952      0.200707053959      0.865451298914      -0.301501643089     0.865451298914      -0.301501643089     0.129253045952      0.200707053959      
5700000000.0        0.131636320632      0.203593034009      0.862877087287      -0.306199342352     0.862877087287      -0.306199342352     0.131636320632      0.203593034009      
5800000000.0        0.134048378582      0.2064459583        0.860270613914      -0.310864585017     0.860270613914      -0.310864585017     0.134048378582      0.2064459583        
5900000000.0        0.136488671828      0.209265535912      0.857632420185      -0.315497089288     0.857632420185      -0.315497089288     0.136488671828      0.209265535912      
6000000000.0        0.138956649589      0.212051487186      0.854963050179      -0.320096584609     0.854963050179      -0.320096584609     0.138956649589      0.212051487186      
6100000000.0        0.141451758582      0.214803543709      0.852263050375      -0.324662811646     0.852263050375      -0.324662811646     0.141451758582      0.214803543709      
6200000000.0        0.143973443307      0.217521448283      0.84953296935       -0.329195522263     0.84953296935       -0.329195522263     0.143973443307      0.217521448283      
6300000000.0        0.146521146341      0.220204954897      0.846773357497      -0.333694479484     0.846773357497      -0.333694479484     0.146521146341      0.220204954897      
6400000000.0        0.149094308618      0.22285382868       0.843984766737      -0.338159457461     0.843984766737      -0.338159457461     0.149094308618      0.22285382868       
6500000000.0        0.151692369709      0.225467845862      0.841167750246      -0.342590241419     0.841167750246      -0.342590241419     0.151692369709      0.225467845862      
6600000000.0        0.154314768092      0.228046793711      0.838322862176      -0.346986627606     0.838322862176      -0.346986627606     0.154314768092      0.228046793711      
6700000000.0        0.15696094142       0.230590470483      0.835450657394      -0.351348423236     0.835450657394      -0.351348423236     0.15696094142       0.230590470483      
6800000000.0        0.159630326783      0.233098685346      0.832551691216      -0.355675446418     0.832551691216      -0.355675446418     0.159630326783      0.233098685346      
6900000000.0        0.162322360967      0.235571258317      0.829626519147      -0.359967526087     0.829626519147      -0.359967526087     0.162322360967      0.235571258317      
7000000000.0        0.165036480702      0.238008020178      0.826675696636      -0.364224501925     0.826675696636      -0.364224501925     0.165036480702      0.238008020178      
7100000000.0        0.167772122913      0.240408812392      0.823699778824      -0.368446224279     0.823699778824      -0.368446224279     0.167772122913      0.240408812392      
7200000000.0        0.170528724955      0.242773487021      0.820699320306      -0.372632554072     0.820699320306      -0.372632554072     0.170528724955      0.242773487021      
7300000000.0        0.173305724853      0.245101906622      0.81767487489       -0.376783362706     0.81767487489       -0.376783362706     0.173305724853      0.245101906622      
7400000000.0        0.17610256153       0.247393944158      0.814626995374      -0.380898531968     0.814626995374      -0.380898531968     0.17610256153       0.247393944158      
7500000000.0        0.178918675035      0.249649482884      0.811556233313      -0.384977953923     0.811556233313      -0.384977953923     0.178918675035      0.249649482884      
7600000000.0        0.181753506758      0.251868416249      0.808463138806      -0.389021530805     0.808463138806      -0.389021530805     0.181753506758      0.251868416249      
7700000000.0        0.184606499646      0.254050647773      0.805348260278      -0.393029174908     0.805348260278      -0.393029174908     0.184606499646      0.254050647773      
7800000000.0        0.18747709841       0.256196090939      0.802212144271      -0.397000808464     0.802212144271      -0.397000808464     0.18747709841       0.256196090939      
7900000000.0        0.190364749731      0.258304669064      0.799055335242      -0.400936363526     0.799055335242      -0.400936363526     0.190364749731      0.258304669064      
8000000000.0        0.193268902454      0.260376315181      0.795878375368      -0.404835781844     0.795878375368      -0.404835781844     0.193268902454      0.260376315181      
8100000000.0        0.196189007781      0.262410971907      0.792681804348      -0.408699014731     0.792681804348      -0.408699014731     0.196189007781      0.262410971907      
8200000000.0        0.199124519456      0.264408591309      0.789466159221      -0.412526022937     0.789466159221      -0.412526022937     0.199124519456      0.264408591309      
8300000000.0        0.202074893947      0.266369134776      0.786231974183      -0.416316776512     0.786231974183      -0.416316776512     0.202074893947      0.266369134776      
8400000000.0        0.205039590621      0.268292572873      0.782979780413      -0.420071254667     0.782979780413      -0.420071254667     0.205039590621      0.268292572873      
8500000000.0        0.208018071912      0.270178885207      0.779710105901      -0.423789445635     0.779710105901      -0.423789445635     0.208018071912      0.270178885207      
8600000000.0        0.211009803487      0.272028060276      0.776423475287      -0.427471346526     0.776423475287      -0.427471346526     0.211009803487      0.272028060276      
8700000000.0        0.214014254401      0.273840095333      0.773120409697      -0.431116963182     0.773120409697      -0.431116963182     0.214014254401      0.273840095333      
8800000000.0        0.217030897254      0.275614996227      0.769801426596      -0.434726310029     0.769801426596      -0.434726310029     0.217030897254      0.275614996227      
8900000000.0        0.220059208335      0.27735277726       0.766467039634      -0.438299409925     0.766467039634      -0.438299409925     0.220059208335      0.27735277726       
9000000000.0        0.223098667764      0.279053461035      0.76311775851       -0.44183629401      0.76311775851       -0.44183629401      0.223098667764      0.279053461035      
9100000000.0        0.226148759633      0.280717078295      0.759754088829      -0.445337001551     0.759754088829      -0.445337001551     0.226148759633      0.280717078295      
9200000000.0        0.22920897213       0.282343667776      0.756376531973      -0.448801579787     0.756376531973      -0.448801579787     0.22920897213       0.282343667776      
9300000000.0        0.232278797669      0.283933276044      0.752985584978      -0.45223008377      0.752985584978      -0.45223008377      0.232278797669      0.283933276044      
9400000000.0        0.23535773301       0.28548595734       0.749581740407      -0.45562257621      0.749581740407      -0.45562257621      0.23535773301       0.28548595734       
9500000000.0        0.238445279371      0.28700177342       0.74616548624       -0.458979127314     0.74616548624       -0.458979127314     0.238445279371      0.28700177342       
9600000000.0        0.241540942543      0.288480793395      0.742737305761      -0.462299814624     0.742737305761      -0.462299814624     0.241540942543      0.288480793395      
9700000000.0        0.24464423299       0.289923093569      0.739297677454      -0.465584722861     0.739297677454      -0.465584722861     0.24464423299       0.289923093569      
9800000000.0        0.247754665948      0.291328757279      0.7358470749        -0.468833943759     0.7358470749        -0.468833943759     0.247754665948      0.291328757279      
9900000000.0        0.250871761525      0.292697874731      0.732385966688      -0.472047575903     0.732385966688      -0.472047575903     0.250871761525      0.292697874731      
10000000000.0       0.253995044783      0.29403054284       0.728914816318      -0.47522572457      0.728914816318      -0.47522572457      0.253995044783      0.29403054284       
