# Hz S RI R 50.00 
100000000.0         -5.18778951358e-05  -0.00712274828757   0.999934618235      -0.00716407110756   0.999934618235      -0.00716407110756   -5.18778951357e-05  -0.00712274828757   
200000000.0         -0.000211977677569  -0.0142427684824    0.999774423761      -0.0143254204963    0.999774423761      -0.0143254204963    -0.000211977677569  -0.0142427684824    
300000000.0         -0.000473983593213  -0.0213577058087    0.99951234471       -0.0214816966485    0.99951234471       -0.0214816966485    -0.000473983593214  -0.0213577058087    
400000000.0         -0.000837698368094  -0.0284652527567    0.999148566743      -0.0286305945379    0.999148566743      -0.0286305945379    -0.000837698368094  -0.0284652527567    
500000000.0         -0.00130286061091   -0.0355631317345    0.998683346802      -0.0357698386547    0.998683346802      -0.0357698386547    -0.00130286061091   -0.0355631317345    
600000000.0         -0.00186914367987   -0.0426490905152    0.998117009269      -0.0428971785845    0.998117009269      -0.0428971785845    -0.00186914367987   -0.0426490905152    
700000000.0         -0.00253615625538   -0.0497209010417    0.997449944134      -0.0500103878796    0.997449944134      -0.0500103878796    -0.00253615625538   -0.0497209010417    
800000000.0         -0.00330344327413   -0.0567763595991    0.996682605604      -0.0571072642712    0.996682605604      -0.0571072642712    -0.00330344327413   -0.0567763595991    
900000000.0         -0.00417048699612   -0.0638132876375    0.995815510828      -0.0641856305196    0.995815510828      -0.0641856305196    -0.00417048699612   -0.0638132876375    
1000000000.0        -0.00513670815445   -0.0708295329548    0.994849238649      -0.071243335616     0.994849238649      -0.071243335616     -0.00513670815445   -0.0708295329548    
1100000000.0        -0.00620146717136   -0.0778229710679    0.993784428324      -0.0782782561676    0.993784428324      -0.0782782561676    -0.00620146717136   -0.0778229710679    
1200000000.0        -0.00736406543621   -0.0847915066899    0.99262177822       -0.0852882978858    0.99262177822       -0.0852882978858    -0.00736406543621   -0.0847915066899    
1300000000.0        -0.00862374664416   -0.0917330752545    0.991362044448      -0.0922713971197    0.991362044448      -0.0922713971197    -0.00862374664416   -0.0917330752545    
1400000000.0        -0.00997969819289   -0.0986456444545    0.990006039454      -0.0992255224017    0.990006039454      -0.0992255224017    -0.00997969819289   -0.0986456444545    
1500000000.0        -0.0114310526368    -0.105527215772     0.988554630556      -0.106148675984     0.988554630556      -0.106148675984     -0.0114310526368    -0.105527215772     
1600000000.0        -0.0129768891963    -0.112375825982     0.987008738428      -0.113038895349     0.987008738428      -0.113038895349     -0.0129768891963    -0.112375825982     
1700000000.0        -0.014616235318     -0.119189548615     0.985369335535      -0.11989425467      0.985369335535      -0.11989425467      -0.014616235318     -0.119189548615     
1800000000.0        -0.0163480682857    -0.125966495367     0.983637444516      -0.126712866237     0.983637444516      -0.126712866237     -0.0163480682857    -0.125966495367     
1900000000.0        -0.0181713168772    -0.132704817464     0.981814136529      -0.133492881813     0.981814136529      -0.133492881813     -0.0181713168772    -0.132704817464     
2000000000.0        -0.0200848630632    -0.139402706953     0.979900529546      -0.140232493935     0.979900529546      -0.140232493935     -0.0200848630632    -0.139402706953     
2100000000.0        -0.0220875437472    -0.146058397932     0.977897786615      -0.146929937144     0.977897786615      -0.146929937144     -0.0220875437472    -0.146058397932     
2200000000.0        -0.0241781525394    -0.152670167713     0.975807114082      -0.153583489154     0.975807114082      -0.153583489154     -0.0241781525394    -0.152670167713     
2300000000.0        -0.0263554415637    -0.159236337903     0.973629759785      -0.160191471932     0.973629759785      -0.160191471932     -0.0263554415637    -0.159236337903     
2400000000.0        -0.0286181232922    -0.165755275422     0.971367011217      -0.166752252718     0.971367011217      -0.166752252718     -0.0286181232922    -0.165755275422     
2500000000.0        -0.0309648724034    -0.172225393432     0.969020193669      -0.17326424496      0.969020193669      -0.17326424496      -0.0309648724034    -0.172225393432     
2600000000.0        -0.0333943276626    -0.178645152196     0.966590668347      -0.179725909174     0.966590668347      -0.179725909174     -0.0333943276626    -0.178645152196     
2700000000.0        -0.0359050938152    -0.185013059859     0.964079830481      -0.186135753722     0.964079830481      -0.186135753722     -0.0359050938152    -0.185013059859     
2800000000.0        -0.0384957434963    -0.191327673141     0.961489107414      -0.192492335513     0.961489107414      -0.192492335513     -0.0384957434963    -0.191327673141     
2900000000.0        -0.041164819146     -0.197587597961     0.958819956683      -0.198794260625     0.958819956683      -0.198794260625     -0.041164819146     -0.197587597961     
3000000000.0        -0.0439108349306    -0.203791489974     0.956073864103      -0.205040184845     0.956073864103      -0.205040184845     -0.0439108349306    -0.203791489974     
3100000000.0        -0.0467322786648    -0.209938055032     0.953252341843      -0.211228814133     0.953252341843      -0.211228814133     -0.0467322786648    -0.209938055032     
3200000000.0        -0.0496276137308    -0.216026049568     0.950356926502      -0.217358905001     0.950356926502      -0.217358905001     -0.0496276137308    -0.216026049568     
3300000000.0        -0.0525952809922    -0.2220542809       0.947389177203      -0.223429264827     0.947389177203      -0.223429264827     -0.0525952809922    -0.2220542809       
3400000000.0        -0.055633700696     -0.228021607456     0.944350673684      -0.229438752076     0.944350673684      -0.229438752076     -0.055633700696     -0.228021607456     
3500000000.0        -0.0587412743647    -0.233926938933     0.941243014409      -0.235386276462     0.941243014409      -0.235386276462     -0.0587412743647    -0.233926938933     
3600000000.0        -0.0619163866692    -0.239769236374     0.938067814696      -0.241270799024     0.938067814696      -0.241270799024     -0.0619163866692    -0.239769236374     
3700000000.0        -0.0651574072838    -0.245547512173     0.934826704857      -0.247091332134     0.934826704857      -0.247091332134     -0.0651574072838    -0.245547512173     
3800000000.0        -0.0684626927184    -0.251260830015     0.931521328373      -0.25284693944      0.931521328373      -0.25284693944      -0.0684626927184    -0.251260830015     
3900000000.0        -0.0718305881256    -0.256908304744     0.92815334008       -0.258536735728     0.92815334008       -0.258536735728     -0.0718305881256    -0.256908304744     
4000000000.0        -0.0752594290797    -0.262489102164     0.924724404395      -0.264159886734     0.924724404395      -0.264159886734     -0.0752594290797    -0.262489102164     
4100000000.0        -0.0787475433254    -0.268002438776     0.921236193563      -0.269715608873     0.921236193563      -0.269715608873     -0.0787475433254    -0.268002438776     
4200000000.0        -0.0822932524929    -0.273447581456     0.917690385945      -0.275203168922     0.917690385945      -0.275203168922     -0.0822932524929    -0.273447581456     
4300000000.0        -0.0858948737794    -0.27882384707      0.914088664336      -0.280621883637     0.914088664336      -0.280621883637     -0.0858948737794    -0.27882384707      
4400000000.0        -0.089550721592     -0.28413060203      0.910432714321      -0.285971119307     0.910432714321      -0.285971119307     -0.089550721592     -0.28413060203      
4500000000.0        -0.0932591091517    -0.289367261804     0.906724222672      -0.291250291263     0.906724222672      -0.291250291263     -0.0932591091517    -0.289367261804     
4600000000.0        -0.0970183500572    -0.294533290358     0.902964875782      -0.29645886333      0.902964875782      -0.29645886333      -0.0970183500572    -0.294533290358     
4700000000.0        -0.100826759806     -0.299628199567     0.899156358147      -0.301596347226     0.899156358147      -0.301596347226     -0.100826759806     -0.299628199567     
4800000000.0        -0.10468265727      -0.304651548563     0.895300350889      -0.306662301921     0.895300350889      -0.306662301921     -0.10468265727      -0.304651548563     
4900000000.0        -0.108584366129     -0.309602943049     0.89139853032       -0.311656332944     0.89139853032       -0.311656332944     -0.108584366129     -0.309602943049     
5000000000.0        -0.112530216255     -0.314482034562     0.887452566565      -0.316578091652     0.887452566565      -0.316578091652     -0.112530216255     -0.314482034562     
5100000000.0        -0.11651854505      -0.319288519707     0.883464122214      -0.321427274465     0.883464122214      -0.321427274465     -0.11651854505      -0.319288519707     
5200000000.0        -0.120547698737     -0.324022139346     0.87943485104       -0.326203622049     0.87943485104       -0.326203622049     -0.120547698737     -0.324022139346     
5300000000.0        -0.124616033598     -0.328682677759     0.875366396754      -0.330906918483     0.875366396754      -0.330906918483     -0.124616033598     -0.328682677759     
5400000000.0        -0.128721917167     -0.333269961766     0.871260391817      -0.335536990383     0.871260391817      -0.335536990383     -0.128721917167     -0.333269961766     
5500000000.0        -0.132863729375     -0.337783859831     0.867118456294      -0.340093706        0.867118456294      -0.340093706        -0.132863729375     -0.337783859831     
5600000000.0        -0.137039863634     -0.34222428113      0.862942196769      -0.344576974294     0.862942196769      -0.344576974294     -0.137039863634     -0.34222428113      
5700000000.0        -0.141248727882     -0.346591174601     0.858733205296      -0.348986743983     0.858733205296      -0.348986743983     -0.141248727882     -0.346591174601     
5800000000.0        -0.145488745575     -0.350884527971     0.854493058417      -0.35332300257      0.854493058417      -0.35332300257      -0.145488745575     -0.350884527971     
5900000000.0        -0.149758356625     -0.355104366767     0.850223316216      -0.357585775351     0.850223316216      -0.357585775351     -0.149758356625     -0.355104366767     
6000000000.0        -0.154056018289     -0.359250753303     0.845925521431      -0.361775124411     0.845925521431      -0.361775124411     -0.154056018289     -0.359250753303     
6100000000.0        -0.158380206012     -0.363323785664     0.841601198614      -0.3658911476       0.841601198614      -0.3658911476       -0.158380206012     -0.363323785664     
6200000000.0        -0.162729414216     -0.367323596667     0.837251853337      -0.369933977499     0.837251853337      -0.369933977499     -0.162729414216     -0.367323596667     
6300000000.0        -0.167102157042     -0.371250352825     0.832878971456      -0.37390378038      0.832878971456      -0.37390378038      -0.167102157042     -0.371250352825     
6400000000.0        -0.171496969045     -0.375104253289     0.828484018413      -0.377800755155     0.828484018413      -0.377800755155     -0.171496969045     -0.375104253289     
6500000000.0        -0.175912405838     -0.378885528799     0.824068438591      -0.381625132319     0.824068438591      -0.381625132319     -0.175912405838     -0.378885528799     
6600000000.0        -0.180347044692     -0.38259444062      0.819633654716      -0.385377172895     0.819633654716      -0.385377172895     -0.180347044692     -0.38259444062      
6700000000.0        -0.184799485089     -0.386231279483     0.815181067303      -0.389057167369     0.815181067303      -0.389057167369     -0.184799485089     -0.386231279483     
6800000000.0        -0.189268349226     -0.389796364527     0.81071205415       -0.392665434631     0.81071205415       -0.392665434631     -0.189268349226     -0.389796364527     
6900000000.0        -0.193752282485     -0.393290042234     0.806227969873      -0.396202320919     0.806227969873      -0.396202320919     -0.193752282485     -0.393290042234     
7000000000.0        -0.198249953845     -0.396712685384     0.80173014549       -0.399668198765     0.80173014549       -0.399668198765     -0.198249953845     -0.396712685384     
7100000000.0        -0.202760056266     -0.400064691996     0.797219888038      -0.403063465941     0.797219888038      -0.403063465941     -0.202760056266     -0.400064691996     
7200000000.0        -0.207281307019     -0.403346484292     0.792698480242      -0.40638854442      0.792698480242      -0.40638854442      -0.207281307019     -0.403346484292     
7300000000.0        -0.21181244799      -0.406558507659     0.788167180216      -0.409643879344     0.788167180216      -0.409643879344     -0.21181244799      -0.406558507659     
7400000000.0        -0.216352245927     -0.409701229628     0.783627221205      -0.412829937995     0.783627221205      -0.412829937995     -0.216352245927     -0.409701229628     
7500000000.0        -0.22089949267      -0.412775138853     0.77907981137       -0.415947208782     0.77907981137       -0.415947208782     -0.22089949267      -0.412775138853     
7600000000.0        -0.225453005327     -0.415780744115     0.7745261336        -0.418996200239     0.7745261336        -0.418996200239     -0.225453005327     -0.415780744115     
7700000000.0        -0.230011626421     -0.418718573331     0.769967345367      -0.421977440039     0.769967345367      -0.421977440039     -0.230011626421     -0.418718573331     
7800000000.0        -0.23457422401      -0.421589172577     0.765404578613      -0.424891474012     0.765404578613      -0.424891474012     -0.23457422401      -0.421589172577     
7900000000.0        -0.239139691759     -0.424393105129     0.760838939669      -0.427738865192     0.760838939669      -0.427738865192     -0.239139691759     -0.424393105129     
8000000000.0        -0.243706948998     -0.427130950516     0.756271509204      -0.430520192867     0.756271509204      -0.430520192867     -0.243706948998     -0.427130950516     
8100000000.0        -0.248274940731     -0.429803303598     0.75170334221       -0.433236051654     0.75170334221       -0.433236051654     -0.248274940731     -0.429803303598     
8200000000.0        -0.252842637636     -0.432410773647     0.74713546801       -0.435887050587     0.74713546801       -0.435887050587     -0.252842637636     -0.432410773647     
8300000000.0        -0.257409036017     -0.434953983461     0.742568890294      -0.438473812225     0.742568890294      -0.438473812225     -0.257409036017     -0.434953983461     
8400000000.0        -0.261973157747     -0.437433568486     0.738004587189      -0.440996971779     0.738004587189      -0.440996971779     -0.261973157747     -0.437433568486     
8500000000.0        -0.266534050174     -0.439850175961     0.733443511344      -0.443457176253     0.733443511344      -0.443457176253     -0.266534050174     -0.439850175961     
8600000000.0        -0.27109078601      -0.442204464084     0.728886590046      -0.44585508361      0.728886590046      -0.44585508361      -0.27109078601      -0.442204464084     
8700000000.0        -0.27564246319      -0.444497101193     0.724334725358      -0.44819136196      0.724334725358      -0.44819136196      -0.27564246319      -0.444497101193     
8800000000.0        -0.280188204717     -0.446728764975     0.719788794274      -0.450466688757     0.719788794274      -0.450466688757     -0.280188204717     -0.446728764975     
8900000000.0        -0.284727158484     -0.448900141683     0.7152496489        -0.452681750029     0.7152496489        -0.452681750029     -0.284727158484     -0.448900141683     
9000000000.0        -0.289258497074     -0.45101192539      0.710718116652      -0.454837239622     0.710718116652      -0.454837239622     -0.289258497074     -0.45101192539      
9100000000.0        -0.293781417543     -0.453064817248     0.70619500047       -0.456933858466     0.70619500047       -0.456933858466     -0.293781417543     -0.453064817248     
9200000000.0        -0.298295141189     -0.455059524781     0.701681079056      -0.458972313862     0.701681079056      -0.458972313862     -0.298295141189     -0.455059524781     
9300000000.0        -0.302798913303     -0.456996761186     0.697177107117      -0.460953318789     0.697177107117      -0.460953318789     -0.302798913303     -0.456996761186     
9400000000.0        -0.307292002904     -0.458877244672     0.692683815631      -0.462877591237     0.692683815631      -0.462877591237     -0.307292002904     -0.458877244672     
9500000000.0        -0.311773702463     -0.460701697799     0.688201912128      -0.464745853553     0.688201912128      -0.464745853553     -0.311773702463     -0.460701697799     
9600000000.0        -0.31624332761      -0.46247084686      0.683732080974      -0.466558831815     0.683732080974      -0.466558831815     -0.31624332761      -0.46247084686      
9700000000.0        -0.320700216834     -0.464185421266     0.679274983679      -0.468317255224     0.679274983679      -0.468317255224     -0.320700216834     -0.464185421266     
9800000000.0        -0.325143731172     -0.465846152961     0.674831259205      -0.470021855517     0.674831259205      -0.470021855517     -0.325143731172     -0.465846152961     
9900000000.0        -0.32957325388      -0.467453775859     0.670401524294      -0.471673366401     0.670401524294      -0.471673366401     -0.32957325388      -0.467453775859     
10000000000.0       -0.333988190109     -0.469009025293     0.665986373795      -0.473272523004     0.665986373795      -0.473272523004     -0.333988190109     -0.469009025293     
