# Hz S RI R 50.00 
100000000.0         0.000117572451195   -5.39679924421e-05  0.999880872173      -0.000413142063189  0.999880872173      -0.000413142063189  0.000117572451195   -5.39679924422e-05  
200000000.0         0.000118076711636   -0.000107940810413  0.999879594305      -0.000826293553472  0.999879594305      -0.000826293553472  0.000118076711636   -0.000107940810413  
300000000.0         0.000118328716137   -0.000161920452818  0.999878350423      -0.00123945987717   0.999878350423      -0.00123945987717   0.000118328716137   -0.000161920452818  
400000000.0         0.000118430925976   -0.000215908503227  0.999877038016      -0.00165264507348   0.999877038016      -0.00165264507348   0.000118430925976   -0.000215908503227  
500000000.0         0.000118422731343   -0.000269906287508  0.999875617639      -0.002065852533     0.999875617639      -0.002065852533     0.000118422731343   -0.000269906287508  
600000000.0         0.000118324180061   -0.000323914947794  0.999874069183      -0.00247908522649   0.999874069183      -0.00247908522649   0.000118324180061   -0.000323914947794  
700000000.0         0.000118147086641   -0.000377935486859  0.999872380763      -0.00289234582211   0.999872380763      -0.00289234582211   0.000118147086641   -0.000377935486859  
800000000.0         0.00011789908374    -0.000431968794379  0.999870544675      -0.0033056367532    0.999870544675      -0.0033056367532    0.00011789908374    -0.000431968794379  
900000000.0         0.000117585425157   -0.000486015665193  0.999868555587      -0.00371896026297   0.999868555587      -0.00371896026297   0.000117585425157   -0.000486015665193  
1000000000.0        0.00011720989904    -0.000540076812064  0.999866409627      -0.00413231843543   0.999866409627      -0.00413231843543   0.000117209899039   -0.000540076812064  
1100000000.0        0.000116775335336   -0.000594152876529  0.999864103878      -0.00454571321922   0.999864103878      -0.00454571321922   0.000116775335336   -0.000594152876529  
1200000000.0        0.000116283907945   -0.000648244436169  0.999861636077      -0.00495914644477   0.999861636077      -0.00495914644477   0.000116283907945   -0.000648244436169  
1300000000.0        0.000115737324764   -0.000702352010983  0.999859004422      -0.00537261983817   0.999859004422      -0.00537261983817   0.000115737324764   -0.000702352010983  
1400000000.0        0.000115136952503   -0.000756476068701  0.999856207449      -0.00578613503257   0.999856207449      -0.00578613503257   0.000115136952503   -0.000756476068701  
1500000000.0        0.000114483901727   -0.000810617028882  0.999853243946      -0.00619969357705   0.999853243946      -0.00619969357705   0.000114483901728   -0.000810617028882  
1600000000.0        0.000113779086564   -0.000864775266859  0.999850112897      -0.00661329694465   0.999850112897      -0.00661329694465   0.000113779086564   -0.000864775266859  
1700000000.0        0.00011302326771    -0.000918951116694  0.999846813435      -0.00702694653859   0.999846813435      -0.00702694653859   0.00011302326771    -0.000918951116694  
1800000000.0        0.000112217084102   -0.000973144873932  0.999843344813      -0.00744064369785   0.999843344813      -0.00744064369785   0.000112217084102   -0.000973144873932  
1900000000.0        0.000111361076727   -0.00102735679815   0.999839706381      -0.00785438970214   0.999839706381      -0.00785438970214   0.000111361076727   -0.00102735679815   
2000000000.0        0.00011045570679    -0.00108158711488   0.999835897564      -0.00826818577593   0.999835897564      -0.00826818577593   0.00011045570679    -0.00108158711488   
2100000000.0        0.000109501369825   -0.00113583601782   0.999831917852      -0.00868203309233   0.999831917852      -0.00868203309233   0.000109501369825   -0.00113583601782   
2200000000.0        0.000108498406767   -0.00119010367028   0.999827766789      -0.00909593277627   0.999827766789      -0.00909593277627   0.000108498406768   -0.00119010367028   
2300000000.0        0.000107447112787   -0.00124439020696   0.999823443961      -0.00950988590756   0.999823443961      -0.00950988590756   0.000107447112787   -0.00124439020696   
2400000000.0        0.000106347744381   -0.0012986957352    0.999818948992      -0.0099238935234    0.999818948992      -0.0099238935234    0.000106347744381   -0.0012986957352    
2500000000.0        0.000105200525146   -0.00135302033634   0.999814281537      -0.0103379566209    0.999814281537      -0.0103379566209    0.000105200525146   -0.00135302033634   
2600000000.0        0.000104005650509   -0.001407364067     0.999809441279      -0.0107520761591    0.999809441279      -0.0107520761591    0.000104005650509   -0.001407364067     
2700000000.0        0.000102763291638   -0.00146172696005   0.999804427924      -0.0111662530612    0.999804427924      -0.0111662530612    0.000102763291638   -0.00146172696005   
2800000000.0        0.000101473598709   -0.00151610902572   0.999799241195      -0.0115804882161    0.999799241195      -0.0115804882161    0.000101473598709   -0.00151610902572   
2900000000.0        0.000100136703641   -0.00157051025247   0.999793880837      -0.0119947824803    0.999793880837      -0.0119947824803    0.000100136703641   -0.00157051025247   
3000000000.0        9.87527224099e-05   -0.00162493060797   0.999788346605      -0.0124091366794    0.999788346605      -0.0124091366794    9.87527224101e-05   -0.00162493060797   
3100000000.0        9.7321757019e-05    -0.00167937003989   0.99978263827       -0.0128235516093    0.99978263827       -0.0128235516093    9.7321757019e-05    -0.00167937003989   
3200000000.0        9.58438971768e-05   -0.00173382847662   0.999776755614      -0.0132380280378    0.999776755614      -0.0132380280378    9.58438971768e-05   -0.00173382847662   
3300000000.0        9.43192217442e-05   -0.00178830582805   0.999770698429      -0.0136525667057    0.999770698429      -0.0136525667057    9.43192217442e-05   -0.00178830582805   
3400000000.0        9.27477999901e-05   -0.00184280198627   0.999764466516      -0.0140671683281    0.999764466516      -0.0140671683281    9.27477999901e-05   -0.00184280198627   
3500000000.0        9.11296926691e-05   -0.00189731682619   0.999758059684      -0.0144818335951    0.999758059684      -0.0144818335951    9.11296926691e-05   -0.00189731682619   
3600000000.0        8.94649529701e-05   -0.00195185020609   0.999751477749      -0.0148965631734    0.999751477749      -0.0148965631734    8.94649529701e-05   -0.00195185020609   
3700000000.0        8.77536273503e-05   -0.00200640196833   0.999744720533      -0.0153113577065    0.999744720533      -0.0153113577065    8.775362735e-05     -0.00200640196833   
3800000000.0        8.59957562547e-05   -0.00206097193985   0.999737787863      -0.0157262178163    0.999737787863      -0.0157262178163    8.59957562545e-05   -0.00206097193985   
3900000000.0        8.41913747647e-05   -0.0021155599326    0.999730679574      -0.0161411441036    0.999730679574      -0.0161411441036    8.41913747647e-05   -0.0021155599326    
4000000000.0        8.23405131682e-05   -0.00217016574414   0.999723395501      -0.0165561371488    0.999723395501      -0.0165561371488    8.23405131682e-05   -0.00217016574414   
4100000000.0        8.04431974641e-05   -0.00222478915809   0.999715935487      -0.0169711975129    0.999715935487      -0.0169711975129    8.04431974639e-05   -0.00222478915809   
4200000000.0        7.84994498129e-05   -0.00227942994454   0.999708299377      -0.0173863257379    0.999708299377      -0.0173863257379    7.84994498126e-05   -0.00227942994454   
4300000000.0        7.65092889408e-05   -0.00233408786053   0.99970048702       -0.017801522348     0.99970048702       -0.017801522348     7.6509288941e-05    -0.00233408786053   
4400000000.0        7.44727305029e-05   -0.00238876265046   0.999692498266      -0.0182167878494    0.999692498266      -0.0182167878494    7.44727305029e-05   -0.00238876265046   
4500000000.0        7.23897874086e-05   -0.00244345404643   0.999684332971      -0.0186321227319    0.999684332971      -0.0186321227319    7.23897874086e-05   -0.00244345404643   
4600000000.0        7.02604701135e-05   -0.00249816176863   0.999675990991      -0.0190475274687    0.999675990991      -0.0190475274687    7.0260470113e-05    -0.00249816176863   
4700000000.0        6.80847868859e-05   -0.0025528855258    0.999667472185      -0.0194630025172    0.999667472185      -0.0194630025172    6.80847868859e-05   -0.0025528855258    
4800000000.0        6.586274405e-05     -0.00260762501538   0.999658776414      -0.0198785483197    0.999658776414      -0.0198785483197    6.58627440497e-05   -0.00260762501538   
4900000000.0        6.35943461988e-05   -0.00266237992409   0.999649903542      -0.0202941653036    0.999649903542      -0.0202941653036    6.35943461986e-05   -0.00266237992409   
5000000000.0        6.12795964017e-05   -0.00271714992802   0.999640853433      -0.0207098538822    0.999640853433      -0.0207098538822    6.12795964015e-05   -0.00271714992802   
5100000000.0        5.8918496376e-05    -0.0027719346931    0.999631625953      -0.0211256144549    0.999631625953      -0.0211256144549    5.8918496376e-05    -0.0027719346931    
5200000000.0        5.65110466622e-05   -0.00282673387526   0.999622220971      -0.0215414474077    0.999622220971      -0.0215414474077    5.65110466624e-05   -0.00282673387526   
5300000000.0        5.40572467718e-05   -0.00288154712087   0.999612638355      -0.0219573531137    0.999612638355      -0.0219573531137    5.4057246772e-05    -0.00288154712087   
5400000000.0        5.15570953283e-05   -0.00293637406684   0.999602877977      -0.0223733319333    0.999602877977      -0.0223733319333    5.15570953283e-05   -0.00293637406684   
5500000000.0        4.9010590194e-05    -0.00299121434104   0.999592939708      -0.0227893842151    0.999592939708      -0.0227893842151    4.9010590194e-05    -0.00299121434104   
5600000000.0        4.64177285913e-05   -0.00304606756248   0.99958282342       -0.0232055102954    0.99958282342       -0.0232055102954    4.64177285913e-05   -0.00304606756248   
5700000000.0        4.37785072096e-05   -0.00310093334153   0.999572528988      -0.0236217104996    0.999572528988      -0.0236217104996    4.37785072096e-05   -0.00310093334153   
5800000000.0        4.10929223091e-05   -0.00315581128023   0.999562056285      -0.0240379851416    0.999562056285      -0.0240379851416    4.10929223096e-05   -0.00315581128023   
5900000000.0        3.83609698142e-05   -0.00321070097246   0.999551405188      -0.0244543345246    0.999551405188      -0.0244543345246    3.83609698142e-05   -0.00321070097246   
6000000000.0        3.55826453948e-05   -0.00326560200416   0.999540575572      -0.0248707589416    0.999540575572      -0.0248707589416    3.5582645395e-05    -0.00326560200416   
6100000000.0        3.27579445563e-05   -0.00332051395363   0.999529567316      -0.0252872586751    0.999529567316      -0.0252872586751    3.27579445565e-05   -0.00332051395363   
6200000000.0        2.98868627056e-05   -0.00337543639163   0.999518380295      -0.0257038339981    0.999518380295      -0.0257038339981    2.98868627056e-05   -0.00337543639163   
6300000000.0        2.69693952295e-05   -0.00343036888162   0.99950701439       -0.0261204851737    0.99950701439       -0.0261204851737    2.69693952297e-05   -0.00343036888162   
6400000000.0        2.40055375529e-05   -0.00348531097997   0.999495469478      -0.0265372124561    0.999495469478      -0.0265372124561    2.40055375527e-05   -0.00348531097997   
6500000000.0        2.09952852026e-05   -0.00354026223613   0.99948374544       -0.02695401609      0.99948374544       -0.02695401609      2.09952852028e-05   -0.00354026223613   
6600000000.0        1.79386338666e-05   -0.00359522219283   0.999471842156      -0.0273708963117    0.999471842156      -0.0273708963117    1.79386338666e-05   -0.00359522219283   
6700000000.0        1.4835579442e-05    -0.0036501903862    0.999459759505      -0.0277878533487    0.999459759505      -0.0277878533487    1.4835579442e-05    -0.0036501903862    
6800000000.0        1.16861180901e-05   -0.00370516634606   0.99944749737       -0.0282048874206    0.99944749737       -0.0282048874206    1.16861180901e-05   -0.00370516634606   
6900000000.0        8.49024628136e-06   -0.00376014959593   0.999435055632      -0.0286219987385    0.999435055632      -0.0286219987385    8.49024628136e-06   -0.00376014959593   
7000000000.0        5.2479608379e-06    -0.00381513965332   0.999422434173      -0.0290391875058    0.999422434173      -0.0290391875058    5.2479608379e-06    -0.00381513965332   
7100000000.0        1.95925897906e-06   -0.00387013602981   0.999409632876      -0.0294564539185    0.999409632876      -0.0294564539185    1.95925897906e-06   -0.00387013602981   
7200000000.0        -1.37586164328e-06  -0.00392513823125   0.999396651622      -0.0298737981649    0.999396651622      -0.0298737981649    -1.37586164328e-06  -0.00392513823125   
7300000000.0        -4.75740290751e-06  -0.00398014575787   0.999383490296      -0.0302912204261    0.999383490296      -0.0302912204261    -4.75740290751e-06  -0.00398014575787   
7400000000.0        -8.18536618541e-06  -0.00403515810442   0.999370148781      -0.0307087208764    0.999370148781      -0.0307087208764    -8.18536618552e-06  -0.00403515810442   
7500000000.0        -1.16597523113e-05  -0.00409017476033   0.999356626962      -0.031126299683     0.999356626962      -0.031126299683     -1.16597523112e-05  -0.00409017476033   
7600000000.0        -1.51805615483e-05  -0.00414519520985   0.999342924721      -0.0315439570066    0.999342924721      -0.0315439570066    -1.5180561548e-05   -0.00414519520985   
7700000000.0        -1.87477935629e-05  -0.00420021893214   0.999329041944      -0.0319616930014    0.999329041944      -0.0319616930014    -1.87477935627e-05  -0.00420021893214   
7800000000.0        -2.2361447396e-05   -0.00425524540148   0.999314978517      -0.0323795078152    0.999314978517      -0.0323795078152    -2.23614473964e-05  -0.00425524540148   
7900000000.0        -2.60215214363e-05  -0.00431027408726   0.999300734323      -0.0327974015898    0.999300734323      -0.0327974015898    -2.60215214364e-05  -0.00431027408726   
8000000000.0        -2.97280133909e-05  -0.00436530445423   0.999286309248      -0.0332153744609    0.999286309248      -0.0332153744609    -2.97280133907e-05  -0.00436530445423   
8100000000.0        -3.34809202696e-05  -0.00442033596253   0.999271703179      -0.0336334265585    0.999271703179      -0.0336334265585    -3.34809202696e-05  -0.00442033596253   
8200000000.0        -3.72802383581e-05  -0.00447536806786   0.999256916001      -0.0340515580067    0.999256916001      -0.0340515580067    -3.72802383584e-05  -0.00447536806786   
8300000000.0        -4.11259631958e-05  -0.00453040022155   0.9992419476        -0.0344697689244    0.9992419476        -0.0344697689244    -4.11259631957e-05  -0.00453040022155   
8400000000.0        -4.50180895571e-05  -0.00458543187069   0.999226797864      -0.0348880594247    0.999226797864      -0.0348880594247    -4.50180895568e-05  -0.00458543187069   
8500000000.0        -4.89566114313e-05  -0.00464046245819   0.999211466678      -0.0353064296158    0.999211466678      -0.0353064296158    -4.89566114312e-05  -0.00464046245819   
8600000000.0        -5.29415220067e-05  -0.00469549142298   0.99919595393       -0.0357248796006    0.99919595393       -0.0357248796006    -5.29415220065e-05  -0.00469549142298   
8700000000.0        -5.69728136474e-05  -0.00475051819999   0.999180259508      -0.0361434094772    0.999180259508      -0.0361434094772    -5.69728136471e-05  -0.00475051819999   
8800000000.0        -6.10504778822e-05  -0.00480554222031   0.999164383298      -0.0365620193385    0.999164383298      -0.0365620193385    -6.10504778822e-05  -0.00480554222031   
8900000000.0        -6.51745053856e-05  -0.00486056291128   0.999148325189      -0.036980709273     0.999148325189      -0.036980709273     -6.51745053855e-05  -0.00486056291128   
9000000000.0        -6.93448859653e-05  -0.0049155796966    0.999132085069      -0.0373994793644    0.999132085069      -0.0373994793644    -6.93448859653e-05  -0.0049155796966    
9100000000.0        -7.3561608542e-05   -0.00497059199635   0.999115662825      -0.0378183296919    0.999115662825      -0.0378183296919    -7.3561608542e-05   -0.00497059199635   
9200000000.0        -7.78246611411e-05  -0.00502559922713   0.999099058346      -0.0382372603304    0.999099058346      -0.0382372603304    -7.78246611411e-05  -0.00502559922713   
9300000000.0        -8.21340308789e-05  -0.00508060080215   0.999082271522      -0.0386562713505    0.999082271522      -0.0386562713505    -8.21340308788e-05  -0.00508060080215   
9400000000.0        -8.64897039448e-05  -0.00513559613128   0.99906530224       -0.0390753628184    0.99906530224       -0.0390753628184    -8.64897039448e-05  -0.00513559613128   
9500000000.0        -9.08916655951e-05  -0.00519058462113   0.999048150389      -0.0394945347966    0.999048150389      -0.0394945347966    -9.08916655946e-05  -0.00519058462113   
9600000000.0        -9.53399001359e-05  -0.00524556567517   0.99903081586       -0.0399137873433    0.99903081586       -0.0399137873433    -9.53399001363e-05  -0.00524556567517   
9700000000.0        -9.98343909195e-05  -0.00530053869375   0.999013298541      -0.040333120513     0.999013298541      -0.040333120513     -9.983439092e-05    -0.00530053869375   
9800000000.0        -0.000104375120326  -0.00535550307423   0.998995598323      -0.0407525343563    0.998995598323      -0.0407525343563    -0.000104375120326  -0.00535550307423   
9900000000.0        -0.000108962069752  -0.00541045821098   0.998977715095      -0.0411720289202    0.998977715095      -0.0411720289202    -0.000108962069752  -0.00541045821098   
10000000000.0       -0.000113595219612  -0.00546540349554   0.998959648747      -0.041591604248     0.998959648747      -0.041591604248     -0.000113595219612  -0.00546540349554   
