# Hz S RI R 50.00 
100000000.0         -0.000444464154463  -0.0206824262042    0.999544552233      -0.0207242145634    0.999544552233      -0.0207242145634    -0.000444464154463  -0.0206824262042    
200000000.0         -0.00174902214996   -0.041307664175     0.998239916576      -0.0413912533096    0.998239916576      -0.0413912533096    -0.00174902214996   -0.041307664175     
300000000.0         -0.00390156783227   -0.0618219043096    0.996087310372      -0.0619473128937    0.996087310372      -0.0619473128937    -0.00390156783227   -0.0618219043096    
400000000.0         -0.00689051780783   -0.08217261978      0.993098307573      -0.082339871164     0.993098307573      -0.082339871164     -0.00689051780783   -0.08217261978      
500000000.0         -0.0107000590927    -0.102308873609     0.989288717544      -0.102517994966     0.989288717544      -0.102517994966     -0.0107000590927    -0.102308873609     
600000000.0         -0.0153103713684    -0.122181683882     0.984678358768      -0.122432705616     0.984678358768      -0.122432705616     -0.0153103713684    -0.122181683882     
700000000.0         -0.0206978919181    -0.14174437682      0.979290792877      -0.1420373321       0.979290792877      -0.1420373321       -0.0206978919181    -0.14174437682      
800000000.0         -0.0268356181398    -0.160952909081     0.973153021776      -0.161287833467     0.973153021776      -0.161287833467     -0.0268356181398    -0.160952909081     
900000000.0         -0.0336934416284    -0.179766150346     0.966295153387      -0.180143081463     0.966295153387      -0.180143081463     -0.0336934416284    -0.179766150346     
1000000000.0        -0.0412385071015    -0.198146121094     0.958750042646      -0.198565098352     0.958750042646      -0.198565098352     -0.0412385071015    -0.198146121094     
1100000000.0        -0.0494355890449    -0.216058182671     0.950552914804      -0.216519247017     0.950552914804      -0.216519247017     -0.0494355890449    -0.216058182671     
1200000000.0        -0.0582474788731    -0.233471178424     0.941740978245      -0.233974372121     0.941740978245      -0.233974372121     -0.0582474788731    -0.233471178424     
1300000000.0        -0.0676353755736    -0.250357526085     0.932353033821      -0.250902892506     0.932353033821      -0.250902892506     -0.0676353755736    -0.250357526085     
1400000000.0        -0.0775592731621    -0.266693262718     0.922429087388      -0.26728084617      0.922429087388      -0.26728084617      -0.0775592731621    -0.266693262718     
1500000000.0        -0.0879783388373    -0.282458044611     0.91200997164       -0.283087890168     0.91200997164       -0.283087890168     -0.0879783388373    -0.282458044611     
1600000000.0        -0.0988512763864    -0.297635105276     0.901136982701      -0.298307258629     0.901136982701      -0.298307258629     -0.0988512763864    -0.297635105276     
1700000000.0        -0.110136670161     -0.312211175376     0.889851536144      -0.312925682695     0.889851536144      -0.312925682695     -0.110136670161     -0.312211175376     
1800000000.0        -0.121793305771     -0.326176368902     0.878194846295      -0.326933276712     0.878194846295      -0.326933276712     -0.121793305771     -0.326176368902     
1900000000.0        -0.133780464471     -0.339524040193     0.866207631844      -0.340323395259     0.866207631844      -0.340323395259     -0.133780464471     -0.339524040193     
2000000000.0        -0.14605818907      -0.352250616574     0.853929849932      -0.3530924658       0.853929849932      -0.3530924658       -0.14605818907      -0.352250616574     
2100000000.0        -0.158587519967     -0.364355411376     0.841400460121      -0.365239801706     0.841400460121      -0.365239801706     -0.158587519967     -0.364355411376     
2200000000.0        -0.171330700662     -0.375840421987     0.82865721887       -0.376767400323     0.82865721887       -0.376767400323     -0.171330700662     -0.375840421987     
2300000000.0        -0.184251352775     -0.386710117377     0.815736504525      -0.387679730499     0.815736504525      -0.387679730499     -0.184251352775     -0.386710117377     
2400000000.0        -0.197314621163     -0.39697121922      0.802673172201      -0.397983513717     0.802673172201      -0.397983513717     -0.197314621163     -0.39697121922      
2500000000.0        -0.210487290224     -0.406632480388     0.789500437471      -0.407687502592     0.789500437471      -0.407687502592     -0.210487290224     -0.406632480388     
2600000000.0        -0.223737872897     -0.415704464167     0.776249787371      -0.416802260097     0.776249787371      -0.416802260097     -0.223737872897     -0.415704464167     
2700000000.0        -0.237036674161     -0.424199327151     0.762950916902      -0.425339942463     0.762950916902      -0.425339942463     -0.237036674161     -0.424199327151     
2800000000.0        -0.250355831051     -0.432130608285     0.749631689006      -0.433314088225     0.749631689006      -0.433314088225     -0.250355831051     -0.432130608285     
2900000000.0        -0.263669331397     -0.439513026143     0.736318115835      -0.440739415503     0.736318115835      -0.440739415503     -0.263669331397     -0.439513026143     
3000000000.0        -0.276953013536     -0.446362286077     0.723034359036      -0.447631629166     0.723034359036      -0.447631629166     -0.276953013536     -0.446362286077     
3100000000.0        -0.290184549268     -0.452694898523     0.709802746791      -0.454007239127     0.709802746791      -0.454007239127     -0.290184549268     -0.452694898523     
3200000000.0        -0.303343412316     -0.458528009338     0.696643805362      -0.459883390698     0.696643805362      -0.459883390698     -0.303343412316     -0.458528009338     
3300000000.0        -0.316410834454     -0.463879242789     0.683576302963      -0.465277707577     0.683576302963      -0.465277707577     -0.316410834454     -0.463879242789     
3400000000.0        -0.329369751361     -0.468766557473     0.670617303901      -0.470208147768     0.670617303901      -0.470208147768     -0.329369751361     -0.468766557473     
3500000000.0        -0.34220474014      -0.473208115227     0.657782231062      -0.4746928725       0.657782231062      -0.4746928725       -0.34220474014      -0.473208115227     
3600000000.0        -0.354901950276     -0.477222162895     0.645084934949      -0.478750127994     0.645084934949      -0.478750127994     -0.354901950276     -0.477222162895     
3700000000.0        -0.367449029659     -0.480826926608     0.632537767662      -0.482398139747     0.632537767662      -0.482398139747     -0.367449029659     -0.480826926608     
3800000000.0        -0.379835047126     -0.484040518138     0.620151660354      -0.485655018886     0.620151660354      -0.485655018886     -0.379835047126     -0.484040518138     
3900000000.0        -0.392050412812     -0.486880852748     0.607936202881      -0.488538680024     0.607936202881      -0.488538680024     -0.392050412812     -0.486880852748     
4000000000.0        -0.40408679745      -0.489365577907     0.5958997245        -0.491066769974     0.5958997245        -0.491066769974     -0.40408679745      -0.489365577907     
4100000000.0        -0.415937051589     -0.491512012161     0.584049374657      -0.493256606622     0.584049374657      -0.493256606622     -0.415937051589     -0.491512012161     
4200000000.0        -0.427595125559     -0.493337093441     0.572391203012      -0.495125127238     0.572391203012      -0.495125127238     -0.427595125559     -0.493337093441     
4300000000.0        -0.439055990894     -0.494857336052     0.560930238025      -0.496688845469     0.560930238025      -0.496688845469     -0.439055990894     -0.494857336052     
4400000000.0        -0.450315563767     -0.496088795611     0.549670563515      -0.497963816273     0.549670563515      -0.497963816273     -0.450315563767     -0.496088795611     
4500000000.0        -0.461370630908     -0.497047041187     0.538615392745      -0.498965608062     0.538615392745      -0.498965608062     -0.461370630908     -0.497047041187     
4600000000.0        -0.47221877836      -0.497747133941     0.527767139668      -0.499709281345     0.527767139668      -0.499709281345     -0.47221877836      -0.497747133941     
4700000000.0        -0.482858323339     -0.498203611581     0.517127487062      -0.500209373184     0.517127487062      -0.500209373184     -0.482858323339     -0.498203611581     
4800000000.0        -0.493288249393     -0.498430477986     0.506697451372      -0.500479886818     0.506697451372      -0.500479886818     -0.493288249393     -0.498430477986     
4900000000.0        -0.503508144986     -0.498441197394     0.496477444131      -0.50053428585      0.496477444131      -0.50053428585      -0.503508144986     -0.498441197394     
5000000000.0        -0.513518145558     -0.498248692571     0.486467329891      -0.500385492419     0.486467329891      -0.500385492419     -0.513518145558     -0.498248692571     
5100000000.0        -0.523318879096     -0.49786534646      0.476666480663      -0.50004588885      0.476666480663      -0.50004588885      -0.523318879096     -0.49786534646      
5200000000.0        -0.532911415175     -0.497303006806     0.467073826868      -0.49952732228      0.467073826868      -0.49952732228      -0.532911415175     -0.497303006806     
5300000000.0        -0.542297217415     -0.496572993327     0.457687904879      -0.498841111824     0.457687904879      -0.498841111824     -0.542297217415     -0.496572993327     
5400000000.0        -0.551478099278     -0.495686107028     0.448506901231      -0.497998057898     0.448506901231      -0.497998057898     -0.551478099278     -0.495686107028     
5500000000.0        -0.56045618308      -0.494652641293     0.439528693606      -0.497008453303     0.439528693606      -0.497008453303     -0.56045618308      -0.494652641293     
5600000000.0        -0.569233862108     -0.493482394436     0.430750888711      -0.495882095786     0.430750888711      -0.495882095786     -0.569233862108     -0.493482394436     
5700000000.0        -0.577813765705     -0.492184683423     0.422170857201      -0.494628301749     0.422170857201      -0.494628301749     -0.577813765705     -0.492184683423     
5800000000.0        -0.586198727169     -0.490768358499     0.413785765774      -0.49325592089      0.413785765774      -0.49325592089      -0.586198727169     -0.490768358499     
5900000000.0        -0.594391754337     -0.489241818501     0.405592606591      -0.491773351508     0.405592606591      -0.491773351508     -0.594391754337     -0.489241818501     
6000000000.0        -0.60239600268      -0.487613026663     0.397588224176      -0.490188556308     0.397588224176      -0.490188556308     -0.60239600268      -0.487613026663     
6100000000.0        -0.610214750775     -0.485889526727     0.38976933995       -0.488509078517     0.38976933995       -0.488509078517     -0.610214750775     -0.485889526727     
6200000000.0        -0.617851377999     -0.484078459222     0.382132574534      -0.486742058157     0.382132574534      -0.486742058157     -0.617851377999     -0.484078459222     
6300000000.0        -0.62530934429      -0.482186577774     0.374674467987      -0.484894248363     0.374674467987      -0.484894248363     -0.62530934429      -0.482186577774     
6400000000.0        -0.632592171848     -0.480220265347     0.367391498107      -0.482972031615     0.367391498107      -0.482972031615     -0.632592171848     -0.480220265347     
6500000000.0        -0.639703428622     -0.478185550309     0.36028009694       -0.480981435809     0.36028009694       -0.480981435809     -0.639703428622     -0.478185550309     
6600000000.0        -0.646646713467     -0.476088122259     0.353336665632      -0.478928150083     0.353336665632      -0.478928150083     -0.646646713467     -0.476088122259     
6700000000.0        -0.653425642825     -0.473933347537     0.346557587738      -0.476817540329     0.346557587738      -0.476817540329     -0.653425642825     -0.473933347537     
6800000000.0        -0.660043838831     -0.471726284381     0.339939241119      -0.474654664347     0.339939241119      -0.474654664347     -0.660043838831     -0.471726284381     
6900000000.0        -0.666504918717     -0.469471697675     0.333478008541      -0.472444286591     0.333478008541      -0.472444286591     -0.666504918717     -0.469471697675     
7000000000.0        -0.672812485414     -0.467174073256     0.327170287074      -0.470190892484     0.327170287074      -0.470190892484     -0.672812485414     -0.467174073256     
7100000000.0        -0.678970119243     -0.464837631774     0.321012496394      -0.467898702267     0.321012496394      -0.467898702267     -0.678970119243     -0.464837631774     
7200000000.0        -0.684981370615     -0.462466342055     0.315001086086      -0.465571684374     0.315001086086      -0.465571684374     -0.684981370615     -0.462466342055     
7300000000.0        -0.690849753644     -0.460063933993     0.309132542036      -0.46321356831      0.309132542036      -0.46321356831      -0.690849753644     -0.460063933993     
7400000000.0        -0.696578740588     -0.457633910929     0.303403391985      -0.460827857042     0.303403391985      -0.460827857042     -0.696578740588     -0.457633910929     
7500000000.0        -0.702171757048     -0.455179561538     0.297810210328      -0.458417838881     0.297810210328      -0.458417838881     -0.702171757048     -0.455179561538     
7600000000.0        -0.707632177865     -0.452703971224     0.292349622226      -0.455986598874     0.292349622226      -0.455986598874     -0.707632177865     -0.452703971224     
7700000000.0        -0.71296332362      -0.450210033009     0.287018307093      -0.4535370297       0.287018307093      -0.4535370297       -0.71296332362      -0.450210033009     
7800000000.0        -0.718168457714     -0.447700457952     0.281813001528      -0.451071842079     0.281813001528      -0.451071842079     -0.718168457714     -0.447700457952     
7900000000.0        -0.723250783946     -0.445177785077     0.276730501731      -0.448593574711     0.276730501731      -0.448593574711     -0.723250783946     -0.445177785077     
8000000000.0        -0.728213444553     -0.44264439085      0.271767665463      -0.446104603742     0.271767665463      -0.446104603742     -0.728213444553     -0.44264439085      
8100000000.0        -0.733059518655     -0.440102498191     0.266921413603      -0.443607151784     0.266921413603      -0.443607151784     -0.733059518655     -0.440102498191     
8200000000.0        -0.737792021072     -0.437554185056     0.262188731329      -0.441103296495     0.262188731329      -0.441103296495     -0.737792021072     -0.437554185056     
8300000000.0        -0.742413901473     -0.435001392591     0.257566668972      -0.438594978729     0.257566668972      -0.438594978729     -0.742413901473     -0.435001392591     
8400000000.0        -0.746928043809     -0.432445932875     0.253052342579      -0.436084010281     0.253052342579      -0.436084010281     -0.746928043809     -0.432445932875     
8500000000.0        -0.751337266017     -0.429889496269     0.248642934211      -0.433572081238     0.248642934211      -0.433572081238     -0.751337266017     -0.429889496269     
8600000000.0        -0.755644319949     -0.427333658388     0.244335692017      -0.43106076695      0.244335692017      -0.43106076695      -0.755644319949     -0.427333658388     
8700000000.0        -0.759851891506     -0.424779886704     0.240127930093      -0.428551534629     0.240127930093      -0.428551534629     -0.759851891506     -0.424779886704     
8800000000.0        -0.763962600956     -0.422229546809     0.23601702817       -0.426045749617     0.23601702817       -0.426045749617     -0.763962600956     -0.422229546809     
8900000000.0        -0.767979003406     -0.419683908333     0.232000431141      -0.4235446813       0.232000431141      -0.4235446813       -0.767979003406     -0.419683908333     
9000000000.0        -0.771903589413     -0.417144150555     0.228075648448      -0.421049508722     0.228075648448      -0.421049508722     -0.771903589413     -0.417144150555     
9100000000.0        -0.775738785712     -0.414611367705     0.224240253354      -0.418561325884     0.224240253354      -0.418561325884     -0.775738785712     -0.414611367705     
9200000000.0        -0.779486956051     -0.412086573978     0.220491882111      -0.416081146757     0.220491882111      -0.416081146757     -0.779486956051     -0.412086573978     
9300000000.0        -0.783150402112     -0.409570708268     0.216828233034      -0.413609910023     0.216828233034      -0.413609910023     -0.783150402112     -0.409570708268     
9400000000.0        -0.786731364508     -0.407064638652     0.213247065513      -0.41114848355      0.213247065513      -0.41114848355      -0.786731364508     -0.407064638652     
9500000000.0        -0.790232023837     -0.404569166614     0.209746198945      -0.40869766862      0.209746198945      -0.40869766862      -0.790232023837     -0.404569166614     
9600000000.0        -0.793654501798     -0.402085031037     0.206323511631      -0.406258203919     0.206323511631      -0.406258203919     -0.793654501798     -0.402085031037     
9700000000.0        -0.797000862341     -0.399612911971     0.202976939621      -0.403830769311     0.202976939621      -0.403830769311     -0.797000862341     -0.399612911971     
9800000000.0        -0.800273112855     -0.397153434192     0.199704475525      -0.401415989385     0.199704475525      -0.401415989385     -0.800273112855     -0.397153434192     
9900000000.0        -0.803473205376     -0.394707170552     0.196504167306      -0.399014436818     0.196504167306      -0.399014436818     -0.803473205376     -0.394707170552     
10000000000.0       -0.806603037824     -0.392274645147     0.193374117044      -0.396626635534     0.193374117044      -0.396626635534     -0.806603037824     -0.392274645147     
