# Hz S RI R 50.00 
100000000.0         0.00419601082996    0.001173524422      0.9958002872        -0.00274256334488   0.9958002872        -0.00274256334488   0.00419601082996    0.001173524422      
200000000.0         0.00423281674351    0.00234679459884    0.995758313862      -0.00548488102667   0.995758313862      -0.00548488102667   0.00423281674351    0.00234679459884    
300000000.0         0.00426870276695    0.00351985963515    0.995714794798      -0.00822700846453   0.995714794798      -0.00822700846453   0.00426870276695    0.00351985963515    
400000000.0         0.00430729817401    0.00469271137633    0.99566610054       -0.0109689421546    0.99566610054       -0.0109689421546    0.00430729817401    0.00469271137633    
500000000.0         0.00435000019166    0.00586532839842    0.995610833631      -0.0137106644852    0.995610833631      -0.0137106644852    0.00435000019166    0.00586532839842    
600000000.0         0.00439752075728    0.00703768342761    0.995548281872      -0.0164521514467    0.995548281872      -0.0164521514467    0.00439752075728    0.00703768342761    
700000000.0         0.00445027972353    0.00820974600221    0.995478025115      -0.0191933754408    0.995478025115      -0.0191933754408    0.00445027972353    0.00820974600221    
800000000.0         0.00450854836372    0.00938148370603    0.995399791763      -0.0219343066029    0.995399791763      -0.0219343066029    0.00450854836372    0.00938148370603    
900000000.0         0.00457251326571    0.0105528628305     0.995313394875      -0.0246749135224    0.995313394875      -0.0246749135224    0.00457251326572    0.0105528628305     
1000000000.0        0.00464230871719    0.0117238487663     0.99521869978       -0.0274151636753    0.99521869978       -0.0274151636753    0.00464230871719    0.0117238487663     
1100000000.0        0.00471803470712    0.0128944062526     0.99511560608       -0.0301550237034    0.99511560608       -0.0301550237034    0.00471803470712    0.0128944062526     
1200000000.0        0.00479976765183    0.0140644995435     0.995004036924      -0.0328944596047    0.995004036924      -0.0328944596047    0.00479976765183    0.0140644995435     
1300000000.0        0.00488756714269    0.0152340925249     0.994883932259      -0.0356334368675    0.994883932259      -0.0356334368675    0.00488756714269    0.0152340925249     
1400000000.0        0.00498148038107    0.016403148799      0.994755244395      -0.0383719205702    0.994755244395      -0.0383719205702    0.00498148038107    0.016403148799      
1500000000.0        0.00508154520023    0.0175716317472     0.99461793499       -0.0411098754558    0.99461793499       -0.0411098754558    0.00508154520023    0.0175716317472     
1600000000.0        0.00518779218744    0.0187395045784     0.99447197292       -0.0438472659906    0.99447197292       -0.0438472659906    0.00518779218744    0.0187395045784     
1700000000.0        0.00530024621325    0.0199067303666     0.994317332757      -0.0465840564097    0.994317332757      -0.0465840564097    0.00530024621325    0.0199067303666     
1800000000.0        0.00541892755818    0.0210732720806     0.994153993638      -0.0493202107546    0.994153993638      -0.0493202107546    0.00541892755818    0.0210732720806     
1900000000.0        0.00554385275898    0.0222390926086     0.993981938422      -0.0520556929032    0.993981938422      -0.0520556929032    0.00554385275897    0.0222390926086     
2000000000.0        0.00567503525529    0.0234041547778     0.993801153044      -0.0547904665958    0.993801153044      -0.0547904665958    0.00567503525529    0.0234041547778     
2100000000.0        0.00581248589117    0.0245684213712     0.993611626012      -0.057524495456     0.993611626012      -0.057524495456     0.00581248589117    0.0245684213712     
2200000000.0        0.00595621330941    0.0257318551415     0.993413348014      -0.0602577430089    0.993413348014      -0.0602577430089    0.00595621330941    0.0257318551415     
2300000000.0        0.00610622426526    0.0268944188232     0.993206311605      -0.0629901726974    0.993206311605      -0.0629901726974    0.00610622426526    0.0268944188232     
2400000000.0        0.00626252387894    0.0280560751428     0.992990510953      -0.0657217478953    0.992990510953      -0.0657217478953    0.00626252387894    0.0280560751428     
2500000000.0        0.00642511584069    0.0292167868279     0.992765941637      -0.0684524319198    0.992765941637      -0.0684524319198    0.00642511584069    0.0292167868279     
2600000000.0        0.00659400257906    0.0303765166155     0.992532600479      -0.0711821880421    0.992532600479      -0.0711821880421    0.00659400257906    0.0303765166155     
2700000000.0        0.00676918539994    0.0315352272583     0.992290485401      -0.0739109794968    0.992290485401      -0.0739109794968    0.00676918539994    0.0315352272583     
2800000000.0        0.00695066460254    0.0326928815319     0.992039595314      -0.0766387694909    0.992039595314      -0.0766387694909    0.00695066460254    0.0326928815319     
2900000000.0        0.00713843957662    0.0338494422401     0.991779930018      -0.0793655212114    0.991779930018      -0.0793655212114    0.00713843957662    0.0338494422401     
3000000000.0        0.00733250888475    0.03500487222       0.991511490125      -0.0820911978323    0.991511490125      -0.0820911978323    0.00733250888475    0.03500487222       
3100000000.0        0.00753287033216    0.0361591343471     0.99123427698       -0.0848157625215    0.99123427698       -0.0848157625215    0.00753287033216    0.0361591343471     
3200000000.0        0.00773952102652    0.0373121915397     0.990948292611      -0.0875391784469    0.990948292611      -0.0875391784469    0.00773952102652    0.0373121915397     
3300000000.0        0.00795245742932    0.0384640067629     0.990653539674      -0.0902614087814    0.990653539674      -0.0902614087814    0.00795245742932    0.0384640067629     
3400000000.0        0.0081716754003     0.0396145430322     0.990350021406      -0.0929824167091    0.990350021406      -0.0929824167091    0.0081716754003     0.0396145430322     
3500000000.0        0.008397170236      0.0407637634178     0.990037741593      -0.0957021654294    0.990037741593      -0.0957021654294    0.008397170236      0.0407637634178     
3600000000.0        0.00862893670345    0.0419116310472     0.989716704529      -0.098420618162     0.989716704529      -0.098420618162     0.00862893670345    0.0419116310472     
3700000000.0        0.00886696906965    0.0430581091088     0.989386914995      -0.101137738151     0.989386914995      -0.101137738151     0.00886696906965    0.0430581091088     
3800000000.0        0.00911126112755    0.044203160855      0.989048378224      -0.10385348867      0.989048378224      -0.10385348867      0.00911126112755    0.044203160855      
3900000000.0        0.00936180621902    0.045346749605      0.988701099888      -0.106567833024     0.988701099888      -0.106567833024     0.00936180621902    0.045346749605      
4000000000.0        0.00961859725518    0.0464888387477     0.988345086069      -0.109280734556     0.988345086069      -0.109280734556     0.00961859725518    0.0464888387477     
4100000000.0        0.00988162673455    0.0476293917442     0.987980343246      -0.111992156648     0.987980343246      -0.111992156648     0.00988162673455    0.0476293917442     
4200000000.0        0.0101508867593     0.0487683721305     0.98760687828       -0.114702062725     0.98760687828       -0.114702062725     0.0101508867593     0.0487683721305     
4300000000.0        0.0104263690497     0.0499057435201     0.987224698394      -0.11741041626      0.987224698394      -0.11741041626      0.0104263690497     0.0499057435201     
4400000000.0        0.0107080649574     0.0510414696061     0.986833811166      -0.120117180774     0.986833811166      -0.120117180774     0.0107080649574     0.0510414696061     
4500000000.0        0.010995965477      0.052175514164      0.986434224513      -0.122822319844     0.986434224513      -0.122822319844     0.010995965477      0.052175514164      
4600000000.0        0.0112900612571     0.0533078410537     0.986025946684      -0.125525797101     0.986025946684      -0.125525797101     0.0112900612571     0.0533078410537     
4700000000.0        0.0115903426098     0.0544384142216     0.985608986248      -0.128227576233     0.985608986248      -0.128227576233     0.0115903426098     0.0544384142216     
4800000000.0        0.0118967995195     0.055567197703      0.985183352085      -0.130927620994     0.985183352085      -0.130927620994     0.0118967995195     0.055567197703      
4900000000.0        0.0122094216515     0.0566941556243     0.984749053379      -0.133625895199     0.984749053379      -0.133625895199     0.0122094216515     0.0566941556243     
5000000000.0        0.0125281983591     0.0578192522048     0.984306099613      -0.136322362731     0.984306099613      -0.136322362731     0.0125281983591     0.0578192522048     
5100000000.0        0.0128531186904     0.0589424517588     0.983854500556      -0.139016987542     0.983854500556      -0.139016987542     0.0128531186904     0.0589424517588     
5200000000.0        0.0131841713951     0.0600637186978     0.983394266263      -0.141709733657     0.983394266263      -0.141709733657     0.0131841713951     0.0600637186978     
5300000000.0        0.0135213449299     0.0611830175321     0.982925407065      -0.144400565175     0.982925407065      -0.144400565175     0.0135213449299     0.0611830175321     
5400000000.0        0.0138646274644     0.0623003128732     0.982447933568      -0.147089446271     0.982447933568      -0.147089446271     0.0138646274644     0.0623003128732     
5500000000.0        0.0142140068858     0.0634155694351     0.981961856643      -0.1497763412       0.981961856643      -0.1497763412       0.0142140068858     0.0634155694351     
5600000000.0        0.0145694708041     0.0645287520366     0.981467187424      -0.1524612143       0.981467187424      -0.1524612143       0.0145694708041     0.0645287520366     
5700000000.0        0.0149310065561     0.0656398256031     0.980963937304      -0.155144029989     0.980963937304      -0.155144029989     0.0149310065561     0.0656398256031     
5800000000.0        0.01529860121       0.0667487551682     0.980452117929      -0.157824752774     0.980452117929      -0.157824752774     0.01529860121       0.0667487551682     
5900000000.0        0.0156722415693     0.0678555058755     0.979931741199      -0.160503347249     0.979931741199      -0.160503347249     0.0156722415693     0.0678555058755     
6000000000.0        0.0160519141761     0.0689600429805     0.979402819255      -0.163179778098     0.979402819255      -0.163179778098     0.0160519141761     0.0689600429805     
6100000000.0        0.0164376053154     0.0700623318523     0.978865364486      -0.165854010097     0.978865364486      -0.165854010097     0.0164376053154     0.0700623318523     
6200000000.0        0.0168293010178     0.071162337975      0.97831938952       -0.168526008118     0.97831938952       -0.168526008118     0.0168293010178     0.071162337975      
6300000000.0        0.0172269870633     0.0722600269499     0.977764907219      -0.171195737127     0.977764907219      -0.171195737127     0.0172269870633     0.0722600269499     
6400000000.0        0.0176306489836     0.0733553644969     0.977201930683      -0.173863162189     0.977201930683      -0.173863162189     0.0176306489836     0.0733553644969     
6500000000.0        0.0180402720658     0.0744483164558     0.976630473241      -0.176528248469     0.976630473241      -0.176528248469     0.0180402720658     0.0744483164558     
6600000000.0        0.018455841355      0.0755388487885     0.976050548449      -0.179190961236     0.976050548449      -0.179190961236     0.018455841355      0.0755388487885     
6700000000.0        0.0188773416566     0.0766269275804     0.975462170091      -0.18185126586      0.975462170091      -0.18185126586      0.0188773416566     0.0766269275804     
6800000000.0        0.0193047575396     0.0777125190417     0.974865352174      -0.184509127819     0.974865352174      -0.184509127819     0.0193047575396     0.0777125190417     
6900000000.0        0.0197380733385     0.0787955895094     0.974260108923      -0.187164512697     0.974260108923      -0.187164512697     0.0197380733385     0.0787955895094     
7000000000.0        0.0201772731561     0.0798761054485     0.973646454785      -0.189817386189     0.973646454785      -0.189817386189     0.0201772731561     0.0798761054485     
7100000000.0        0.0206223408659     0.0809540334536     0.97302440442       -0.192467714099     0.97302440442       -0.192467714099     0.0206223408659     0.0809540334536     
7200000000.0        0.0210732601142     0.0820293402507     0.972393972703      -0.195115462347     0.972393972703      -0.195115462347     0.0210732601142     0.0820293402507     
7300000000.0        0.0215300143223     0.0831019926981     0.971755174721      -0.197760596965     0.971755174721      -0.197760596965     0.0215300143223     0.0831019926981     
7400000000.0        0.0219925866892     0.0841719577886     0.971108025769      -0.200403084102     0.971108025769      -0.200403084102     0.0219925866892     0.0841719577886     
7500000000.0        0.0224609601929     0.0852392026503     0.970452541352      -0.203042890026     0.970452541352      -0.203042890026     0.0224609601929     0.0852392026503     
7600000000.0        0.0229351175935     0.0863036945483     0.969788737177      -0.205679981122     0.969788737177      -0.205679981122     0.0229351175935     0.0863036945483     
7700000000.0        0.0234150414343     0.0873654008864     0.969116629157      -0.2083143239       0.969116629157      -0.2083143239       0.0234150414343     0.0873654008864     
7800000000.0        0.0239007140445     0.0884242892081     0.968436233405      -0.21094588499      0.968436233405      -0.21094588499      0.0239007140445     0.0884242892081     
7900000000.0        0.0243921175407     0.0894803271981     0.967747566235      -0.213574631147     0.967747566235      -0.213574631147     0.0243921175407     0.0894803271981     
8000000000.0        0.0248892338294     0.0905334826837     0.967050644157      -0.216200529252     0.967050644157      -0.216200529252     0.0248892338294     0.0905334826837     
8100000000.0        0.0253920446083     0.0915837236362     0.966345483876      -0.218823546315     0.966345483876      -0.218823546315     0.0253920446083     0.0915837236362     
8200000000.0        0.0259005313686     0.0926310181723     0.965632102295      -0.221443649471     0.965632102295      -0.221443649471     0.0259005313686     0.0926310181723     
8300000000.0        0.0264146753967     0.0936753345552     0.964910516503      -0.22406080599      0.964910516503      -0.22406080599      0.0264146753967     0.0936753345552     
8400000000.0        0.0269344577764     0.0947166411962     0.964180743785      -0.226674983271     0.964180743785      -0.226674983271     0.0269344577764     0.0947166411962     
8500000000.0        0.0274598593901     0.0957549066555     0.963442801611      -0.229286148847     0.963442801611      -0.229286148847     0.0274598593901     0.0957549066555     
8600000000.0        0.0279908609211     0.0967900996444     0.962696707639      -0.231894270387     0.962696707639      -0.231894270387     0.0279908609211     0.0967900996444     
8700000000.0        0.0285274428554     0.0978221890253     0.961942479712      -0.234499315695     0.961942479712      -0.234499315695     0.0285274428554     0.0978221890253     
8800000000.0        0.0290695854831     0.0988511438142     0.961180135855      -0.237101252712     0.961180135855      -0.237101252712     0.0290695854831     0.0988511438142     
8900000000.0        0.0296172689005     0.0998769331811     0.960409694277      -0.23970004952      0.960409694277      -0.23970004952      0.0296172689005     0.0998769331811     
9000000000.0        0.0301704730119     0.100899526451      0.959631173364      -0.242295674338     0.959631173364      -0.242295674338     0.0301704730119     0.100899526451      
9100000000.0        0.0307291775311     0.101918893107      0.958844591683      -0.24488809553      0.958844591683      -0.24488809553      0.0307291775311     0.101918893107      
9200000000.0        0.0312933619833     0.102935002789      0.958049967974      -0.247477281601     0.958049967974      -0.247477281601     0.0312933619833     0.102935002789      
9300000000.0        0.0318630057068     0.103947825296      0.957247321155      -0.250063201201     0.957247321155      -0.250063201201     0.0318630057068     0.103947825296      
9400000000.0        0.0324380878545     0.104957330586      0.956436670316      -0.252645823124     0.956436670316      -0.252645823124     0.0324380878545     0.104957330586      
9500000000.0        0.0330185873963     0.105963488781      0.955618034717      -0.255225116312     0.955618034717      -0.255225116312     0.0330185873963     0.105963488781      
9600000000.0        0.0336044831197     0.106966270164      0.95479143379       -0.257801049855     0.95479143379       -0.257801049855     0.0336044831197     0.106966270164      
9700000000.0        0.0341957536328     0.10796564518       0.953956887132      -0.260373592991     0.953956887132      -0.260373592991     0.0341957536328     0.10796564518       
9800000000.0        0.0347923773647     0.108961584443      0.95311441451       -0.26294271511      0.95311441451       -0.26294271511      0.0347923773647     0.108961584443      
9900000000.0        0.0353943325683     0.109954058727      0.952264035854      -0.265508385751     0.952264035854      -0.265508385751     0.0353943325683     0.109954058727      
10000000000.0       0.0360015973212     0.110943038977      0.951405771256      -0.268070574607     0.951405771256      -0.268070574607     0.0360015973212     0.110943038977      
