# Hz S RI R 50.00 
100000000.0         0.0011014417041     -0.00291938361854   0.998845498334      -0.00636536031201   0.998845498334      -0.00636536031201   0.0011014417041     -0.00291938361854   
200000000.0         0.00104879473641    -0.0058383069013    0.998759849633      -0.0127301978115    0.998759849633      -0.0127301978115    0.00104879473641    -0.0058383069013    
300000000.0         0.000957029752534   -0.00875627413867   0.998627101149      -0.0190940761393    0.998627101149      -0.0190940761393    0.000957029752534   -0.00875627413867   
400000000.0         0.000827135513922   -0.0116727920322    0.998446295524      -0.0254565289124    0.998446295524      -0.0254565289124    0.000827135513922   -0.0116727920322    
500000000.0         0.000659509553667   -0.0145873649859    0.998217080696      -0.0318170784966    0.998217080696      -0.0318170784966    0.000659509553667   -0.0145873649859    
600000000.0         0.000454373413146   -0.0174994954445    0.997939295002      -0.0381752407964    0.997939295002      -0.0381752407964    0.000454373413146   -0.0174994954445    
700000000.0         0.000211878159706   -0.020408684404     0.997612861903      -0.0445305275018    0.997612861903      -0.0445305275018    0.000211878159706   -0.020408684404     
800000000.0         -6.78571013645e-05  -0.0233144318633    0.997237751636      -0.0508824474076    0.997237751636      -0.0508824474076    -6.78571013645e-05  -0.0233144318633    
900000000.0         -0.000384728072878  -0.0262162372088    0.996813964193      -0.0572305072969    0.996813964193      -0.0572305072969    -0.000384728072878  -0.0262162372088    
1000000000.0        -0.000738636565995  -0.0291135995487    0.99634152071       -0.0635742125889    0.99634152071       -0.0635742125889    -0.000738636565995  -0.0291135995487    
1100000000.0        -0.00112948566216   -0.0320060180084    0.995820458697      -0.0699130678465    0.995820458697      -0.0699130678465    -0.00112948566216   -0.0320060180084    
1200000000.0        -0.00155717683097   -0.0348929919987    0.995250829202      -0.0762465771929    0.995250829202      -0.0762465771929    -0.00155717683097   -0.0348929919987    
1300000000.0        -0.00202160811995   -0.037774021462     0.99463269503       -0.0825742446686    0.99463269503       -0.0825742446686    -0.00202160811995   -0.037774021462     
1400000000.0        -0.00252267296973   -0.040648607104     0.993966129566      -0.0888955745445    0.993966129566      -0.0888955745445    -0.00252267296973   -0.040648607104     
1500000000.0        -0.00306025941317   -0.043516250611     0.993251215976      -0.0952100716043    0.993251215976      -0.0952100716043    -0.00306025941317   -0.043516250611     
1600000000.0        -0.00363424952102   -0.046376454858     0.992488046632      -0.101517241403     0.992488046632      -0.101517241403     -0.00363424952102   -0.046376454858     
1700000000.0        -0.0042445190113    -0.0492287241087    0.991676722694      -0.107816590507     0.991676722694      -0.107816590507     -0.0042445190113    -0.0492287241087    
1800000000.0        -0.00489093697161   -0.0520725642079    0.990817353794      -0.11410762672      0.990817353794      -0.11410762672      -0.00489093697161   -0.0520725642079    
1900000000.0        -0.0055733656613    -0.0549074827685    0.989910057788      -0.120389859297     0.989910057788      -0.120389859297     -0.0055733656613    -0.0549074827685    
2000000000.0        -0.0062916603717    -0.057732989353     0.988954960551      -0.126662799147     0.988954960551      -0.126662799147     -0.0062916603717    -0.057732989353     
2100000000.0        -0.00704566932989   -0.0605485956509    0.987952195813      -0.132925959032     0.987952195813      -0.132925959032     -0.00704566932989   -0.0605485956509    
2200000000.0        -0.00783523363537   -0.0633538156514    0.986901905016      -0.139178853752     0.986901905016      -0.139178853752     -0.00783523363537   -0.0633538156514    
2300000000.0        -0.0086601872228    -0.0661481658127    0.985804237186      -0.145421000329     0.985804237186      -0.145421000329     -0.0086601872228    -0.0661481658127    
2400000000.0        -0.00952035684509   -0.0689311652278    0.984659348817      -0.151651918187     0.984659348817      -0.151651918187     -0.00952035684509   -0.0689311652278    
2500000000.0        -0.0104155620735    -0.0717023357868    0.983467403767      -0.157871129319     0.983467403767      -0.157871129319     -0.0104155620735    -0.0717023357868    
2600000000.0        -0.0113456153111    -0.0744612023359    0.982228573154      -0.164078158455     0.982228573154      -0.164078158455     -0.0113456153111    -0.0744612023359    
2700000000.0        -0.0123103218188    -0.0772072928337    0.980943035259      -0.17027253323      0.980943035259      -0.17027253323      -0.0123103218188    -0.0772072928337    
2800000000.0        -0.01330947975      -0.0799401385042    0.979610975433      -0.176453784337     0.979610975433      -0.176453784337     -0.01330947975      -0.0799401385042    
2900000000.0        -0.0143428801953    -0.0826592739867    0.978232586         -0.182621445683     0.978232586         -0.182621445683     -0.0143428801953    -0.0826592739867    
3000000000.0        -0.0154103072335    -0.0853642374834    0.976808066165      -0.188775054545     0.976808066165      -0.188775054545     -0.0154103072335    -0.0853642374834    
3100000000.0        -0.0165115379905    -0.0880545709034    0.975337621918      -0.194914151711     0.975337621918      -0.194914151711     -0.0165115379905    -0.0880545709034    
3200000000.0        -0.0176463427039    -0.090729820004     0.973821465941      -0.20103828163      0.973821465941      -0.20103828163      -0.0176463427039    -0.090729820004     
3300000000.0        -0.0188144847923    -0.0933895345295    0.97225981751       -0.207146992549     0.97225981751       -0.207146992549     -0.0188144847923    -0.0933895345295    
3400000000.0        -0.0200157209311    -0.0960332683464    0.970652902398      -0.213239836652     0.970652902398      -0.213239836652     -0.0200157209311    -0.0960332683464    
3500000000.0        -0.0212498011319    -0.0986605795763    0.969000952776      -0.219316370194     0.969000952776      -0.219316370194     -0.0212498011319    -0.0986605795763    
3600000000.0        -0.0225164688266    -0.101271030725     0.967304207111      -0.225376153629     0.967304207111      -0.225376153629     -0.0225164688266    -0.101271030725     
3700000000.0        -0.0238154609554    -0.103864188811     0.965562910065      -0.231418751742     0.965562910065      -0.231418751742     -0.0238154609554    -0.103864188811     
3800000000.0        -0.0251465080586    -0.106439625485     0.963777312388      -0.237443733771     0.963777312388      -0.237443733771     -0.0251465080586    -0.106439625485     
3900000000.0        -0.0265093343724    -0.108996917157     0.961947670811      -0.243450673524     0.961947670811      -0.243450673524     -0.0265093343724    -0.108996917157     
4000000000.0        -0.0279036579265    -0.111535645105     0.96007424794       -0.249439149502     0.96007424794       -0.249439149502     -0.0279036579265    -0.111535645105     
4100000000.0        -0.0293291906472    -0.1140553956       0.958157312143      -0.25540874501      0.958157312143      -0.25540874501      -0.0293291906472    -0.1140553956       
4200000000.0        -0.0307856384607    -0.116555760007     0.956197137436      -0.261359048266     0.956197137436      -0.261359048266     -0.0307856384607    -0.116555760007     
4300000000.0        -0.0322727014019    -0.1190363349       0.95419400337       -0.267289652513     0.95419400337       -0.267289652513     -0.0322727014019    -0.1190363349       
4400000000.0        -0.0337900737233    -0.121496722164     0.952148194916      -0.273200156117     0.952148194916      -0.273200156117     -0.0337900737233    -0.121496722164     
4500000000.0        -0.0353374440085    -0.123936529098     0.950060002344      -0.279090162671     0.950060002344      -0.279090162671     -0.0353374440085    -0.123936529098     
4600000000.0        -0.0369144952862    -0.12635536851      0.947929721102      -0.284959281092     0.947929721102      -0.284959281092     -0.0369144952862    -0.12635536851      
4700000000.0        -0.0385209051481    -0.128752858818     0.945757651698      -0.290807125713     0.945757651698      -0.290807125713     -0.0385209051481    -0.128752858818     
4800000000.0        -0.0401563458671    -0.131128624136     0.943544099572      -0.296633316373     0.943544099572      -0.296633316373     -0.0401563458671    -0.131128624136     
4900000000.0        -0.0418204845193    -0.133482294365     0.941289374975      -0.302437478505     0.941289374975      -0.302437478505     -0.0418204845193    -0.133482294365     
5000000000.0        -0.0435129831058    -0.135813505279     0.93899379284       -0.308219243217     0.93899379284       -0.308219243217     -0.0435129831058    -0.135813505279     
5100000000.0        -0.045233498678     -0.138121898603     0.936657672655      -0.313978247374     0.936657672655      -0.313978247374     -0.045233498678     -0.138121898603     
5200000000.0        -0.0469816834634    -0.140407122097     0.934281338332      -0.319714133673     0.934281338332      -0.319714133673     -0.0469816834634    -0.140407122097     
5300000000.0        -0.0487571849929    -0.142668829624     0.93186511808       -0.325426550712     0.93186511808       -0.325426550712     -0.0487571849929    -0.142668829624     
5400000000.0        -0.0505596462298    -0.144906681227     0.92940934427       -0.331115153067     0.92940934427       -0.331115153067     -0.0505596462298    -0.144906681227     
5500000000.0        -0.0523887057001    -0.147120343196     0.926914353305      -0.33677960135      0.926914353305      -0.33677960135      -0.0523887057001    -0.147120343196     
5600000000.0        -0.0542439976232    -0.149309488128     0.924380485485      -0.342419562273     0.924380485485      -0.342419562273     -0.0542439976232    -0.149309488128     
5700000000.0        -0.0561251520444    -0.151473794995     0.921808084872      -0.348034708709     0.921808084872      -0.348034708709     -0.0561251520444    -0.151473794995     
5800000000.0        -0.0580317949678    -0.153612949197     0.919197499157      -0.353624719743     0.919197499157      -0.353624719743     -0.0580317949678    -0.153612949197     
5900000000.0        -0.0599635484902    -0.155726642617     0.916549079522      -0.359189280727     0.916549079522      -0.359189280727     -0.0599635484902    -0.155726642617     
6000000000.0        -0.0619200309357    -0.157814573674     0.913863180506      -0.364728083326     0.913863180506      -0.364728083326     -0.0619200309357    -0.157814573674     
6100000000.0        -0.0639008569904    -0.159876447369     0.911140159865      -0.37024082556      0.911140159865      -0.37024082556      -0.0639008569904    -0.159876447369     
6200000000.0        -0.0659056378386    -0.161911975326     0.908380378438      -0.37572721185      0.908380378438      -0.37572721185      -0.0659056378386    -0.161911975326     
6300000000.0        -0.0679339812982    -0.163920875838     0.905584200005      -0.381186953052     0.905584200005      -0.381186953052     -0.0679339812982    -0.163920875838     
6400000000.0        -0.0699854919573    -0.165902873901     0.902751991155      -0.386619766491     0.902751991155      -0.386619766491     -0.0699854919573    -0.165902873901     
6500000000.0        -0.0720597713103    -0.167857701249     0.899884121143      -0.392025375991     0.899884121143      -0.392025375991     -0.0720597713103    -0.167857701249     
6600000000.0        -0.0741564178948    -0.169785096383     0.896980961756      -0.397403511905     0.896980961756      -0.397403511905     -0.0741564178948    -0.169785096383     
6700000000.0        -0.0762750274275    -0.171684804599     0.894042887173      -0.402753911136     0.894042887173      -0.402753911136     -0.0762750274275    -0.171684804599     
6800000000.0        -0.0784151929411    -0.173556578012     0.891070273825      -0.408076317157     0.891070273825      -0.408076317157     -0.0784151929411    -0.173556578012     
6900000000.0        -0.0805765049205    -0.175400175577     0.888063500264      -0.413370480028     0.888063500264      -0.413370480028     -0.0805765049205    -0.175400175577     
7000000000.0        -0.0827585514382    -0.177215363107     0.885022947018      -0.418636156414     0.885022947018      -0.418636156414     -0.0827585514382    -0.177215363107     
7100000000.0        -0.0849609182905    -0.179001913282     0.88194899646       -0.423873109587     0.88194899646       -0.423873109587     -0.0849609182905    -0.179001913282     
7200000000.0        -0.0871831891322    -0.180759605669     0.878842032671      -0.42908110944      0.878842032671      -0.42908110944      -0.0871831891322    -0.180759605669     
7300000000.0        -0.0894249456111    -0.182488226719     0.875702441302      -0.43425993249      0.875702441302      -0.43425993249      -0.0894249456111    -0.182488226719     
7400000000.0        -0.0916857675025    -0.184187569783     0.872530609438      -0.439409361874     0.872530609438      -0.439409361874     -0.0916857675025    -0.184187569783     
7500000000.0        -0.0939652328417    -0.185857435105     0.869326925468      -0.444529187352     0.869326925468      -0.444529187352     -0.0939652328417    -0.185857435105     
7600000000.0        -0.0962629180572    -0.187497629822     0.86609177895       -0.449619205299     0.86609177895       -0.449619205299     -0.0962629180572    -0.187497629822     
7700000000.0        -0.0985783981018    -0.189107967964     0.862825560475      -0.454679218695     0.862825560475      -0.454679218695     -0.0985783981018    -0.189107967964     
7800000000.0        -0.100911246584     -0.190688270442     0.859528661538      -0.459709037118     0.859528661538      -0.459709037118     -0.100911246584     -0.190688270442     
7900000000.0        -0.103261035896     -0.192238365042     0.856201474408      -0.464708476723     0.856201474408      -0.464708476723     -0.103261035896     -0.192238365042     
8000000000.0        -0.105627337345     -0.193758086406     0.852844391998      -0.469677360231     0.852844391998      -0.469677360231     -0.105627337345     -0.193758086406     
8100000000.0        -0.108009721279     -0.195247276022     0.849457807734      -0.474615516904     0.849457807734      -0.474615516904     -0.108009721279     -0.195247276022     
8200000000.0        -0.110407757213     -0.196705782204     0.846042115429      -0.479522782525     0.846042115429      -0.479522782525     -0.110407757213     -0.196705782204     
8300000000.0        -0.112821013955     -0.198133460066     0.842597709161      -0.48439899937      0.842597709161      -0.48439899937      -0.112821013955     -0.198133460066     
8400000000.0        -0.11524905973      -0.199530171507     0.839124983142      -0.489244016181     0.839124983142      -0.489244016181     -0.11524905973      -0.199530171507     
8500000000.0        -0.1176914623       -0.200895785177     0.835624331597      -0.494057688134     0.835624331597      -0.494057688134     -0.1176914623       -0.200895785177     
8600000000.0        -0.120147789087     -0.202230176449     0.832096148646      -0.498839876805     0.832096148646      -0.498839876805     -0.120147789087     -0.202230176449     
8700000000.0        -0.122617607295     -0.203533227393     0.828540828177      -0.503590450135     0.828540828177      -0.503590450135     -0.122617607295     -0.203533227393     
8800000000.0        -0.125100484021     -0.204804826735     0.824958763733      -0.50830928239      0.824958763733      -0.50830928239      -0.125100484021     -0.204804826735     
8900000000.0        -0.127595986377     -0.206044869826     0.821350348392      -0.51299625412      0.821350348392      -0.51299625412      -0.127595986377     -0.206044869826     
9000000000.0        -0.130103681605     -0.207253258602     0.817715974652      -0.517651252118     0.817715974652      -0.517651252118     -0.130103681605     -0.207253258602     
9100000000.0        -0.132623137184     -0.208429901542     0.814056034316      -0.52227416937      0.814056034316      -0.52227416937      -0.132623137184     -0.208429901542     
9200000000.0        -0.13515392095      -0.209574713627     0.810370918384      -0.52686490501      0.810370918384      -0.52686490501      -0.13515392095      -0.209574713627     
9300000000.0        -0.137695601198     -0.210687616296     0.806661016937      -0.53142336427      0.806661016937      -0.53142336427      -0.137695601198     -0.210687616296     
9400000000.0        -0.140247746792     -0.211768537395     0.802926719033      -0.535949458427     0.802926719033      -0.535949458427     -0.140247746792     -0.211768537395     
9500000000.0        -0.142809927275     -0.212817411132     0.7991684126        -0.540443104748     0.7991684126        -0.540443104748     -0.142809927275     -0.212817411132     
9600000000.0        -0.145381712965     -0.213834178026     0.795386484327      -0.544904226435     0.795386484327      -0.544904226435     -0.145381712965     -0.213834178026     
9700000000.0        -0.147962675065     -0.214818784853     0.791581319568      -0.549332752567     0.791581319568      -0.549332752567     -0.147962675065     -0.214818784853     
9800000000.0        -0.150552385759     -0.215771184591     0.787753302236      -0.553728618039     0.787753302236      -0.553728618039     -0.150552385759     -0.215771184591     
9900000000.0        -0.153150418311     -0.216691336367     0.783902814704      -0.558091763503     0.783902814704      -0.558091763503     -0.153150418311     -0.216691336367     
10000000000.0       -0.155756347159     -0.217579205395     0.780030237713      -0.562422135301     0.780030237713      -0.562422135301     -0.155756347159     -0.217579205395     
