# Hz S RI R 50.00 
100000000.0         -0.000328135049785  -0.0177389445264    0.999660571074      -0.0177853727285    0.999660571074      -0.0177853727285    -0.000328135049785  -0.0177389445264    
200000000.0         -0.00129119359544   -0.0354413294589    0.998697432133      -0.0355341979808    0.998697432133      -0.0355341979808    -0.00129119359544   -0.0354413294589    
300000000.0         -0.00288013709038   -0.0530729557721    0.997108425506      -0.0532122828437    0.997108425506      -0.0532122828437    -0.00288013709038   -0.0530729557721    
400000000.0         -0.00508859623765   -0.0706003115925    0.994899910782      -0.0707861200172    0.994899910782      -0.0707861200172    -0.00508859623765   -0.0706003115925    
500000000.0         -0.00790786345523   -0.0879906814265    0.992080591821      -0.0882229977563    0.992080591821      -0.0882229977563    -0.00790786345523   -0.0879906814265    
600000000.0         -0.011326987392     -0.105212309753     0.988661418087      -0.105491163715     0.988661418087      -0.105491163715     -0.011326987392     -0.105212309753     
700000000.0         -0.0153328854008    -0.122234568811     0.984655471112      -0.122559992862     0.984655471112      -0.122559992862     -0.0153328854008    -0.122234568811     
800000000.0         -0.019910472208     -0.139028118682     0.980077835452      -0.139400147649     0.980077835452      -0.139400147649     -0.019910472208     -0.139028118682     
900000000.0         -0.0250428030163    -0.155565054447     0.974945455408      -0.155983725216     0.974945455408      -0.155983725216     -0.0250428030163    -0.155565054447     
1000000000.0        -0.0307112289662    -0.171819037493     0.969276979482      -0.172284388744     0.969276979482      -0.172284388744     -0.0307112289662    -0.171819037493     
1100000000.0        -0.0368955626667    -0.187765409167     0.963092594794      -0.188277481134     0.963092594794      -0.188277481134     -0.0368955626667    -0.187765409167     
1200000000.0        -0.0435742513767    -0.203381285647     0.956413853879      -0.203940119905     0.956413853879      -0.203940119905     -0.0435742513767    -0.203381285647     
1300000000.0        -0.0507245553841    -0.218645633458     0.949263496283      -0.219251272737     0.949263496283      -0.219251272737     -0.0507245553841    -0.218645633458     
1400000000.0        -0.0583227291423    -0.233539325487     0.941665267419      -0.234191813492     0.941665267419      -0.234191813492     -0.0583227291423    -0.233539325487     
1500000000.0        -0.0663442028083    -0.248045177704     0.93364373702       -0.248744558962     0.93364373702       -0.248744558962     -0.0663442028083    -0.248045177704     
1600000000.0        -0.0747637619616    -0.26214796719      0.925224119416      -0.262894286906     0.925224119416      -0.262894286906     -0.0747637619616    -0.26214796719      
1700000000.0        -0.083555723441     -0.275834432283     0.916432097688      -0.276627736207     0.916432097688      -0.276627736207     -0.083555723441     -0.275834432283     
1800000000.0        -0.092694105446     -0.289093255951     0.907293653572      -0.289933590257     0.907293653572      -0.289933590257     -0.092694105446     -0.289093255951     
1900000000.0        -0.102152790267     -0.301915033658     0.897834904719      -0.302802444835     0.897834904719      -0.302802444835     -0.102152790267     -0.301915033658     
2000000000.0        -0.111905678249     -0.314292227154     0.888081950735      -0.315226761908     0.888081950735      -0.315226761908     -0.111905678249     -0.314292227154     
2100000000.0        -0.121926831837     -0.326219105741     0.878060729128      -0.327200810898     0.878060729128      -0.327200810898     -0.121926831837     -0.326219105741     
2200000000.0        -0.132190608805     -0.337691676591     0.867796882086      -0.338720599017     0.867796882086      -0.338720599017     -0.132190608805     -0.337691676591     
2300000000.0        -0.142671783995     -0.348707605771     0.857315634732      -0.349783792294     0.857315634732      -0.349783792294     -0.142671783995     -0.348707605771     
2400000000.0        -0.153345659138     -0.359266131584     0.846641685303      -0.360389628923     0.846641685303      -0.360389628923     -0.153345659138     -0.359266131584     
2500000000.0        -0.164188160542     -0.369367971819     0.835799107463      -0.370538826524     0.835799107463      -0.370538826524     -0.164188160542     -0.369367971819     
2600000000.0        -0.175175924612     -0.379015226436     0.824811264779      -0.380233484828     0.824811264779      -0.380233484828     -0.175175924612     -0.379015226436     
2700000000.0        -0.186286371365     -0.388211277122     0.813700737213      -0.389476985242     0.813700737213      -0.389476985242     -0.186286371365     -0.388211277122     
2800000000.0        -0.19749776624      -0.396960685064     0.802489259304      -0.398273888625     0.802489259304      -0.398273888625     -0.19749776624      -0.396960685064     
2900000000.0        -0.208789270637     -0.405269088156     0.791197669629      -0.406629832502     0.791197669629      -0.406629832502     -0.208789270637     -0.405269088156     
3000000000.0        -0.220140981742     -0.413143098757     0.779845870987      -0.414551428827     0.779845870987      -0.414551428827     -0.220140981742     -0.413143098757     
3100000000.0        -0.231533962245     -0.420590202969     0.76845280067       -0.422046163262     0.76845280067       -0.422046163262     -0.231533962245     -0.420590202969     
3200000000.0        -0.242950260663     -0.427618662297     0.757036410144      -0.42912229684      0.757036410144      -0.42912229684      -0.242950260663     -0.427618662297     
3300000000.0        -0.254372923001     -0.434237418394     0.745613653391      -0.43578877072      0.745613653391      -0.43578877072      -0.254372923001     -0.434237418394     
3400000000.0        -0.265785996507     -0.440456001524     0.734200483148      -0.442055114649     0.734200483148      -0.442055114649     -0.265785996507     -0.440456001524     
3500000000.0        -0.277174526314     -0.446284443208     0.722811854269      -0.447931359607     0.722811854269      -0.447931359607     -0.277174526314     -0.446284443208     
3600000000.0        -0.28852454573      -0.45173319343      0.711461733435      -0.453427955024     0.711461733435      -0.453427955024     -0.28852454573      -0.45173319343      
3700000000.0        -0.299823060933     -0.456813042699     0.700163114455      -0.458555690839     0.700163114455      -0.458555690839     -0.299823060933     -0.456813042699     
3800000000.0        -0.311058030821     -0.461535049126     0.688928038422      -0.463325624583     0.688928038422      -0.463325624583     -0.311058030821     -0.461535049126     
3900000000.0        -0.322218342706     -0.465910470646     0.677767618014      -0.467749013599     0.677767618014      -0.467749013599     -0.322218342706     -0.465910470646     
4000000000.0        -0.333293784516     -0.469950702393     0.666692065293      -0.471837252422     0.666692065293      -0.471837252422     -0.333293784516     -0.469950702393     
4100000000.0        -0.34427501414      -0.473667219215     0.65571072236       -0.475601815294     0.65571072236       -0.475601815294     -0.34427501414      -0.473667219215     
4200000000.0        -0.355153526481     -0.47707152323      0.644832094305      -0.479054203727     0.644832094305      -0.479054203727     -0.355153526481     -0.47707152323      
4300000000.0        -0.365921618744     -0.480175096302     0.634063883916      -0.482205898971     0.634063883916      -0.482205898971     -0.365921618744     -0.480175096302     
4400000000.0        -0.376572354448     -0.482989357266     0.623413027664      -0.485068319249     0.623413027664      -0.485068319249     -0.376572354448     -0.482989357266     
4500000000.0        -0.387099526592     -0.485525623709     0.612885732544      -0.487652781537     0.612885732544      -0.487652781537     -0.387099526592     -0.485525623709     
4600000000.0        -0.397497620356     -0.487795078083     0.602487513368      -0.489970467675     0.602487513368      -0.489970467675     -0.397497620356     -0.487795078083     
4700000000.0        -0.407761775683     -0.489808737923     0.592223230189      -0.49203239459      0.592223230189      -0.49203239459      -0.407761775683     -0.489808737923     
4800000000.0        -0.417887750037     -0.491577429919     0.582097125535      -0.493849388365     0.582097125535      -0.493849388365     -0.417887750037     -0.491577429919     
4900000000.0        -0.427871881595     -0.493111767588     0.572112861223      -0.495432061919     0.572112861223      -0.495432061919     -0.427871881595     -0.493111767588     
5000000000.0        -0.437711053093     -0.494422132302     0.562273554513      -0.496790796027     0.562273554513      -0.496790796027     -0.437711053093     -0.494422132302     
5100000000.0        -0.447402656507     -0.49551865741      0.552581813422      -0.497935723446     0.552581813422      -0.497935723446     -0.447402656507     -0.49551865741      
5200000000.0        -0.456944558722     -0.496411215203     0.543039771061      -0.498876715888     0.543039771061      -0.498876715888     -0.456944558722     -0.496411215203     
5300000000.0        -0.466335068318     -0.497109406497     0.533649118845      -0.499623373589     0.533649118845      -0.499623373589     -0.466335068318     -0.497109406497     
5400000000.0        -0.475572903555     -0.49762255258      0.524411138508      -0.500185017269     0.524411138508      -0.500185017269     -0.475572903555     -0.49762255258      
5500000000.0        -0.484657161648     -0.497959689307     0.515326732832      -0.500570682223     0.515326732832      -0.500570682223     -0.484657161648     -0.497959689307     
5600000000.0        -0.493587289367     -0.498129563142     0.506396455043      -0.50078911436      0.506396455043      -0.50078911436      -0.493587289367     -0.498129563142     
5700000000.0        -0.502363055008     -0.498140628921     0.497620536839      -0.500848767973     0.497620536839      -0.500848767973     -0.502363055008     -0.498140628921     
5800000000.0        -0.510984521745     -0.498001049167     0.488998915045      -0.50075780505      0.488998915045      -0.50075780505      -0.510984521745     -0.498001049167     
5900000000.0        -0.51945202237      -0.49771869478      0.480531256862      -0.500524095965     0.480531256862      -0.500524095965     -0.51945202237      -0.49771869478      
6000000000.0        -0.527766135415     -0.497301146917     0.472216983757      -0.500155221359     0.472216983757      -0.500155221359     -0.527766135415     -0.497301146917     
6100000000.0        -0.535927662631     -0.496755699937     0.464055293975      -0.499658475083     0.464055293975      -0.499658475083     -0.535927662631     -0.496755699937     
6200000000.0        -0.543937607803     -0.496089365249     0.456045183727      -0.499040868047     0.456045183727      -0.499040868047     -0.543937607803     -0.496089365249     
6300000000.0        -0.551797156873     -0.495308875945     0.448185467068      -0.498309132858     0.448185467068      -0.498309132858     -0.551797156873     -0.495308875945     
6400000000.0        -0.559507659315     -0.4944206921       0.440474794522      -0.497469729111     0.440474794522      -0.497469729111     -0.559507659315     -0.4944206921       
6500000000.0        -0.567070610739     -0.493431006624     0.432911670475      -0.49652884925      0.432911670475      -0.49652884925      -0.567070610739     -0.493431006624     
6600000000.0        -0.574487636663     -0.492345751584     0.425494469406      -0.495492424881     0.425494469406      -0.495492424881     -0.574487636663     -0.492345751584     
6700000000.0        -0.581760477419     -0.491170604884     0.418221450982      -0.494366133462     0.418221450982      -0.494366133462     -0.581760477419     -0.491170604884     
6800000000.0        -0.588890974119     -0.489910997259     0.411090774086      -0.493155405288     0.411090774086      -0.493155405288     -0.588890974119     -0.489910997259     
6900000000.0        -0.595881055659     -0.488572119471     0.404100509821      -0.491865430694     0.404100509821      -0.491865430694     -0.595881055659     -0.488572119471     
7000000000.0        -0.60273272669      -0.487158929685     0.397248653533      -0.490501167424     0.397248653533      -0.490501167424     -0.60273272669      -0.487158929685     
7100000000.0        -0.609448056508     -0.485676160938     0.390533135925      -0.489067348108     0.390533135925      -0.489067348108     -0.609448056508     -0.485676160938     
7200000000.0        -0.616029168816     -0.484128328672     0.38395183329       -0.487568487786     0.38395183329       -0.487568487786     -0.616029168816     -0.484128328672     
7300000000.0        -0.62247823231      -0.482519738272     0.37750257693       -0.486008891455     0.37750257693       -0.486008891455     -0.62247823231      -0.482519738272     
7400000000.0        -0.628797452033     -0.480854492589     0.371183161802      -0.484392661585     0.371183161802      -0.484392661585     -0.628797452033     -0.480854492589     
7500000000.0        -0.634989061454     -0.4791364994       0.364991354431      -0.482723705581     0.364991354431      -0.482723705581     -0.634989061454     -0.4791364994       
7600000000.0        -0.641055315234     -0.477369478784     0.358924900158      -0.48100574316      0.358924900158      -0.48100574316      -0.641055315234     -0.477369478784     
7700000000.0        -0.646998482615     -0.475556970391     0.352981529737      -0.479242313618     0.352981529737      -0.479242313618     -0.646998482615     -0.475556970391     
7800000000.0        -0.652820841417     -0.473702340576     0.347158965347      -0.477436782969     0.347158965347      -0.477436782969     -0.652820841417     -0.473702340576     
7900000000.0        -0.658524672575     -0.4718087894       0.34145492605       -0.475592350935     0.34145492605       -0.475592350935     -0.658524672575     -0.4718087894       
8000000000.0        -0.664112255206     -0.469879357453     0.335867132728      -0.473712057781     0.335867132728      -0.473712057781     -0.664112255206     -0.469879357453     
8100000000.0        -0.66958586214      -0.467916932523     0.33039331255       -0.471798790977     0.33039331255       -0.471798790977     -0.66958586214      -0.467916932523     
8200000000.0        -0.674947755908     -0.465924256072     0.325031202982      -0.469855291675     0.325031202982      -0.469855291675     -0.674947755908     -0.465924256072     
8300000000.0        -0.680200185137     -0.463903929532     0.319778555397      -0.467884161006     0.319778555397      -0.467884161006     -0.680200185137     -0.463903929532     
8400000000.0        -0.685345381324     -0.46185842041      0.314633138295      -0.465887866182     0.314633138295      -0.465887866182     -0.685345381324     -0.46185842041      
8500000000.0        -0.690385555968     -0.459790068192     0.309592740176      -0.463868746405     0.309592740176      -0.463868746405     -0.690385555968     -0.459790068192     
8600000000.0        -0.695322898024     -0.457701090055     0.304655172083      -0.461829018574     0.304655172083      -0.461829018574     -0.695322898024     -0.457701090055     
8700000000.0        -0.70015957166      -0.455593586381     0.299818269848      -0.459770782801     0.299818269848      -0.459770782801     -0.70015957166      -0.455593586381     
8800000000.0        -0.704897714281     -0.453469546072     0.295079896063      -0.457696027725     0.295079896063      -0.457696027725     -0.704897714281     -0.453469546072     
8900000000.0        -0.709539434823     -0.451330851671     0.290437941792      -0.455606635632     0.290437941792      -0.455606635632     -0.709539434823     -0.451330851671     
9000000000.0        -0.71408681226      -0.449179284287     0.285890328057      -0.453504387385     0.285890328057      -0.453504387385     -0.71408681226      -0.449179284287     
9100000000.0        -0.718541894345     -0.447016528332     0.281435007107      -0.451390967155     0.281435007107      -0.451390967155     -0.718541894345     -0.447016528332     
9200000000.0        -0.722906696526     -0.444844176071     0.27706996349       -0.449267966971     0.27706996349       -0.449267966971     -0.722906696526     -0.444844176071     
9300000000.0        -0.727183201058     -0.442663731986     0.272793214952      -0.447136891088     0.272793214952      -0.447136891088     -0.727183201058     -0.442663731986     
9400000000.0        -0.731373356264     -0.44047661696      0.268602813167      -0.444999160169     0.268602813167      -0.444999160169     -0.731373356264     -0.44047661696      
9500000000.0        -0.735479075954     -0.438284172293     0.264496844324      -0.442856115296     0.264496844324      -0.442856115296     -0.735479075954     -0.438284172293     
9600000000.0        -0.739502238975     -0.436087663537     0.260473429576      -0.440709021817     0.260473429576      -0.440709021817     -0.739502238975     -0.436087663537     
9700000000.0        -0.743444688879     -0.433888284179     0.256530725369      -0.438559073014     0.256530725369      -0.438559073014     -0.743444688879     -0.433888284179     
9800000000.0        -0.74730823371      -0.431687159154     0.252666923656      -0.436407393626     0.252666923656      -0.436407393626     -0.74730823371      -0.431687159154     
9900000000.0        -0.751094645887     -0.429485348206     0.248880252021      -0.434255043208     0.248880252021      -0.434255043208     -0.751094645887     -0.429485348206     
10000000000.0       -0.754805662172     -0.427283849105     0.245168973696      -0.432103019343     0.245168973696      -0.432103019343     -0.754805662172     -0.427283849105     
