# Hz S RI R 50.00 
100000000.0         0.00103650286172    -0.00266785531895   0.998930555849      -0.00441272248546   0.998930555849      -0.00441272248546   0.00103650286172    -0.00266785531895   
200000000.0         0.00100482289616    -0.00533547237774   0.998880144302      -0.00882517036796   0.998880144302      -0.00882517036796   0.00100482289616    -0.00533547237774   
300000000.0         0.000947760208289   -0.00800261189055   0.998804973555      -0.0132371318257    0.998804973555      -0.0132371318257    0.000947760208288   -0.00800261189055   
400000000.0         0.000866231409819   -0.0106690373408    0.998704140843      -0.0176483838897    0.998704140843      -0.0176483838897    0.000866231409819   -0.0106690373408    
500000000.0         0.000760596007399   -0.0133345119593    0.998577306162      -0.022058699817     0.998577306162      -0.022058699817     0.000760596007399   -0.0133345119593    
600000000.0         0.000631044746853   -0.0159987985885    0.99842430399       -0.0264678508087    0.99842430399       -0.0264678508087    0.000631044746853   -0.0159987985885    
700000000.0         0.000477698253965   -0.0186616597605    0.9982450447        -0.0308756067821    0.9982450447        -0.0308756067821    0.000477698253965   -0.0186616597605    
800000000.0         0.000300643010407   -0.021322857802     0.99803947861       -0.0352817368105    0.99803947861       -0.0352817368105    0.000300643010407   -0.021322857802     
900000000.0         9.99473619288e-05   -0.0239821549364    0.997807580003      -0.0396860094113    0.997807580003      -0.0396860094113    9.99473619292e-05   -0.0239821549364    
1000000000.0        -0.000124330372644  -0.0266393133765    0.997549339037      -0.0440881927537    0.997549339037      -0.0440881927537    -0.000124330372644  -0.0266393133765    
1100000000.0        -0.00037213739714   -0.0292940954109    0.997264757241      -0.0484880548195    0.997264757241      -0.0484880548195    -0.00037213739714   -0.0292940954109    
1200000000.0        -0.000643423756929  -0.0319462634817    0.996953844853      -0.0528853635339    0.996953844853      -0.0528853635339    -0.000643423756929  -0.0319462634817    
1300000000.0        -0.000938140654745  -0.034595580259     0.996616619125      -0.0572798868768    0.996616619125      -0.0572798868768    -0.000938140654745  -0.034595580259     
1400000000.0        -0.0012562393464    -0.0372418087093    0.996253103224      -0.0616713929795    0.996253103224      -0.0616713929795    -0.0012562393464    -0.0372418087093    
1500000000.0        -0.00159767039109   -0.0398847121615    0.995863325474      -0.0660596502121    0.995863325474      -0.0660596502121    -0.00159767039109   -0.0398847121615    
1600000000.0        -0.00196238312778   -0.0425240543698    0.995447318822      -0.0704444272632    0.995447318822      -0.0704444272632    -0.00196238312778   -0.0425240543698    
1700000000.0        -0.00235032530097   -0.0451595995738    0.995005120455      -0.0748254932133    0.995005120455      -0.0748254932133    -0.00235032530097   -0.0451595995738    
1800000000.0        -0.00276144278807   -0.0477911125573    0.994536771512      -0.0792026176048    0.994536771512      -0.0792026176048    -0.00276144278807   -0.0477911125573    
1900000000.0        -0.00319567939794   -0.0504183587051    0.994042316864      -0.0835755705069    0.994042316864      -0.0835755705069    -0.00319567939794   -0.0504183587051    
2000000000.0        -0.00365297672039   -0.0530411040578    0.993521804946      -0.0879441225792    0.993521804946      -0.0879441225792    -0.00365297672039   -0.0530411040578    
2100000000.0        -0.00413327401289   -0.0556591153665    0.992975287621      -0.092308045131     0.992975287621      -0.092308045131     -0.00413327401289   -0.0556591153665    
2200000000.0        -0.00463650811507   -0.0582721601449    0.992402820071      -0.0966671101804    0.992402820071      -0.0966671101804    -0.00463650811507   -0.0582721601449    
2300000000.0        -0.00516261338439   -0.0608800067217    0.991804460707      -0.10102109051      0.991804460707      -0.10102109051      -0.00516261338439   -0.0608800067217    
2400000000.0        -0.00571152164798   -0.0634824242909    0.991180271089      -0.105369759721     0.991180271089      -0.105369759721     -0.00571152164798   -0.0634824242909    
2500000000.0        -0.00628316216736   -0.066079182962     0.990530315868      -0.10971289229      0.990530315868      -0.10971289229      -0.00628316216736   -0.066079182962     
2600000000.0        -0.00687746161325   -0.0686700538089    0.989854662718      -0.114050263614     0.989854662718      -0.114050263614     -0.00687746161325   -0.0686700538089    
2700000000.0        -0.0074943440486    -0.0712548089182    0.989153382294      -0.118381650069     0.989153382294      -0.118381650069     -0.0074943440486    -0.0712548089182    
2800000000.0        -0.00813373091826   -0.0738332214365    0.988426548182      -0.122706829056     0.988426548182      -0.122706829056     -0.00813373091826   -0.0738332214365    
2900000000.0        -0.00879554104427   -0.0764050656175    0.987674236854      -0.12702557905      0.987674236854      -0.12702557905      -0.00879554104427   -0.0764050656175    
3000000000.0        -0.00947969062573   -0.0789701168674    0.986896527631      -0.131337679646     0.986896527631      -0.131337679646     -0.00947969062573   -0.0789701168674    
3100000000.0        -0.0101860932426    -0.0815281517907    0.986093502644      -0.135642911612     0.986093502644      -0.135642911612     -0.0101860932426    -0.0815281517907    
3200000000.0        -0.010914659863     -0.0840789482344    0.985265246798      -0.139941056926     0.985265246798      -0.139941056926     -0.010914659863     -0.0840789482344    
3300000000.0        -0.0116652988531    -0.0866222853322    0.984411847739      -0.144231898831     0.984411847739      -0.144231898831     -0.0116652988531    -0.0866222853322    
3400000000.0        -0.0124379159899    -0.0891579435473    0.983533395814      -0.148515221871     0.983533395814      -0.148515221871     -0.0124379159899    -0.0891579435473    
3500000000.0        -0.0132324144764    -0.0916857047151    0.982629984046      -0.15279081194      0.982629984046      -0.15279081194      -0.0132324144764    -0.0916857047151    
3600000000.0        -0.0140486949578    -0.0942053520849    0.981701708092      -0.157058456323     0.981701708092      -0.157058456323     -0.0140486949578    -0.0942053520849    
3700000000.0        -0.014886655541     -0.0967166703609    0.980748666219      -0.161317943737     0.980748666219      -0.161317943737     -0.014886655541     -0.0967166703609    
3800000000.0        -0.0157461918143    -0.0992194457429    0.979770959264      -0.165569064373     0.979770959264      -0.165569064373     -0.0157461918143    -0.0992194457429    
3900000000.0        -0.0166271968698    -0.101713465966     0.978768690606      -0.169811609938     0.978768690606      -0.169811609938     -0.0166271968698    -0.101713465966     
4000000000.0        -0.0175295613261    -0.104198520338     0.977741966131      -0.174045373691     0.977741966131      -0.174045373691     -0.0175295613261    -0.104198520338     
4100000000.0        -0.0184531733526    -0.106674399781     0.9766908942        -0.178270150486     0.9766908942        -0.178270150486     -0.0184531733526    -0.106674399781     
4200000000.0        -0.0193979186957    -0.109140896866     0.975615585617      -0.182485736808     0.975615585617      -0.182485736808     -0.0193979186957    -0.109140896866     
4300000000.0        -0.0203636807049    -0.11159780585      0.974516153591      -0.186691930809     0.974516153591      -0.186691930809     -0.0203636807049    -0.11159780585      
4400000000.0        -0.0213503403606    -0.114044922714     0.973392713711      -0.190888532349     0.973392713711      -0.190888532349     -0.0213503403606    -0.114044922714     
4500000000.0        -0.0223577763026    -0.116482045197     0.972245383902      -0.195075343027     0.972245383902      -0.195075343027     -0.0223577763026    -0.116482045197     
4600000000.0        -0.0233858648599    -0.118908972831     0.971074284398      -0.199252166219     0.971074284398      -0.199252166219     -0.0233858648599    -0.118908972831     
4700000000.0        -0.0244344800803    -0.121325506973     0.969879537705      -0.20341880711      0.969879537705      -0.20341880711      -0.0244344800803    -0.121325506973     
4800000000.0        -0.0255034937623    -0.123731450843     0.968661268565      -0.20757507273      0.968661268565      -0.20757507273      -0.0255034937623    -0.123731450843     
4900000000.0        -0.0265927754862    -0.12612660955      0.967419603923      -0.211720771986     0.967419603923      -0.211720771986     -0.0265927754862    -0.12612660955      
5000000000.0        -0.0277021926472    -0.128510790128     0.966154672889      -0.215855715692     0.966154672889      -0.215855715692     -0.0277021926472    -0.128510790128     
5100000000.0        -0.0288316104878    -0.130883801567     0.964866606702      -0.219979716603     0.964866606702      -0.219979716603     -0.0288316104878    -0.130883801567     
5200000000.0        -0.0299808921325    -0.13324545484      0.963555538697      -0.224092589443     0.963555538697      -0.224092589443     -0.0299808921325    -0.13324545484      
5300000000.0        -0.0311498986214    -0.135595562935     0.962221604264      -0.228194150935     0.962221604264      -0.228194150935     -0.0311498986214    -0.135595562935     
5400000000.0        -0.0323384889457    -0.137933940882     0.960864940812      -0.232284219831     0.960864940812      -0.232284219831     -0.0323384889457    -0.137933940882     
5500000000.0        -0.0335465200827    -0.14026040578      0.959485687732      -0.236362616938     0.959485687732      -0.236362616938     -0.0335465200827    -0.14026040578      
5600000000.0        -0.0347738470321    -0.142574776828     0.958083986362      -0.240429165146     0.958083986362      -0.240429165146     -0.0347738470321    -0.142574776828     
5700000000.0        -0.0360203228524    -0.144876875345     0.956659979942      -0.244483689455     0.956659979942      -0.244483689455     -0.0360203228524    -0.144876875345     
5800000000.0        -0.0372857986976    -0.147166524802     0.955213813583      -0.248526016999     0.955213813583      -0.248526016999     -0.0372857986976    -0.147166524802     
5900000000.0        -0.0385701238547    -0.149443550838     0.953745634221      -0.252555977072     0.953745634221      -0.252555977072     -0.0385701238547    -0.149443550838     
6000000000.0        -0.0398731457812    -0.151707781293     0.952255590586      -0.256573401149     0.952255590586      -0.256573401149     -0.0398731457812    -0.151707781293     
6100000000.0        -0.0411947101436    -0.153959046224     0.950743833154      -0.260578122914     0.950743833154      -0.260578122914     -0.0411947101436    -0.153959046224     
6200000000.0        -0.0425346608552    -0.156197177932     0.949210514116      -0.264569978276     0.949210514116      -0.264569978276     -0.0425346608552    -0.156197177932     
6300000000.0        -0.0438928401155    -0.158422010976     0.947655787331      -0.268548805396     0.947655787331      -0.268548805396     -0.0438928401155    -0.158422010976     
6400000000.0        -0.0452690884487    -0.160633382203     0.94607980829       -0.272514444703     0.94607980829       -0.272514444703     -0.0452690884487    -0.160633382203     
6500000000.0        -0.0466632447434    -0.162831130759     0.944482734074      -0.276466738917     0.944482734074      -0.276466738917     -0.0466632447434    -0.162831130759     
6600000000.0        -0.0480751462921    -0.165015098113     0.942864723315      -0.280405533064     0.942864723315      -0.280405533064     -0.0480751462921    -0.165015098113     
6700000000.0        -0.0495046288309    -0.167185128074     0.941225936154      -0.284330674497     0.941225936154      -0.284330674497     -0.0495046288309    -0.167185128074     
6800000000.0        -0.0509515265795    -0.169341066806     0.9395665342        -0.288242012915     0.9395665342        -0.288242012915     -0.0509515265795    -0.169341066806     
6900000000.0        -0.0524156722819    -0.171482762845     0.937886680492      -0.292139400373     0.937886680492      -0.292139400373     -0.0524156722819    -0.171482762845     
7000000000.0        -0.053896897246     -0.173610067116     0.936186539454      -0.296022691302     0.936186539454      -0.296022691302     -0.053896897246     -0.173610067116     
7100000000.0        -0.0553950313851    -0.175722832946     0.934466276854      -0.299891742523     0.934466276854      -0.299891742523     -0.0553950313851    -0.175722832946     
7200000000.0        -0.0569099032577    -0.17782091608      0.932726059766      -0.303746413261     0.932726059766      -0.303746413261     -0.0569099032577    -0.17782091608      
7300000000.0        -0.0584413401089    -0.179904174691     0.930966056527      -0.307586565156     0.930966056527      -0.307586565156     -0.0584413401089    -0.179904174691     
7400000000.0        -0.0599891679111    -0.181972469392     0.929186436695      -0.311412062278     0.929186436695      -0.311412062278     -0.0599891679111    -0.181972469392     
7500000000.0        -0.0615532114048    -0.184025663252     0.927387371006      -0.315222771135     0.927387371006      -0.315222771135     -0.0615532114048    -0.184025663252     
7600000000.0        -0.06313329414      -0.186063621802     0.925569031337      -0.319018560688     0.925569031337      -0.319018560688     -0.06313329414      -0.186063621802     
7700000000.0        -0.064729238517     -0.188086213045     0.92373159066       -0.322799302356     0.92373159066       -0.322799302356     -0.064729238517     -0.188086213045     
7800000000.0        -0.0663408658273    -0.190093307467     0.921875223002      -0.326564870026     0.921875223002      -0.326564870026     -0.0663408658273    -0.190093307467     
7900000000.0        -0.0679679962952    -0.192084778045     0.920000103406      -0.330315140066     0.920000103406      -0.330315140066     -0.0679679962952    -0.192084778045     
8000000000.0        -0.0696104491184    -0.194060500251     0.918106407884      -0.334049991323     0.918106407884      -0.334049991323     -0.0696104491184    -0.194060500251     
8100000000.0        -0.0712680425092    -0.196020352063     0.91619431338       -0.337769305139     0.91619431338       -0.337769305139     -0.0712680425092    -0.196020352063     
8200000000.0        -0.0729405937355    -0.197964213968     0.914263997729      -0.34147296535      0.914263997729      -0.34147296535      -0.0729405937355    -0.197964213968     
8300000000.0        -0.0746279191616    -0.199891968968     0.912315639613      -0.345160858295     0.912315639613      -0.345160858295     -0.0746279191616    -0.199891968968     
8400000000.0        -0.0763298342892    -0.201803502584     0.910349418519      -0.348832872816     0.910349418519      -0.348832872816     -0.0763298342892    -0.201803502584     
8500000000.0        -0.0780461537977    -0.203698702857     0.908365514704      -0.352488900267     0.908365514704      -0.352488900267     -0.0780461537977    -0.203698702857     
8600000000.0        -0.0797766915855    -0.205577460356     0.906364109146      -0.35612883451      0.906364109146      -0.35612883451      -0.0797766915855    -0.205577460356     
8700000000.0        -0.0815212608097    -0.207439668175     0.904345383509      -0.359752571924     0.904345383509      -0.359752571924     -0.0815212608097    -0.207439668175     
8800000000.0        -0.0832796739269    -0.209285221936     0.902309520102      -0.363360011398     0.902309520102      -0.363360011398     -0.0832796739269    -0.209285221936     
8900000000.0        -0.0850517427332    -0.211114019791     0.900256701834      -0.366951054339     0.900256701834      -0.366951054339     -0.0850517427332    -0.211114019791     
9000000000.0        -0.086837278404     -0.212925962417     0.898187112179      -0.370525604667     0.898187112179      -0.370525604667     -0.086837278404     -0.212925962417     
9100000000.0        -0.088636091534     -0.214720953022     0.896100935133      -0.374083568814     0.896100935133      -0.374083568814     -0.088636091534     -0.214720953022     
9200000000.0        -0.0904479921769    -0.216498897335     0.893998355176      -0.377624855726     0.893998355176      -0.377624855726     -0.0904479921769    -0.216498897335     
9300000000.0        -0.0922727898842    -0.218259703612     0.891879557229      -0.381149376855     0.891879557229      -0.381149376855     -0.0922727898842    -0.218259703612     
9400000000.0        -0.0941102937449    -0.220003282626     0.889744726619      -0.384657046159     0.889744726619      -0.384657046159     -0.0941102937449    -0.220003282626     
9500000000.0        -0.0959603124237    -0.221729547666     0.887594049037      -0.388147780099     0.887594049037      -0.388147780099     -0.0959603124237    -0.221729547666     
9600000000.0        -0.0978226542003    -0.223438414533     0.885427710501      -0.391621497632     0.885427710501      -0.391621497632     -0.0978226542003    -0.223438414533     
9700000000.0        -0.0996971270073    -0.225129801536     0.883245897314      -0.395078120206     0.883245897314      -0.395078120206     -0.0996971270073    -0.225129801536     
9800000000.0        -0.101583538468     -0.22680362948      0.881048796031      -0.398517571756     0.881048796031      -0.398517571756     -0.101583538468     -0.22680362948      
9900000000.0        -0.103481695935     -0.228459821668     0.878836593417      -0.401939778694     0.878836593417      -0.401939778694     -0.103481695935     -0.228459821668     
10000000000.0       -0.105391406526     -0.230098303887     0.876609476408      -0.405344669905     0.876609476408      -0.405344669905     -0.105391406526     -0.230098303887     
