# Hz S RI R 50.00 
100000000.0         0.000135447362335   -0.00217415192465   0.999846816714      -0.00271888203946   0.999846816714      -0.00271888203946   0.000135447362335   -0.00217415192465   
200000000.0         0.000116305863816   -0.00434825574905   0.999825278863      -0.00543772500967   0.999825278863      -0.00543772500967   0.000116305863816   -0.00434825574905   
300000000.0         8.50901175629e-05   -0.00652225636442   0.999791871775      -0.0081564806165    0.999791871775      -0.0081564806165    8.50901175624e-05   -0.00652225636442   
400000000.0         4.19249418102e-05   -0.00869609190447   0.999746471199      -0.0108750920316    0.999746471199      -0.0108750920316    4.19249418102e-05   -0.00869609190447   
500000000.0         -1.31411504263e-05  -0.0108696969974    0.999689029991      -0.0135934981817    0.999689029991      -0.0135934981817    -1.31411504265e-05  -0.0108696969974    
600000000.0         -8.00826857166e-05  -0.0130430039507    0.99961952496       -0.0163116352207    0.99961952496       -0.0163116352207    -8.00826857168e-05  -0.0130430039507    
700000000.0         -0.000158883685144  -0.015215943365     0.999537943398      -0.0190294372783    0.999537943398      -0.0190294372783    -0.000158883685144  -0.015215943365     
800000000.0         -0.000249532712265  -0.0173884445058    0.999444278184      -0.0217468369099    0.999444278184      -0.0217468369099    -0.000249532712266  -0.0173884445058    
900000000.0         -0.000352020660832  -0.0195604355527    0.999338525624      -0.0244637653937    0.999338525624      -0.0244637653937    -0.000352020660833  -0.0195604355527    
1000000000.0        -0.000466339627264  -0.0217318437765    0.999220684359      -0.0271801529434    0.999220684359      -0.0271801529434    -0.000466339627264  -0.0217318437765    
1100000000.0        -0.000592482278937  -0.0239025956728    0.999090754766      -0.0298959288652    0.999090754766      -0.0298959288652    -0.000592482278937  -0.0239025956728    
1200000000.0        -0.000730441473763  -0.026072617066     0.998948738611      -0.0326110216807    0.998948738611      -0.0326110216807    -0.000730441473763  -0.026072617066     
1300000000.0        -0.000880210017552  -0.0282418331932    0.998794638826      -0.0353253592252    0.998794638826      -0.0353253592252    -0.000880210017552  -0.0282418331932    
1400000000.0        -0.0010417805018    -0.030410168773     0.998628459376      -0.0380388687276    0.998628459376      -0.0380388687276    -0.0010417805018    -0.030410168773     
1500000000.0        -0.00121514519093   -0.0325775480643    0.998450205161      -0.0407514768788    0.998450205161      -0.0407514768788    -0.00121514519093   -0.0325775480643    
1600000000.0        -0.00140029594115   -0.0347438949158    0.998259881955      -0.0434631098888    0.998259881955      -0.0434631098888    -0.00140029594115   -0.0347438949158    
1700000000.0        -0.00159722414045   -0.0369091328108    0.998057496365      -0.0461736935377    0.998057496365      -0.0461736935377    -0.00159722414045   -0.0369091328108    
1800000000.0        -0.001805920663     -0.0390731849048    0.997843055795      -0.0488831532191    0.997843055795      -0.0488831532191    -0.001805920663     -0.0390731849048    
1900000000.0        -0.00202637583378   -0.0412359740614    0.99761656843       -0.0515914139805    0.99761656843       -0.0515914139805    -0.00202637583378   -0.0412359740614    
2000000000.0        -0.00225857940059   -0.0433974228833    0.997378043218      -0.0542984005581    0.997378043218      -0.0542984005581    -0.00225857940059   -0.0433974228833    
2100000000.0        -0.00250252051154   -0.0455574537411    0.997127489857      -0.0570040374097    0.997127489857      -0.0570040374097    -0.00250252051154   -0.0455574537411    
2200000000.0        -0.00275818769668   -0.0477159888003    0.996864918789      -0.0597082487446    0.996864918789      -0.0597082487446    -0.00275818769668   -0.0477159888003    
2300000000.0        -0.00302556885281   -0.049872950046     0.996590341194      -0.0624109585508    0.996590341194      -0.0624109585508    -0.00302556885281   -0.049872950046     
2400000000.0        -0.00330465123078   -0.0520282593059    0.996303768987      -0.0651120906206    0.996303768987      -0.0651120906206    -0.00330465123078   -0.0520282593059    
2500000000.0        -0.00359542142487   -0.0541818382724    0.996005214811      -0.0678115685752    0.996005214811      -0.0678115685752    -0.00359542142487   -0.0541818382724    
2600000000.0        -0.00389786536368   -0.0563336085231    0.99569469204       -0.0705093158871    0.99569469204       -0.0705093158871    -0.00389786536368   -0.0563336085231    
2700000000.0        -0.00421196830245   -0.0584834915406    0.995372214774      -0.0732052559014    0.995372214774      -0.0732052559014    -0.00421196830245   -0.0584834915406    
2800000000.0        -0.00453771481645   -0.0606314087315    0.995037797838      -0.0758993118566    0.995037797838      -0.0758993118566    -0.00453771481645   -0.0606314087315    
2900000000.0        -0.00487508879539   -0.0627772814441    0.994691456784      -0.078591406904     0.994691456784      -0.078591406904     -0.00487508879539   -0.0627772814441    
3000000000.0        -0.00522407343851   -0.0649210309858    0.994333207887      -0.0812814641265    0.994333207887      -0.0812814641265    -0.00522407343851   -0.0649210309858    
3100000000.0        -0.00558465125056   -0.0670625786403    0.993963068146      -0.0839694065565    0.993963068146      -0.0839694065565    -0.00558465125056   -0.0670625786403    
3200000000.0        -0.00595680403825   -0.0692018456831    0.993581055287      -0.0866551571935    0.993581055287      -0.0866551571935    -0.00595680403825   -0.0692018456831    
3300000000.0        -0.00634051290737   -0.071338753398     0.993187187755      -0.0893386390207    0.993187187755      -0.0893386390207    -0.00634051290737   -0.071338753398     
3400000000.0        -0.0067357582603    -0.0734732230917    0.992781484721      -0.0920197750214    0.992781484721      -0.0920197750214    -0.0067357582603    -0.0734732230917    
3500000000.0        -0.00714251979409   -0.075605176109     0.992363966077      -0.0946984881948    0.992363966077      -0.0946984881948    -0.00714251979409   -0.075605176109     
3600000000.0        -0.00756077649889   -0.0777345338475    0.991934652438      -0.0973747015714    0.991934652438      -0.0973747015714    -0.00756077649889   -0.0777345338475    
3700000000.0        -0.00799050665672   -0.0798612177714    0.991493565138      -0.100048338228     0.991493565138      -0.100048338228     -0.00799050665672   -0.0798612177714    
3800000000.0        -0.00843168784073   -0.0819851494256    0.991040726234      -0.102719321302     0.991040726234      -0.102719321302     -0.00843168784073   -0.0819851494256    
3900000000.0        -0.00888429691463   -0.0841062504493    0.990576158501      -0.105387574007     0.990576158501      -0.105387574007     -0.00888429691463   -0.0841062504493    
4000000000.0        -0.00934831003257   -0.0862244425891    0.990099885433      -0.108053019645     0.990099885433      -0.108053019645     -0.00934831003257   -0.0862244425891    
4100000000.0        -0.00982370263921   -0.0883396477124    0.989611931241      -0.110715581621     0.989611931241      -0.110715581621     -0.00982370263921   -0.0883396477124    
4200000000.0        -0.0103104494701    -0.0904517878201    0.989112320852      -0.113375183457     0.989112320852      -0.113375183457     -0.0103104494701    -0.0904517878201    
4300000000.0        -0.0108085245525    -0.092560785059     0.988601079907      -0.116031748804     0.988601079907      -0.116031748804     -0.0108085245525    -0.092560785059     
4400000000.0        -0.0113179012061    -0.0946665617346    0.988078234758      -0.118685201455     0.988078234758      -0.118685201455     -0.0113179012061    -0.0946665617346    
4500000000.0        -0.0118385520441    -0.096769040323     0.987543812471      -0.12133546536      0.987543812471      -0.12133546536      -0.0118385520441    -0.096769040323     
4600000000.0        -0.0123704489749    -0.098868143483     0.986997840819      -0.123982464634     0.986997840819      -0.123982464634     -0.0123704489749    -0.098868143483     
4700000000.0        -0.0129135632036    -0.100963794068     0.986440348281      -0.126626123576     0.986440348281      -0.126626123576     -0.0129135632036    -0.100963794068     
4800000000.0        -0.0134678652338    -0.103055915138     0.985871364041      -0.129266366674     0.985871364041      -0.129266366674     -0.0134678652338    -0.103055915138     
4900000000.0        -0.0140333248696    -0.105144429969     0.985290917984      -0.13190311862      0.985290917984      -0.13190311862      -0.0140333248696    -0.105144429969     
5000000000.0        -0.0146099112179    -0.107229262068     0.984699040696      -0.134536304324     0.984699040696      -0.134536304324     -0.0146099112179    -0.107229262068     
5100000000.0        -0.0151975926909    -0.109310335183     0.984095763456      -0.13716584892      0.984095763456      -0.13716584892      -0.0151975926909    -0.109310335183     
5200000000.0        -0.0157963370089    -0.111387573309     0.98348111824       -0.139791677785     0.98348111824       -0.139791677785     -0.0157963370089    -0.111387573309     
5300000000.0        -0.0164061112028    -0.113460900707     0.982855137711      -0.142413716543     0.982855137711      -0.142413716543     -0.0164061112028    -0.113460900707     
5400000000.0        -0.0170268816172    -0.11553024191      0.98221785522       -0.145031891078     0.98221785522       -0.145031891078     -0.0170268816172    -0.11553024191      
5500000000.0        -0.017658613914     -0.117595521732     0.981569304802      -0.147646127549     0.981569304802      -0.147646127549     -0.017658613914     -0.117595521732     
5600000000.0        -0.0183012730753    -0.119656665284     0.980909521172      -0.150256352395     0.980909521172      -0.150256352395     -0.0183012730753    -0.119656665284     
5700000000.0        -0.0189548234071    -0.121713597978     0.980238539718      -0.152862492349     0.980238539718      -0.152862492349     -0.0189548234071    -0.121713597978     
5800000000.0        -0.0196192285432    -0.123766245543     0.979556396504      -0.155464474448     0.979556396504      -0.155464474448     -0.0196192285432    -0.123766245543     
5900000000.0        -0.0202944514489    -0.125814534029     0.97886312826       -0.15806222604      0.97886312826       -0.15806222604      -0.0202944514489    -0.125814534029     
6000000000.0        -0.0209804544252    -0.127858389822     0.97815877238       -0.160655674801     0.97815877238       -0.160655674801     -0.0209804544252    -0.127858389822     
6100000000.0        -0.0216771991127    -0.129897739651     0.977443366918      -0.163244748739     0.977443366918      -0.163244748739     -0.0216771991127    -0.129897739651     
6200000000.0        -0.0223846464962    -0.131932510598     0.976716950583      -0.165829376203     0.976716950583      -0.165829376203     -0.0223846464962    -0.131932510598     
6300000000.0        -0.0231027569093    -0.133962630108     0.975979562734      -0.168409485901     0.975979562734      -0.168409485901     -0.0231027569093    -0.133962630108     
6400000000.0        -0.0238314900389    -0.135988025998     0.975231243375      -0.170985006898     0.975231243375      -0.170985006898     -0.0238314900389    -0.135988025998     
6500000000.0        -0.0245708049299    -0.138008626465     0.974472033153      -0.173555868634     0.974472033153      -0.173555868634     -0.0245708049299    -0.138008626465     
6600000000.0        -0.0253206599904    -0.140024360098     0.973701973348      -0.176122000932     0.973701973348      -0.176122000932     -0.0253206599904    -0.140024360098     
6700000000.0        -0.0260810129964    -0.142035155883     0.972921105873      -0.178683334002     0.972921105873      -0.178683334002     -0.0260810129964    -0.142035155883     
6800000000.0        -0.0268518210975    -0.144040943215     0.972129473265      -0.181239798456     0.972129473265      -0.181239798456     -0.0268518210975    -0.144040943215     
6900000000.0        -0.0276330408219    -0.146041651905     0.97132711868       -0.183791325314     0.97132711868       -0.183791325314     -0.0276330408219    -0.146041651905     
7000000000.0        -0.0284246280819    -0.14803721219      0.970514085889      -0.186337846012     0.970514085889      -0.186337846012     -0.0284246280819    -0.14803721219      
7100000000.0        -0.0292265381794    -0.150027554737     0.969690419273      -0.188879292413     0.969690419273      -0.188879292413     -0.0292265381794    -0.150027554737     
7200000000.0        -0.0300387258122    -0.152012610658     0.968856163815      -0.191415596812     0.968856163815      -0.191415596812     -0.0300387258122    -0.152012610658     
7300000000.0        -0.0308611450789    -0.153992311512     0.968011365094      -0.193946691948     0.968011365094      -0.193946691948     -0.0308611450789    -0.153992311512     
7400000000.0        -0.0316937494856    -0.155966589317     0.967156069281      -0.196472511009     0.967156069281      -0.196472511009     -0.0316937494856    -0.155966589317     
7500000000.0        -0.0325364919517    -0.157935376556     0.966290323131      -0.198992987643     0.966290323131      -0.198992987643     -0.0325364919517    -0.157935376556     
7600000000.0        -0.033389324816     -0.159898606184     0.96541417398       -0.201508055961     0.96541417398       -0.201508055961     -0.033389324816     -0.159898606184     
7700000000.0        -0.0342521998433    -0.161856211638     0.964527669733      -0.204017650551     0.964527669733      -0.204017650551     -0.0342521998433    -0.161856211638     
7800000000.0        -0.0351250682303    -0.16380812684      0.963630858864      -0.20652170648      0.963630858864      -0.20652170648      -0.0351250682303    -0.16380812684      
7900000000.0        -0.0360078806124    -0.165754286211     0.962723790404      -0.209020159306     0.962723790404      -0.209020159306     -0.0360078806124    -0.165754286211     
8000000000.0        -0.0369005870704    -0.167694624671     0.961806513937      -0.211512945079     0.961806513937      -0.211512945079     -0.0369005870704    -0.167694624671     
8100000000.0        -0.037803137137     -0.169629077649     0.960879079596      -0.214000000357     0.960879079596      -0.214000000357     -0.037803137137     -0.169629077649     
8200000000.0        -0.0387154798036    -0.171557581094     0.95994153805       -0.216481262205     0.95994153805       -0.216481262205     -0.0387154798036    -0.171557581094     
8300000000.0        -0.0396375635271    -0.173480071473     0.958993940501      -0.218956668204     0.958993940501      -0.218956668204     -0.0396375635271    -0.173480071473     
8400000000.0        -0.040569336237     -0.175396485785     0.958036338677      -0.221426156462     0.958036338677      -0.221426156462     -0.040569336237     -0.175396485785     
8500000000.0        -0.0415107453426    -0.177306761563     0.957068784824      -0.223889665614     0.957068784824      -0.223889665614     -0.0415107453426    -0.177306761563     
8600000000.0        -0.0424617377398    -0.179210836885     0.956091331698      -0.226347134832     0.956091331698      -0.226347134832     -0.0424617377398    -0.179210836885     
8700000000.0        -0.0434222598184    -0.181108650372     0.955104032562      -0.228798503833     0.955104032562      -0.228798503833     -0.0434222598184    -0.181108650372     
8800000000.0        -0.0443922574696    -0.183000141205     0.954106941173      -0.231243712879     0.954106941173      -0.231243712879     -0.0443922574696    -0.183000141205     
8900000000.0        -0.0453716760931    -0.18488524912      0.953100111777      -0.233682702791     0.953100111777      -0.233682702791     -0.0453716760931    -0.18488524912      
9000000000.0        -0.0463604606047    -0.186763914422     0.952083599103      -0.236115414948     0.952083599103      -0.236115414948     -0.0463604606047    -0.186763914422     
9100000000.0        -0.0473585554437    -0.188636077985     0.951057458353      -0.238541791295     0.951057458353      -0.238541791295     -0.0473585554437    -0.188636077985     
9200000000.0        -0.0483659045807    -0.190501681262     0.950021745198      -0.240961774351     0.950021745198      -0.240961774351     -0.0483659045807    -0.190501681262     
9300000000.0        -0.0493824515249    -0.192360666285     0.948976515764      -0.24337530721      0.948976515764      -0.24337530721      -0.0493824515249    -0.192360666285     
9400000000.0        -0.050408139332     -0.194212975676     0.947921826633      -0.245782333551     0.947921826633      -0.245782333551     -0.050408139332     -0.194212975676     
9500000000.0        -0.051442910612     -0.196058552647     0.946857734827      -0.248182797638     0.946857734827      -0.248182797638     -0.051442910612     -0.196058552647     
9600000000.0        -0.052486707537     -0.197897341009     0.945784297805      -0.250576644329     0.945784297805      -0.250576644329     -0.052486707537     -0.197897341009     
9700000000.0        -0.0535394718487    -0.199729285172     0.944701573454      -0.25296381908      0.944701573454      -0.25296381908      -0.0535394718487    -0.199729285172     
9800000000.0        -0.0546011448672    -0.201554330156     0.94360962008       -0.255344267947     0.94360962008       -0.255344267947     -0.0546011448672    -0.201554330156     
9900000000.0        -0.0556716674977    -0.203372421588     0.942508496401      -0.257717937595     0.942508496401      -0.257717937595     -0.0556716674977    -0.203372421588     
10000000000.0       -0.0567509802399    -0.205183505713     0.941398261539      -0.260084775297     0.941398261539      -0.260084775297     -0.0567509802399    -0.205183505713     
