# Hz S RI R 50.00 
100000000.0         0.0077243446119     0.000932373335685   0.992274172127      -0.00136036530645   0.992274172127      -0.00136036530645   0.0077243446119     0.000932373335685   
200000000.0         0.00777873107825    0.00186450459866    0.992219118738      -0.0027204897069    0.992219118738      -0.0027204897069    0.00777873107825    0.00186450459866    
300000000.0         0.00782201244494    0.00279648042887    0.992174986776      -0.00408046066298   0.992174986776      -0.00408046066298   0.00782201244494    0.00279648042887    
400000000.0         0.00786086997961    0.00372832556389    0.992135094966      -0.00544030357083   0.992135094966      -0.00544030357083   0.00786086997961    0.00372832556389    
500000000.0         0.00789788086316    0.00466005034067    0.992096866117      -0.00680002934442   0.992096866117      -0.00680002934442   0.00789788086316    0.00466005034067    
600000000.0         0.00793436138632    0.00559165871815    0.99205898393       -0.00815964246682   0.99205898393       -0.00815964246682   0.00793436138632    0.00559165871815    
700000000.0         0.00797109019861    0.00652315115826    0.992020669743      -0.00951914388571   0.992020669743      -0.00951914388571   0.00797109019861    0.00652315115826    
800000000.0         0.00800857243088    0.00745452596176    0.991981418417      -0.0108785323579    0.991981418417      -0.0108785323579    0.00800857243088    0.00745452596176    
900000000.0         0.00804715736467    0.0083857799854     0.991940880658      -0.0122378051723    0.991940880658      -0.0122378051723    0.00804715736467    0.0083857799854     
1000000000.0        0.00808709811013    0.00931690906647    0.991898803345      -0.0135969585781    0.991898803345      -0.0135969585781    0.00808709811013    0.00931690906647    
1100000000.0        0.00812858479879    0.010247908292      0.991854996332      -0.0149559880576    0.991854996332      -0.0149559880576    0.00812858479879    0.010247908292      
1200000000.0        0.00817176437321    0.0111787721794     0.991809312666      -0.0163148885083    0.991809312666      -0.0163148885083    0.00817176437321    0.0111787721794     
1300000000.0        0.0082167530444     0.0121094948018     0.991761636121      -0.0176736543708    0.991761636121      -0.0176736543708    0.0082167530444     0.0121094948018     
1400000000.0        0.00826364448447    0.0130400698794     0.991711873012      -0.0190322797205    0.991711873012      -0.0190322797205    0.00826364448447    0.0130400698794     
1500000000.0        0.00831251541234    0.0139704908462     0.991659946604      -0.0203907583371    0.991659946604      -0.0203907583371    0.00831251541234    0.0139704908462     
1600000000.0        0.00836342951881    0.014900750902      0.991605793191      -0.0217490837557    0.991605793191      -0.0217490837557    0.00836342951881    0.014900750902      
1700000000.0        0.00841644029676    0.0158308430514     0.991549359265      -0.023107249308     0.991549359265      -0.023107249308     0.00841644029676    0.0158308430514     
1800000000.0        0.0084715931274     0.0167607601353     0.991490599428      -0.0244652481538    0.991490599428      -0.0244652481538    0.0084715931274     0.0167607601353     
1900000000.0        0.0085289268484     0.017690494856      0.991429474825      -0.0258230733073    0.991429474825      -0.0258230733073    0.0085289268484     0.017690494856      
2000000000.0        0.00858847495254    0.0186200397977     0.991365951947      -0.027180717657     0.991365951947      -0.027180717657     0.00858847495254    0.0186200397977     
2100000000.0        0.00865026651797    0.0195493874426     0.991300001697      -0.0285381739837    0.991300001697      -0.0285381739837    0.00865026651797    0.0195493874426     
2200000000.0        0.00871432693986    0.0204785301854     0.991231598661      -0.0298954349742    0.991231598661      -0.0298954349742    0.00871432693986    0.0204785301854     
2300000000.0        0.00878067851286    0.0214074603445     0.991160720525      -0.0312524932336    0.991160720525      -0.0312524932336    0.00878067851286    0.0214074603445     
2400000000.0        0.00884934089987    0.0223361701719     0.991087347607      -0.0326093412951    0.991087347607      -0.0326093412951    0.00884934089987    0.0223361701719     
2500000000.0        0.00892033151303    0.0232646518616     0.991011462475      -0.0339659716289    0.991011462475      -0.0339659716289    0.00892033151303    0.0232646518616     
2600000000.0        0.00899366582622    0.0241928975566     0.990933049635      -0.0353223766495    0.990933049635      -0.0353223766495    0.00899366582622    0.0241928975566     
2700000000.0        0.00906935763346    0.0251208993552     0.99085209527       -0.036678548722     0.99085209527       -0.036678548722     0.00906935763346    0.0251208993552     
2800000000.0        0.00914741926425    0.0260486493167     0.990768587031      -0.038034480168     0.990768587031      -0.038034480168     0.00914741926425    0.0260486493167     
2900000000.0        0.00922786176419    0.0269761394653     0.990682513848      -0.0393901632702    0.990682513848      -0.0393901632702    0.00922786176419    0.0269761394653     
3000000000.0        0.00931069504765    0.027903361795      0.990593865786      -0.0407455902769    0.990593865786      -0.0407455902769    0.00931069504765    0.027903361795      
3100000000.0        0.00939592802733    0.0288303082729     0.990502633909      -0.0421007534057    0.990502633909      -0.0421007534057    0.00939592802733    0.0288303082729     
3200000000.0        0.00948356872509    0.0297569708425     0.99040881017       -0.0434556448471    0.99040881017       -0.0434556448471    0.00948356872509    0.0297569708425     
3300000000.0        0.00957362436706    0.0306833414266     0.99031238732       -0.0448102567671    0.99031238732       -0.0448102567671    0.00957362436706    0.0306833414266     
3400000000.0        0.00966610146573    0.0316094119298     0.990213358823      -0.0461645813105    0.990213358823      -0.0461645813105    0.00966610146573    0.0316094119298     
3500000000.0        0.00976100589119    0.0325351742412     0.990111718782      -0.0475186106029    0.990111718782      -0.0475186106029    0.00976100589119    0.0325351742412     
3600000000.0        0.00985834293307    0.0334606202359     0.990007461883      -0.048872336753     0.990007461883      -0.048872336753     0.00985834293307    0.0334606202359     
3700000000.0        0.00995811735475    0.0343857417773     0.989900583336      -0.050225751855     0.989900583336      -0.050225751855     0.00995811735475    0.0343857417773     
3800000000.0        0.0100603334409     0.0353105307189     0.989791078832      -0.0515788479897    0.989791078832      -0.0515788479897    0.0100603334409     0.0353105307189     
3900000000.0        0.0101649950395     0.0362349789057     0.989678944494      -0.0529316172269    0.989678944494      -0.0529316172269    0.0101649950395     0.0362349789057     
4000000000.0        0.0102721055986     0.0371590781755     0.989564176847      -0.0542840516265    0.989564176847      -0.0542840516265    0.0102721055986     0.0371590781755     
4100000000.0        0.0103816681995     0.0380828203606     0.989446772784      -0.05563614324      0.989446772784      -0.05563614324      0.0103816681995     0.0380828203606     
4200000000.0        0.0104936855856     0.0390061972889     0.989326729532      -0.0569878841121    0.989326729532      -0.0569878841121    0.0104936855856     0.0390061972889     
4300000000.0        0.0106081601886     0.0399292007846     0.98920404463       -0.0583392662812    0.98920404463       -0.0583392662812    0.0106081601886     0.0399292007846     
4400000000.0        0.010725094152      0.0408518226702     0.989078715908      -0.0596902817814    0.989078715908      -0.0596902817814    0.010725094152      0.0408518226702     
4500000000.0        0.0108444893515     0.0417740547663     0.988950741459      -0.0610409226428    0.988950741459      -0.0610409226428    0.0108444893515     0.0417740547663     
4600000000.0        0.0109663474143     0.0426958888934     0.988820119627      -0.0623911808929    0.988820119627      -0.0623911808929    0.0109663474143     0.0426958888934     
4700000000.0        0.0110906697356     0.0436173168724     0.988686848985      -0.0637410485573    0.988686848985      -0.0637410485573    0.0110906697356     0.0436173168724     
4800000000.0        0.0112174574942     0.0445383305253     0.988550928326      -0.0650905176608    0.988550928326      -0.0650905176608    0.0112174574942     0.0445383305253     
4900000000.0        0.0113467116662     0.0454589216763     0.988412356642      -0.0664395802278    0.988412356642      -0.0664395802278    0.0113467116662     0.0454589216763     
5000000000.0        0.0114784330377     0.046379082152      0.988271133115      -0.0677882282833    0.988271133115      -0.0677882282833    0.0114784330377     0.046379082152      
5100000000.0        0.0116126222159     0.0472988037824     0.988127257106      -0.0691364538536    0.988127257106      -0.0691364538536    0.0116126222159     0.0472988037824     
5200000000.0        0.0117492796399     0.0482180784015     0.987980728144      -0.0704842489669    0.987980728144      -0.0704842489669    0.0117492796399     0.0482180784015     
5300000000.0        0.01188840559       0.0491368978478     0.987831545917      -0.0718316056541    0.987831545917      -0.0718316056541    0.01188840559       0.0491368978478     
5400000000.0        0.0120300001962     0.0500552539648     0.98767971026       -0.073178515949     0.98767971026       -0.073178515949     0.0120300001962     0.0500552539648     
5500000000.0        0.0121740634465     0.0509731386016     0.987525221154      -0.0745249718894    0.987525221154      -0.0745249718894    0.0121740634465     0.0509731386016     
5600000000.0        0.012320595194      0.0518905436134     0.98736807871       -0.0758709655171    0.98736807871       -0.0758709655171    0.012320595194      0.0518905436134     
5700000000.0        0.0124695951638     0.0528074608621     0.98720828317       -0.0772164888789    0.98720828317       -0.0772164888789    0.0124695951638     0.0528074608621     
5800000000.0        0.0126210629587     0.0537238822164     0.987045834896      -0.0785615340268    0.987045834896      -0.0785615340268    0.0126210629587     0.0537238822164     
5900000000.0        0.0127749980654     0.0546397995526     0.986880734367      -0.0799060930184    0.986880734367      -0.0799060930184    0.0127749980654     0.0546397995526     
6000000000.0        0.0129313998596     0.0555552047549     0.986712982172      -0.0812501579178    0.986712982172      -0.0812501579178    0.0129313998596     0.0555552047549     
6100000000.0        0.0130902676107     0.0564700897158     0.986542579005      -0.0825937207954    0.986542579005      -0.0825937207954    0.0130902676107     0.0564700897158     
6200000000.0        0.0132516004864     0.0573844463363     0.986369525663      -0.0839367737289    0.986369525663      -0.0839367737289    0.0132516004864     0.0573844463363     
6300000000.0        0.013415397557      0.0582982665267     0.98619382304       -0.0852793088032    0.98619382304       -0.0852793088032    0.013415397557      0.0582982665267     
6400000000.0        0.013581657799      0.0592115422063     0.986015472122      -0.0866213181113    0.986015472122      -0.0866213181113    0.013581657799      0.0592115422063     
6500000000.0        0.013750380099      0.0601242653045     0.985834473985      -0.0879627937542    0.985834473985      -0.0879627937542    0.013750380099      0.0601242653045     
6600000000.0        0.0139215632568     0.0610364277606     0.985650829792      -0.0893037278416    0.985650829792      -0.0893037278416    0.0139215632568     0.0610364277606     
6700000000.0        0.0140952059886     0.0619480215242     0.985464540789      -0.0906441124919    0.985464540789      -0.0906441124919    0.0140952059886     0.0619480215242     
6800000000.0        0.01427130693       0.0628590385559     0.985275608302      -0.0919839398329    0.985275608302      -0.0919839398329    0.01427130693       0.0628590385559     
6900000000.0        0.0144498646387     0.063769470827      0.985084033735      -0.093323202002     0.985084033735      -0.093323202002     0.0144498646387     0.063769470827      
7000000000.0        0.0146308775969     0.0646793103201     0.984889818566      -0.0946618911464    0.984889818566      -0.0946618911464    0.0146308775969     0.0646793103201     
7100000000.0        0.0148143442138     0.0655885490296     0.984692964348      -0.0959999994234    0.984692964348      -0.0959999994234    0.0148143442138     0.0655885490296     
7200000000.0        0.0150002628279     0.0664971789614     0.984493472703      -0.0973375190011    0.984493472703      -0.0973375190011    0.0150002628279     0.0664971789614     
7300000000.0        0.0151886317089     0.0674051921339     0.984291345319      -0.098674442058     0.984291345319      -0.098674442058     0.0151886317089     0.0674051921339     
7400000000.0        0.01537944906       0.0683125805775     0.984086583955      -0.100010760784     0.984086583955      -0.100010760784     0.01537944906       0.0683125805775     
7500000000.0        0.0155727130194     0.0692193363356     0.983879190431      -0.10134646738      0.983879190431      -0.10134646738      0.0155727130194     0.0692193363356     
7600000000.0        0.0157684216621     0.0701254514642     0.983669166631      -0.102681554059     0.983669166631      -0.102681554059     0.0157684216621     0.0701254514642     
7700000000.0        0.0159665730017     0.0710309180324     0.983456514501      -0.104016013045     0.983456514501      -0.104016013045     0.0159665730017     0.0710309180324     
7800000000.0        0.0161671649921     0.071935728123      0.983241236044      -0.105349836575     0.983241236044      -0.105349836575     0.0161671649921     0.071935728123      
7900000000.0        0.0163701955284     0.072839873832      0.983023333324      -0.106683016898     0.983023333324      -0.106683016898     0.0163701955284     0.072839873832      
8000000000.0        0.016575662449      0.0737433472694     0.98280280846       -0.108015546276     0.98280280846       -0.108015546276     0.016575662449      0.0737433472694     
8100000000.0        0.0167835635362     0.0746461405593     0.982579663626      -0.109347416983     0.982579663626      -0.109347416983     0.0167835635362     0.0746461405593     
8200000000.0        0.016993896518      0.0755482458399     0.982353901053      -0.110678621306     0.982353901053      -0.110678621306     0.016993896518      0.0755482458399     
8300000000.0        0.017206659069      0.076449655264      0.982125523021      -0.112009151548     0.982125523021      -0.112009151548     0.017206659069      0.076449655264      
8400000000.0        0.0174218488117     0.0773503609989     0.981894531866      -0.113339000022     0.981894531866      -0.113339000022     0.0174218488117     0.0773503609989     
8500000000.0        0.0176394633173     0.0782503552271     0.981660929971      -0.114668159056     0.981660929971      -0.114668159056     0.0176394633173     0.0782503552271     
8600000000.0        0.017859500107      0.0791496301459     0.981424719772      -0.115996620994     0.981424719772      -0.115996620994     0.017859500107      0.0791496301459     
8700000000.0        0.0180819566525     0.080048177968      0.981185903751      -0.11732437819      0.981185903751      -0.11732437819      0.0180819566525     0.080048177968      
8800000000.0        0.0183068303777     0.0809459909217     0.98094448444       -0.118651423017     0.98094448444       -0.118651423017     0.0183068303777     0.0809459909216     
8900000000.0        0.0185341186587     0.0818430612506     0.980700464419      -0.119977747859     0.980700464419      -0.119977747859     0.0185341186587     0.0818430612506     
9000000000.0        0.0187638188254     0.0827393812147     0.98045384631       -0.121303345118     0.98045384631       -0.121303345118     0.0187638188254     0.0827393812147     
9100000000.0        0.0189959281615     0.0836349430897     0.980204632785      -0.122628207207     0.980204632785      -0.122628207207     0.0189959281615     0.0836349430897     
9200000000.0        0.0192304439061     0.0845297391675     0.979952826559      -0.123952326559     0.979952826559      -0.123952326559     0.0192304439061     0.0845297391675     
9300000000.0        0.0194673632538     0.0854237617566     0.97969843039       -0.125275695618     0.97969843039       -0.125275695618     0.0194673632538     0.0854237617566     
9400000000.0        0.0197066833557     0.086317003182      0.97944144708       -0.126598306847     0.97944144708       -0.126598306847     0.0197066833557     0.086317003182      
9500000000.0        0.0199484013199     0.0872094557856     0.979181879474      -0.127920152723     0.979181879474      -0.127920152723     0.0199484013199     0.0872094557856     
9600000000.0        0.0201925142123     0.088101111926      0.97891973046       -0.129241225739     0.97891973046       -0.129241225739     0.0201925142123     0.088101111926      
9700000000.0        0.0204390190572     0.088991963979      0.978655002964      -0.130561518405     0.978655002964      -0.130561518405     0.0204390190572     0.088991963979      
9800000000.0        0.0206879128376     0.0898820043379     0.978387699956      -0.131881023246     0.978387699956      -0.131881023246     0.0206879128376     0.0898820043379     
9900000000.0        0.0209391924963     0.0907712254131     0.978117824445      -0.133199732805     0.978117824445      -0.133199732805     0.0209391924963     0.0907712254131     
10000000000.0       0.0211928549359     0.091659619633      0.977845379479      -0.134517639641     0.977845379479      -0.134517639641     0.0211928549359     0.091659619633      
