# Hz S RI R 50.00 
100000000.0         0.00483350727766    0.00071047069127    0.995165169893      -0.00101231690774   0.995165169893      -0.00101231690774   0.00483350727766    0.00071047069127    
200000000.0         0.00486740559969    0.00142082886393    0.995130857477      -0.00202452288834   0.995130857477      -0.00202452288834   0.00486740559969    0.00142082886393    
300000000.0         0.00489418115576    0.0021311161232     0.995103576559      -0.00303666047121   0.995103576559      -0.00303666047121   0.00489418115576    0.0021311161232     
400000000.0         0.00491802583019    0.00284134488267    0.995079135247      -0.00404874279333   0.995079135247      -0.00404874279333   0.00491802583019    0.00284134488267    
500000000.0         0.00494055644655    0.00355152074255    0.995055916713      -0.00506077607739   0.995055916713      -0.00506077607739   0.00494055644655    0.00355152074255    
600000000.0         0.00496259876098    0.00426164627795    0.995033095194      -0.00607276345536   0.995033095194      -0.00607276345536   0.00496259876098    0.00426164627795    
700000000.0         0.0049846412485     0.00497172240178    0.995010182209      -0.00708470634905   0.995010182209      -0.00708470634905   0.0049846412485     0.00497172240178    
800000000.0         0.00500700081294    0.00568174899771    0.994986860846      -0.00809660511385   0.994986860846      -0.00809660511385   0.00500700081294    0.00568174899771    
900000000.0         0.00502989660905    0.0063917252605     0.994962911944      -0.00910845938623   0.994962911944      -0.00910845938623   0.00502989660905    0.0063917252605     
1000000000.0        0.0050534874809     0.00710164989786    0.99493817665       -0.0101202682902    0.99493817665       -0.0101202682902    0.0050534874809     0.00710164989786    
1100000000.0        0.00507789278436    0.00781152125857    0.9949125356        -0.0111320305696    0.9949125356        -0.0111320305696    0.00507789278436    0.00781152125857    
1200000000.0        0.00510320480083    0.00852133741854    0.994885896505      -0.0121437446763    0.994885896505      -0.0121437446763    0.00510320480083    0.00852133741854    
1300000000.0        0.00512949655134    0.00923109624075    0.994858186333      -0.0131554088327    0.994858186333      -0.0131554088327    0.00512949655134    0.00923109624075    
1400000000.0        0.00515682693536    0.00994079541871    0.994829346176      -0.0141670210771    0.994829346176      -0.0141670210771    0.00515682693536    0.00994079541871    
1500000000.0        0.0051852442342     0.0106504325087     0.994799327744      -0.0151785792968    0.994799327744      -0.0151785792968    0.00518524423419    0.0106504325087     
1600000000.0        0.00521478857276    0.0113600049541     0.9947680909        -0.0161900812545    0.9947680909        -0.0161900812545    0.00521478857276    0.0113600049541     
1700000000.0        0.00524549369455    0.0120695101046     0.99473560189       -0.0172015246077    0.99473560189       -0.0172015246077    0.00524549369455    0.0120695101046     
1800000000.0        0.00527738827007    0.0127789452313     0.994701832035      -0.0182129069247    0.994701832035      -0.0182129069247    0.00527738827007    0.0127789452313     
1900000000.0        0.00531049688021    0.0134883075383     0.994666756741      -0.0192242256978    0.994666756741      -0.0192242256978    0.00531049688021    0.0134883075383     
2000000000.0        0.00534484076788    0.0141975941728     0.994630354754      -0.020235478353     0.994630354754      -0.020235478353     0.00534484076788    0.0141975941728     
2100000000.0        0.0053804384214     0.0149068022329     0.994592607575      -0.0212466622591    0.994592607575      -0.0212466622591    0.0053804384214     0.0149068022329     
2200000000.0        0.00541730603323    0.0156159287742     0.994553498999      -0.0222577747345    0.994553498999      -0.0222577747345    0.00541730603323    0.0156159287742     
2300000000.0        0.00545545786518    0.0163249708159     0.994513014751      -0.0232688130535    0.994513014751      -0.0232688130535    0.00545545786518    0.0163249708159     
2400000000.0        0.00549490654235    0.0170339253445     0.994471142194      -0.0242797744512    0.994471142194      -0.0242797744512    0.00549490654235    0.0170339253445     
2500000000.0        0.005535663292      0.0177427893186     0.994427870089      -0.0252906561278    0.994427870089      -0.0252906561278    0.005535663292      0.0177427893186     
2600000000.0        0.00557773813943    0.018451559672      0.994383188396      -0.0263014552525    0.994383188396      -0.0263014552525    0.00557773813943    0.018451559672      
2700000000.0        0.00562114007       0.0191602333169     0.994337088117      -0.0273121689665    0.994337088117      -0.0273121689665    0.00562114007       0.0191602333169     
2800000000.0        0.00566587716408    0.0198688071458     0.994289561159      -0.0283227943863    0.994289561159      -0.0283227943863    0.00566587716408    0.0198688071458     
2900000000.0        0.00571195671034    0.0205772780345     0.994240600218      -0.0293333286056    0.994240600218      -0.0293333286056    0.00571195671034    0.0205772780345     
3000000000.0        0.00575938530137    0.0212856428436     0.994190198689      -0.0303437686979    0.994190198689      -0.0303437686979    0.00575938530137    0.0212856428436     
3100000000.0        0.00580816891492    0.0219938984205     0.994138350578      -0.0313541117182    0.994138350578      -0.0313541117182    0.00580816891492    0.0219938984205     
3200000000.0        0.00585831298334    0.0227020416006     0.99408505044       -0.0323643547048    0.99408505044       -0.0323643547048    0.00585831298334    0.0227020416006     
3300000000.0        0.00590982245321    0.0234100692088     0.994030293313      -0.0333744946809    0.994030293313      -0.0333744946809    0.00590982245321    0.0234100692088     
3400000000.0        0.00596270183673    0.0241179780608     0.99397407467       -0.0343845286558    0.99397407467       -0.0343845286558    0.00596270183673    0.0241179780608     
3500000000.0        0.00601695525639    0.0248257649641     0.993916390373      -0.0353944536264    0.993916390373      -0.0353944536264    0.00601695525639    0.0248257649641     
3600000000.0        0.00607258648378    0.0255334267188     0.993857236635      -0.036404266578     0.993857236635      -0.036404266578     0.00607258648378    0.0255334267188     
3700000000.0        0.00612959897353    0.026240960119      0.993796609987      -0.0374139644855    0.993796609987      -0.0374139644855    0.00612959897353    0.026240960119      
3800000000.0        0.0061879958931     0.0269483619527     0.993734507245      -0.0384235443142    0.993734507245      -0.0384235443142    0.0061879958931     0.0269483619527     
3900000000.0        0.00624778014903    0.0276556290034     0.993670925487      -0.0394330030208    0.993670925487      -0.0394330030208    0.00624778014903    0.0276556290034     
4000000000.0        0.00630895441011    0.0283627580503     0.993605862027      -0.0404423375539    0.993605862027      -0.0404423375539    0.00630895441011    0.0283627580503     
4100000000.0        0.00637152112795    0.0290697458688     0.993539314398      -0.0414515448552    0.993539314398      -0.0414515448552    0.00637152112795    0.0290697458688     
4200000000.0        0.00643548255522    0.0297765892314     0.993471280331      -0.0424606218595    0.993471280331      -0.0424606218595    0.00643548255522    0.0297765892314     
4300000000.0        0.00650084076198    0.0304832849079     0.993401757739      -0.0434695654956    0.993401757739      -0.0434695654956    0.00650084076198    0.0304832849079     
4400000000.0        0.00656759765025    0.0311898296658     0.993330744704      -0.0444783726869    0.993330744704      -0.0444783726869    0.00656759765025    0.0311898296658     
4500000000.0        0.00663575496706    0.0318962202712     0.99325823946       -0.0454870403518    0.99325823946       -0.0454870403518    0.00663575496706    0.0318962202712     
4600000000.0        0.00670531431621    0.0326024534884     0.993184240388      -0.0464955654043    0.993184240388      -0.0464955654043    0.00670531431621    0.0326024534884     
4700000000.0        0.00677627716886    0.0333085260811     0.993108745999      -0.0475039447542    0.993108745999      -0.0475039447542    0.00677627716886    0.0333085260811     
4800000000.0        0.00684864487305    0.034014434812      0.993031754927      -0.0485121753075    0.993031754927      -0.0485121753075    0.00684864487305    0.034014434812      
4900000000.0        0.0069224186624     0.0347201764436     0.992953265922      -0.0495202539673    0.992953265922      -0.0495202539673    0.0069224186624     0.0347201764436     
5000000000.0        0.00699759966393    0.0354257477381     0.992873277837      -0.0505281776333    0.992873277837      -0.0505281776333    0.00699759966393    0.0354257477381     
5100000000.0        0.00707418890516    0.0361311454581     0.992791789629      -0.0515359432028    0.992791789629      -0.0515359432028    0.00707418890516    0.0361311454581     
5200000000.0        0.00715218732067    0.0368363663663     0.992708800344      -0.0525435475708    0.992708800344      -0.0525435475708    0.00715218732067    0.0368363663663     
5300000000.0        0.00723159575795    0.0375414072264     0.992624309117      -0.05355098763      0.992624309117      -0.05355098763      0.00723159575795    0.0375414072264     
5400000000.0        0.00731241498286    0.0382462648025     0.992538315163      -0.0545582602717    0.992538315163      -0.0545582602717    0.00731241498286    0.0382462648025     
5500000000.0        0.00739464568454    0.03895093586       0.992450817775      -0.0555653623854    0.992450817775      -0.0555653623854    0.00739464568454    0.03895093586       
5600000000.0        0.00747828848001    0.0396554171655     0.992361816317      -0.0565722908594    0.992361816317      -0.0565722908594    0.00747828848001    0.0396554171655     
5700000000.0        0.00756334391828    0.0403597054869     0.992271310222      -0.057579042581     0.992271310222      -0.057579042581     0.00756334391828    0.0403597054869     
5800000000.0        0.00764981248422    0.0410637975935     0.992179298985      -0.0585856144364    0.992179298985      -0.0585856144364    0.00764981248422    0.0410637975935     
5900000000.0        0.00773769460209    0.0417676902567     0.992085782164      -0.0595920033115    0.992085782164      -0.0595920033115    0.00773769460209    0.0417676902567     
6000000000.0        0.00782699063878    0.0424713802494     0.991990759372      -0.0605982060915    0.991990759372      -0.0605982060915    0.00782699063878    0.0424713802494     
6100000000.0        0.00791770090685    0.0431748643465     0.991894230278      -0.0616042196613    0.991894230278      -0.0616042196613    0.00791770090685    0.0431748643465     
6200000000.0        0.0080098256673     0.0438781393252     0.991796194602      -0.0626100409058    0.991796194602      -0.0626100409058    0.0080098256673     0.0438781393252     
6300000000.0        0.00810336513215    0.0445812019648     0.991696652111      -0.06361566671      0.991696652111      -0.06361566671      0.00810336513215    0.0445812019648     
6400000000.0        0.00819831946682    0.0452840490468     0.991595602621      -0.0646210939589    0.991595602621      -0.0646210939589    0.00819831946682    0.0452840490468     
6500000000.0        0.00829468879236    0.0459866773555     0.991493045992      -0.065626319538     0.991493045992      -0.065626319538     0.00829468879236    0.0459866773555     
6600000000.0        0.00839247318755    0.0466890836774     0.991388982124      -0.0666313403332    0.991388982124      -0.0666313403332    0.00839247318755    0.0466890836774     
6700000000.0        0.00849167269074    0.0473912648018     0.991283410959      -0.0676361532311    0.991283410959      -0.0676361532311    0.00849167269074    0.0473912648018     
6800000000.0        0.00859228730173    0.0480932175209     0.991176332478      -0.0686407551189    0.991176332478      -0.0686407551189    0.00859228730173    0.0480932175209     
6900000000.0        0.00869431698338    0.0487949386293     0.991067746697      -0.0696451428849    0.991067746697      -0.0696451428849    0.00869431698338    0.0487949386293     
7000000000.0        0.00879776166316    0.049496424925      0.99095765367       -0.0706493134182    0.99095765367       -0.0706493134182    0.00879776166316    0.049496424925      
7100000000.0        0.00890262123467    0.0501976732087     0.990846053481      -0.0716532636091    0.990846053481      -0.0716532636091    0.00890262123467    0.0501976732087     
7200000000.0        0.00900889555895    0.0508986802842     0.99073294625       -0.0726569903489    0.99073294625       -0.0726569903489    0.00900889555895    0.0508986802842     
7300000000.0        0.00911658446577    0.0515994429585     0.990618332127      -0.0736604905305    0.990618332127      -0.0736604905305    0.00911658446577    0.0515994429585     
7400000000.0        0.00922568775482    0.0522999580419     0.99050221129       -0.0746637610481    0.99050221129       -0.0746637610481    0.00922568775482    0.0522999580419     
7500000000.0        0.00933620519685    0.0530002223478     0.990384583949      -0.0756667987972    0.990384583949      -0.0756667987972    0.00933620519685    0.0530002223478     
7600000000.0        0.00944813653471    0.053700232693      0.99026545034       -0.0766696006751    0.99026545034       -0.0766696006751    0.00944813653471    0.053700232693      
7700000000.0        0.00956148148433    0.0543999858978     0.990144810727      -0.0776721635808    0.990144810727      -0.0776721635808    0.00956148148433    0.0543999858978     
7800000000.0        0.00967623973568    0.0550994787859     0.990022665398      -0.0786744844149    0.990022665398      -0.0786744844149    0.00967623973568    0.0550994787859     
7900000000.0        0.00979241095363    0.0557987081845     0.989899014667      -0.07967656008      0.989899014667      -0.07967656008      0.00979241095363    0.0557987081845     
8000000000.0        0.00990999477878    0.0564976709244     0.989773858874      -0.0806783874805    0.989773858874      -0.0806783874805    0.00990999477878    0.0564976709244     
8100000000.0        0.0100289908282     0.05719636384       0.989647198379      -0.0816799635229    0.989647198379      -0.0816799635229    0.0100289908282     0.05719636384       
8200000000.0        0.0101493986963     0.0578947837695     0.989519033567      -0.0826812851156    0.989519033567      -0.0826812851156    0.0101493986963     0.0578947837695     
8300000000.0        0.0102712179554     0.0585929275547     0.989389364845      -0.0836823491694    0.989389364845      -0.0836823491694    0.0102712179554     0.0585929275547     
8400000000.0        0.0103944481562     0.0592907920412     0.98925819264       -0.0846831525971    0.98925819264       -0.0846831525971    0.0103944481562     0.0592907920412     
8500000000.0        0.010519088829      0.0599883740785     0.989125517401      -0.0856836923139    0.989125517401      -0.0856836923139    0.010519088829      0.0599883740785     
8600000000.0        0.0106451394837     0.0606856705198     0.988991339596      -0.0866839652373    0.988991339596      -0.0866839652373    0.0106451394837     0.0606856705198     
8700000000.0        0.0107725996104     0.0613826782225     0.988855659713      -0.0876839682871    0.988855659713      -0.0876839682871    0.0107725996104     0.0613826782225     
8800000000.0        0.0109014686804     0.0620793940477     0.98871847826       -0.0886836983858    0.98871847826       -0.0886836983858    0.0109014686804     0.0620793940477     
8900000000.0        0.0110317461461     0.0627758148604     0.988579795763      -0.0896831524582    0.988579795763      -0.0896831524582    0.0110317461461     0.0627758148604     
9000000000.0        0.0111634314422     0.0634719375301     0.988439612765      -0.0906823274318    0.988439612765      -0.0906823274318    0.0111634314422     0.0634719375301     
9100000000.0        0.0112965239852     0.0641677589298     0.988297929828      -0.0916812202367    0.988297929828      -0.0916812202367    0.0112965239852     0.0641677589298     
9200000000.0        0.0114310231746     0.0648632759369     0.98815474753       -0.0926798278057    0.98815474753       -0.0926798278057    0.0114310231746     0.0648632759369     
9300000000.0        0.0115669283932     0.065558485433      0.988010066466      -0.0936781470743    0.988010066466      -0.0936781470743    0.0115669283932     0.065558485433      
9400000000.0        0.011704239007      0.0662533843037     0.98786388725       -0.094676174981     0.98786388725       -0.094676174981     0.011704239007      0.0662533843037     
9500000000.0        0.0118429543663     0.066947969439      0.987716210508      -0.0956739084669    0.987716210508      -0.0956739084669    0.0118429543663     0.066947969439      
9600000000.0        0.0119830738053     0.0676422377328     0.987567036884      -0.0966713444761    0.987567036884      -0.0966713444761    0.0119830738053     0.0676422377328     
9700000000.0        0.0121245966431     0.0683361860837     0.987416367037      -0.0976684799555    0.987416367037      -0.0976684799555    0.0121245966431     0.0683361860837     
9800000000.0        0.0122675221836     0.0690298113943     0.98726420164       -0.0986653118553    0.98726420164       -0.0986653118553    0.0122675221836     0.0690298113943     
9900000000.0        0.0124118497159     0.0697231105716     0.987110541384      -0.0996618371285    0.987110541384      -0.0996618371285    0.0124118497159     0.0697231105716     
10000000000.0       0.0125575785147     0.070416080527      0.986955386969      -0.100658052731     0.986955386969      -0.100658052731     0.0125575785147     0.070416080527      
