# Hz S RI R 50.00 
100000000.0         -1.80070973731e-05  -0.0042841959388    0.999971481519      -0.00431555841906   0.999971481519      -0.00431555841906   -1.8007097373e-05   -0.0042841959388    
200000000.0         -7.7703963703e-05   -0.00856766673396   0.999911711517      -0.00863039673725   0.999911711517      -0.00863039673725   -7.7703963703e-05   -0.00856766673396   
300000000.0         -0.000174359554281  -0.0128498469911    0.999814999933      -0.0129439521361    0.999814999933      -0.0129439521361    -0.000174359554281  -0.0128498469911    
400000000.0         -0.000307938401884  -0.0171301930017    0.999681373193      -0.0172556828722    0.999681373193      -0.0172556828722    -0.000307938401884  -0.0171301930017    
500000000.0         -0.000478397836958  -0.0214081728487    0.9995108705        -0.0215650586777    0.9995108705        -0.0215650586777    -0.000478397836958  -0.0214081728487    
600000000.0         -0.000685686360241  -0.0256832630216    0.999303541594      -0.0258715574793    0.999303541594      -0.0258715574793    -0.000685686360241  -0.0256832630216    
700000000.0         -0.000929743386104  -0.0299549467908    0.999059446025      -0.0301746638258    0.999059446025      -0.0301746638258    -0.000929743386104  -0.0299549467908    
800000000.0         -0.00121049925951   -0.0342227133336    0.998778652782      -0.0344738680453    0.998778652782      -0.0344738680453    -0.00121049925951   -0.0342227133336    
900000000.0         -0.00152787535141   -0.038486057199     0.998461240033      -0.0387686657314    0.998461240033      -0.0387686657314    -0.00152787535141   -0.038486057199     
1000000000.0        -0.00188178417832   -0.0427444779861    0.998107294931      -0.0430585574369    0.998107294931      -0.0430585574369    -0.00188178417831   -0.0427444779861    
1100000000.0        -0.00227212953286   -0.0469974801589    0.997716913437      -0.0473430484988    0.997716913437      -0.0473430484988    -0.00227212953286   -0.0469974801589    
1200000000.0        -0.00269880661492   -0.0512445729243    0.997290200158      -0.0516216489262    0.997290200158      -0.0516216489262    -0.00269880661492   -0.0512445729243    
1300000000.0        -0.00316170216599   -0.0554852701833    0.996827268204      -0.0558938733576    0.996827268204      -0.0558938733576    -0.00316170216599   -0.0554852701833    
1400000000.0        -0.00366069460213   -0.0597190905062    0.996328239036      -0.0601592410419    0.996328239036      -0.0601592410419    -0.00366069460213   -0.0597190905062    
1500000000.0        -0.00419565414819   -0.0639455571449    0.995793242333      -0.0644172758558    0.995793242333      -0.0644172758558    -0.00419565414819   -0.0639455571449    
1600000000.0        -0.00476644297143   -0.0681641980596    0.995222415843      -0.0686675063344    0.995222415843      -0.0686675063344    -0.00476644297143   -0.0681641980596    
1700000000.0        -0.00537291531628   -0.0723745459635    0.994615905255      -0.0729094657194    0.994615905255      -0.0729094657194    -0.00537291531628   -0.0723745459635    
1800000000.0        -0.00601491763823   -0.0765761383718    0.993973864054      -0.0771426920111    0.993973864054      -0.0771426920111    -0.00601491763823   -0.0765761383718    
1900000000.0        -0.00669228873991   -0.0807685176678    0.993296453386      -0.081366728038     0.993296453386      -0.081366728038     -0.00669228873991   -0.0807685176678    
2000000000.0        -0.0074048599061    -0.0849512311641    0.992583841925      -0.0855811215193    0.992583841925      -0.0855811215193    -0.0074048599061    -0.0849512311641    
2100000000.0        -0.00815245504103   -0.0891238311775    0.991836205728      -0.0897854251431    0.991836205728      -0.0897854251431    -0.00815245504103   -0.0891238311775    
2200000000.0        -0.00893489080479   -0.0932858750961    0.991053728101      -0.0939791966351    0.991053728101      -0.0939791966351    -0.00893489080479   -0.0932858750961    
2300000000.0        -0.00975197675243   -0.0974369254607    0.99023659946       -0.0981619988419    0.99023659946       -0.0981619988419    -0.00975197675243   -0.0974369254607    
2400000000.0        -0.010603515472     -0.101576550034     0.989385017191      -0.102333399802     0.989385017191      -0.102333399802     -0.010603515472     -0.101576550034     
2500000000.0        -0.0114893027251    -0.10570432188      0.988499185508      -0.106492972827     0.988499185508      -0.106492972827     -0.0114893027251    -0.10570432188      
2600000000.0        -0.0124091275863    -0.109819819435     0.987579315317      -0.110640296575     0.987579315317      -0.110640296575     -0.0124091275863    -0.109819819435     
2700000000.0        -0.0133627725858    -0.113922626589     0.986625624068      -0.11477495513      0.986625624068      -0.11477495513      -0.0133627725858    -0.113922626589     
2800000000.0        -0.0143500138508    -0.118012332752     0.985638335616      -0.118896538072     0.985638335616      -0.118896538072     -0.0143500138508    -0.118012332752     
2900000000.0        -0.0153706212484    -0.122088532927     0.984617680079      -0.123004640556     0.984617680079      -0.123004640556     -0.0153706212484    -0.122088532927     
3000000000.0        -0.0164243585293    -0.126150827785     0.983563893692      -0.127098863378     0.983563893692      -0.127098863378     -0.0164243585293    -0.126150827785     
3100000000.0        -0.0175109834722    -0.130198823729     0.982477218662      -0.131178813047     0.982477218662      -0.131178813047     -0.0175109834722    -0.130198823729     
3200000000.0        -0.0186302480287    -0.134232132961     0.981357903026      -0.135244101853     0.981357903026      -0.135244101853     -0.0186302480287    -0.134232132961     
3300000000.0        -0.0197818984685    -0.138250373548     0.980206200503      -0.139294347931     0.980206200503      -0.139294347931     -0.0197818984685    -0.138250373548     
3400000000.0        -0.0209656755259    -0.142253169483     0.979022370348      -0.143329175325     0.979022370348      -0.143329175325     -0.0209656755259    -0.142253169483     
3500000000.0        -0.0221813145458    -0.146240150745     0.977806677206      -0.147348214049     0.977806677206      -0.147348214049     -0.0221813145458    -0.146240150745     
3600000000.0        -0.0234285456309    -0.150210953354     0.976559390966      -0.151351100144     0.976559390966      -0.151351100144     -0.0234285456309    -0.150210953354     
3700000000.0        -0.0247070937889    -0.154165219429     0.975280786612      -0.155337475731     0.975280786612      -0.155337475731     -0.0247070937889    -0.154165219429     
3800000000.0        -0.0260166790802    -0.15810259724      0.973971144075      -0.159306989071     0.973971144075      -0.159306989071     -0.0260166790802    -0.15810259724      
3900000000.0        -0.0273570167653    -0.162022741252     0.972630748088      -0.163259294607     0.972630748088      -0.163259294607     -0.0273570167653    -0.162022741252     
4000000000.0        -0.0287278174536    -0.165925312179     0.971259888033      -0.167194053016     0.971259888033      -0.167194053016     -0.0287278174536    -0.165925312179     
4100000000.0        -0.0301287872505    -0.169809977021     0.969858857799      -0.171110931252     0.969858857799      -0.171110931252     -0.0301287872505    -0.169809977021     
4200000000.0        -0.0315596279062    -0.173676409111     0.96842795563       -0.175009602589     0.96842795563       -0.175009602589     -0.0315596279062    -0.173676409111     
4300000000.0        -0.0330200369639    -0.177524288148     0.966967483976      -0.178889746659     0.966967483976      -0.178889746659     -0.0330200369639    -0.177524288148     
4400000000.0        -0.0345097079073    -0.181353300237     0.965477749347      -0.182751049486     0.965477749347      -0.182751049486     -0.0345097079073    -0.181353300237     
4500000000.0        -0.0360283303091    -0.185163137917     0.963959062167      -0.186593203522     0.963959062167      -0.186593203522     -0.0360283303091    -0.185163137917     
4600000000.0        -0.037575589978     -0.188953500194     0.962411736621      -0.190415907676     0.962411736621      -0.190415907676     -0.037575589978     -0.188953500194     
4700000000.0        -0.0391511691068    -0.192724092566     0.960836090512      -0.194218867341     0.960836090512      -0.194218867341     -0.0391511691068    -0.192724092566     
4800000000.0        -0.0407547464189    -0.196474627048     0.959232445111      -0.19800179442      0.959232445111      -0.19800179442      -0.0407547464189    -0.196474627048     
4900000000.0        -0.0423859973154    -0.200204822191     0.957601125013      -0.201764407342     0.957601125013      -0.201764407342     -0.0423859973154    -0.200204822191     
5000000000.0        -0.0440445940205    -0.203914403102     0.95594245799       -0.20550643109      0.95594245799       -0.20550643109      -0.0440445940205    -0.203914403102     
5100000000.0        -0.0457302057278    -0.207603101458     0.954256774844      -0.209227597207     0.954256774844      -0.209227597207     -0.0457302057278    -0.207603101458     
5200000000.0        -0.0474424987448    -0.211270655521     0.952544409263      -0.212927643814     0.952544409263      -0.212927643814     -0.0474424987448    -0.211270655521     
5300000000.0        -0.0491811366374    -0.214916810141     0.950805697679      -0.216606315619     0.950805697679      -0.216606315619     -0.0491811366374    -0.214916810141     
5400000000.0        -0.050945780373     -0.21854131677      0.94904097912       -0.220263363923     0.94904097912       -0.220263363923     -0.050945780373     -0.21854131677      
5500000000.0        -0.0527360884643    -0.222143933461     0.94725059507       -0.223898546625     0.94725059507       -0.223898546625     -0.0527360884643    -0.222143933461     
5600000000.0        -0.0545517171092    -0.225724424871     0.945434889327      -0.227511628224     0.945434889327      -0.227511628224     -0.0545517171092    -0.225724424871     
5700000000.0        -0.0563923203337    -0.229282562258     0.943594207864      -0.231102379814     0.943594207864      -0.231102379814     -0.0563923203337    -0.229282562258     
5800000000.0        -0.0582575501303    -0.232818123478     0.941728898683      -0.234670579086     0.941728898683      -0.234670579086     -0.0582575501303    -0.232818123478     
5900000000.0        -0.0601470565975    -0.236330892977     0.939839311684      -0.238216010314     0.939839311684      -0.238216010314     -0.0601470565975    -0.236330892977     
6000000000.0        -0.0620604880774    -0.239820661779     0.937925798522      -0.241738464351     0.937925798522      -0.241738464351     -0.0620604880774    -0.239820661779     
6100000000.0        -0.0639974912918    -0.243287227476     0.935988712472      -0.245237738613     0.935988712472      -0.245237738613     -0.0639974912918    -0.243287227476     
6200000000.0        -0.0659577114783    -0.246730394214     0.934028408294      -0.248713637066     0.934028408294      -0.248713637066     -0.0659577114783    -0.246730394214     
6300000000.0        -0.0679407925228    -0.250149972669     0.9320452421        -0.252165970206     0.9320452421        -0.252165970206     -0.0679407925228    -0.250149972669     
6400000000.0        -0.0699463770938    -0.253545780034     0.930039571218      -0.255594555044     0.930039571218      -0.255594555044     -0.0699463770938    -0.253545780034     
6500000000.0        -0.0719741067722    -0.256917639992     0.928011754065      -0.258999215077     0.928011754065      -0.258999215077     -0.0719741067722    -0.256917639992     
6600000000.0        -0.0740236221818    -0.26026538269      0.925962150016      -0.262379780267     0.925962150016      -0.262379780267     -0.0740236221818    -0.26026538269      
6700000000.0        -0.0760945631172    -0.263588844713     0.923891119273      -0.265736087011     0.923891119273      -0.265736087011     -0.0760945631172    -0.263588844713     
6800000000.0        -0.0781865686705    -0.266887869056     0.921799022742      -0.269067978113     0.921799022742      -0.269067978113     -0.0781865686705    -0.266887869056     
6900000000.0        -0.0802992773564    -0.270162305086     0.919686221906      -0.272375302751     0.919686221906      -0.272375302751     -0.0802992773564    -0.270162305086     
7000000000.0        -0.0824323272358    -0.27341200851      0.917553078703      -0.275657916442     0.917553078703      -0.275657916442     -0.0824323272358    -0.27341200851      
7100000000.0        -0.0845853560367    -0.276636841339     0.915399955402      -0.278915681006     0.915399955402      -0.278915681006     -0.0845853560367    -0.276636841339     
7200000000.0        -0.0867580012754    -0.27983667185      0.913227214486      -0.282148464526     0.913227214486      -0.282148464526     -0.0867580012754    -0.27983667185      
7300000000.0        -0.0889499003735    -0.283011374539     0.911035218529      -0.285356141307     0.911035218529      -0.285356141307     -0.0889499003735    -0.283011374539     
7400000000.0        -0.0911606907752    -0.286160830085     0.908824330088      -0.288538591834     0.908824330088      -0.288538591834     -0.0911606907752    -0.286160830085     
7500000000.0        -0.0933900100612    -0.289284925297     0.906594911579      -0.291695702724     0.906594911579      -0.291695702724     -0.0933900100612    -0.289284925297     
7600000000.0        -0.0956374960616    -0.292383553073     0.90434732517       -0.294827366682     0.90434732517       -0.294827366682     -0.0956374960616    -0.292383553073     
7700000000.0        -0.0979027869668    -0.29545661235      0.90208193267       -0.297933482452     0.90208193267       -0.297933482452     -0.0979027869668    -0.29545661235      
7800000000.0        -0.100185521436     -0.298504008047     0.899799095417      -0.301013954762     0.899799095417      -0.301013954762     -0.100185521436     -0.298504008047     
7900000000.0        -0.102485338703     -0.301525651019     0.897499174176      -0.304068694274     0.897499174176      -0.304068694274     -0.102485338703     -0.301525651019     
8000000000.0        -0.104801878683     -0.304521458001     0.895182529031      -0.30709761753      0.895182529031      -0.30709761753      -0.104801878683     -0.304521458001     
8100000000.0        -0.107134782075     -0.307491351547     0.892849519281      -0.310100646896     0.892849519281      -0.310100646896     -0.107134782075     -0.307491351547     
8200000000.0        -0.109483690461     -0.310435259978     0.890500503342      -0.313077710501     0.890500503342      -0.313077710501     -0.109483690461     -0.310435259978     
8300000000.0        -0.111848246405     -0.31335311732      0.88813583865       -0.316028742183     0.88813583865       -0.316028742183     -0.111848246405     -0.31335311732      
8400000000.0        -0.11422809355      -0.316244863242     0.885755881559      -0.318953681421     0.885755881559      -0.318953681421     -0.11422809355      -0.316244863242     
8500000000.0        -0.116622876714     -0.319110442997     0.883360987251      -0.321852473279     0.883360987251      -0.321852473279     -0.116622876714     -0.319110442997     
8600000000.0        -0.119032241978     -0.321949807353     0.880951509643      -0.324725068342     0.880951509643      -0.324725068342     -0.119032241978     -0.321949807353     
8700000000.0        -0.121455836781     -0.324762912534     0.878527801295      -0.327571422645     0.878527801295      -0.327571422645     -0.121455836781     -0.324762912534     
8800000000.0        -0.123893310005     -0.327549720149     0.876090213324      -0.330391497613     0.876090213324      -0.330391497613     -0.123893310005     -0.327549720149     
8900000000.0        -0.12634431206      -0.330310197127     0.873639095317      -0.333185259993     0.873639095317      -0.333185259993     -0.12634431206      -0.330310197127     
9000000000.0        -0.128808494973     -0.333044315646     0.87117479525       -0.33595268178      0.87117479525       -0.33595268178      -0.128808494973     -0.333044315646     
9100000000.0        -0.13128551246      -0.335752053067     0.8686976594        -0.338693740154     0.8686976594        -0.338693740154     -0.13128551246      -0.335752053067     
9200000000.0        -0.133775020017     -0.338433391861     0.866208032276      -0.341408417406     0.866208032276      -0.341408417406     -0.133775020017     -0.338433391861     
9300000000.0        -0.136276674985     -0.341088319536     0.863706256531      -0.344096700867     0.863706256531      -0.344096700867     -0.136276674985     -0.341088319536     
9400000000.0        -0.138790136636     -0.343716828567     0.861192672895      -0.346758582834     0.861192672895      -0.346758582834     -0.138790136636     -0.343716828567     
9500000000.0        -0.141315066236     -0.346318916322     0.858667620099      -0.349394060499     0.858667620099      -0.349394060499     -0.141315066236     -0.346318916322     
9600000000.0        -0.143851127124     -0.348894584985     0.856131434805      -0.352003135874     0.856131434805      -0.352003135874     -0.143851127124     -0.348894584985     
9700000000.0        -0.146397984773     -0.351443841488     0.853584451538      -0.354585815716     0.853584451538      -0.354585815716     -0.146397984773     -0.351443841488     
9800000000.0        -0.148955306861     -0.353966697426     0.851027002618      -0.357142111452     0.851027002618      -0.357142111452     -0.148955306861     -0.353966697426     
9900000000.0        -0.151522763334     -0.356463168989     0.8484594181        -0.359672039102     0.8484594181        -0.359672039102     -0.151522763334     -0.356463168989     
10000000000.0       -0.154100026465     -0.358933276882     0.845882025709      -0.362175619201     0.845882025709      -0.362175619201     -0.154100026465     -0.358933276882     
