# Hz S RI R 50.00 
100000000.0         0.0500833101836     0.00177743888854    0.949915217468      -0.00219983876963   0.949915217468      -0.00219983876963   0.0500833101836     0.00177743888854    
200000000.0         0.0504075728211     0.00355221230632    0.949590300879      -0.00439701368341   0.949590300879      -0.00439701368341   0.0504075728211     0.00355221230632    
300000000.0         0.0506543507039     0.00532535022302    0.9493426874        -0.00659255584804   0.9493426874        -0.00659255584804   0.0506543507039     0.00532535022302    
400000000.0         0.0508653237286     0.00709718245899    0.949130697104      -0.0087867960279    0.949130697104      -0.0087867960279    0.0508653237286     0.00709718245899    
500000000.0         0.0510565962039     0.00886787562875    0.948938225653      -0.0109799016851    0.948938225653      -0.0109799016851    0.0510565962039     0.00886787562875    
600000000.0         0.051236406373      0.0106375239454     0.94875703478       -0.0131719678177    0.94875703478       -0.0131719678177    0.051236406373      0.0106375239454     
700000000.0         0.0514096349494     0.0124061818608     0.948582243747      -0.0153630496172    0.948582243747      -0.0153630496172    0.0514096349494     0.0124061818608     
800000000.0         0.0515794528005     0.0141738792155     0.948410681663      -0.0175531776281    0.948410681663      -0.0175531776281    0.0515794528005     0.0141738792155     
900000000.0         0.0517480555295     0.0159406293792     0.9482401529        -0.0197423658964    0.9482401529        -0.0197423658964    0.0517480555295     0.0159406293792     
1000000000.0        0.0519170362902     0.0177064340748     0.948069064282      -0.0219306167969    0.948069064282      -0.0219306167969    0.0519170362902     0.0177064340748     
1100000000.0        0.052087593289      0.0194712864422     0.947896217578      -0.0241179241015    0.947896217578      -0.0241179241015    0.052087593289      0.0194712864422     
1200000000.0        0.0522606535808     0.021235173092      0.947720685708      -0.0263042750352    0.947720685708      -0.0263042750352    0.0522606535808     0.021235173092      
1300000000.0        0.0524369510518     0.0229980755406     0.947541734763      -0.0284896517131    0.947541734763      -0.0284896517131    0.0524369510518     0.0229980755406     
1400000000.0        0.0526170777381     0.0247599712464     0.947358772681      -0.0306740321789    0.947358772681      -0.0306740321789    0.0526170777381     0.0247599712464     
1500000000.0        0.0528015188389     0.0265208343813     0.947171314236      -0.0328573911767    0.947171314236      -0.0328573911767    0.0528015188389     0.0265208343813     
1600000000.0        0.052990677336      0.0282806364164     0.94697895642       -0.0350397007391    0.94697895642       -0.0350397007391    0.052990677336      0.0282806364164     
1700000000.0        0.053184891758      0.0300393465779     0.946781360678      -0.0372209306429    0.946781360678      -0.0372209306429    0.053184891758      0.0300393465779     
1800000000.0        0.0533844492838     0.0317969322064     0.946578239804      -0.0394010487702    0.946578239804      -0.0394010487702    0.0533844492838     0.0317969322064     
1900000000.0        0.0535895955984     0.0335533590461     0.946369348083      -0.0415800213973    0.946369348083      -0.0415800213973    0.0535895955984     0.0335533590461     
2000000000.0        0.0538005424318     0.0353085914789     0.946154473757      -0.0437578134306    0.946154473757      -0.0437578134306    0.0538005424318     0.0353085914789     
2100000000.0        0.0540174734135     0.0370625927184     0.945933433166      -0.0459343885999    0.945933433166      -0.0459343885999    0.0540174734135     0.0370625927184     
2200000000.0        0.0542405486806     0.03881532497       0.945706066142      -0.0481097096199    0.945706066142      -0.0481097096199    0.0542405486806     0.03881532497       
2300000000.0        0.0544699085486     0.0405667495666     0.94547223234       -0.0502837383258    0.94547223234       -0.0502837383258    0.0544699085486     0.0405667495666     
2400000000.0        0.0547056764683     0.0423168270828     0.945231808275      -0.0524564357882    0.945231808275      -0.0524564357882    0.0547056764683     0.0423168270828     
2500000000.0        0.0549479614301     0.0440655174332     0.944984684925      -0.0546277624116    0.944984684925      -0.0546277624116    0.0549479614301     0.0440655174332     
2600000000.0        0.0551968599381     0.0458127799566     0.944730765752      -0.0567976780186    0.944730765752      -0.0567976780186    0.0551968599381     0.0458127799566     
2700000000.0        0.0554524576434     0.0475585734891     0.944469965071      -0.0589661419241    0.944469965071      -0.0589661419241    0.0554524576434     0.0475585734891     
2800000000.0        0.0557148307063     0.0493028564286     0.944202206686      -0.061133112999     0.944202206686      -0.061133112999     0.0557148307063     0.0493028564286     
2900000000.0        0.0559840469406     0.0510455867904     0.943927422748      -0.0632985497269    0.943927422748      -0.0632985497269    0.0559840469406     0.0510455867904     
3000000000.0        0.0562601667799     0.052786722257      0.943645552786      -0.0654624102537    0.943645552786      -0.0654624102537    0.0562601667799     0.052786722257      
3100000000.0        0.0565432441006     0.0545262202226     0.943356542887      -0.0676246524322    0.943356542887      -0.0676246524322    0.0565432441006     0.0545262202226     
3200000000.0        0.0568333269246     0.0562640378317     0.94306034499       -0.0697852338613    0.94306034499       -0.0697852338613    0.0568333269246     0.0562640378317     
3300000000.0        0.0571304580244     0.0580001320152     0.942756916285      -0.0719441119218    0.942756916285      -0.0719441119218    0.0571304580244     0.0580001320152     
3400000000.0        0.057434675445      0.0597344595218     0.942446218687      -0.0741012438083    0.942446218687      -0.0741012438083    0.057434675445      0.0597344595218     
3500000000.0        0.0577460129575     0.0614669769471     0.942128218383      -0.0762565865582    0.942128218383      -0.0762565865582    0.0577460129575     0.0614669769471     
3600000000.0        0.0580645004545     0.0631976407593     0.941802885441      -0.0784100970779    0.941802885441      -0.0784100970779    0.0580645004545     0.0631976407593     
3700000000.0        0.0583901642958     0.0649264073237     0.941470193458      -0.0805617321667    0.941470193458      -0.0805617321667    0.0583901642958     0.0649264073237     
3800000000.0        0.0587230276127     0.0666532329242     0.941130119261      -0.0827114485393    0.941130119261      -0.0827114485393    0.0587230276127     0.0666532329242     
3900000000.0        0.0590631105762     0.0683780737833     0.940782642636      -0.0848592028455    0.940782642636      -0.0848592028455    0.0590631105762     0.0683780737833     
4000000000.0        0.0594104306341     0.0701008860812     0.940427746089      -0.0870049516891    0.940427746089      -0.0870049516891    0.0594104306341     0.0701008860812     
4100000000.0        0.0597650027222     0.0718216259722     0.940065414641      -0.089148651645     0.940065414641      -0.089148651645     0.0597650027222     0.0718216259722     
4200000000.0        0.060126839452      0.0735402496011     0.939695635634      -0.0912902592753    0.939695635634      -0.0912902592753    0.060126839452      0.0735402496011     
4300000000.0        0.0604959512784     0.0752567131179     0.939318398567      -0.093429731144     0.939318398567      -0.093429731144     0.0604959512784     0.0752567131179     
4400000000.0        0.0608723466505     0.0769709726915     0.938933694944      -0.0955670238312    0.938933694944      -0.0955670238312    0.0608723466505     0.0769709726915     
4500000000.0        0.0612560321462     0.0786829845227     0.938541518138      -0.097702093946     0.938541518138      -0.097702093946     0.0612560321462     0.0786829845227     
4600000000.0        0.0616470125949     0.0803927048562     0.938141863272      -0.0998348981383    0.938141863272      -0.0998348981383    0.0616470125949     0.0803927048562     
4700000000.0        0.0620452911867     0.0821000899922     0.937734727106      -0.101965393111     0.937734727106      -0.101965393111     0.0620452911867     0.0821000899922     
4800000000.0        0.0624508695727     0.0838050962968     0.937320107939      -0.104093535629     0.937320107939      -0.104093535629     0.0624508695727     0.0838050962968     
4900000000.0        0.0628637479555     0.0855076802125     0.936898005518      -0.106219282533     0.936898005518      -0.106219282533     0.0628637479555     0.0855076802125     
5000000000.0        0.0632839251712     0.0872077982676     0.936468420955      -0.108342590746     0.936468420955      -0.108342590746     0.0632839251712     0.0872077982676     
5100000000.0        0.0637113987649     0.0889054070851     0.936031356652      -0.110463417281     0.936031356652      -0.110463417281     0.0637113987649     0.0889054070851     
5200000000.0        0.0641461650595     0.0906004633917     0.935586816233      -0.112581719257     0.935586816233      -0.112581719257     0.0641461650595     0.0906004633917     
5300000000.0        0.0645882192183     0.0922929240258     0.935134804482      -0.114697453896     0.935134804482      -0.114697453896     0.0645882192183     0.0922929240258     
5400000000.0        0.0650375553027     0.0939827459452     0.934675327282      -0.116810578543     0.934675327282      -0.116810578543     0.0650375553027     0.0939827459452     
5500000000.0        0.0654941663259     0.095669886235      0.934208391565      -0.118921050665     0.934208391565      -0.118921050665     0.0654941663259     0.095669886235      
5600000000.0        0.0659580443013     0.0973543021143     0.933734005261      -0.121028827859     0.933734005261      -0.121028827859     0.0659580443013     0.0973543021143     
5700000000.0        0.0664291802881     0.0990359509432     0.933252177256      -0.123133867865     0.933252177256      -0.123133867865     0.0664291802881     0.0990359509432     
5800000000.0        0.0669075644331     0.100714790229      0.932762917344      -0.125236128565     0.932762917344      -0.125236128565     0.0669075644331     0.100714790229      
5900000000.0        0.067393186009      0.102390777634      0.932266236195      -0.127335567995     0.932266236195      -0.127335567995     0.067393186009      0.102390777634      
6000000000.0        0.0678860334512     0.10406387098       0.931762145315      -0.129432144346     0.931762145315      -0.129432144346     0.0678860334512     0.10406387098       
6100000000.0        0.0683860943908     0.105734028253      0.931250657013      -0.131525815975     0.931250657013      -0.131525815975     0.0683860943908     0.105734028253      
6200000000.0        0.068893355686      0.107401207612      0.930731784371      -0.133616541408     0.930731784371      -0.133616541408     0.068893355686      0.107401207612      
6300000000.0        0.0694078034511     0.109065367392      0.930205541213      -0.135704279345     0.930205541213      -0.135704279345     0.0694078034511     0.109065367392      
6400000000.0        0.069929423084      0.11072646611       0.929671942081      -0.137788988666     0.929671942081      -0.137788988666     0.069929423084      0.11072646611       
6500000000.0        0.0704581992915     0.112384462471      0.929131002204      -0.139870628437     0.929131002204      -0.139870628437     0.0704581992915     0.112384462471      
6600000000.0        0.0709941161134     0.114039315371      0.928582737481      -0.141949157912     0.928582737481      -0.141949157912     0.0709941161134     0.114039315371      
6700000000.0        0.0715371569451     0.115690983901      0.928027164452      -0.144024536541     0.928027164452      -0.144024536541     0.0715371569451     0.115690983901      
6800000000.0        0.0720873045585     0.117339427356      0.927464300282      -0.146096723973     0.927464300282      -0.146096723973     0.0720873045585     0.117339427356      
6900000000.0        0.0726445411223     0.118984605235      0.926894162736      -0.148165680062     0.926894162736      -0.148165680062     0.0726445411223     0.118984605235      
7000000000.0        0.0732088482207     0.120626477246      0.926316770164      -0.150231364867     0.926316770164      -0.150231364867     0.0732088482207     0.120626477246      
7100000000.0        0.0737802068713     0.122265003312      0.925732141482      -0.152293738662     0.925732141482      -0.152293738662     0.0737802068713     0.122265003312      
7200000000.0        0.074358597542      0.123900143573      0.925140296157      -0.154352761935     0.925140296157      -0.154352761935     0.074358597542      0.123900143573      
7300000000.0        0.0749440001671     0.125531858393      0.924541254184      -0.156408395396     0.924541254184      -0.156408395396     0.0749440001671     0.125531858393      
7400000000.0        0.0755363941625     0.127160108358      0.923935036082      -0.158460599978     0.923935036082      -0.158460599978     0.0755363941625     0.127160108358      
7500000000.0        0.07613575844       0.128784854286      0.923321662867      -0.16050933684      0.923321662867      -0.16050933684      0.07613575844       0.128784854286      
7600000000.0        0.0767420714214     0.130406057227      0.922701156049      -0.162554567375     0.922701156049      -0.162554567375     0.0767420714214     0.130406057227      
7700000000.0        0.0773553110518     0.132023678468      0.922073537613      -0.164596253209     0.922073537613      -0.164596253209     0.0773553110518     0.132023678468      
7800000000.0        0.0779754548116     0.133637679534      0.921438830006      -0.166634356206     0.921438830006      -0.166634356206     0.0779754548116     0.133637679534      
7900000000.0        0.0786024797293     0.135248022193      0.920797056129      -0.168668838473     0.920797056129      -0.168668838473     0.0786024797293     0.135248022193      
8000000000.0        0.0792363623924     0.136854668461      0.920148239322      -0.170699662358     0.920148239322      -0.170699662358     0.0792363623924     0.136854668461      
8100000000.0        0.079877078959      0.138457580601      0.919492403353      -0.172726790461     0.919492403353      -0.172726790461     0.079877078959      0.138457580601      
8200000000.0        0.080524605168      0.14005672113       0.91882957241       -0.174750185629     0.91882957241       -0.174750185629     0.080524605168      0.14005672113       
8300000000.0        0.0811789163498     0.141652052818      0.918159771089      -0.176769810965     0.918159771089      -0.176769810965     0.0811789163498     0.141652052818      
8400000000.0        0.0818399874357     0.143243538695      0.917483024382      -0.178785629827     0.917483024382      -0.178785629827     0.0818399874357     0.143243538695      
8500000000.0        0.0825077929678     0.144831142051      0.916799357673      -0.180797605833     0.916799357673      -0.180797605833     0.0825077929678     0.144831142051      
8600000000.0        0.0831823071079     0.146414826437      0.916108796722      -0.182805702862     0.916108796722      -0.182805702862     0.0831823071079     0.146414826437      
8700000000.0        0.0838635036467     0.147994555673      0.915411367664      -0.184809885059     0.915411367664      -0.184809885059     0.0838635036467     0.147994555673      
8800000000.0        0.0845513560118     0.149570293847      0.914707096991      -0.186810116834     0.914707096991      -0.186810116834     0.0845513560118     0.149570293847      
8900000000.0        0.0852458372769     0.151142005316      0.913996011552      -0.188806362869     0.913996011552      -0.188806362869     0.0852458372769     0.151142005316      
9000000000.0        0.085946920169      0.152709654712      0.913278138542      -0.190798588115     0.913278138542      -0.190798588115     0.085946920169      0.152709654712      
9100000000.0        0.0866545770767     0.154273206942      0.912553505492      -0.1927867578       0.912553505492      -0.1927867578       0.0866545770767     0.154273206942      
9200000000.0        0.0873687800579     0.15583262719       0.911822140264      -0.194770837427     0.911822140264      -0.194770837427     0.0873687800579     0.15583262719       
9300000000.0        0.088089500847      0.157387880923      0.911084071043      -0.196750792779     0.911084071043      -0.196750792779     0.088089500847      0.157387880923      
9400000000.0        0.0888167108619     0.158938933887      0.91033932633       -0.198726589918     0.91033932633       -0.198726589918     0.0888167108619     0.158938933887      
9500000000.0        0.0895503812116     0.160485752112      0.909587934933      -0.20069819519      0.909587934933      -0.20069819519      0.0895503812116     0.160485752112      
9600000000.0        0.0902904827026     0.162028301918      0.908829925964      -0.202665575227     0.908829925964      -0.202665575227     0.0902904827026     0.162028301918      
9700000000.0        0.0910369858457     0.163566549908      0.908065328828      -0.204628696945     0.908065328828      -0.204628696945     0.0910369858457     0.163566549908      
9800000000.0        0.0917898608627     0.165100462979      0.907294173219      -0.206587527551     0.907294173219      -0.206587527551     0.0917898608627     0.165100462979      
9900000000.0        0.0925490776926     0.166630008319      0.906516489115      -0.208542034543     0.906516489115      -0.208542034543     0.0925490776926     0.166630008319      
10000000000.0       0.0933146059981     0.168155153406      0.905732306766      -0.210492185709     0.905732306766      -0.210492185709     0.0933146059981     0.168155153406      
