# Hz S RI R 50.00 
100000000.0         9.64461472575e-06   -0.000756968878824  0.999986567316      -0.000818964396174  0.999986567316      -0.000818964396174  9.64461472552e-06   -0.000756968878824  
200000000.0         7.08989315656e-06   -0.00151395251468   0.999983850219      -0.00163794629677   0.999983850219      -0.00163794629677   7.08989315634e-06   -0.00151395251468   
300000000.0         3.27507056808e-06   -0.00227095822216   0.999979909182      -0.00245695444603   0.999979909182      -0.00245695444603   3.27507056808e-06   -0.00227095822216   
400000000.0         -1.79009252232e-06  -0.0030279908771    0.999974734074      -0.00327599481988   0.999974734074      -0.00327599481988   -1.79009252244e-06  -0.0030279908771    
500000000.0         -8.10199769974e-06  -0.00378505410847   0.999968320862      -0.00409507198271   0.999968320862      -0.00409507198271   -8.10199769996e-06  -0.00378505410847   
600000000.0         -1.56589484058e-05  -0.00454215071429   0.999960667365      -0.00491418956043   0.999960667365      -0.00491418956043   -1.56589484058e-05  -0.00454215071429   
700000000.0         -2.44600675691e-05  -0.00529928287688   0.999951772178      -0.00573335048477   0.999951772178      -0.00573335048477   -2.4460067569e-05   -0.00529928287688   
800000000.0         -3.45049005898e-05  -0.00605645228492   0.999941634282      -0.00655255713258   0.999941634282      -0.00655255713258   -3.45049005896e-05  -0.00605645228492   
900000000.0         -4.57932380221e-05  -0.00681366022751   0.999930252873      -0.00737181143139   0.999930252873      -0.00737181143139   -4.57932380222e-05  -0.00681366022751   
1000000000.0        -5.83250249078e-05  -0.00757090764665   0.999917627274      -0.00819111491982   0.999917627274      -0.00819111491982   -5.83250249074e-05  -0.00757090764665   
1100000000.0        -7.21003096478e-05  -0.00832819518833   0.99990375689       -0.00901046880459   0.99990375689       -0.00901046880459   -7.2100309648e-05   -0.00832819518833   
1200000000.0        -8.71192131761e-05  -0.00908552323195   0.999888641179      -0.00982987399447   0.999888641179      -0.00982987399447   -8.71192131762e-05  -0.00908552323195   
1300000000.0        -0.00010338190895   -0.009842891921     0.999872279634      -0.0106493311345    0.999872279634      -0.0106493311345    -0.00010338190895   -0.009842891921     
1400000000.0        -0.000120888609556  -0.0106003011849    0.999854671777      -0.0114688406306    0.999854671777      -0.0114688406306    -0.000120888609556  -0.0106003011849    
1500000000.0        -0.000139639557276  -0.011357750757     0.999835817146      -0.0122884026701    0.999835817146      -0.0122884026701    -0.000139639557276  -0.011357750757     
1600000000.0        -0.000159635017105  -0.0121152401888    0.999815715298      -0.0131080172377    0.999815715298      -0.0131080172377    -0.000159635017104  -0.0121152401888    
1700000000.0        -0.00018087527155   -0.0128727688669    0.999794365796      -0.0139276841345    0.999794365796      -0.0139276841345    -0.00018087527155   -0.0128727688669    
1800000000.0        -0.000203360616564  -0.0136303360192    0.999771768218      -0.0147474029848    0.999771768218      -0.0147474029848    -0.000203360616564  -0.0136303360192    
1900000000.0        -0.00022709135837   -0.0143879407318    0.999747922146      -0.0155671732552    0.999747922146      -0.0155671732552    -0.00022709135837   -0.0143879407318    
2000000000.0        -0.000252067810734  -0.0151455819508    0.999722827172      -0.0163869942569    0.999722827172      -0.0163869942569    -0.000252067810734  -0.0151455819508    
2100000000.0        -0.000278290292889  -0.0159032584961    0.999696482894      -0.0172068651605    0.999696482894      -0.0172068651605    -0.000278290292889  -0.0159032584961    
2200000000.0        -0.000305759127638  -0.0166609690651    0.999668888916      -0.0180267850009    0.999668888916      -0.0180267850009    -0.000305759127638  -0.0166609690651    
2300000000.0        -0.00033447463976   -0.0174187122402    0.99964004485       -0.0188467526849    0.99964004485       -0.0188467526849    -0.00033447463976   -0.0174187122402    
2400000000.0        -0.000364437154673  -0.0181764864952    0.999609950313      -0.0196667669992    0.999609950313      -0.0196667669992    -0.000364437154673  -0.0181764864952    
2500000000.0        -0.000395646997184  -0.0189342901998    0.99957860493       -0.0204868266145    0.99957860493       -0.0204868266145    -0.000395646997184  -0.0189342901998    
2600000000.0        -0.00042810449044   -0.0196921216254    0.999546008333      -0.0213069300927    0.999546008333      -0.0213069300927    -0.00042810449044   -0.0196921216254    
2700000000.0        -0.000461809954921  -0.0204499789487    0.99951216016       -0.0221270758905    0.99951216016       -0.0221270758905    -0.000461809954921  -0.0204499789487    
2800000000.0        -0.000496763707606  -0.021207860257     0.999477060057      -0.0229472623656    0.999477060057      -0.0229472623656    -0.000496763707606  -0.021207860257     
2900000000.0        -0.000532966061117  -0.021965763551     0.999440707678      -0.0237674877797    0.999440707678      -0.0237674877797    -0.000532966061117  -0.021965763551     
3000000000.0        -0.000570417323036  -0.0227236867501    0.999403102684      -0.0245877503036    0.999403102684      -0.0245877503036    -0.000570417323037  -0.0227236867501    
3100000000.0        -0.000609117795205  -0.0234816276942    0.999364244746      -0.0254080480209    0.999364244746      -0.0254080480209    -0.000609117795204  -0.0234816276942    
3200000000.0        -0.000649067773079  -0.0242395841479    0.999324133542      -0.026228378931     0.999324133542      -0.026228378931     -0.000649067773079  -0.0242395841479    
3300000000.0        -0.000690267545162  -0.0249975538033    0.999282768759      -0.0270487409532    0.999282768759      -0.0270487409532    -0.000690267545162  -0.0249975538033    
3400000000.0        -0.000732717392478  -0.0257555342833    0.999240150096      -0.0278691319297    0.999240150096      -0.0278691319297    -0.000732717392478  -0.0257555342833    
3500000000.0        -0.000776417588004  -0.0265135231435    0.999196277257      -0.0286895496283    0.999196277257      -0.0286895496283    -0.000776417588004  -0.0265135231435    
3600000000.0        -0.000821368396236  -0.0272715178755    0.999151149961      -0.0295099917457    0.999151149961      -0.0295099917457    -0.000821368396236  -0.0272715178755    
3700000000.0        -0.000867570072747  -0.0280295159097    0.999104767932      -0.0303304559103    0.999104767932      -0.0303304559103    -0.000867570072747  -0.0280295159097    
3800000000.0        -0.000915022863707  -0.0287875146164    0.999057130909      -0.0311509396844    0.999057130909      -0.0311509396844    -0.000915022863707  -0.0287875146164    
3900000000.0        -0.00096372700551   -0.0295455113088    0.999008238639      -0.0319714405665    0.999008238639      -0.0319714405665    -0.000963727005509  -0.0295455113088    
4000000000.0        -0.00101368272445   -0.0303035032464    0.998958090882      -0.032791955995     0.998958090882      -0.032791955995     -0.00101368272445   -0.0303035032464    
4100000000.0        -0.00106489023623   -0.0310614876342    0.998906687408      -0.0336124833487    0.998906687408      -0.0336124833487    -0.00106489023623   -0.0310614876342    
4200000000.0        -0.00111734974577   -0.0318194616275    0.998854027998      -0.0344330199502    0.998854027998      -0.0344330199502    -0.00111734974577   -0.0318194616275    
4300000000.0        -0.00117106144678   -0.0325774223319    0.998800112446      -0.0352535630673    0.998800112446      -0.0352535630673    -0.00117106144678   -0.0325774223319    
4400000000.0        -0.00122602552149   -0.0333353668064    0.998744940559      -0.0360741099158    0.998744940559      -0.0360741099158    -0.00122602552149   -0.0333353668064    
4500000000.0        -0.00128224214037   -0.0340932920641    0.998688512155      -0.0368946576603    0.998688512155      -0.0368946576603    -0.00128224214037   -0.0340932920641    
4600000000.0        -0.00133971146184   -0.0348511950746    0.998630827064      -0.0377152034172    0.998630827064      -0.0377152034172    -0.00133971146184   -0.0348511950746    
4700000000.0        -0.001398433632     -0.0356090727654    0.99857188513       -0.0385357442555    0.99857188513       -0.0385357442555    -0.001398433632     -0.0356090727654    
4800000000.0        -0.0014584087844    -0.0363669220233    0.99851168621       -0.0393562771992    0.99851168621       -0.0393562771992    -0.0014584087844    -0.0363669220233    
4900000000.0        -0.00151963703979   -0.037124739696     0.998450230173      -0.0401767992285    0.998450230173      -0.0401767992285    -0.00151963703979   -0.037124739696     
5000000000.0        -0.00158211850593   -0.0378825225941    0.998387516903      -0.0409973072821    0.998387516903      -0.0409973072821    -0.00158211850593   -0.0378825225941    
5100000000.0        -0.0016458532773    -0.0386402674912    0.998323546297      -0.0418177982574    0.998323546297      -0.0418177982574    -0.0016458532773    -0.0386402674912    
5200000000.0        -0.00171084143497   -0.0393979711269    0.998258318264      -0.0426382690137    0.998258318264      -0.0426382690137    -0.00171084143498   -0.0393979711269    
5300000000.0        -0.00177708304642   -0.0401556302067    0.998191832729      -0.0434587163721    0.998191832729      -0.0434587163721    -0.00177708304642   -0.0401556302067    
5400000000.0        -0.00184457816525   -0.040913241404     0.998124089631      -0.0442791371179    0.998124089631      -0.0442791371179    -0.00184457816525   -0.040913241404     
5500000000.0        -0.00191332683113   -0.0416708013612    0.998055088923      -0.0450995280014    0.998055088923      -0.0450995280014    -0.00191332683113   -0.0416708013612    
5600000000.0        -0.00198332906958   -0.0424283066909    0.997984830571      -0.0459198857394    0.997984830571      -0.0459198857394    -0.00198332906958   -0.0424283066909    
5700000000.0        -0.00205458489183   -0.0431857539773    0.997913314557      -0.0467402070169    0.997913314557      -0.0467402070169    -0.00205458489183   -0.0431857539773    
5800000000.0        -0.00212709429465   -0.0439431397765    0.997840540877      -0.0475604884874    0.997840540877      -0.0475604884874    -0.00212709429465   -0.0439431397765    
5900000000.0        -0.00220085726022   -0.0447004606185    0.997766509542      -0.0483807267746    0.997766509542      -0.0483807267746    -0.00220085726022   -0.0447004606185    
6000000000.0        -0.00227587375601   -0.0454577130077    0.997691220579      -0.0492009184737    0.997691220579      -0.0492009184737    -0.00227587375602   -0.0454577130077    
6100000000.0        -0.00235214373468   -0.0462148934243    0.997614674027      -0.0500210601522    0.997614674027      -0.0500210601522    -0.00235214373468   -0.0462148934243    
6200000000.0        -0.00242966713392   -0.046971998325     0.997536869943      -0.0508411483513    0.997536869943      -0.0508411483513    -0.00242966713391   -0.046971998325     
6300000000.0        -0.00250844387632   -0.0477290241439    0.997457808397      -0.0516611795866    0.997457808397      -0.0516611795866    -0.00250844387632   -0.0477290241439    
6400000000.0        -0.00258847386938   -0.0484859672941    0.997377489477      -0.0524811503494    0.997377489477      -0.0524811503494    -0.00258847386938   -0.0484859672941    
6500000000.0        -0.00266975700529   -0.0492428241675    0.997295913284      -0.0533010571076    0.997295913284      -0.0533010571076    -0.00266975700529   -0.0492428241675    
6600000000.0        -0.00275229316086   -0.0499995911364    0.997213079936      -0.0541208963063    0.997213079936      -0.0541208963063    -0.00275229316086   -0.0499995911364    
6700000000.0        -0.00283608219755   -0.0507562645549    0.997128989564      -0.0549406643697    0.997128989564      -0.0549406643697    -0.00283608219755   -0.0507562645549    
6800000000.0        -0.00292112396124   -0.0515128407583    0.997043642318      -0.055760357701     0.997043642318      -0.055760357701     -0.00292112396124   -0.0515128407583    
6900000000.0        -0.00300741828223   -0.0522693160651    0.996957038362      -0.0565799726837    0.996957038362      -0.0565799726837    -0.00300741828223   -0.0522693160651    
7000000000.0        -0.00309496497517   -0.053025686777     0.996869177875      -0.0573995056822    0.996869177875      -0.0573995056822    -0.00309496497517   -0.053025686777     
7100000000.0        -0.003183763839     -0.0537819491807    0.996780061053      -0.0582189530436    0.996780061053      -0.0582189530436    -0.003183763839     -0.0537819491807    
7200000000.0        -0.00327381465688   -0.0545380995474    0.996689688107      -0.0590383110972    0.996689688107      -0.0590383110972    -0.00327381465688   -0.0545380995474    
7300000000.0        -0.00336511719616   -0.0552941341345    0.996598059266      -0.059857576156     0.996598059266      -0.059857576156     -0.00336511719616   -0.0552941341345    
7400000000.0        -0.00345767120826   -0.0560500491856    0.996505174772      -0.0606767445172    0.996505174772      -0.0606767445172    -0.00345767120826   -0.0560500491856    
7500000000.0        -0.00355147642873   -0.0568058409319    0.996411034884      -0.0614958124636    0.996411034884      -0.0614958124636    -0.00355147642873   -0.0568058409319    
7600000000.0        -0.00364653257715   -0.0575615055922    0.996315639877      -0.0623147762632    0.996315639877      -0.0623147762632    -0.00364653257715   -0.0575615055922    
7700000000.0        -0.00374283935711   -0.058317039374     0.996218990044      -0.0631336321712    0.996218990044      -0.0631336321712    -0.00374283935711   -0.058317039374     
7800000000.0        -0.00384039645612   -0.0590724384739    0.996121085692      -0.0639523764294    0.996121085692      -0.0639523764294    -0.00384039645612   -0.0590724384739    
7900000000.0        -0.00393920354573   -0.0598276990784    0.996021927144      -0.0647710052679    0.996021927144      -0.0647710052679    -0.00393920354573   -0.0598276990784    
8000000000.0        -0.00403926028134   -0.0605828173643    0.995921514739      -0.0655895149053    0.995921514739      -0.0655895149053    -0.00403926028134   -0.0605828173643    
8100000000.0        -0.00414056630228   -0.0613377894994    0.995819848834      -0.0664079015493    0.995819848834      -0.0664079015493    -0.00414056630228   -0.0613377894994    
8200000000.0        -0.00424312123177   -0.0620926116431    0.9957169298        -0.0672261613975    0.9957169298        -0.0672261613975    -0.00424312123177   -0.0620926116431    
8300000000.0        -0.00434692467689   -0.062847279947     0.995612758026      -0.0680442906379    0.995612758026      -0.0680442906379    -0.00434692467689   -0.062847279947     
8400000000.0        -0.00445197622859   -0.0636017905551    0.995507333916      -0.0688622854495    0.995507333916      -0.0688622854495    -0.00445197622859   -0.0636017905551    
8500000000.0        -0.00455827546168   -0.0643561396048    0.995400657891      -0.069680142003     0.995400657891      -0.069680142003     -0.00455827546168   -0.0643561396048    
8600000000.0        -0.00466582193484   -0.0651103232273    0.995292730386      -0.0704978564612    0.995292730386      -0.0704978564612    -0.00466582193484   -0.0651103232273    
8700000000.0        -0.00477461519058   -0.0658643375478    0.995183551855      -0.0713154249795    0.995183551855      -0.0713154249795    -0.00477461519058   -0.0658643375478    
8800000000.0        -0.00488465475526   -0.066618178686     0.995073122767      -0.0721328437066    0.995073122767      -0.0721328437066    -0.00488465475526   -0.066618178686     
8900000000.0        -0.00499594013913   -0.0673718427574    0.994961443607      -0.072950108785     0.994961443607      -0.072950108785     -0.00499594013913   -0.0673718427574    
9000000000.0        -0.0051084708363    -0.0681253258725    0.994848514876      -0.0737672163514    0.994848514876      -0.0737672163514    -0.0051084708363    -0.0681253258725    
9100000000.0        -0.00522224632475   -0.0688786241384    0.994734337092      -0.0745841625373    0.994734337092      -0.0745841625373    -0.00522224632475   -0.0688786241384    
9200000000.0        -0.00533726606635   -0.0696317336581    0.994618910788      -0.0754009434694    0.994618910788      -0.0754009434694    -0.00533726606635   -0.0696317336581    
9300000000.0        -0.00545352950691   -0.0703846505324    0.994502236514      -0.07621755527      0.994502236514      -0.07621755527      -0.00545352950691   -0.0703846505324    
9400000000.0        -0.00557103607612   -0.0711373708586    0.994384314836      -0.0770339940576    0.994384314836      -0.0770339940576    -0.00557103607612   -0.0711373708586    
9500000000.0        -0.00568978518766   -0.0718898907326    0.994265146336      -0.0778502559475    0.994265146336      -0.0778502559475    -0.00568978518766   -0.0718898907326    
9600000000.0        -0.00580977623913   -0.0726422062477    0.994144731611      -0.0786663370516    0.994144731611      -0.0786663370516    -0.00580977623913   -0.0726422062477    
9700000000.0        -0.00593100861218   -0.0733943134963    0.994023071276      -0.0794822334797    0.994023071276      -0.0794822334797    -0.00593100861218   -0.0733943134963    
9800000000.0        -0.00605348167242   -0.0741462085697    0.99390016596       -0.0802979413391    0.99390016596       -0.0802979413391    -0.00605348167242   -0.0741462085697    
9900000000.0        -0.00617719476956   -0.0748978875583    0.99377601631       -0.0811134567355    0.99377601631       -0.0811134567355    -0.00617719476956   -0.0748978875583    
10000000000.0       -0.00630214723734   -0.0756493465524    0.993650622988      -0.0819287757733    0.993650622988      -0.0819287757733    -0.00630214723734   -0.0756493465524    
