# Hz S RI R 50.00 
100000000.0         7.63819944292e-05   -0.000898840704374  0.999917640317      -0.00143537578782   0.999917640317      -0.00143537578783   7.63819944296e-05   -0.000898840704374  
200000000.0         7.19202784645e-05   -0.00179773791755   0.999911674738      -0.00287082995067   0.999911674738      -0.00287082995067   7.19202784645e-05   -0.00179773791755   
300000000.0         6.47388346988e-05   -0.00269671767938   0.999902977629      -0.00430640087121   0.999902977629      -0.00430640087121   6.47388346988e-05   -0.00269671767938   
400000000.0         5.49051147696e-05   -0.0035957974171    0.999891479409      -0.00574211536477   0.999891479409      -0.00574211536477   5.49051147696e-05   -0.0035957974171    
500000000.0         4.24442103311e-05   -0.00449499002135   0.999877152491      -0.00717799431719   0.999877152491      -0.00717799431719   4.24442103311e-05   -0.00449499002135   
600000000.0         2.73681474525e-05   -0.00539430532034   0.999859982054      -0.00861405466504   0.999859982054      -0.00861405466504   2.73681474525e-05   -0.00539430532034   
700000000.0         9.68333886897e-06   -0.00629375084399   0.999839958642      -0.0100503104115    0.999839958642      -0.0100503104115    9.68333886942e-06   -0.00629375084399   
800000000.0         -1.0606689417e-05   -0.00719333228854   0.999817075476      -0.0114867732396    0.999817075476      -0.0114867732396    -1.0606689417e-05   -0.00719333228854   
900000000.0         -3.35000785948e-05  -0.00809305382821   0.999791327268      -0.0129234529205    0.999791327268      -0.0129234529205    -3.35000785947e-05  -0.00809305382821   
1000000000.0        -5.89960142994e-05  -0.00899291833731   0.999762709626      -0.0143603576034    0.999762709626      -0.0143603576034    -5.89960142994e-05  -0.00899291833731   
1100000000.0        -8.70943767878e-05  -0.00989292755752   0.999731218725      -0.0157974940325    0.999731218725      -0.0157974940325    -8.70943767877e-05  -0.00989292755752   
1200000000.0        -0.000117795529474  -0.0107930822275    0.99969685112       -0.0172348677139    0.99969685112       -0.0172348677139    -0.000117795529475  -0.0107930822275    
1300000000.0        -0.000151100183426  -0.0116933821873    0.999659603626      -0.0186724830495    0.999659603626      -0.0186724830495    -0.000151100183427  -0.0116933821873    
1400000000.0        -0.000187009306208  -0.0125938264632    0.999619473243      -0.0201103434455    0.999619473243      -0.0201103434455    -0.000187009306209  -0.0125938264632    
1500000000.0        -0.000225524058009  -0.0134944133393    0.999576457112      -0.0215484514036    0.999576457112      -0.0215484514036    -0.000225524058009  -0.0134944133393    
1600000000.0        -0.000266645745288  -0.0143951404179    0.999530552474      -0.022986808597     0.999530552474      -0.022986808597     -0.000266645745288  -0.0143951404179    
1700000000.0        -0.000310375786086  -0.015296004672     0.999481756658      -0.0244254159362    0.999481756658      -0.0244254159362    -0.000310375786086  -0.015296004672     
1800000000.0        -0.000356715683326  -0.0161970024904    0.999430067057      -0.0258642736263    0.999430067057      -0.0258642736263    -0.000356715683326  -0.0161970024904    
1900000000.0        -0.00040566700381   -0.0170981297181    0.999375481124      -0.0273033812165    0.999375481124      -0.0273033812165    -0.00040566700381   -0.0170981297181    
2000000000.0        -0.000457231361293  -0.0179993816917    0.999317996359      -0.0287427376449    0.999317996359      -0.0287427376449    -0.000457231361293  -0.0179993816917    
2100000000.0        -0.000511410402618  -0.0189007532714    0.999257610314      -0.0301823412775    0.999257610314      -0.0301823412775    -0.000511410402618  -0.0189007532714    
2200000000.0        -0.000568205796145  -0.0198022388701    0.999194320578      -0.0316221899438    0.999194320578      -0.0316221899438    -0.000568205796145  -0.0198022388701    
2300000000.0        -0.000627619221949  -0.0207038324787    0.999128124785      -0.0330622809692    0.999128124785      -0.0330622809692    -0.000627619221949  -0.0207038324787    
2400000000.0        -0.000689652363419  -0.0216055276911    0.999059020609      -0.0345026112034    0.999059020609      -0.0345026112034    -0.00068965236342   -0.0216055276911    
2500000000.0        -0.000754306899967  -0.0225073177251    0.998987005766      -0.0359431770481    0.998987005766      -0.0359431770481    -0.000754306899967  -0.0225073177251    
2600000000.0        -0.00082158450061   -0.023409195443     0.99891207801       -0.0373839744804    0.99891207801       -0.0373839744804    -0.00082158450061   -0.023409195443     
2700000000.0        -0.000891486818318  -0.0243111533702    0.998834235139      -0.0388249990761    0.998834235139      -0.0388249990761    -0.000891486818318  -0.0243111533702    
2800000000.0        -0.000964015484953  -0.0252131837127    0.998753474993      -0.0402662460303    0.998753474993      -0.0402662460303    -0.000964015484953  -0.0252131837127    
2900000000.0        -0.00103917210672   -0.0261152783728    0.998669795456      -0.0417077101768    0.998669795456      -0.0417077101768    -0.00103917210672   -0.0261152783728    
3000000000.0        -0.00111695826007   -0.0270174289645    0.998583194457      -0.0431493860064    0.998583194457      -0.0431493860064    -0.00111695826007   -0.0270174289645    
3100000000.0        -0.00119737548795   -0.0279196268276    0.99849366997       -0.0445912676834    0.99849366997       -0.0445912676834    -0.00119737548795   -0.0279196268276    
3200000000.0        -0.0012804252964    -0.0288218630406    0.998401220018      -0.0460333490614    0.998401220018      -0.0460333490614    -0.0012804252964    -0.0288218630406    
3300000000.0        -0.00136610915142   -0.0297241284338    0.998305842671      -0.0474756236987    0.998305842671      -0.0474756236987    -0.00136610915142   -0.0297241284338    
3400000000.0        -0.00145442847609   -0.0306264136004    0.998207536053      -0.0489180848716    0.998207536053      -0.0489180848716    -0.00145442847609   -0.0306264136004    
3500000000.0        -0.00154538464791   -0.0315287089081    0.998106298335      -0.0503607255878    0.998106298335      -0.0503607255878    -0.00154538464791   -0.0315287089081    
3600000000.0        -0.00163897899636   -0.0324310045093    0.998002127744      -0.0518035385991    0.998002127744      -0.0518035385991    -0.00163897899636   -0.0324310045093    
3700000000.0        -0.00173521280056   -0.0333332903513    0.997895022561      -0.0532465164125    0.997895022561      -0.0532465164125    -0.00173521280056   -0.0333332903513    
3800000000.0        -0.00183408728723   -0.0342355561856    0.997784981122      -0.0546896513021    0.997784981122      -0.0546896513021    -0.00183408728723   -0.0342355561856    
3900000000.0        -0.00193560362864   -0.0351377915771    0.997672001818      -0.056132935319     0.997672001818      -0.056132935319     -0.00193560362864   -0.0351377915771    
4000000000.0        -0.00203976294079   -0.0360399859122    0.997556083102      -0.0575763603019    0.997556083102      -0.0575763603019    -0.00203976294079   -0.0360399859122    
4100000000.0        -0.00214656628171   -0.0369421284077    0.997437223483      -0.0590199178861    0.997437223483      -0.0590199178861    -0.00214656628171   -0.0369421284077    
4200000000.0        -0.00225601464982   -0.037844208118     0.99731542153       -0.0604635995132    0.99731542153       -0.0604635995132    -0.00225601464982   -0.037844208118     
4300000000.0        -0.00236810898245   -0.0387462139427    0.997190675876      -0.0619073964391    0.997190675876      -0.0619073964391    -0.00236810898245   -0.0387462139427    
4400000000.0        -0.00248285015441   -0.0396481346338    0.997062985214      -0.063351299743     0.997062985214      -0.063351299743     -0.00248285015441   -0.0396481346338    
4500000000.0        -0.00260023897672   -0.0405499588024    0.996932348301      -0.0647953003347    0.996932348301      -0.0647953003347    -0.00260023897672   -0.0405499588024    
4600000000.0        -0.00272027619529   -0.0414516749253    0.996798763958      -0.0662393889624    0.996798763958      -0.0662393889624    -0.00272027619529   -0.0414516749253    
4700000000.0        -0.00284296248986   -0.0423532713512    0.99666223107       -0.0676835562202    0.99666223107       -0.0676835562202    -0.00284296248986   -0.0423532713512    
4800000000.0        -0.00296829847286   -0.0432547363069    0.996522748592      -0.0691277925546    0.996522748592      -0.0691277925546    -0.00296829847286   -0.0432547363069    
4900000000.0        -0.00309628468839   -0.0441560579024    0.99638031554       -0.0705720882712    0.99638031554       -0.0705720882712    -0.00309628468839   -0.0441560579024    
5000000000.0        -0.00322692161132   -0.0450572241372    0.996234931001      -0.0720164335415    0.996234931001      -0.0720164335415    -0.00322692161132   -0.0450572241372    
5100000000.0        -0.00336020964638   -0.0459582229052    0.99608659413       -0.0734608184085    0.99608659413       -0.0734608184085    -0.00336020964638   -0.0459582229052    
5200000000.0        -0.00349614912731   -0.0468590420001    0.99593530415       -0.074905232793     0.99593530415       -0.074905232793     -0.00349614912731   -0.0468590420001    
5300000000.0        -0.0036347403161    -0.0477596691196    0.995781060354      -0.0763496664988    0.995781060354      -0.0763496664988    -0.0036347403161    -0.0477596691196    
5400000000.0        -0.00377598340231   -0.048660091871     0.995623862104      -0.0777941092185    0.995623862104      -0.0777941092185    -0.00377598340231   -0.048660091871     
5500000000.0        -0.0039198785023    -0.0495602977754    0.995463708833      -0.0792385505388    0.995463708833      -0.0792385505388    -0.0039198785023    -0.0495602977754    
5600000000.0        -0.00406642565872   -0.0504602742717    0.995300600047      -0.0806829799449    0.995300600047      -0.0806829799449    -0.00406642565872   -0.0504602742717    
5700000000.0        -0.00421562483982   -0.0513600087216    0.995134535321      -0.0821273868261    0.995134535321      -0.0821273868261    -0.00421562483982   -0.0513600087216    
5800000000.0        -0.00436747593899   -0.0522594884128    0.994965514303      -0.08357176048      0.994965514303      -0.08357176048      -0.00436747593899   -0.0522594884128    
5900000000.0        -0.0045219787742    -0.0531587005638    0.994793536715      -0.0850160901171    0.994793536715      -0.0850160901171    -0.0045219787742    -0.0531587005638    
6000000000.0        -0.00467913308759   -0.054057632327     0.994618602349      -0.0864603648653    0.994618602349      -0.0864603648653    -0.00467913308759   -0.054057632327     
6100000000.0        -0.00483893854499   -0.0549562707928    0.994440711073      -0.0879045737738    0.994440711073      -0.0879045737738    -0.00483893854499   -0.0549562707928    
6200000000.0        -0.00500139473559   -0.0558546029928    0.994259862827      -0.0893487058172    0.994259862827      -0.0893487058172    -0.00500139473559   -0.0558546029928    
6300000000.0        -0.00516650117152   -0.0567526159037    0.994076057625      -0.0907927498997    0.994076057625      -0.0907927498997    -0.00516650117152   -0.0567526159037    
6400000000.0        -0.00533425728755   -0.05765029645      0.993889295556      -0.0922366948583    0.993889295556      -0.0922366948583    -0.00533425728755   -0.05765029645      
6500000000.0        -0.00550466244081   -0.0585476315077    0.993699576783      -0.093680529467     0.993699576783      -0.093680529467     -0.00550466244081   -0.0585476315077    
6600000000.0        -0.00567771591049   -0.059444607907     0.993506901543      -0.09512424244      0.993506901543      -0.09512424244      -0.00567771591049   -0.059444607907     
6700000000.0        -0.00585341689762   -0.0603412124356    0.993311270149      -0.0965678224351    0.993311270149      -0.0965678224351    -0.00585341689762   -0.0603412124356    
6800000000.0        -0.00603176452485   -0.0612374318416    0.993112682989      -0.0980112580571    0.993112682989      -0.0980112580571    -0.00603176452485   -0.0612374318416    
6900000000.0        -0.00621275783628   -0.0621332528359    0.992911140524      -0.0994545378607    0.992911140524      -0.0994545378607    -0.00621275783628   -0.0621332528359    
7000000000.0        -0.00639639579723   -0.0630286620955    0.992706643293      -0.100897650354     0.992706643293      -0.100897650354     -0.00639639579723   -0.0630286620955    
7100000000.0        -0.00658267729419   -0.0639236462654    0.99249919191       -0.102340584001     0.99249919191       -0.102340584001     -0.00658267729419   -0.0639236462654    
7200000000.0        -0.00677160113464   -0.0648181919621    0.992288787064      -0.103783327225     0.992288787064      -0.103783327225     -0.00677160113464   -0.0648181919621    
7300000000.0        -0.00696316604697   -0.065712285775     0.992075429518      -0.105225868411     0.992075429518      -0.105225868411     -0.00696316604697   -0.065712285775     
7400000000.0        -0.0071573706804    -0.0666059142698    0.991859120114      -0.106668195908     0.991859120114      -0.106668195908     -0.0071573706804    -0.0666059142698    
7500000000.0        -0.00735421360494   -0.0674990639899    0.991639859768      -0.108110298033     0.991639859768      -0.108110298033     -0.00735421360494   -0.0674990639899    
7600000000.0        -0.00755369331131   -0.0683917214595    0.991417649472      -0.109552163072     0.991417649472      -0.109552163072     -0.00755369331131   -0.0683917214595    
7700000000.0        -0.00775580821097   -0.0692838731851    0.991192490292      -0.110993779282     0.991192490292      -0.110993779282     -0.00775580821097   -0.0692838731851    
7800000000.0        -0.00796055663609   -0.0701755056579    0.990964383372      -0.112435134898     0.990964383372      -0.112435134898     -0.00796055663609   -0.0701755056579    
7900000000.0        -0.00816793683955   -0.0710666053561    0.990733329932      -0.113876218127     0.990733329932      -0.113876218127     -0.00816793683955   -0.0710666053561    
8000000000.0        -0.00837794699501   -0.0719571587464    0.990499331266      -0.115317017158     0.990499331266      -0.115317017158     -0.00837794699501   -0.0719571587464    
8100000000.0        -0.00859058519692   -0.0728471522862    0.990262388744      -0.116757520161     0.990262388744      -0.116757520161     -0.00859058519692   -0.0728471522862    
8200000000.0        -0.0088058494606    -0.0737365724257    0.990022503812      -0.118197715288     0.990022503812      -0.118197715288     -0.0088058494606    -0.0737365724257    
8300000000.0        -0.0090237377223    -0.0746254056092    0.989779677991      -0.119637590678     0.989779677991      -0.119637590678     -0.0090237377223    -0.0746254056092    
8400000000.0        -0.00924424783932   -0.0755136382775    0.989533912878      -0.121077134455     0.989533912878      -0.121077134455     -0.00924424783932   -0.0755136382775    
8500000000.0        -0.00946737759007   -0.0764012568689    0.989285210146      -0.122516334734     0.989285210146      -0.122516334734     -0.00946737759007   -0.0764012568689    
8600000000.0        -0.00969312467421   -0.0772882478217    0.98903357154       -0.123955179621     0.98903357154       -0.123955179621     -0.00969312467421   -0.0772882478217    
8700000000.0        -0.00992148671279   -0.0781745975751    0.988778998884      -0.125393657213     0.988778998884      -0.125393657213     -0.00992148671279   -0.0781745975751    
8800000000.0        -0.0101524612484    -0.0790602925714    0.988521494073      -0.126831755604     0.988521494073      -0.126831755604     -0.0101524612484    -0.0790602925714    
8900000000.0        -0.0103860457451    -0.0799453192571    0.98826105908       -0.128269462883     0.98826105908       -0.128269462883     -0.0103860457451    -0.0799453192571    
9000000000.0        -0.0106222375891    -0.0808296640846    0.987997695951      -0.129706767137     0.987997695951      -0.129706767137     -0.0106222375891    -0.0808296640846    
9100000000.0        -0.0108610340884    -0.0817133135135    0.987731406806      -0.131143656453     0.987731406806      -0.131143656453     -0.0108610340884    -0.0817133135135    
9200000000.0        -0.0111024324732    -0.0825962540125    0.98746219384       -0.132580118919     0.98746219384       -0.132580118919     -0.0111024324732    -0.0825962540125    
9300000000.0        -0.0113464298962    -0.0834784720601    0.987190059321      -0.134016142627     0.987190059321      -0.134016142627     -0.0113464298962    -0.0834784720601    
9400000000.0        -0.0115930234324    -0.0843599541464    0.986915005592      -0.13545171567      0.986915005592      -0.13545171567      -0.0115930234324    -0.0843599541464    
9500000000.0        -0.01184221008      -0.0852406867745    0.986637035069      -0.13688682615      0.986637035069      -0.13688682615      -0.01184221008      -0.0852406867745    
9600000000.0        -0.0120939867598    -0.0861206564615    0.986356150241      -0.138321462175     0.986356150241      -0.138321462175     -0.0120939867598    -0.0861206564615    
9700000000.0        -0.0123483503162    -0.0869998497398    0.986072353671      -0.139755611859     0.986072353671      -0.139755611859     -0.0123483503162    -0.0869998497398    
9800000000.0        -0.0126052975168    -0.0878782531584    0.985785647993      -0.14118926333      0.985785647993      -0.14118926333      -0.0126052975168    -0.0878782531584    
9900000000.0        -0.0128648250531    -0.0887558532841    0.985496035916      -0.142622404725     0.985496035916      -0.142622404725     -0.0128648250531    -0.0887558532841    
10000000000.0       -0.0131269295406    -0.0896326367028    0.985203520219      -0.144055024191     0.985203520219      -0.144055024191     -0.0131269295406    -0.0896326367028    
