# Hz S RI R 50.00 
100000000.0         0.00711361379308    0.000858413776798   0.992881471059      -0.00287637272406   0.992881471059      -0.00287637272406   0.00711361379308    0.000858413776798   
200000000.0         0.00716719715873    0.00171644651414    0.992819890507      -0.00575235629912   0.992819890507      -0.00575235629912   0.00716719715873    0.00171644651414    
300000000.0         0.00721326592695    0.00257420912089    0.992761742359      -0.00862805910396   0.992761742359      -0.00862805910396   0.00721326592695    0.00257420912089    
400000000.0         0.00725795988648    0.00343172002122    0.992700886682      -0.0115034965539    0.992700886682      -0.0115034965539    0.00725795988648    0.00343172002122    
500000000.0         0.007303643662      0.00428897623778    0.992634958698      -0.0143786624238    0.992634958698      -0.0143786624238    0.007303643662      0.00428897623778    
600000000.0         0.00735152285237    0.0051459653589     0.992562752644      -0.0172535408996    0.992562752644      -0.0172535408996    0.00735152285237    0.0051459653589     
700000000.0         0.00740230913433    0.00600266982565    0.992483556665      -0.0201281109074    0.992483556665      -0.0201281109074    0.00740230913433    0.00600266982565    
800000000.0         0.00745646301786    0.00685906891539    0.992396910055      -0.0230023481226    0.992396910055      -0.0230023481226    0.00745646301786    0.00685906891539    
900000000.0         0.00751430193793    0.00771513980452    0.99230249517       -0.0258762260494    0.99230249517       -0.0258762260494    0.00751430193793    0.00771513980452    
1000000000.0        0.00757605504566    0.00857085819642    0.992200082632      -0.0287497166604    0.992200082632      -0.0287497166604    0.00757605504566    0.00857085819642    
1100000000.0        0.00764189366669    0.00942619871934    0.99208950087       -0.0316227908026    0.99208950087       -0.0316227908026    0.00764189366669    0.00942619871934    
1200000000.0        0.00771194945071    0.0102811351925     0.991970617976      -0.0344954184704    0.991970617976      -0.0344954184704    0.00771194945071    0.0102811351925     
1300000000.0        0.00778632579037    0.0111356408117     0.991843330278      -0.0373675689956    0.991843330278      -0.0373675689956    0.00778632579037    0.0111356408117     
1400000000.0        0.00786510532683    0.011989688283      0.991707554843      -0.040239211186     0.991707554843      -0.040239211186     0.00786510532683    0.011989688283      
1500000000.0        0.00794835506417    0.0128432499223     0.991563224354      -0.0431103134275    0.991563224354      -0.0431103134275    0.00794835506417    0.0128432499223     
1600000000.0        0.00803612996141    0.0136962977308     0.991410283525      -0.0459808437627    0.991410283525      -0.0459808437627    0.00803612996141    0.0136962977308     
1700000000.0        0.00812847552107    0.014548803454      0.99124868651       -0.0488507699513    0.99124868651       -0.0488507699513    0.00812847552107    0.014548803454      
1800000000.0        0.00822542969638    0.0154007386277     0.991078394995      -0.0517200595193    0.991078394995      -0.0517200595193    0.00822542969638    0.0154007386277     
1900000000.0        0.00832702432397    0.0162520746155     0.990899376765      -0.054588679797     0.990899376765      -0.054588679797     0.00832702432397    0.0162520746155     
2000000000.0        0.00843328621847    0.0171027826393     0.990711604612      -0.0574565979515    0.990711604612      -0.0574565979515    0.00843328621847    0.0171027826393     
2100000000.0        0.00854423802156    0.017952833804      0.990515055485      -0.0603237810122    0.990515055485      -0.0603237810122    0.00854423802156    0.017952833804      
2200000000.0        0.00865989886944    0.0188021991189     0.99030970982       -0.0631901958938    0.99030970982       -0.0631901958938    0.00865989886944    0.0188021991189     
2300000000.0        0.00878028492391    0.0196508495153     0.990095551014      -0.0660558094138    0.990095551014      -0.0660558094138    0.00878028492391    0.0196508495153     
2400000000.0        0.00890540979964    0.0204987558613     0.989872564992      -0.0689205883095    0.989872564992      -0.0689205883095    0.00890540979964    0.0204987558613     
2500000000.0        0.00903528491125    0.0213458889752     0.989640739865      -0.0717844992507    0.989640739865      -0.0717844992507    0.00903528491125    0.0213458889752     
2600000000.0        0.00916991975788    0.0221922196365     0.989400065643      -0.0746475088523    0.989400065643      -0.0746475088523    0.00916991975788    0.0221922196365     
2700000000.0        0.00930932215844    0.0230377185958     0.989150534001      -0.0775095836845    0.989150534001      -0.0775095836845    0.00930932215844    0.0230377185958     
2800000000.0        0.00945349844758    0.0238823565837     0.988892138081      -0.0803706902821    0.988892138081      -0.0803706902821    0.00945349844758    0.0238823565837     
2900000000.0        0.00960245364005    0.0247261043185     0.98862487233       -0.0832307951525    0.98862487233       -0.0832307951525    0.00960245364005    0.0247261043185     
3000000000.0        0.00975619156954    0.0255689325129     0.988348732359      -0.086089864783     0.988348732359      -0.086089864783     0.00975619156954    0.0255689325129     
3100000000.0        0.00991471500656    0.0264108118804     0.98806371483       -0.0889478656479    0.98806371483       -0.0889478656479    0.00991471500656    0.0264108118804     
3200000000.0        0.0100780257593     0.027251713141      0.987769817347      -0.0918047642138    0.987769817347      -0.0918047642138    0.0100780257593     0.027251713141      
3300000000.0        0.0102461247599     0.0280916070264     0.987467038379      -0.0946605269454    0.987467038379      -0.0946605269454    0.0102461247599     0.0280916070264     
3400000000.0        0.0104190121396     0.0289304642842     0.987155377177      -0.0975151203105    0.987155377177      -0.0975151203105    0.0104190121396     0.0289304642842     
3500000000.0        0.0105966872931     0.0297682556832     0.986834833715      -0.100368510784     0.986834833715      -0.100368510784     0.0105966872931     0.0297682556832     
3600000000.0        0.0107791489352     0.0306049520163     0.986505408632      -0.103220664854     0.986505408632      -0.103220664854     0.0107791489352     0.0306049520163     
3700000000.0        0.0109663951503     0.0314405241052     0.986167103181      -0.106071549022     0.986167103181      -0.106071549022     0.0109663951503     0.0314405241052     
3800000000.0        0.0111584234354     0.0322749428034     0.985819919186      -0.108921129811     0.985819919186      -0.108921129811     0.0111584234354     0.0322749428034     
3900000000.0        0.0113552307387     0.0331081789993     0.985463859009      -0.111769373766     0.985463859009      -0.111769373766     0.0113552307387     0.0331081789993     
4000000000.0        0.0115568134932     0.0339402036198     0.985098925507      -0.114616247458     0.985098925507      -0.114616247458     0.0115568134932     0.0339402036198     
4100000000.0        0.011763167647      0.0347709876328     0.984725122011      -0.117461717486     0.984725122011      -0.117461717486     0.011763167647      0.0347709876328     
4200000000.0        0.0119742886895     0.0356005020501     0.984342452292      -0.120305750484     0.984342452292      -0.120305750484     0.0119742886895     0.0356005020501     
4300000000.0        0.0121901716761     0.0364287179302     0.983950920545      -0.123148313117     0.983950920545      -0.123148313117     0.0121901716761     0.0364287179302     
4400000000.0        0.012410811249      0.0372556063803     0.983550531358      -0.125989372089     0.983550531358      -0.125989372089     0.012410811249      0.0372556063803     
4500000000.0        0.0126362016566     0.0380811385592     0.983141289702      -0.128828894144     0.983141289702      -0.128828894144     0.0126362016566     0.0380811385592     
4600000000.0        0.0128663367712     0.0389052856794     0.982723200908      -0.131666846067     0.982723200908      -0.131666846067     0.0128663367712     0.0389052856794     
4700000000.0        0.0131012101042     0.0397280190092     0.982296270652      -0.134503194689     0.982296270652      -0.134503194689     0.0131012101042     0.0397280190092     
4800000000.0        0.0133408148209     0.0405493098752     0.981860504943      -0.137337906884     0.981860504943      -0.137337906884     0.0133408148209     0.0405493098752     
4900000000.0        0.0135851437529     0.0413691296637     0.98141591011       -0.140170949579     0.98141591011       -0.140170949579     0.0135851437529     0.0413691296637     
5000000000.0        0.0138341894102     0.0421874498235     0.980962492787      -0.143002289749     0.980962492787      -0.143002289749     0.0138341894102     0.0421874498235     
5100000000.0        0.0140879439921     0.043004241867      0.980500259905      -0.145831894422     0.980500259905      -0.145831894422     0.0140879439921     0.043004241867      
5200000000.0        0.0143463993967     0.0438194773729     0.980029218682      -0.148659730679     0.980029218682      -0.148659730679     0.0143463993967     0.0438194773729     
5300000000.0        0.0146095472301     0.0446331279873     0.979549376614      -0.151485765661     0.979549376614      -0.151485765661     0.0146095472301     0.0446331279873     
5400000000.0        0.0148773788151     0.0454451654259     0.979060741466      -0.154309966563     0.979060741466      -0.154309966563     0.0148773788151     0.0454451654259     
5500000000.0        0.0151498851982     0.0462555614755     0.978563321264      -0.157132300643     0.978563321264      -0.157132300643     0.0151498851982     0.0462555614755     
5600000000.0        0.0154270571574     0.0470642879961     0.97805712429       -0.159952735217     0.97805712429       -0.159952735217     0.0154270571574     0.0470642879961     
5700000000.0        0.0157088852083     0.0478713169218     0.977542159072      -0.162771237668     0.977542159072      -0.162771237668     0.0157088852083     0.0478713169218     
5800000000.0        0.0159953596104     0.0486766202632     0.977018434381      -0.165587775441     0.977018434381      -0.165587775441     0.0159953596104     0.0486766202632     
5900000000.0        0.016286470373      0.0494801701086     0.976485959227      -0.168402316048     0.976485959227      -0.168402316048     0.016286470373      0.0494801701086     
6000000000.0        0.0165822072599     0.0502819386256     0.975944742846      -0.17121482707      0.975944742846      -0.17121482707      0.0165822072599     0.0502819386256     
6100000000.0        0.0168825597952     0.0510818980625     0.975394794704      -0.174025276156     0.975394794704      -0.174025276156     0.0168825597952     0.0510818980625     
6200000000.0        0.0171875172672     0.0518800207501     0.974836124488      -0.176833631025     0.974836124488      -0.176833631025     0.0171875172672     0.0518800207501     
6300000000.0        0.0174970687332     0.0526762791029     0.974268742101      -0.179639859471     0.974268742101      -0.179639859471     0.0174970687332     0.0526762791029     
6400000000.0        0.0178112030236     0.0534706456206     0.973692657661      -0.182443929358     0.973692657661      -0.182443929358     0.0178112030236     0.0534706456206     
6500000000.0        0.0181299087455     0.0542630928898     0.973107881493      -0.18524580863      0.973107881493      -0.18524580863      0.0181299087455     0.0542630928898     
6600000000.0        0.0184531742865     0.0550535935848     0.97251442413       -0.188045465302     0.97251442413       -0.188045465302     0.0184531742865     0.0550535935848     
6700000000.0        0.0187809878185     0.0558421204698     0.971912296306      -0.19084286747      0.971912296306      -0.19084286747      0.0187809878185     0.0558421204698     
6800000000.0        0.0191133373002     0.0566286463995     0.971301508955      -0.193637983309     0.971301508955      -0.193637983309     0.0191133373002     0.0566286463995     
6900000000.0        0.0194502104811     0.0574131443208     0.970682073207      -0.196430781074     0.970682073207      -0.196430781074     0.0194502104811     0.0574131443208     
7000000000.0        0.0197915949039     0.0581955872741     0.970054000384      -0.199221229101     0.970054000384      -0.199221229101     0.0197915949039     0.0581955872741     
7100000000.0        0.0201374779075     0.0589759483946     0.969417301999      -0.202009295808     0.969417301999      -0.202009295808     0.0201374779075     0.0589759483946     
7200000000.0        0.0204878466297     0.0597542009136     0.968771989753      -0.204794949701     0.968771989753      -0.204794949701     0.0204878466297     0.0597542009136     
7300000000.0        0.02084268801       0.0605303181597     0.968118075533      -0.207578159367     0.968118075533      -0.207578159367     0.02084268801       0.0605303181597     
7400000000.0        0.0212019887917     0.0613042735601     0.967455571406      -0.210358893482     0.967455571406      -0.210358893482     0.0212019887917     0.0613042735601     
7500000000.0        0.0215657355246     0.0620760406417     0.966784489621      -0.21313712081      0.966784489621      -0.21313712081      0.0215657355246     0.0620760406417     
7600000000.0        0.0219339145673     0.0628455930328     0.966104842605      -0.215912810202     0.966104842605      -0.215912810202     0.0219339145673     0.0628455930328     
7700000000.0        0.0223065120892     0.0636129044635     0.965416642961      -0.218685930601     0.965416642961      -0.218685930601     0.0223065120892     0.0636129044635     
7800000000.0        0.0226835140729     0.0643779487677     0.964719903466      -0.22145645104      0.964719903466      -0.22145645104      0.0226835140729     0.0643779487677     
7900000000.0        0.0230649063161     0.0651406998839     0.964014637066      -0.224224340644     0.964014637066      -0.224224340644     0.0230649063161     0.0651406998839     
8000000000.0        0.0234506744338     0.0659011318562     0.963300856882      -0.226989568634     0.963300856882      -0.226989568634     0.0234506744338     0.0659011318562     
8100000000.0        0.02384080386       0.0666592188359     0.962578576197      -0.229752104322     0.962578576197      -0.229752104322     0.02384080386       0.0666592188359     
8200000000.0        0.02423527985       0.0674149350822     0.961847808465      -0.232511917118     0.961847808465      -0.232511917118     0.02423527985       0.0674149350822     
8300000000.0        0.0246340874817     0.0681682549636     0.9611085673        -0.235268976529     0.9611085673        -0.235268976529     0.0246340874817     0.0681682549636     
8400000000.0        0.0250372116581     0.0689191529589     0.960360866482      -0.238023252156     0.960360866482      -0.238023252156     0.0250372116581     0.0689191529589     
8500000000.0        0.0254446371084     0.0696676036584     0.959604719949      -0.240774713704     0.959604719949      -0.240774713704     0.0254446371084     0.0696676036584     
8600000000.0        0.0258563483901     0.0704135817648     0.958840141799      -0.243523330973     0.958840141799      -0.243523330973     0.0258563483901     0.0704135817648     
8700000000.0        0.0262723298907     0.0711570620944     0.958067146287      -0.246269073867     0.958067146287      -0.246269073867     0.0262723298907     0.0711570620944     
8800000000.0        0.0266925658292     0.0718980195784     0.957285747825      -0.24901191239      0.957285747825      -0.24901191239      0.0266925658292     0.0718980195784     
8900000000.0        0.0271170402577     0.0726364292633     0.956495960978      -0.25175181665      0.956495960978      -0.25175181665      0.0271170402577     0.0726364292633     
9000000000.0        0.0275457370634     0.0733722663126     0.955697800464      -0.254488756857     0.955697800464      -0.254488756857     0.0275457370634     0.0733722663126     
9100000000.0        0.0279786399694     0.0741055060075     0.954891281152      -0.257222703327     0.954891281152      -0.257222703327     0.0279786399694     0.0741055060075     
9200000000.0        0.0284157325372     0.074836123748      0.95407641806       -0.259953626481     0.95407641806       -0.259953626481     0.0284157325372     0.074836123748      
9300000000.0        0.0288569981674     0.0755640950539     0.953253226354      -0.262681496846     0.953253226354      -0.262681496846     0.0288569981674     0.0755640950539     
9400000000.0        0.0293024201016     0.0762893955656     0.952421721349      -0.265406285058     0.952421721349      -0.265406285058     0.0293024201016     0.0762893955656     
9500000000.0        0.0297519814238     0.0770120010455     0.951581918503      -0.26812796186      0.951581918503      -0.26812796186      0.0297519814238     0.0770120010455     
9600000000.0        0.0302056650621     0.0777318873785     0.950733833417      -0.270846498105     0.950733833417      -0.270846498105     0.0302056650621     0.0777318873785     
9700000000.0        0.0306634537897     0.0784490305733     0.949877481838      -0.273561864754     0.949877481838      -0.273561864754     0.0306634537897     0.0784490305733     
9800000000.0        0.0311253302266     0.0791634067633     0.94901287965       -0.276274032882     0.94901287965       -0.276274032882     0.0311253302266     0.0791634067633     
9900000000.0        0.031591276841      0.0798749922071     0.948140042878      -0.278982973673     0.948140042878      -0.278982973673     0.031591276841      0.0798749922071     
10000000000.0       0.0320612759508     0.0805837632902     0.947258987687      -0.281688658426     0.947258987687      -0.281688658426     0.0320612759508     0.0805837632902     
