# Hz S RI R 50.00 
100000000.0         -0.00170104539265   -0.0411105841578    0.998219737699      -0.0412575794149    0.998219737699      -0.0412575794149    -0.00170104539265   -0.0411105841578    
200000000.0         -0.00680368145495   -0.0817958489083    0.993116528089      -0.0820898519356    0.993116528089      -0.0820898519356    -0.00680368145495   -0.0817958489083    
300000000.0         -0.0151659873501    -0.121652124183     0.9847537631        -0.122093154491     0.9847537631        -0.122093154491     -0.0151659873501    -0.121652124183     
400000000.0         -0.0266226949514    -0.160303236008     0.973296642753      -0.160891318672     0.973296642753      -0.160891318672     -0.0266226949514    -0.160303236008     
500000000.0         -0.0409544694956    -0.197411590095     0.958964475707      -0.198146755034     0.958964475707      -0.198146755034     -0.0409544694956    -0.197411590095     
600000000.0         -0.0578980094628    -0.232686789638     0.94202055023       -0.233569071141     0.94202055023       -0.233569071141     -0.0578980094628    -0.232686789638     
700000000.0         -0.0771574549262    -0.265891382424     0.922760718452      -0.266920818802     0.922760718452      -0.266920818802     -0.0771574549262    -0.265891382424     
800000000.0         -0.0984162357483    -0.296843641386     0.901501545475      -0.298020274696     0.901501545475      -0.298020274696     -0.0984162357483    -0.296843641386     
900000000.0         -0.121348564035     -0.325417546253     0.878568815728      -0.326741422067     0.878568815728      -0.326741422067     -0.121348564035     -0.325417546253     
1000000000.0        -0.145629916624     -0.351540339234     0.854287049869      -0.353011506449     0.854287049869      -0.353011506449     -0.145629916624     -0.351540339234     
1100000000.0        -0.170946037184     -0.375188160407     0.828970502351      -0.376806671074     0.828970502351      -0.376806671074     -0.170946037184     -0.375188160407     
1200000000.0        -0.19700018339      -0.396380326638     0.802915914052      -0.398146235815     0.802915914052      -0.398146235815     -0.19700018339      -0.396380326638     
1300000000.0        -0.223518526848     -0.415172810525     0.776397112218      -0.417086176141     0.776397112218      -0.417086176141     -0.223518526848     -0.415172810525     
1400000000.0        -0.250253764243     -0.431651419033     0.749661399239      -0.433712301768     0.749661399239      -0.433712301768     -0.250253764243     -0.431651419033     
1500000000.0        -0.276987108613     -0.445925083655     0.722927561317      -0.44813354683      0.722927561317      -0.44813354683      -0.276987108613     -0.445925083655     
1600000000.0        -0.303528898522     -0.458119572587     0.696385259252      -0.460475682059     0.696385259252      -0.460475682059     -0.303528898522     -0.458119572587     
1700000000.0        -0.329718094581     -0.468371834666     0.670195531896      -0.470875658734     0.670195531896      -0.470875658734     -0.329718094581     -0.468371834666     
1800000000.0        -0.355420934671     -0.476825094419     0.644492140909      -0.479476703735     0.644492140909      -0.479476703735     -0.355420934671     -0.476825094419     
1900000000.0        -0.380529000095     -0.483624743056     0.619383504588      -0.48642421054      0.619383504588      -0.48642421054      -0.380529000095     -0.483624743056     
2000000000.0        -0.404956912752     -0.488915013508     0.594955000687      -0.491862414273     0.594955000687      -0.491862414273     -0.404956912752     -0.488915013508     
2100000000.0        -0.428639845233     -0.492836388158     0.571271456305      -0.495931799434     0.571271456305      -0.495931799434     -0.428639845233     -0.492836388158     
2200000000.0        -0.451530986567     -0.495523663469     0.548379682142      -0.498767164532     0.548379682142      -0.498767164532     -0.451530986567     -0.495523663469     
2300000000.0        -0.473599069649     -0.497104583467     0.526310945053      -0.500496255574     0.526310945053      -0.500496255574     -0.473599069649     -0.497104583467     
2400000000.0        -0.494826034285     -0.497698950947     0.505083305013      -0.501238877274     0.505083305013      -0.501238877274     -0.494826034285     -0.497698950947     
2500000000.0        -0.51520487297      -0.49741812848      0.484703769322      -0.501106394061     0.484703769322      -0.501106394061     -0.51520487297      -0.49741812848      
2600000000.0        -0.534737685363     -0.496364848572     0.465170238136      -0.500201540241     0.465170238136      -0.500201540241     -0.534737685363     -0.496364848572     
2700000000.0        -0.553433951244     -0.494633261736     0.446473231504      -0.498618468073     0.446473231504      -0.498618468073     -0.553433951244     -0.494633261736     
2800000000.0        -0.571309020115     -0.492309161491     0.428597399763      -0.49644297277      0.428597399763      -0.49644297277      -0.571309020115     -0.492309161491     
2900000000.0        -0.588382807654     -0.489470335465     0.41152282709       -0.493752843604     0.41152282709       -0.493752843604     -0.588382807654     -0.489470335465     
3000000000.0        -0.604678684144     -0.486187001239     0.395226143059      -0.490618299754     0.395226143059      -0.490618299754     -0.604678684144     -0.486187001239     
3100000000.0        -0.620222537291     -0.482522294068     0.379681459835      -0.487102478023     0.379681459835      -0.487102478023     -0.620222537291     -0.482522294068     
3200000000.0        -0.635041990605     -0.478532780926     0.364861153783      -0.483261946895     0.364861153783      -0.483261946895     -0.635041990605     -0.478532780926     
3300000000.0        -0.649165758602     -0.474268981549     0.350736510268      -0.479147227569     0.350736510268      -0.479147227569     -0.649165758602     -0.474268981549     
3400000000.0        -0.66262312082      -0.469775882216     0.33727824964       -0.47480330775      0.33727824964       -0.47480330775      -0.66262312082      -0.469775882216     
3500000000.0        -0.675443497913     -0.465093432148     0.324456951137      -0.470270138044     0.324456951137      -0.470270138044     -0.675443497913     -0.465093432148     
3600000000.0        -0.687656114618     -0.460257015676     0.312243389917      -0.465583104133     0.312243389917      -0.465583104133     -0.687656114618     -0.460257015676     
3700000000.0        -0.699289735983     -0.455297895859     0.300608800833      -0.460773470389     0.300608800833      -0.460773470389     -0.699289735983     -0.455297895859     
3800000000.0        -0.710372464899     -0.450243627175     0.289525080896      -0.45586879257      0.289525080896      -0.45586879257      -0.710372464899     -0.450243627175     
3900000000.0        -0.720931590515     -0.445118436379     0.278964940863      -0.450893298679     0.278964940863      -0.450893298679     -0.720931590515     -0.445118436379     
4000000000.0        -0.730993478548     -0.439943571645     0.268902014925      -0.445868238104     0.268902014925      -0.445868238104     -0.730993478548     -0.439943571645     
4100000000.0        -0.740583495842     -0.434737620879     0.259310936147      -0.440812199939     0.259310936147      -0.440812199939     -0.740583495842     -0.434737620879     
4200000000.0        -0.749725962656     -0.429516800599     0.250167384185      -0.435741401857     0.250167384185      -0.435741401857     -0.749725962656     -0.429516800599     
4300000000.0        -0.758444127218     -0.42429521707      0.241448110725      -0.430669951254     0.241448110725      -0.430669951254     -0.758444127218     -0.42429521707      
4400000000.0        -0.766760157965     -0.419085101606     0.233130947244      -0.425610080546     0.233130947244      -0.425610080546     -0.766760157965     -0.419085101606     
4500000000.0        -0.774695149668     -0.413897021986     0.225194798889      -0.420572358589     0.225194798889      -0.420572358589     -0.774695149668     -0.413897021986     
4600000000.0        -0.782269140283     -0.408740071969     0.217619627622      -0.415565880197     0.217619627622      -0.415565880197     -0.782269140283     -0.408740071969     
4700000000.0        -0.789501135939     -0.403622040836     0.210386427234      -0.410598435681     0.210386427234      -0.410598435681     -0.789501135939     -0.403622040836     
4800000000.0        -0.796409141963     -0.398549564791     0.20347719232       -0.405676662251     0.20347719232       -0.405676662251     -0.796409141963     -0.398549564791     
4900000000.0        -0.803010198199     -0.393528261969     0.196874882954      -0.400806179028     0.196874882954      -0.400806179028     -0.803010198199     -0.393528261969     
5000000000.0        -0.809320417258     -0.388562852671     0.190563386448      -0.395991707281     0.190563386448      -0.395991707281     -0.809320417258     -0.388562852671     
5100000000.0        -0.815355024563     -0.383657266323     0.184527477303      -0.391237177382     0.184527477303      -0.391237177382     -0.815355024563     -0.383657266323     
5200000000.0        -0.821128399329     -0.378814736534     0.178752776227      -0.386545823866     0.178752776227      -0.386545823866     -0.821128399329     -0.378814736534     
5300000000.0        -0.826654115762     -0.374037885503     0.173225708936      -0.381920269845     0.173225708936      -0.381920269845     -0.826654115762     -0.374037885503     
5400000000.0        -0.831944983958     -0.369328798925     0.16793346526       -0.377362601904     0.16793346526       -0.377362601904     -0.831944983958     -0.369328798925     
5500000000.0        -0.83701309007      -0.364689092399     0.16286395897       -0.372874436521     0.16286395897       -0.372874436521     -0.83701309007      -0.364689092399     
5600000000.0        -0.841869835449     -0.360119970293     0.15800578864       -0.368456978926     0.15800578864       -0.368456978926     -0.841869835449     -0.360119970293     
5700000000.0        -0.84652597452      -0.355622277877     0.153348199769      -0.364111075233     0.153348199769      -0.364111075233     -0.84652597452      -0.355622277877     
5800000000.0        -0.850991651244     -0.35119654747      0.148881048322      -0.359837258597     0.148881048322      -0.359837258597     -0.850991651244     -0.35119654747      
5900000000.0        -0.855276434053     -0.346843039283     0.144594765791      -0.355635790048     0.144594765791      -0.355635790048     -0.855276434053     -0.346843039283     
6000000000.0        -0.859389349204     -0.342561777531     0.140480325847      -0.351506694607     0.140480325847      -0.351506694607     -0.859389349204     -0.342561777531     
6100000000.0        -0.863338912508     -0.338352582357     0.136529212604      -0.347449793214     0.136529212604      -0.347449793214     -0.863338912508     -0.338352582357     
6200000000.0        -0.867133159456     -0.334215098043     0.132733390495      -0.343464730932     0.132733390495      -0.343464730932     -0.867133159456     -0.334215098043     
6300000000.0        -0.870779673737     -0.33014881791      0.129085275757      -0.339551001861     0.129085275757      -0.339551001861     -0.870779673737     -0.33014881791      
6400000000.0        -0.874285614194     -0.32615310631      0.125577709473      -0.33570797111      0.125577709473      -0.33570797111      -0.874285614194     -0.32615310631      
6500000000.0        -0.877657740262     -0.322227218002     0.122203932134      -0.331934894197     0.122203932134      -0.331934894197     -0.877657740262     -0.322227218002     
6600000000.0        -0.88090243593      -0.318370315249     0.118957559676      -0.328230934127     0.118957559676      -0.328230934127     -0.88090243593      -0.318370315249     
6700000000.0        -0.88402573231      -0.314581482863     0.115832560912      -0.324595176451     0.115832560912      -0.324595176451     -0.88402573231      -0.314581482863     
6800000000.0        -0.887033328844     -0.310859741452     0.112823236326      -0.321026642504     0.112823236326      -0.321026642504     -0.887033328844     -0.310859741452     
6900000000.0        -0.889930613242     -0.307204059058     0.109924198133      -0.317524301051     0.109924198133      -0.317524301051     -0.889930613242     -0.307204059058     
7000000000.0        -0.892722680192     -0.303613361384     0.107130351569      -0.314087078509     0.107130351569      -0.314087078509     -0.892722680192     -0.303613361384     
7100000000.0        -0.895414348927     -0.300086540763     0.104436877326      -0.31071386792      0.104436877326      -0.31071386792      -0.895414348927     -0.300086540763     
7200000000.0        -0.898010179702     -0.296622464012     0.101839215074      -0.307403536804     0.101839215074      -0.307403536804     -0.898010179702     -0.296622464012     
7300000000.0        -0.900514489237     -0.2932199793       0.0993330480169     -0.304154934027     0.0993330480169     -0.304154934027     -0.900514489237     -0.2932199793       
7400000000.0        -0.902931365207     -0.289877922145     0.0969142884048     -0.300966895799     0.0969142884048     -0.300966895799     -0.902931365207     -0.289877922145     
7500000000.0        -0.905264679807     -0.28659512064      0.0945790639641     -0.297838250902     0.0945790639641     -0.297838250902     -0.905264679807     -0.28659512064      
7600000000.0        -0.907518102483     -0.28337039999      0.0923237051743     -0.294767825223     0.0923237051743     -0.294767825223     -0.907518102483     -0.28337039999      
7700000000.0        -0.909695111846     -0.280202586447     0.0901447333473     -0.291754445697     0.0901447333473     -0.291754445697     -0.909695111846     -0.280202586447     
7800000000.0        -0.911799006844     -0.277090510711     0.0880388494575     -0.288796943698     0.0880388494575     -0.288796943698     -0.911799006844     -0.277090510711     
7900000000.0        -0.913832917231     -0.274033010853     0.0860029236737     -0.285894157972     0.0860029236737     -0.285894157972     -0.913832917231     -0.274033010853     
8000000000.0        -0.915799813376     -0.271028934825     0.0840339855491     -0.283044937143     0.0840339855491     -0.283044937143     -0.915799813376     -0.271028934825     
8100000000.0        -0.917702515457     -0.268077142594     0.0821292148278     -0.280248141846     0.0821292148278     -0.280248141846     -0.917702515457     -0.268077142594     
8200000000.0        -0.919543702079     -0.265176507957     0.0802859328263     -0.277502646545     0.0802859328263     -0.277502646545     -0.919543702079     -0.265176507957     
8300000000.0        -0.921325918353     -0.262325920062     0.0785015943543     -0.274807341054     0.0785015943543     -0.274807341054     -0.921325918353     -0.262325920062     
8400000000.0        -0.923051583474     -0.259524284675     0.0767737801385     -0.272161131805     0.0767737801385     -0.272161131805     -0.923051583474     -0.259524284675     
8500000000.0        -0.924722997823     -0.256770525231     0.0751001897181     -0.269562942894     0.0751001897181     -0.269562942894     -0.924722997823     -0.256770525231     
8600000000.0        -0.926342349634     -0.254063583678     0.0734786347791     -0.267011716934     0.0734786347791     -0.267011716934     -0.926342349634     -0.254063583678     
8700000000.0        -0.927911721247     -0.251402421154     0.071907032901      -0.264506415726     0.071907032901      -0.264506415726     -0.927911721247     -0.251402421154     
8800000000.0        -0.929433094977     -0.248786018514     0.0703834016874     -0.262046020785     0.0703834016874     -0.262046020785     -0.929433094977     -0.248786018514     
8900000000.0        -0.930908358627     -0.246213376715     0.0689058532554     -0.259629533733     0.0689058532554     -0.259629533733     -0.930908358627     -0.246213376715     
9000000000.0        -0.932339310658     -0.243683517095     0.067472589062      -0.257255976571     0.067472589062      -0.257255976571     -0.932339310658     -0.243683517095     
9100000000.0        -0.933727665051     -0.241195481545     0.0660818950434     -0.254924391854     0.0660818950434     -0.254924391854     -0.933727665051     -0.241195481545     
9200000000.0        -0.935075055875     -0.238748332593     0.0647321370483     -0.252633842774     0.0647321370483     -0.252633842774     -0.935075055875     -0.238748332593     
9300000000.0        -0.936383041578     -0.236341153409     0.0634217565455     -0.250383413171     0.0634217565455     -0.250383413171     -0.936383041578     -0.236341153409     
9400000000.0        -0.937653109024     -0.233973047753     0.0621492665887     -0.248172207468     0.0621492665887     -0.248172207468     -0.937653109024     -0.233973047753     
9500000000.0        -0.938886677285     -0.231643139848     0.0609132480201     -0.245999350562     0.0609132480201     -0.245999350562     -0.938886677285     -0.231643139848     
9600000000.0        -0.940085101217     -0.229350574223     0.0597123459007     -0.243863987651     0.0597123459007     -0.243863987651     -0.940085101217     -0.229350574223     
9700000000.0        -0.941249674816     -0.227094515501     0.0585452661486     -0.241765284033     0.0585452661486     -0.241765284033     -0.941249674816     -0.227094515501     
9800000000.0        -0.942381634385     -0.224874148154     0.0574107723758     -0.239702424855     0.0574107723758     -0.239702424855     -0.942381634385     -0.224874148154     
9900000000.0        -0.943482161511     -0.222688676232     0.0563076829085     -0.237674614846     0.0563076829085     -0.237674614846     -0.943482161511     -0.222688676232     
10000000000.0       -0.944552385875     -0.220537323059     0.05523486798       -0.235681078012     0.05523486798       -0.235681078012     -0.944552385875     -0.220537323059     
