# Hz S RI R 50.00 
100000000.0         0.0430621298759     0.00198223372561    0.956936295471      -0.00247473386661   0.956936295471      -0.00247473386661   0.0430621298759     0.00198223372561    
200000000.0         0.043347974161      0.00396187961925    0.956649630279      -0.0049468842539    0.956649630279      -0.0049468842539    0.043347974161      0.00396187961925    
300000000.0         0.043569942845      0.00593990923757    0.956426594379      -0.0074174253882    0.956426594379      -0.0074174253882    0.043569942845      0.00593990923757    
400000000.0         0.0437641063963     0.00791661982268    0.956231117253      -0.0098866566666    0.956231117253      -0.0098866566666    0.0437641063963     0.00791661982268    
500000000.0         0.0439443967936     0.00989215142444    0.95604926688       -0.012354720035     0.95604926688       -0.012354720035     0.0439443967936     0.00989215142444    
600000000.0         0.0441179381052     0.0118665743683     0.955873919148      -0.0148216875457    0.955873919148      -0.0148216875457    0.0441179381052     0.0118665743683     
700000000.0         0.0442889488939     0.0138399207011     0.955700855448      -0.0172875928488    0.955700855448      -0.0172875928488    0.0442889488939     0.0138399207011     
800000000.0         0.0444601682122     0.0158121987892     0.955527336685      -0.0197524458171    0.955527336685      -0.0197524458171    0.0444601682122     0.0158121987892     
900000000.0         0.0446334912735     0.0177834011642     0.955351467598      -0.0222162404111    0.955351467598      -0.0222162404111    0.0446334912735     0.0177834011642     
1000000000.0        0.0448102920284     0.0197535091734     0.955171874189      -0.0246789593408    0.955171874189      -0.0246789593408    0.0448102920284     0.0197535091734     
1100000000.0        0.0449916026822     0.021722495935      0.954987524203      -0.0271405770306    0.954987524203      -0.0271405770306    0.0449916026822     0.021722495935      
1200000000.0        0.0451782207837     0.023690328319      0.95479762004       -0.0296010616079    0.95479762004       -0.0296010616079    0.0451782207837     0.023690328319      
1300000000.0        0.0453707766734     0.0256569683327     0.954601531308      -0.0320603762934    0.954601531308      -0.0320603762934    0.0453707766734     0.0256569683327     
1400000000.0        0.0455697778655     0.0276223741222     0.954398750438      -0.0345184804073    0.954398750438      -0.0345184804073    0.0455697778655     0.0276223741222     
1500000000.0        0.0457756393236     0.0295865007173     0.95418886241       -0.0369753301181    0.95418886241       -0.0369753301181    0.0457756393236     0.0295865007173     
1600000000.0        0.0459887047473     0.0315493005994     0.953971523467      -0.0394308790135    0.953971523467      -0.0394308790135    0.0459887047473     0.0315493005994     
1700000000.0        0.046209261929      0.0335107241423     0.953746445758      -0.0418850785436    0.953746445758      -0.0418850785436    0.046209261929      0.0335107241423     
1800000000.0        0.0464375540806     0.0354707199617     0.953513386008      -0.0443378783729    0.953513386008      -0.0443378783729    0.0464375540806     0.0354707199617     
1900000000.0        0.0466737883522     0.0374292351951     0.953272137005      -0.0467892266618    0.953272137005      -0.0467892266618    0.0466737883522     0.0374292351951     
2000000000.0        0.0469181423466     0.0393862157312     0.953022521081      -0.049239070298     0.953022521081      -0.049239070298     0.0469181423466     0.0393862157312     
2100000000.0        0.0471707691792     0.0413416063977     0.952764385055      -0.0516873550853    0.952764385055      -0.0516873550853    0.0471707691792     0.0413416063977     
2200000000.0        0.0474318014587     0.0432953511191     0.952497596249      -0.0541340259033    0.952497596249      -0.0541340259033    0.0474318014587     0.0432953511191     
2300000000.0        0.0477013544598     0.0452473930487     0.95222203932       -0.0565790268401    0.95222203932       -0.0565790268401    0.0477013544598     0.0452473930487     
2400000000.0        0.0479795286766     0.0471976746818     0.951937613702      -0.0590223013067    0.951937613702      -0.0590223013067    0.0479795286766     0.0471976746818     
2500000000.0        0.0482664119004     0.0491461379522     0.95164423153       -0.0614637921343    0.95164423153       -0.0614637921343    0.0482664119004     0.0491461379522     
2600000000.0        0.0485620809251     0.0510927243155     0.951341815936      -0.0639034416587    0.951341815936      -0.0639034416587    0.0485620809251     0.0510927243155     
2700000000.0        0.0488666029581     0.0530373748223     0.951030299637      -0.0663411917942    0.951030299637      -0.0663411917942    0.0488666029581     0.0530373748223     
2800000000.0        0.0491800367972     0.0549800301818     0.950709623756      -0.0687769840975    0.950709623756      -0.0687769840975    0.0491800367972     0.0549800301818     
2900000000.0        0.0495024338191     0.0569206308181     0.950379736837      -0.0712107598252    0.950379736837      -0.0712107598252    0.0495024338191     0.0569206308181     
3000000000.0        0.0498338388152     0.0588591169202     0.95004059401       -0.0736424599843    0.95004059401       -0.0736424599843    0.0498338388152     0.0588591169202     
3100000000.0        0.0501742907017     0.060795428487      0.949692156273      -0.0760720253772    0.949692156273      -0.0760720253772    0.0501742907017     0.060795428487      
3200000000.0        0.0505238231283     0.0627295053666     0.949334389895      -0.0784993966423    0.949334389895      -0.0784993966423    0.0505238231283     0.0627295053666     
3300000000.0        0.0508824650005     0.0646612872933     0.948967265884      -0.0809245142909    0.948967265884      -0.0809245142909    0.0508824650005     0.0646612872933     
3400000000.0        0.0512502409317     0.0665907139198     0.94859075954       -0.0833473187399    0.94859075954       -0.0833473187399    0.0512502409317     0.0665907139198     
3500000000.0        0.0516271716353     0.0685177248472     0.948204850061      -0.0857677503426    0.948204850061      -0.0857677503426    0.0516271716353     0.0685177248472     
3600000000.0        0.0520132742673     0.0704422596523     0.9478095202        -0.0881857494159    0.9478095202        -0.0881857494159    0.0520132742673     0.0704422596523     
3700000000.0        0.0524085627259     0.0723642579125     0.94740475597       -0.090601256266     0.94740475597       -0.090601256266     0.0524085627259     0.0723642579125     
3800000000.0        0.052813047915      0.0742836592293     0.946990546373      -0.0930142112116    0.946990546373      -0.0930142112116    0.052813047915      0.0742836592293     
3900000000.0        0.053226737977      0.076200403249      0.946566883172      -0.0954245546058    0.946566883172      -0.0954245546058    0.053226737977      0.076200403249      
4000000000.0        0.0536496384989     0.0781144296829     0.946133760686      -0.0978322268559    0.946133760686      -0.0978322268559    0.0536496384989     0.0781144296829     
4100000000.0        0.0540817526959     0.080025678326      0.945691175603      -0.100237168442     0.945691175603      -0.100237168442     0.0540817526959     0.080025678326      
4200000000.0        0.0545230815742     0.0819340890734     0.945239126818      -0.102639319936     0.945239126818      -0.102639319936     0.0545230815742     0.0819340890734     
4300000000.0        0.054973624078      0.0838396019374     0.944777615287      -0.105038622015     0.944777615287      -0.105038622015     0.054973624078      0.0838396019374     
4400000000.0        0.0554333772205     0.085742157062      0.944306643897      -0.10743501548      0.944306643897      -0.10743501548      0.0554333772205     0.085742157062      
4500000000.0        0.0559023362019     0.0876416947374     0.943826217346      -0.109828441268     0.943826217346      -0.109828441268     0.0559023362019     0.0876416947374     
4600000000.0        0.0563804945164     0.0895381554134     0.943336342036      -0.112218840467     0.943336342036      -0.112218840467     0.0563804945164     0.0895381554134     
4700000000.0        0.0568678440488     0.0914314797124     0.942837025977      -0.114606154327     0.942837025977      -0.114606154327     0.0568678440488     0.0914314797124     
4800000000.0        0.0573643751621     0.0933216084412     0.942328278701      -0.116990324278     0.942328278701      -0.116990324278     0.0573643751621     0.0933216084412     
4900000000.0        0.0578700767772     0.0952084826024     0.94181011118       -0.119371291931     0.94181011118       -0.119371291931     0.0578700767772     0.0952084826024     
5000000000.0        0.0583849364459     0.0970920434057     0.941282535754      -0.121748999103     0.941282535754      -0.121748999103     0.0583849364459     0.0970920434057     
5100000000.0        0.0589089404177     0.0989722322782     0.940745566065      -0.124123387813     0.940745566065      -0.124123387813     0.0589089404177     0.0989722322782     
5200000000.0        0.0594420737002     0.100848990874      0.940199216993      -0.126494400305     0.940199216993      -0.126494400305     0.0594420737002     0.100848990874      
5300000000.0        0.0599843201162     0.102722261085      0.939643504604      -0.128861979049     0.939643504604      -0.128861979049     0.0599843201162     0.102722261085      
5400000000.0        0.0605356623546     0.104591985047      0.939078446096      -0.131226066754     0.939078446096      -0.131226066754     0.0605356623546     0.104591985047      
5500000000.0        0.0610960820185     0.106458105153      0.938504059753      -0.133586606376     0.938504059753      -0.133586606376     0.0610960820185     0.106458105153      
5600000000.0        0.0616655596694     0.108320564058      0.937920364896      -0.135943541128     0.937920364896      -0.135943541128     0.0616655596694     0.108320564058      
5700000000.0        0.0622440748683     0.110179304688      0.93732738185       -0.138296814485     0.93732738185       -0.138296814485     0.0622440748683     0.110179304688      
5800000000.0        0.0628316062135     0.112034270248      0.936725131898      -0.140646370196     0.936725131898      -0.140646370196     0.0628316062135     0.112034270248      
5900000000.0        0.0634281313764     0.11388540423       0.936113637249      -0.142992152287     0.936113637249      -0.142992152287     0.0634281313764     0.11388540423       
6000000000.0        0.0640336271343     0.115732650419      0.935492921008      -0.145334105074     0.935492921008      -0.145334105074     0.0640336271343     0.115732650419      
6100000000.0        0.064648069402      0.117575952903      0.934863007138      -0.147672173165     0.934863007138      -0.147672173165     0.064648069402      0.117575952903      
6200000000.0        0.06527143326       0.119415256075      0.934223920438      -0.150006301468     0.934223920438      -0.150006301468     0.06527143326       0.119415256075      
6300000000.0        0.0659036929826     0.121250504642      0.933575686509      -0.152336435202     0.933575686509      -0.152336435202     0.0659036929826     0.121250504642      
6400000000.0        0.0665448220628     0.123081643634      0.932918331736      -0.154662519897     0.932918331736      -0.154662519897     0.0665448220628     0.123081643634      
6500000000.0        0.0671947932374     0.124908618404      0.932251883255      -0.156984501403     0.932251883255      -0.156984501403     0.0671947932374     0.124908618404      
6600000000.0        0.0678535785091     0.126731374641      0.93157636894       -0.159302325898     0.93157636894       -0.159302325898     0.0678535785091     0.126731374641      
6700000000.0        0.0685211491685     0.12854985837       0.930891817371      -0.161615939891     0.930891817371      -0.161615939891     0.0685211491685     0.12854985837       
6800000000.0        0.0691974758146     0.130364015959      0.930198257822      -0.16392529023      0.930198257822      -0.16392529023      0.0691974758146     0.130364015959      
6900000000.0        0.0698825283742     0.132173794127      0.929495720237      -0.166230324103     0.929495720237      -0.166230324103     0.0698825283742     0.132173794127      
7000000000.0        0.0705762761208     0.133979139947      0.928784235213      -0.16853098905      0.928784235213      -0.16853098905      0.0705762761208     0.133979139947      
7100000000.0        0.0712786876917     0.135780000849      0.928063833982      -0.170827232962     0.928063833982      -0.170827232962     0.0712786876917     0.135780000849      
7200000000.0        0.0719897311054     0.13757632463       0.927334548392      -0.17311900409      0.927334548392      -0.17311900409      0.0719897311054     0.13757632463       
7300000000.0        0.0727093737776     0.139368059455      0.926596410897      -0.175406251048     0.926596410897      -0.175406251048     0.0727093737776     0.139368059455      
7400000000.0        0.0734375825367     0.141155153863      0.925849454532      -0.177688922818     0.925849454532      -0.177688922818     0.0734375825367     0.141155153863      
7500000000.0        0.0741743236388     0.142937556771      0.925093712908      -0.179966968756     0.925093712908      -0.179966968756     0.0741743236388     0.142937556771      
7600000000.0        0.0749195627814     0.144715217477      0.924329220192      -0.182240338592     0.924329220192      -0.182240338592     0.0749195627814     0.144715217477      
7700000000.0        0.0756732651182     0.146488085669      0.923556011093      -0.184508982441     0.923556011093      -0.184508982441     0.0756732651182     0.146488085669      
7800000000.0        0.0764353952714     0.148256111423      0.922774120851      -0.186772850802     0.922774120851      -0.186772850802     0.0764353952714     0.148256111423      
7900000000.0        0.077205917345      0.15001924521       0.921983585225      -0.189031894563     0.921983585225      -0.189031894563     0.077205917345      0.15001924521       
8000000000.0        0.0779847949369     0.151777437901      0.921184440477      -0.191286065006     0.921184440477      -0.191286065006     0.0779847949369     0.151777437901      
8100000000.0        0.0787719911514     0.153530640769      0.920376723364      -0.19353531381      0.920376723364      -0.19353531381      0.0787719911514     0.153530640769      
8200000000.0        0.0795674686102     0.155278805492      0.919560471121      -0.195779593057     0.919560471121      -0.195779593057     0.0795674686102     0.155278805492      
8300000000.0        0.080371189464      0.157021884158      0.918735721457      -0.198018855231     0.918735721457      -0.198018855231     0.080371189464      0.157021884158      
8400000000.0        0.0811831154034     0.158759829268      0.917902512539      -0.200253053225     0.917902512539      -0.200253053225     0.0811831154034     0.158759829268      
8500000000.0        0.0820032076696     0.160492593739      0.917060882982      -0.202482140344     0.917060882982      -0.202482140344     0.0820032076696     0.160492593739      
8600000000.0        0.0828314270649     0.162220130908      0.91621087184       -0.204706070306     0.91621087184       -0.204706070306     0.0828314270649     0.162220130908      
8700000000.0        0.0836677339625     0.163942394533      0.915352518593      -0.206924797249     0.915352518593      -0.206924797249     0.0836677339625     0.163942394533      
8800000000.0        0.0845120883166     0.165659338799      0.914485863143      -0.209138275731     0.914485863143      -0.209138275731     0.0845120883166     0.165659338799      
8900000000.0        0.0853644496721     0.167370918318      0.913610945797      -0.211346460731     0.913610945797      -0.211346460731     0.0853644496721     0.167370918318      
9000000000.0        0.0862247771741     0.169077088134      0.912727807263      -0.213549307659     0.912727807263      -0.213549307659     0.0862247771741     0.169077088134      
9100000000.0        0.0870930295767     0.170777803723      0.911836488638      -0.21574677235      0.911836488638      -0.21574677235      0.0870930295767     0.170777803723      
9200000000.0        0.0879691652527     0.172473021         0.910937031402      -0.217938811074     0.910937031402      -0.217938811074     0.0879691652527     0.172473021         
9300000000.0        0.088853142202      0.174162696316      0.910029477403      -0.220125380535     0.910029477403      -0.220125380535     0.088853142202      0.174162696316      
9400000000.0        0.0897449180605     0.175846786465      0.909113868856      -0.222306437871     0.909113868856      -0.222306437871     0.0897449180605     0.175846786465      
9500000000.0        0.0906444501087     0.177525248684      0.908190248328      -0.224481940663     0.908190248328      -0.224481940663     0.0906444501087     0.177525248684      
9600000000.0        0.09155169528       0.179198040654      0.907258658735      -0.226651846931     0.907258658735      -0.226651846931     0.09155169528       0.179198040654      
9700000000.0        0.092466610169      0.180865120506      0.906319143329      -0.228816115139     0.906319143329      -0.228816115139     0.092466610169      0.180865120506      
9800000000.0        0.0933891510397     0.18252644682       0.905371745692      -0.230974704197     0.905371745692      -0.230974704197     0.0933891510397     0.18252644682       
9900000000.0        0.0943192738333     0.184181978628      0.904416509729      -0.233127573463     0.904416509729      -0.233127573463     0.0943192738333     0.184181978628      
10000000000.0       0.0952569341764     0.185831675415      0.903453479658      -0.235274682744     0.903453479658      -0.235274682744     0.0952569341764     0.185831675415      
