# Hz S RI R 50.00 
100000000.0         0.027565709983      0.000741307854665   0.972433013749      -0.00100338263883   0.972433013749      -0.00100338263883   0.027565709983      0.000741307854665   
200000000.0         0.0277435936464     0.00148198099901    0.972254784475      -0.00200613099607   0.972254784475      -0.00200613099607   0.0277435936464     0.00148198099901    
300000000.0         0.0278746844567     0.00222227623764    0.972123278704      -0.00300850218185   0.972123278704      -0.00300850218185   0.0278746844567     0.00222227623764    
400000000.0         0.0279824673081     0.00296228147092    0.972015011536      -0.00401058434223   0.972015011536      -0.00401058434223   0.0279824673081     0.00296228147092    
500000000.0         0.0280760210107     0.00370204519233    0.971920904154      -0.00501242618663   0.971920904154      -0.00501242618663   0.0280760210107     0.00370204519233    
600000000.0         0.0281599927101     0.00444159839764    0.971836309409      -0.0060140589076    0.971836309409      -0.0060140589076    0.0281599927101     0.00444159839764    
700000000.0         0.0282371376089     0.00518096246301    0.971758472093      -0.00701550406416   0.971758472093      -0.00701550406416   0.0282371376089     0.00518096246301    
800000000.0         0.0283092472794     0.00592015280234    0.97168560063       -0.00801677724243   0.97168560063       -0.00801677724243   0.0283092472794     0.00592015280234    
900000000.0         0.0283775635979     0.00665918083331    0.971616453139      -0.00901789002371   0.971616453139      -0.00901789002371   0.0283775635979     0.00665918083331    
1000000000.0        0.0284429888613     0.00739805514213    0.971550127319      -0.0100188511507    0.971550127319      -0.0100188511507    0.0284429888613     0.00739805514213    
1100000000.0        0.0285062027548     0.00813678222371    0.971485943481      -0.0110196672687    0.971485943481      -0.0110196672687    0.0285062027548     0.00813678222371    
1200000000.0        0.0285677321476     0.00887536697751    0.971423374751      -0.0120203434224    0.971423374751      -0.0120203434224    0.0285677321476     0.00887536697751    
1300000000.0        0.0286279950682     0.00961381305392    0.971362003097      -0.0130208834028    0.971362003097      -0.0130208834028    0.0286279950682     0.00961381305392    
1400000000.0        0.0286873296487     0.0103521231045     0.971301490382      -0.014021289998     0.971301490382      -0.014021289998     0.0286873296487     0.0103521231045     
1500000000.0        0.028746013877      0.0110902989678     0.971241558615      -0.0150215651794    0.971241558615      -0.0150215651794    0.028746013877      0.0110902989678     
1600000000.0        0.0288042794883     0.0118283418106     0.971181976055      -0.0160217102433    0.971181976055      -0.0160217102433    0.0288042794883     0.0118283418106     
1700000000.0        0.0288623219906     0.0125662522375     0.97112254719       -0.0170217259208    0.97112254719       -0.0170217259208    0.0288623219906     0.0125662522375     
1800000000.0        0.0289203080614     0.0133040303773     0.971063105339      -0.0180216124645    0.971063105339      -0.0180216124645    0.0289203080614     0.0133040303773     
1900000000.0        0.0289783811123     0.0140416759523     0.971003507085      -0.0190213697179    0.971003507085      -0.0190213697179    0.0289783811123     0.0140416759523     
2000000000.0        0.0290366655465     0.0147791883343     0.97094362802       -0.0200209971717    0.97094362802       -0.0200209971717    0.0290366655465     0.0147791883343     
2100000000.0        0.0290952700657     0.0155165665909     0.970883359439      -0.02102049401      0.970883359439      -0.02102049401      0.0290952700657     0.0155165665909     
2200000000.0        0.0291542902733     0.0162538095235     0.970822605732      -0.0220198591487    0.970822605732      -0.0220198591487    0.0291542902733     0.0162538095235     
2300000000.0        0.0292138107489     0.0169909156995     0.970761282316      -0.0230190912679    0.970761282316      -0.0230190912679    0.0292138107489     0.0169909156995     
2400000000.0        0.029273906719      0.0177278834792     0.970699313959      -0.0240181888388    0.970699313959      -0.0240181888388    0.029273906719      0.0177278834792     
2500000000.0        0.0293346454165     0.0184647110388     0.970636633423      -0.0250171501465    0.970636633423      -0.0250171501465    0.0293346454165     0.0184647110388     
2600000000.0        0.0293960871966     0.0192013963904     0.970573180348      -0.0260159733107    0.970573180348      -0.0260159733107    0.0293960871966     0.0192013963904     
2700000000.0        0.0294582864605     0.0199379373987     0.970508900328      -0.0270146563016    0.970508900328      -0.0270146563016    0.0294582864605     0.0199379373987     
2800000000.0        0.0295212924253     0.0206743317955     0.970443744139      -0.0280131969559    0.970443744139      -0.0280131969559    0.0295212924253     0.0206743317955     
2900000000.0        0.0295851497712     0.0214105771933     0.970377667097      -0.0290115929889    0.970377667097      -0.0290115929889    0.0295851497712     0.0214105771933     
3000000000.0        0.0296498991886     0.0221466710959     0.970310628505      -0.030009842006     0.970310628505      -0.030009842006     0.0296498991886     0.0221466710959     
3100000000.0        0.0297155778428     0.0228826109087     0.970242591193      -0.0310079415131    0.970242591193      -0.0310079415131    0.0297155778428     0.0228826109087     
3200000000.0        0.0297822197717     0.0236183939473     0.970173521117      -0.0320058889249    0.970173521117      -0.0320058889249    0.0297822197717     0.0236183939473     
3300000000.0        0.0298498562279     0.0243540174454     0.970103387018      -0.0330036815731    0.970103387018      -0.0330036815731    0.0298498562279     0.0243540174454     
3400000000.0        0.0299185159739     0.0250894785617     0.970032160129      -0.0340013167133    0.970032160129      -0.0340013167133    0.0299185159739     0.0250894785617     
3500000000.0        0.0299882255385     0.0258247743864     0.969959813915      -0.0349987915312    0.969959813915      -0.0349987915312    0.0299882255385     0.0258247743864     
3600000000.0        0.0300590094399     0.0265599019461     0.969886323851      -0.0359961031485    0.969886323851      -0.0359961031485    0.0300590094399     0.0265599019461     
3700000000.0        0.0301308903815     0.0272948582098     0.969811667228      -0.0369932486275    0.969811667228      -0.0369932486275    0.0301308903815     0.0272948582098     
3800000000.0        0.0302038894232     0.0280296400925     0.969735822979      -0.0379902249762    0.969735822979      -0.0379902249762    0.0302038894232     0.0280296400925     
3900000000.0        0.030278026133      0.0287642444601     0.969658771531      -0.0389870291521    0.969658771531      -0.0389870291521    0.030278026133      0.0287642444601     
4000000000.0        0.0303533187207     0.0294986681326     0.969580494666      -0.0399836580661    0.969580494666      -0.0399836580661    0.0303533187207     0.0294986681326     
4100000000.0        0.0304297841567     0.0302329078878     0.969500975409      -0.0409801085859    0.969500975409      -0.0409801085859    0.0304297841567     0.0302329078878     
4200000000.0        0.030507438278      0.0309669604643     0.969420197915      -0.0419763775394    0.969420197915      -0.0419763775394    0.030507438278      0.0309669604643     
4300000000.0        0.030586295882      0.0317008225646     0.969338147381      -0.042972461717     0.969338147381      -0.042972461717     0.030586295882      0.0317008225646     
4400000000.0        0.0306663708116     0.0324344908572     0.969254809957      -0.0439683578749    0.969254809957      -0.0439683578749    0.0306663708116     0.0324344908572     
4500000000.0        0.0307476760306     0.0331679619794     0.969170172671      -0.0449640627369    0.969170172671      -0.0449640627369    0.0307476760306     0.0331679619794     
4600000000.0        0.0308302236921     0.0339012325395     0.969084223364      -0.0459595729974    0.969084223364      -0.0459595729974    0.0308302236921     0.0339012325395     
4700000000.0        0.0309140251999     0.0346342991187     0.968996950626      -0.0469548853225    0.968996950626      -0.0469548853225    0.0309140251999     0.0346342991187     
4800000000.0        0.0309990912642     0.0353671582731     0.968908343738      -0.0479499963528    0.968908343738      -0.0479499963528    0.0309990912642     0.0353671582731     
4900000000.0        0.0310854319521     0.0360998065353     0.968818392626      -0.0489449027046    0.968818392626      -0.0489449027046    0.0310854319521     0.0360998065353     
5000000000.0        0.0311730567329     0.0368322404162     0.968727087813      -0.0499396009718    0.968727087813      -0.0499396009718    0.0311730567329     0.0368322404162     
5100000000.0        0.0312619745203     0.0375644564062     0.96863442038       -0.0509340877272    0.96863442038       -0.0509340877272    0.0312619745203     0.0375644564062     
5200000000.0        0.0313521937096     0.0382964509773     0.968540381921      -0.0519283595242    0.968540381921      -0.0519283595242    0.0313521937096     0.0382964509773     
5300000000.0        0.0314437222131     0.0390282205834     0.968444964519      -0.0529224128979    0.968444964519      -0.0529224128979    0.0314437222131     0.0390282205834     
5400000000.0        0.0315365674911     0.0397597616623     0.968348160704      -0.0539162443666    0.968348160704      -0.0539162443666    0.0315365674911     0.0397597616623     
5500000000.0        0.0316307365813     0.0404910706366     0.968249963431      -0.0549098504326    0.968249963431      -0.0549098504326    0.0316307365813     0.0404910706366     
5600000000.0        0.031726236125      0.0412221439147     0.968150366051      -0.0559032275833    0.968150366051      -0.0559032275833    0.031726236125      0.0412221439147     
5700000000.0        0.0318230723923     0.0419529778918     0.968049362286      -0.0568963722927    0.968049362286      -0.0568963722927    0.0318230723923     0.0419529778918     
5800000000.0        0.0319212513038     0.0426835689511     0.967946946206      -0.0578892810217    0.967946946206      -0.0578892810217    0.0319212513038     0.0426835689511     
5900000000.0        0.0320207784519     0.0434139134641     0.967843112213      -0.0588819502196    0.967843112213      -0.0588819502196    0.0320207784519     0.0434139134641     
6000000000.0        0.0321216591197     0.0441440077922     0.967737855013      -0.0598743763244    0.967737855013      -0.0598743763244    0.0321216591197     0.0441440077922     
6100000000.0        0.0322238982989     0.0448738482868     0.967631169607      -0.0608665557639    0.967631169607      -0.0608665557639    0.0322238982989     0.0448738482868     
6200000000.0        0.0323275007062     0.0456034312904     0.967523051271      -0.0618584849565    0.967523051271      -0.0618584849565    0.0323275007062     0.0456034312904     
6300000000.0        0.0324324707981     0.0463327531372     0.967413495538      -0.0628501603116    0.967413495538      -0.0628501603116    0.0324324707981     0.0463327531372     
6400000000.0        0.0325388127858     0.0470618101539     0.96730249819       -0.0638415782306    0.96730249819       -0.0638415782306    0.0325388127858     0.0470618101539     
6500000000.0        0.0326465306475     0.04779059866       0.967190055238      -0.0648327351072    0.967190055238      -0.0648327351072    0.0326465306475     0.04779059866       
6600000000.0        0.0327556281412     0.0485191149687     0.967076162917      -0.0658236273285    0.967076162917      -0.0658236273285    0.0327556281412     0.0485191149687     
6700000000.0        0.0328661088155     0.0492473553872     0.966960817669      -0.0668142512749    0.966960817669      -0.0668142512749    0.0328661088155     0.0492473553872     
6800000000.0        0.0329779760207     0.0499753162176     0.966844016135      -0.0678046033213    0.966844016135      -0.0678046033213    0.0329779760207     0.0499753162176     
6900000000.0        0.0330912329184     0.0507029937568     0.966725755143      -0.0687946798369    0.966725755143      -0.0687946798369    0.0330912329184     0.0507029937568     
7000000000.0        0.033205882491      0.0514303842978     0.966606031703      -0.0697844771864    0.966606031703      -0.0697844771864    0.033205882491      0.0514303842978     
7100000000.0        0.0333219275498     0.0521574841293     0.966484842994      -0.0707739917302    0.966484842994      -0.0707739917302    0.0333219275498     0.0521574841293     
7200000000.0        0.0334393707436     0.0528842895367     0.966362186357      -0.0717632198244    0.966362186357      -0.0717632198244    0.0334393707436     0.0528842895367     
7300000000.0        0.0335582145661     0.0536107968024     0.966238059291      -0.072752157822     0.966238059291      -0.072752157822     0.0335582145661     0.0536107968024     
7400000000.0        0.033678461363      0.054337002206      0.966112459439      -0.0737408020726    0.966112459439      -0.0737408020726    0.033678461363      0.054337002206      
7500000000.0        0.0338001133385     0.0550629020249     0.965985384588      -0.0747291489234    0.965985384588      -0.0747291489234    0.0338001133385     0.0550629020249     
7600000000.0        0.0339231725617     0.0557884925346     0.965856832659      -0.0757171947189    0.965856832659      -0.0757171947189    0.0339231725617     0.0557884925346     
7700000000.0        0.0340476409728     0.0565137700088     0.965726801702      -0.0767049358017    0.965726801702      -0.0767049358017    0.0340476409728     0.0565137700088     
7800000000.0        0.034173520388      0.0572387307203     0.965595289891      -0.077692368513     0.965595289891      -0.077692368513     0.034173520388      0.0572387307203     
7900000000.0        0.0343008125052     0.0579633709405     0.965462295519      -0.0786794891923    0.965462295519      -0.0786794891923    0.0343008125052     0.0579633709405     
8000000000.0        0.0344295189087     0.0586876869407     0.965327816991      -0.0796662941782    0.965327816991      -0.0796662941782    0.0344295189087     0.0586876869407     
8100000000.0        0.0345596410739     0.0594116749913     0.965191852821      -0.0806527798085    0.965191852821      -0.0806527798085    0.0345596410739     0.0594116749913     
8200000000.0        0.0346911803718     0.0601353313631     0.965054401629      -0.0816389424207    0.965054401629      -0.0816389424207    0.0346911803718     0.0601353313631     
8300000000.0        0.0348241380728     0.0608586523266     0.964915462134      -0.082624778352     0.964915462134      -0.082624778352     0.0348241380728     0.0608586523266     
8400000000.0        0.034958515351      0.0615816341532     0.964775033152      -0.0836102839396    0.964775033152      -0.0836102839396    0.034958515351      0.0615816341532     
8500000000.0        0.0350943132876     0.0623042731148     0.96463311359       -0.084595455521     0.96463311359       -0.084595455521     0.0350943132876     0.0623042731148     
8600000000.0        0.0352315328746     0.063026565484      0.964489702447      -0.0855802894344    0.964489702447      -0.0855802894344    0.0352315328746     0.063026565484      
8700000000.0        0.035370175018      0.063748507535      0.964344798807      -0.0865647820187    0.964344798807      -0.0865647820187    0.035370175018      0.063748507535      
8800000000.0        0.0355102405409     0.0644700955431     0.964198401834      -0.087548929614     0.964198401834      -0.087548929614     0.0355102405409     0.0644700955431     
8900000000.0        0.0356517301866     0.0651913257851     0.964050510776      -0.0885327285612    0.964050510776      -0.0885327285612    0.0356517301866     0.0651913257851     
9000000000.0        0.0357946446215     0.0659121945399     0.963901124955      -0.0895161752031    0.963901124955      -0.0895161752031    0.0357946446215     0.0659121945399     
9100000000.0        0.0359389844374     0.0666326980881     0.963750243768      -0.0904992658839    0.963750243768      -0.0904992658839    0.0359389844374     0.0666326980881     
9200000000.0        0.0360847501546     0.0673528327126     0.963597866685      -0.0914819969498    0.963597866685      -0.0914819969498    0.0360847501546     0.0673528327126     
9300000000.0        0.0362319422239     0.0680725946987     0.963443993244      -0.0924643647487    0.963443993244      -0.0924643647487    0.0362319422239     0.0680725946987     
9400000000.0        0.0363805610289     0.0687919803342     0.963288623049      -0.0934463656312    0.963288623049      -0.0934463656312    0.0363805610289     0.0687919803342     
9500000000.0        0.0365306068886     0.0695109859095     0.963131755771      -0.0944279959498    0.963131755771      -0.0944279959498    0.0365306068886     0.0695109859095     
9600000000.0        0.0366820800592     0.070229607718      0.962973391142      -0.0954092520598    0.962973391142      -0.0954092520598    0.0366820800592     0.070229607718      
9700000000.0        0.0368349807359     0.0709478420561     0.962813528956      -0.0963901303193    0.962813528956      -0.0963901303193    0.0368349807359     0.0709478420561     
9800000000.0        0.0369893090553     0.0716656852236     0.962652169065      -0.0973706270891    0.962652169065      -0.0973706270891    0.0369893090553     0.0716656852236     
9900000000.0        0.0371450650968     0.0723831335232     0.962489311378      -0.0983507387331    0.962489311378      -0.0983507387331    0.0371450650968     0.0723831335232     
10000000000.0       0.0373022488845     0.0731001832616     0.96232495586       -0.0993304616184    0.96232495586       -0.0993304616184    0.0373022488845     0.0731001832616     
