# Hz S RI R 50.00 
100000000.0         0.000621402219762   -0.00282012255335   0.999335144473      -0.00547622530276   0.999335144473      -0.00547622530276   0.000621402219762   -0.00282012255335   
200000000.0         0.00057537396063    -0.0056399777585    0.999269873869      -0.0109522075096    0.999269873869      -0.0109522075096    0.00057537396063    -0.0056399777585    
300000000.0         0.000497339856618   -0.00845925412388   0.999167767665      -0.0164276898405    0.999167767665      -0.0164276898405    0.000497339856618   -0.00845925412388   
400000000.0         0.000387860168387   -0.0112776265476    0.99902827601       -0.0219023821816    0.99902827601       -0.0219023821816    0.000387860168387   -0.0112776265476    
500000000.0         0.000247157675368   -0.0140947612872    0.998851193785      -0.0273759791401    0.998851193785      -0.0273759791401    0.000247157675368   -0.0140947612872    
600000000.0         7.53546492933e-05   -0.0169103186049    0.9986364242        -0.0328481656131    0.9986364242        -0.0328481656131    7.53546492931e-05   -0.0169103186049    
700000000.0         -0.000127466847007  -0.0197239542802    0.998383918898      -0.0383186195562    0.998383918898      -0.0383186195562    -0.000127466847007  -0.0197239542802    
800000000.0         -0.000361242898014  -0.0225353205928    0.998093656209      -0.0437870136402    0.998093656209      -0.0437870136402    -0.000361242898014  -0.0225353205928    
900000000.0         -0.000625917870213  -0.0253440670179    0.99776563153       -0.0492530163588    0.99776563153       -0.0492530163588    -0.000625917870213  -0.0253440670179    
1000000000.0        -0.000921439379395  -0.0281498407529    0.997399852496      -0.0547162928281    0.997399852496      -0.0547162928281    -0.000921439379394  -0.0281498407529    
1100000000.0        -0.0012477554686    -0.0309522871351    0.996996336328      -0.0601765053965    0.996996336328      -0.0601765053965    -0.0012477554686    -0.0309522871351    
1200000000.0        -0.00160481290797   -0.0337510499877    0.996555108279      -0.0656333141309    0.996555108279      -0.0656333141309    -0.00160481290797   -0.0337510499877    
1300000000.0        -0.00199255611098   -0.0365457719135    0.996076200666      -0.0710863772188    0.996076200666      -0.0710863772188    -0.00199255611098   -0.0365457719135    
1400000000.0        -0.00241092641151   -0.0393360945529    0.99555965226       -0.0765353513094    0.99555965226       -0.0765353513094    -0.00241092641151   -0.0393360945529    
1500000000.0        -0.00285986156345   -0.042121658814     0.995005507869      -0.0819798918103    0.995005507869      -0.0819798918103    -0.00285986156345   -0.042121658814     
1600000000.0        -0.00333929538367   -0.0449021050814    0.994413818052      -0.0874196531511    0.994413818052      -0.0874196531511    -0.00333929538367   -0.0449021050814    
1700000000.0        -0.00384915749111   -0.0476770734087    0.99378463893       -0.0928542890207    0.99378463893       -0.0928542890207    -0.00384915749111   -0.0476770734087    
1800000000.0        -0.00438937311234   -0.0504462036983    0.993118032034      -0.0982834525839    0.993118032034      -0.0982834525839    -0.00438937311234   -0.0504462036983    
1900000000.0        -0.00495986293474   -0.05320913587      0.9924140642        -0.103706796683     0.9924140642        -0.103706796683     -0.00495986293474   -0.05320913587      
2000000000.0        -0.00556054299457   -0.0559655100214    0.991672807495      -0.109123974023     0.991672807495      -0.109123974023     -0.00556054299457   -0.0559655100214    
2100000000.0        -0.0061913245914    -0.0587149665808    0.990894339143      -0.114534637351     0.990894339143      -0.114534637351     -0.0061913245914    -0.0587149665808    
2200000000.0        -0.00685211422291   -0.061457146454     0.990078741481      -0.119938439621     0.990078741481      -0.119938439621     -0.00685211422291   -0.061457146454     
2300000000.0        -0.00754281353579   -0.064191691166     0.989226101914      -0.125335034153     0.989226101914      -0.125335034153     -0.00754281353579   -0.064191691166     
2400000000.0        -0.0082633192897    -0.0669182429974    0.988336512875      -0.130724074785     0.988336512875      -0.130724074785     -0.0082633192897    -0.0669182429974    
2500000000.0        -0.00901352333189   -0.0696364451182    0.987410071791      -0.136105216024     0.987410071791      -0.136105216024     -0.00901352333189   -0.0696364451182    
2600000000.0        -0.00979331258096   -0.0723459417162    0.98644688105       -0.141478113179     0.98644688105       -0.141478113179     -0.00979331258096   -0.0723459417162    
2700000000.0        -0.0106025690182    -0.0750463781236    0.985447047971      -0.146842422507     0.985447047971      -0.146842422507     -0.0106025690182    -0.0750463781236    
2800000000.0        -0.0114411696859    -0.0777374009397    0.98441068477       -0.152197801338     0.98441068477       -0.152197801338     -0.0114411696859    -0.0777374009397    
2900000000.0        -0.0123089866912    -0.0804186581514    0.983337908529      -0.157543908209     0.983337908529      -0.157543908209     -0.0123089866912    -0.0804186581514    
3000000000.0        -0.0132058872157    -0.0830897992509    0.982228841161      -0.162880402988     0.982228841161      -0.162880402988     -0.0132058872157    -0.0830897992509    
3100000000.0        -0.0141317335292    -0.0857504753506    0.981083609381      -0.168206946994     0.981083609381      -0.168206946994     -0.0141317335292    -0.0857504753506    
3200000000.0        -0.015086383009     -0.0884003392968    0.979902344665      -0.173523203119     0.979902344665      -0.173523203119     -0.015086383009     -0.0884003392968    
3300000000.0        -0.0160696881617    -0.0910390457795    0.978685183214      -0.178828835944     0.978685183214      -0.178828835944     -0.0160696881617    -0.0910390457795    
3400000000.0        -0.0170814966499    -0.0936662514418    0.977432265919      -0.184123511849     0.977432265919      -0.184123511849     -0.0170814966499    -0.0936662514418    
3500000000.0        -0.0181216513221    -0.0962816149858    0.976143738315      -0.189406899131     0.976143738315      -0.189406899131     -0.0181216513221    -0.0962816149858    
3600000000.0        -0.0191899902457    -0.0988847972776    0.974819750542      -0.194678668107     0.974819750542      -0.194678668107     -0.0191899902457    -0.0988847972776    
3700000000.0        -0.0202863467432    -0.101475461449     0.9734604573        -0.199938491222     0.9734604573        -0.199938491222     -0.0202863467432    -0.101475461449     
3800000000.0        -0.0214105494317    -0.104053272999     0.972066017802      -0.205186043152     0.972066017802      -0.205186043152     -0.0214105494317    -0.104053272999     
3900000000.0        -0.0225624222646    -0.106617899891     0.970636595723      -0.210421000907     0.970636595723      -0.210421000907     -0.0225624222646    -0.106617899891     
4000000000.0        -0.0237417845766    -0.10916901265      0.969172359158      -0.21564304393      0.969172359158      -0.21564304393      -0.0237417845766    -0.10916901265      
4100000000.0        -0.0249484511305    -0.111706284457     0.967673480558      -0.220851854193     0.967673480558      -0.220851854193     -0.0249484511305    -0.111706284457     
4200000000.0        -0.0261822321678    -0.114229391242     0.966140136685      -0.226047116294     0.966140136685      -0.226047116294     -0.0261822321678    -0.114229391242     
4300000000.0        -0.0274429334598    -0.116738011774     0.964572508554      -0.231228517545     0.964572508554      -0.231228517545     -0.0274429334598    -0.116738011774     
4400000000.0        -0.0287303563628    -0.119231827748     0.962970781372      -0.236395748068     0.962970781372      -0.236395748068     -0.0287303563628    -0.119231827748     
4500000000.0        -0.0300442978739    -0.121710523877     0.96133514448       -0.24154850088      0.96133514448       -0.24154850088      -0.0300442978739    -0.121710523877     
4600000000.0        -0.0313845506903    -0.124173787968     0.959665791292      -0.246686471981     0.959665791292      -0.246686471981     -0.0313845506903    -0.124173787968     
4700000000.0        -0.0327509032693    -0.126621311014     0.957962919233      -0.251809360433     0.957962919233      -0.251809360433     -0.0327509032693    -0.126621311014     
4800000000.0        -0.0341431398912    -0.129052787268     0.956226729671      -0.256916868449     0.956226729671      -0.256916868449     -0.0341431398912    -0.129052787268     
4900000000.0        -0.0355610407236    -0.131467914322     0.95445742785       -0.262008701469     0.95445742785       -0.262008701469     -0.0355610407236    -0.131467914322     
5000000000.0        -0.0370043818875    -0.133866393189     0.952655222827      -0.267084568234     0.952655222827      -0.267084568234     -0.0370043818875    -0.133866393189     
5100000000.0        -0.0384729355252    -0.136247928371     0.950820327396      -0.272144180867     0.950820327396      -0.272144180867     -0.0384729355252    -0.136247928371     
5200000000.0        -0.0399664698696    -0.138612227932     0.948952958021      -0.277187254942     0.948952958021      -0.277187254942     -0.0399664698696    -0.138612227932     
5300000000.0        -0.0414847493154    -0.140959003573     0.947053334761      -0.282213509557     0.947053334761      -0.282213509557     -0.0414847493154    -0.140959003573     
5400000000.0        -0.0430275344913    -0.143287970697     0.945121681196      -0.2872226674       0.945121681196      -0.2872226674       -0.0430275344913    -0.143287970697     
5500000000.0        -0.0445945823344    -0.145598848473     0.943158224356      -0.292214454819     0.943158224356      -0.292214454819     -0.0445945823344    -0.145598848473     
5600000000.0        -0.0461856461649    -0.147891359903     0.941163194636      -0.297188601881     0.941163194636      -0.297188601881     -0.0461856461649    -0.147891359903     
5700000000.0        -0.0478004757627    -0.150165231882     0.939136825726      -0.302144842438     0.939136825726      -0.302144842438     -0.0478004757627    -0.150165231882     
5800000000.0        -0.0494388174455    -0.152420195259     0.937079354529      -0.307082914186     0.937079354529      -0.307082914186     -0.0494388174455    -0.152420195259     
5900000000.0        -0.0511004141471    -0.154655984894     0.934991021078      -0.312002558718     0.934991021078      -0.312002558718     -0.0511004141471    -0.154655984894     
6000000000.0        -0.0527850054976    -0.15687233971      0.932872068462      -0.316903521586     0.932872068462      -0.316903521586     -0.0527850054976    -0.15687233971      
6100000000.0        -0.0544923279045    -0.159069002752     0.930722742737      -0.32178555235      0.930722742737      -0.32178555235      -0.0544923279045    -0.159069002752     
6200000000.0        -0.0562221146339    -0.161245721232     0.928543292846      -0.326648404625     0.928543292846      -0.326648404625     -0.0562221146339    -0.161245721232     
6300000000.0        -0.057974095894     -0.163402246582     0.926333970536      -0.331491836138     0.926333970536      -0.331491836138     -0.057974095894     -0.163402246582     
6400000000.0        -0.0597479989182    -0.165538334497     0.924095030273      -0.336315608766     0.924095030273      -0.336315608766     -0.0597479989182    -0.165538334497     
6500000000.0        -0.0615435480492    -0.167653744982     0.921826729155      -0.341119488583     0.921826729155      -0.341119488583     -0.0615435480492    -0.167653744982     
6600000000.0        -0.0633604648246    -0.169748242392     0.919529326828      -0.345903245902     0.919529326828      -0.345903245902     -0.0633604648246    -0.169748242392     
6700000000.0        -0.0651984680617    -0.171821595473     0.917203085399      -0.350666655314     0.917203085399      -0.350666655314     -0.0651984680617    -0.171821595473     
6800000000.0        -0.0670572739443    -0.1738735774       0.914848269348      -0.355409495722     0.914848269348      -0.355409495722     -0.0670572739443    -0.1738735774       
6900000000.0        -0.0689365961089    -0.17590396581      0.912465145442      -0.360131550382     0.912465145442      -0.360131550382     -0.0689365961089    -0.17590396581      
7000000000.0        -0.0708361457319    -0.177912542839     0.910053982645      -0.364832606928     0.910053982645      -0.364832606928     -0.0708361457319    -0.177912542839     
7100000000.0        -0.072755631617     -0.17989909515      0.907615052033      -0.369512457408     0.907615052033      -0.369512457408     -0.072755631617     -0.17989909515      
7200000000.0        -0.0746947602831    -0.181863413964     0.905148626701      -0.37417089831      0.905148626701      -0.37417089831      -0.0746947602831    -0.181863413964     
7300000000.0        -0.0766532360519    -0.183805295084     0.902654981678      -0.378807730588     0.902654981678      -0.378807730588     -0.0766532360519    -0.183805295084     
7400000000.0        -0.0786307611365    -0.185724538922     0.900134393836      -0.383422759682     0.900134393836      -0.383422759682     -0.0786307611365    -0.185724538922     
7500000000.0        -0.0806270357297    -0.187620950522     0.897587141801      -0.388015795548     0.897587141801      -0.388015795548     -0.0806270357297    -0.187620950522     
7600000000.0        -0.0826417580921    -0.189494339578     0.895013505863      -0.392586652669     0.895013505863      -0.392586652669     -0.0826417580921    -0.189494339578     
7700000000.0        -0.0846746246408    -0.191344520454     0.892413767889      -0.397135150076     0.892413767889      -0.397135150076     -0.0846746246408    -0.191344520454     
7800000000.0        -0.0867253300376    -0.193171312197     0.88978821123       -0.401661111361     0.88978821123       -0.401661111361     -0.0867253300376    -0.193171312197     
7900000000.0        -0.0887935672777    -0.194974538556     0.887137120638      -0.406164364693     0.887137120638      -0.406164364693     -0.0887935672777    -0.194974538556     
8000000000.0        -0.0908790277772    -0.196754027992     0.88446078217       -0.410644742826     0.88446078217       -0.410644742826     -0.0908790277772    -0.196754027992     
8100000000.0        -0.092981401462     -0.198509613683     0.881759483102      -0.415102083107     0.881759483102      -0.415102083107     -0.092981401462     -0.198509613683     
8200000000.0        -0.0951003768547    -0.20024113354      0.879033511843      -0.419536227484     0.879033511843      -0.419536227484     -0.0951003768547    -0.20024113354      
8300000000.0        -0.0972356411626    -0.201948430209     0.876283157843      -0.423947022513     0.876283157843      -0.423947022513     -0.0972356411626    -0.201948430209     
8400000000.0        -0.0993868803644    -0.203631351072     0.873508711505      -0.428334319356     0.873508711505      -0.428334319356     -0.0993868803644    -0.203631351072     
8500000000.0        -0.101553779297     -0.205289748255     0.870710464101      -0.432697973783     0.870710464101      -0.432697973783     -0.101553779297     -0.205289748255     
8600000000.0        -0.103736021744     -0.206923478622     0.867888707682      -0.437037846172     0.867888707682      -0.437037846172     -0.103736021744     -0.206923478622     
8700000000.0        -0.105933290515     -0.208532403778     0.865043734991      -0.441353801504     0.865043734991      -0.441353801504     -0.105933290515     -0.208532403778     
8800000000.0        -0.10814526754      -0.210116390062     0.862175839379      -0.445645709359     0.862175839379      -0.445645709359     -0.10814526754      -0.210116390062     
8900000000.0        -0.110371633947     -0.211675308545     0.859285314718      -0.449913443908     0.859285314718      -0.449913443908     -0.110371633947     -0.211675308545     
9000000000.0        -0.112612070149     -0.213209035017     0.856372455315      -0.454156883903     0.856372455315      -0.454156883903     -0.112612070149     -0.213209035017     
9100000000.0        -0.114866255927     -0.214717449982     0.853437555831      -0.45837591267      0.853437555831      -0.45837591267      -0.114866255927     -0.214717449982     
9200000000.0        -0.117133870512     -0.216200438648     0.850480911194      -0.462570418091     0.850480911194      -0.462570418091     -0.117133870512     -0.216200438648     
9300000000.0        -0.11941459267      -0.217657890909     0.847502816518      -0.466740292592     0.847502816518      -0.466740292592     -0.11941459267      -0.217657890909     
9400000000.0        -0.121708100778     -0.219089701337     0.84450356702       -0.470885433129     0.84450356702       -0.470885433129     -0.121708100778     -0.219089701337     
9500000000.0        -0.12401407291      -0.22049576916      0.841483457939      -0.475005741168     0.841483457939      -0.475005741168     -0.12401407291      -0.22049576916      
9600000000.0        -0.126332186912     -0.22187599825      0.838442784457      -0.479101122664     0.838442784457      -0.479101122664     -0.126332186912     -0.22187599825      
9700000000.0        -0.128662120484     -0.223230297099     0.835381841617      -0.483171488043     0.835381841617      -0.483171488043     -0.128662120484     -0.223230297099     
9800000000.0        -0.131003551256     -0.224558578801     0.832300924244      -0.487216752177     0.832300924244      -0.487216752177     -0.131003551256     -0.224558578801     
9900000000.0        -0.133356156865     -0.225860761027     0.82920032687       -0.491236834361     0.82920032687       -0.491236834361     -0.133356156865     -0.225860761027     
10000000000.0       -0.135719615032     -0.227136766006     0.826080343657      -0.495231658287     0.826080343657      -0.495231658287     -0.135719615032     -0.227136766006     
