# Hz S RI R 50.00 
100000000.0         -0.0138645849597    -0.116470016871     0.986081799288      -0.116611074629     0.986081799288      -0.116611074629     -0.0138645849597    -0.116470016871     
200000000.0         -0.0530954727936    -0.223636910272     0.946850514147      -0.223919046149     0.946850514147      -0.223919046149     -0.0530954727936    -0.223636910272     
300000000.0         -0.111900240451     -0.314565432419     0.888045420778      -0.314988678369     0.888045420778      -0.314988678369     -0.111900240451     -0.314565432419     
400000000.0         -0.182890417192     -0.385816346033     0.817054943848      -0.386380743352     0.817054943848      -0.386380743352     -0.182890417192     -0.385816346033     
500000000.0         -0.259005471178     -0.43724990941      0.740939597533      -0.437955507563     0.740939597533      -0.437955507563     -0.259005471178     -0.43724990941      
600000000.0         -0.334717233556     -0.470976226834     0.665227541711      -0.471823082652     0.665227541711      -0.471823082652     -0.334717233556     -0.470976226834     
700000000.0         -0.406373278637     -0.490164949174     0.593571196784      -0.491153126249     0.593571196784      -0.491153126249     -0.406373278637     -0.490164949174     
800000000.0         -0.471973600589     -0.498148067453     0.527970565157      -0.499277635643     0.527970565157      -0.499277635643     -0.471973600589     -0.498148067453     
900000000.0         -0.53072820426      -0.497914462681     0.469215639622      -0.499185497697     0.469215639622      -0.499185497697     -0.53072820426      -0.497914462681     
1000000000.0        -0.582620036113     -0.491911923343     0.417323471996      -0.493324506388     0.417323471996      -0.493324506388     -0.582620036113     -0.491911923343     
1100000000.0        -0.628065558589     -0.482032072878     0.371877598544      -0.48358629033      0.371877598544      -0.48358629033      -0.628065558589     -0.482032072878     
1200000000.0        -0.667685117472     -0.469680159897     0.332257672477      -0.471376103024     0.332257672477      -0.471376103024     -0.667685117472     -0.469680159897     
1300000000.0        -0.702162449414     -0.455870623705     0.297779956339      -0.457708388407     0.297779956339      -0.457708388407     -0.702162449414     -0.455870623705     
1400000000.0        -0.732166390019     -0.441319290849     0.267775613869      -0.443298977427     0.267775613869      -0.443298977427     -0.732166390019     -0.441319290849     
1500000000.0        -0.758312095974     -0.42652098815      0.241629487835      -0.428642701086     0.241629487835      -0.428642701086     -0.758312095974     -0.42652098815      
1600000000.0        -0.78114564189      -0.411810420648     0.218795503163      -0.414074268411     0.218795503163      -0.414074268411     -0.78114564189      -0.411810420648     
1700000000.0        -0.801141534405     -0.397408000489     0.198799152817      -0.399814095348     0.198799152817      -0.399814095348     -0.801141534405     -0.397408000489     
1800000000.0        -0.81870677976      -0.383453486645     0.181233430211      -0.386001944501     0.181233430211      -0.386001944501     -0.81870677976      -0.383453486645     
1900000000.0        -0.834187823467     -0.370030285544     0.165751889527      -0.372721225775     0.165751889527      -0.372721225775     -0.834187823467     -0.370030285544     
2000000000.0        -0.847878337979     -0.357182823865     0.152060858038      -0.360016369176     0.152060858038      -0.360016369176     -0.847878337979     -0.357182823865     
2100000000.0        -0.860026815553     -0.344928881751     0.139911843241      -0.34790515804      0.139911843241      -0.34790515804      -0.860026815553     -0.344928881751     
2200000000.0        -0.870843483571     -0.333268303638     0.12909461753       -0.33638743987      0.12909461753       -0.33638743987      -0.870843483571     -0.333268303638     
2300000000.0        -0.880506366999     -0.322189124199     0.119431155732      -0.325451252289     0.119431155732      -0.325451252289     -0.880506366999     -0.322189124199     
2400000000.0        -0.889166482981     -0.311671857718     0.110770440511      -0.31507711242      0.110770440511      -0.31507711242      -0.889166482981     -0.311671857718     
2500000000.0        -0.896952229513     -0.30169248586      0.102984073693      -0.305241004667     0.102984073693      -0.305241004667     -0.896952229513     -0.30169248586      
2600000000.0        -0.903973061308     -0.292224524411     0.0959626003963     -0.295916447463     0.0959626003963     -0.295916447463     -0.903973061308     -0.292224524411     
2700000000.0        -0.910322553014     -0.283240439055     0.0896124458131     -0.287075909048     0.0896124458131     -0.287075909048     -0.910322553014     -0.283240439055     
2800000000.0        -0.916080945048     -0.274712601626     0.0838533693751     -0.278691763736     0.0838533693751     -0.278691763736     -0.916080945048     -0.274712601626     
2900000000.0        -0.921317257318     -0.266613922591     0.0786163510292     -0.270736924397     0.0786163510292     -0.270736924397     -0.921317257318     -0.266613922591     
3000000000.0        -0.926091044477     -0.258918256039     0.0738418359823     -0.263185247455     0.0738418359823     -0.263185247455     -0.926091044477     -0.258918256039     
3100000000.0        -0.930453854984     -0.251600645508     0.0694782756392     -0.256011778722     0.0694782756392     -0.256011778722     -0.930453854984     -0.251600645508     
3200000000.0        -0.934450445922     -0.244637459195     0.0654809127878     -0.249192888608     0.0654809127878     -0.249192888608     -0.934450445922     -0.244637459195     
3300000000.0        -0.938119796518     -0.238006449007     0.0618107680722     -0.242706331183     0.0618107680722     -0.242706331183     -0.938119796518     -0.238006449007     
3400000000.0        -0.941495955731     -0.231686757919     0.0584337924091     -0.236531251537     0.0584337924091     -0.236531251537     -0.941495955731     -0.231686757919     
3500000000.0        -0.944608752875     -0.225658892986     0.0553201563603     -0.230648158795     0.0553201563603     -0.230648158795     -0.944608752875     -0.225658892986     
3600000000.0        -0.947484395042     -0.219904676248     0.052443652716      -0.22503887703      0.052443652716      -0.22503887703      -0.947484395042     -0.219904676248     
3700000000.0        -0.950145970739     -0.214407182174     0.0497811928491     -0.219686482707     0.0497811928491     -0.219686482707     -0.950145970739     -0.214407182174     
3800000000.0        -0.952613875697     -0.209150667647     0.0473123809124     -0.214575234672     0.0473123809124     -0.214575234672     -0.952613875697     -0.209150667647     
3900000000.0        -0.95490617389      -0.204120498677     0.0450191528148     -0.209690500874     0.0450191528148     -0.209690500874     -0.95490617389      -0.204120498677     
4000000000.0        -0.957038904515     -0.199303076676     0.0428854692444     -0.205018684638     0.0428854692444     -0.205018684638     -0.957038904515     -0.199303076676     
4100000000.0        -0.959026343755     -0.194685766195     0.0408970539042     -0.200547152405     0.0408970539042     -0.200547152405     -0.959026343755     -0.194685766195     
4200000000.0        -0.960881228616     -0.190256825342     0.0390411696742     -0.196264164155     0.0390411696742     -0.196264164155     -0.960881228616     -0.190256825342     
4300000000.0        -0.962614948867     -0.186005339638     0.0373064266735     -0.192158807269     0.0373064266735     -0.192158807269     -0.962614948867     -0.186005339638     
4400000000.0        -0.964237712066     -0.181921159714     0.0356826172289     -0.188220934222     0.0356826172289     -0.188220934222     -0.964237712066     -0.181921159714     
4500000000.0        -0.965758685841     -0.177994843044     0.0341605735996     -0.184441104324     0.0341605735996     -0.184441104324     -0.965758685841     -0.177994843044     
4600000000.0        -0.967186120865     -0.174217599721     0.032732045         -0.180810529493     0.032732045         -0.180810529493     -0.967186120865     -0.174217599721     
4700000000.0        -0.968527457424     -0.170581242204     0.0313895910317     -0.177321024014     0.0313895910317     -0.177321024014     -0.968527457424     -0.170581242204     
4800000000.0        -0.969789417992     -0.167078138887     0.0301264891062     -0.173964958096     0.0301264891062     -0.173964958096     -0.969789417992     -0.167078138887     
4900000000.0        -0.970978087852     -0.163701171276     0.0289366538262     -0.170735215066     0.0289366538262     -0.170735215066     -0.970978087852     -0.163701171276     
5000000000.0        -0.972098985467     -0.160443694582     0.0278145666144     -0.167625151954     0.0278145666144     -0.167625151954     -0.972098985467     -0.160443694582     
5100000000.0        -0.973157124048     -0.157299501486     0.0267552141463     -0.16462856326      0.0267552141463     -0.16462856326      -0.973157124048     -0.157299501486     
5200000000.0        -0.974157065535     -0.154262788846     0.0257540343651     -0.16173964767      0.0257540343651     -0.16173964767      -0.974157065535     -0.154262788846     
5300000000.0        -0.975102968043     -0.151328127139     0.0248068690409     -0.158952977491     0.0248068690409     -0.158952977491     -0.975102968043     -0.151328127139     
5400000000.0        -0.975998627633     -0.148490432399     0.0239099219938     -0.156263470598     0.0239099219938     -0.156263470598     -0.975998627633     -0.148490432399     
5500000000.0        -0.976847515186     -0.14574494047      0.0230597222272     -0.153666364684     0.0230597222272     -0.153666364684     -0.976847515186     -0.14574494047      
5600000000.0        -0.977652808993     -0.143087183372     0.0222530913301     -0.151157193626     0.0222530913301     -0.151157193626     -0.977652808993     -0.143087183372     
5700000000.0        -0.978417423639     -0.140512967594     0.0214871145974     -0.148731765783     0.0214871145974     -0.148731765783     -0.978417423639     -0.140512967594     
5800000000.0        -0.979144035639     -0.13801835417      0.020759115395      -0.146386144075     0.020759115395      -0.146386144075     -0.979144035639     -0.13801835417      
5900000000.0        -0.979835106229     -0.13559964037      0.0200666323643     -0.144116627667     0.0200666323643     -0.144116627667     -0.979835106229     -0.13559964037      
6000000000.0        -0.980492901678     -0.133253342871     0.0194073991138     -0.141919735147     0.0194073991138     -0.141919735147     -0.980492901678     -0.133253342871     
6100000000.0        -0.98111951141      -0.130976182278     0.0187793260957     -0.13979218905      0.0187793260957     -0.13979218905      -0.98111951141      -0.130976182278     
6200000000.0        -0.981716864205     -0.128765068885     0.0181804844045     -0.137730901614     0.0181804844045     -0.137730901614     -0.981716864205     -0.128765068885     
6300000000.0        -0.982286742706     -0.126617089564     0.0176090912702     -0.135732961673     0.0176090912702     -0.135732961673     -0.982286742706     -0.126617089564     
6400000000.0        -0.982830796432     -0.124529495681     0.0170634970469     -0.133795622575     0.0170634970469     -0.133795622575     -0.982830796432     -0.124529495681     
6500000000.0        -0.983350553462     -0.122499691963     0.0165421735255     -0.131916291046     0.0165421735255     -0.131916291046     -0.983350553462     -0.122499691963     
6600000000.0        -0.983847430953     -0.120525226218     0.016043703419      -0.130092516917     0.016043703419      -0.130092516917     -0.983847430953     -0.120525226218     
6700000000.0        -0.984322744611     -0.118603779853     0.0155667708892     -0.128321983633     0.0155667708892     -0.128321983633     -0.984322744611     -0.118603779853     
6800000000.0        -0.984777717241     -0.116733159104     0.015110152998      -0.126602499495     0.015110152998      -0.126602499495     -0.984777717241     -0.116733159104     
6900000000.0        -0.985213486469     -0.114911286937     0.014672711984      -0.124931989554     0.014672711984      -0.124931989554     -0.985213486469     -0.114911286937     
7000000000.0        -0.985631111731     -0.113136195552     0.0142533882737     -0.123308488116     0.0142533882737     -0.123308488116     -0.985631111731     -0.113136195552     
7100000000.0        -0.986031580607     -0.111406019435     0.0138511941495     -0.121730131796     0.0138511941495     -0.121730131796     -0.986031580607     -0.111406019435     
7200000000.0        -0.986415814564     -0.109718988929     0.0134652080047     -0.120195153092     0.0134652080047     -0.120195153092     -0.986415814564     -0.109718988929     
7300000000.0        -0.986784674174     -0.108073424269     0.0130945691258     -0.118701874419     0.0130945691258     -0.118701874419     -0.986784674174     -0.108073424269     
7400000000.0        -0.98713896386      -0.106467730048     0.0127384729459     -0.117248702569     0.0127384729459     -0.117248702569     -0.98713896386      -0.106467730048     
7500000000.0        -0.987479436218     -0.104900390077     0.0123961667227     -0.11583412358      0.0123961667227     -0.11583412358      -0.987479436218     -0.104900390077     
7600000000.0        -0.987806795961     -0.103369962603     0.0120669455983     -0.114456697955     0.0120669455983     -0.114456697955     -0.987806795961     -0.103369962603     
7700000000.0        -0.988121703509     -0.101875075876     0.0117501490025     -0.113115056219     0.0117501490025     -0.113115056219     -0.988121703509     -0.101875075876     
7800000000.0        -0.988424778281     -0.10041442401      0.0114451573658     -0.11180789479      0.0114451573658     -0.11180789479      -0.988424778281     -0.10041442401      
7900000000.0        -0.988716601699     -0.0989867631303    0.0111513891135     -0.110533972125     0.0111513891135     -0.110533972125     -0.988716601699     -0.0989867631303    
8000000000.0        -0.988997719943     -0.0975909077933    0.0108682979115     -0.109292105137     0.0108682979115     -0.109292105137     -0.988997719943     -0.0975909077933    
8100000000.0        -0.989268646472     -0.0962257276343    0.0105953701422     -0.108081165844     0.0105953701422     -0.108081165844     -0.989268646472     -0.0962257276343    
8200000000.0        -0.989529864346     -0.094890144248     0.0103321225883     -0.106900078254     0.0103321225883     -0.106900078254     -0.989529864346     -0.094890144248     
8300000000.0        -0.98978182835      -0.0935831282715    0.0100781003043     -0.105747815441     0.0100781003043     -0.105747815441     -0.98978182835      -0.0935831282715    
8400000000.0        -0.990024966951     -0.0923036966604    0.00983287465972    -0.104623396827     0.00983287465972    -0.104623396827     -0.990024966951     -0.0923036966604    
8500000000.0        -0.990259684099     -0.0910509101405    0.009596041538      -0.103525885633     0.009596041538      -0.103525885633     -0.990259684099     -0.0910509101405    
8600000000.0        -0.990486360891     -0.0898238708236    0.00936721967713    -0.102454386492     0.00936721967713    -0.102454386492     -0.990486360891     -0.0898238708236    
8700000000.0        -0.990705357094     -0.088621719976     0.00914604913937    -0.101408043222     0.00914604913937    -0.101408043222     -0.990705357094     -0.088621719976     
8800000000.0        -0.990917012561     -0.0874436359269    0.00893218989896    -0.100386036732     0.00893218989896    -0.100386036732     -0.990917012561     -0.0874436359269    
8900000000.0        -0.991121648538     -0.0862888321083    0.00872532053731    -0.0993875830623    0.00872532053731    -0.0993875830623    -0.991121648538     -0.0862888321083    
9000000000.0        -0.991319568865     -0.0851565552159    0.00852513703674    -0.0984119315459    0.00852513703674    -0.0984119315459    -0.991319568865     -0.0851565552159    
9100000000.0        -0.991511061097     -0.0840460834833    0.00833135166413    -0.0974583630834    0.00833135166413    -0.0974583630834    -0.991511061097     -0.0840460834833    
9200000000.0        -0.991696397535     -0.082956725061     0.00814369193702    -0.0965261885216    0.00814369193702    -0.0965261885216    -0.991696397535     -0.082956725061     
9300000000.0        -0.991875836185     -0.0818878164936    0.00796189966532    -0.0956147471309    0.00796189966532    -0.0956147471309    -0.991875836185     -0.0818878164936    
9400000000.0        -0.992049621647     -0.0808387212868    0.0077857300624     -0.0947234051733    0.0077857300624     -0.0947234051733    -0.992049621647     -0.0808387212868    
9500000000.0        -0.99221798594      -0.079808828561     0.00761495091974    -0.0938515545547    0.00761495091974    -0.0938515545547    -0.99221798594      -0.079808828561     
9600000000.0        -0.992381149272     -0.0787975517824    0.0074493418403     -0.0929986115578    0.0074493418403     -0.0929986115578    -0.992381149272     -0.0787975517824    
9700000000.0        -0.992539320745     -0.0778043275688    0.00728869352552    -0.0921640156469    0.00728869352552    -0.0921640156469    -0.992539320745     -0.0778043275688    
9800000000.0        -0.992692699026     -0.0768286145641    0.00713280711213    -0.0913472283431    0.00713280711213    -0.0913472283431    -0.992692699026     -0.0768286145641    
9900000000.0        -0.992841472962     -0.0758698923769    0.00698149355447    -0.090547732163     0.00698149355447    -0.090547732163     -0.992841472962     -0.0758698923769    
10000000000.0       -0.992985822155     -0.0749276605792    0.00683457304903    -0.0897650296179    0.00683457304903    -0.0897650296179    -0.992985822155     -0.0749276605792    
