# Hz S RI R 50.00 
100000000.0         0.038921531092      0.000824716353568   0.961077227924      -0.00106092057166   0.961077227924      -0.00106092057166   0.038921531092      0.000824716353568   
200000000.0         0.0391689848473     0.00164846570141    0.960829476629      -0.00212087432921   0.960829476629      -0.00212087432921   0.0391689848473     0.00164846570141    
300000000.0         0.0393507059615     0.00247164141534    0.960647401409      -0.00318025481419   0.960647401409      -0.00318025481419   0.0393507059615     0.00247164141534    
400000000.0         0.0394994976728     0.00329437882518    0.960498199021      -0.00423919749674   0.960498199021      -0.00423919749674   0.0394994976728     0.00329437882518    
500000000.0         0.0396280445018     0.00411675303982    0.960369184938      -0.00529777761141   0.960369184938      -0.00529777761141   0.0396280445018     0.00411675303982    
600000000.0         0.0397428409352     0.00493881242189    0.960253864669      -0.00635604363713   0.960253864669      -0.00635604363713   0.0397428409352     0.00493881242189    
700000000.0         0.0398477384305     0.00576059062619    0.960148386752      -0.00741402933815   0.960148386752      -0.00741402933815   0.0398477384305     0.00576059062619    
800000000.0         0.039945242055      0.00658211218925    0.960050246118      -0.00847175935526   0.960050246118      -0.00847175935526   0.039945242055      0.00658211218925    
900000000.0         0.0400370887219     0.00740339553432    0.959957705848      -0.00952925221173   0.959957705848      -0.00952925221173   0.0400370887219     0.00740339553432    
1000000000.0        0.0401245407382     0.0082244547519     0.959869503633      -0.0105865220947    0.959869503633      -0.0105865220947    0.0401245407382     0.0082244547519     
1100000000.0        0.040208549235      0.00904530073141    0.959784688338      -0.0116435799871    0.959784688338      -0.0116435799871    0.040208549235      0.00904530073141    
1200000000.0        0.0402898516993     0.00986594191937    0.959702522473      -0.0127004344266    0.959702522473      -0.0127004344266    0.0402898516993     0.00986594191937    
1300000000.0        0.0403690334289     0.0106863848491     0.959622420737      -0.0137570920354    0.959622420737      -0.0137570920354    0.0403690334289     0.0106863848491     
1400000000.0        0.0404465679888     0.0115066345236     0.959543909563      -0.0148135579032    0.959543909563      -0.0148135579032    0.0404465679888     0.0115066345236     
1500000000.0        0.0405228448198     0.0123266946994     0.959466599506      -0.0158698358718    0.959466599506      -0.0158698358718    0.0405228448198     0.0123266946994     
1600000000.0        0.0405981886593     0.0131465681032     0.959390165826      -0.0169259287514    0.959390165826      -0.0169259287514    0.0405981886593     0.0131465681032     
1700000000.0        0.0406728735577     0.0139662565991     0.95931433447       -0.017981838488     0.95931433447       -0.017981838488     0.0406728735577     0.0139662565991     
1800000000.0        0.040747133221      0.0147857613212     0.959238871729      -0.0190375662965    0.959238871729      -0.0190375662965    0.040747133221      0.0147857613212     
1900000000.0        0.0408211687929     0.0156050827792     0.959163576456      -0.020093112766     0.959163576456      -0.020093112766     0.0408211687929     0.0156050827792     
2000000000.0        0.0408951548082     0.0164242209447     0.959088274113      -0.0211484779464    0.959088274113      -0.0211484779464    0.0408951548082     0.0164242209447     
2100000000.0        0.0409692438192     0.0172431753214     0.959012812145      -0.0222036614188    0.959012812145      -0.0222036614188    0.0409692438192     0.0172431753214     
2200000000.0        0.0410435700366     0.018061945004      0.958937056338      -0.0232586623541    0.958937056338      -0.0232586623541    0.0410435700366     0.018061945004      
2300000000.0        0.041118252232      0.0188805287271     0.958860887917      -0.0243134795622    0.958860887917      -0.0243134795622    0.041118252232      0.0188805287271     
2400000000.0        0.0411933960757     0.0196989249067     0.95878420121       -0.0253681115335    0.95878420121       -0.0253681115335    0.0411933960757     0.0196989249067     
2500000000.0        0.0412690960387     0.0205171316751     0.958706901742      -0.0264225564741    0.958706901742      -0.0264225564741    0.0412690960387     0.0205171316751     
2600000000.0        0.0413454369543     0.0213351469116     0.958628904676      -0.0274768123361    0.958628904676      -0.0274768123361    0.0413454369543     0.0213351469116     
2700000000.0        0.0414224953111     0.0221529682683     0.95855013352       -0.0285308768438    0.95855013352       -0.0285308768438    0.0414224953111     0.0221529682683     
2800000000.0        0.0415003403309     0.0229705931926     0.95847051905       -0.029584747516     0.95847051905       -0.029584747516     0.0415003403309     0.0229705931926     
2900000000.0        0.0415790348747     0.0237880189473     0.958389998401      -0.0306384216863    0.958389998401      -0.0306384216863    0.0415790348747     0.0237880189473     
3000000000.0        0.0416586362081     0.0246052426276     0.958308514305      -0.0316918965198    0.958308514305      -0.0316918965198    0.0416586362081     0.0246052426276     
3100000000.0        0.0417391966524     0.0254222611763     0.958226014435      -0.0327451690291    0.958226014435      -0.0327451690291    0.0417391966524     0.0254222611763     
3200000000.0        0.041820764142      0.0262390713975     0.958142450855      -0.0337982360872    0.958142450855      -0.0337982360872    0.041820764142      0.0262390713975     
3300000000.0        0.0419033827027     0.0270556699686     0.958057779536      -0.0348510944397    0.958057779536      -0.0348510944397    0.0419033827027     0.0270556699686     
3400000000.0        0.0419870928656     0.0278720534506     0.957971959941      -0.0359037407156    0.957971959941      -0.0359037407156    0.0419870928656     0.0278720534506     
3500000000.0        0.0420719320263     0.0286882182983     0.957884954673      -0.036956171437     0.957884954673      -0.036956171437     0.0420719320263     0.0286882182983     
3600000000.0        0.0421579347574     0.0295041608683     0.957796729155      -0.0380083830274    0.957796729155      -0.0380083830274    0.0421579347574     0.0295041608683     
3700000000.0        0.0422451330826     0.030319877427      0.957707251358      -0.0390603718195    0.957707251358      -0.0390603718195    0.0422451330826     0.030319877427      
3800000000.0        0.0423335567175     0.0311353641578     0.957616491565      -0.0401121340625    0.957616491565      -0.0401121340625    0.0423335567175     0.0311353641578     
3900000000.0        0.042423233281      0.031950617167      0.957524422152      -0.0411636659283    0.957524422152      -0.0411636659283    0.042423233281      0.031950617167      
4000000000.0        0.0425141884838     0.0327656324899     0.957431017405      -0.0422149635172    0.957431017405      -0.0422149635172    0.0425141884838     0.0327656324899     
4100000000.0        0.042606446294      0.033580406096      0.957336253351      -0.0432660228632    0.957336253351      -0.0432660228632    0.042606446294      0.033580406096      
4200000000.0        0.0427000290863     0.0343949338937     0.957240107611      -0.044316839939     0.957240107611      -0.044316839939     0.0427000290863     0.0343949338937     
4300000000.0        0.0427949577735     0.0352092117347     0.957142559269      -0.0453674106602    0.957142559269      -0.0453674106602    0.0427949577735     0.0352092117347     
4400000000.0        0.0428912519253     0.0360232354182     0.957043588751      -0.0464177308892    0.957043588751      -0.0464177308892    0.0428912519253     0.0360232354182     
4500000000.0        0.0429889298748     0.0368370006943     0.956943177719      -0.0474677964394    0.956943177719      -0.0474677964394    0.0429889298748     0.0368370006943     
4600000000.0        0.0430880088138     0.0376505032678     0.956841308978      -0.0485176030782    0.956841308978      -0.0485176030782    0.0430880088138     0.0376505032678     
4700000000.0        0.0431885048793     0.0384637388011     0.956737966385      -0.0495671465302    0.956737966385      -0.0495671465302    0.0431885048793     0.0384637388011     
4800000000.0        0.0432904332319     0.039276702917      0.956633134776      -0.0506164224805    0.956633134776      -0.0506164224805    0.0432904332319     0.039276702917      
4900000000.0        0.0433938081256     0.0400893912017     0.956526799893      -0.0516654265769    0.956526799893      -0.0516654265769    0.0433938081256     0.0400893912017     
5000000000.0        0.0434986429728     0.0409017992073     0.956418948318      -0.0527141544327    0.956418948318      -0.0527141544327    0.0434986429728     0.0409017992073     
5100000000.0        0.0436049504023     0.0417139224536     0.956309567418      -0.053762601629     0.956309567418      -0.053762601629     0.0436049504023     0.0417139224536     
5200000000.0        0.0437127423126     0.0425257564311     0.95619864529       -0.0548107637169    0.95619864529       -0.0548107637169    0.0437127423126     0.0425257564311     
5300000000.0        0.0438220299204     0.0433372966024     0.956086170712      -0.0558586362195    0.956086170712      -0.0558586362195    0.0438220299204     0.0433372966024     
5400000000.0        0.0439328238053     0.0441485384043     0.9559721331        -0.0569062146337    0.9559721331        -0.0569062146337    0.0439328238053     0.0441485384043     
5500000000.0        0.0440451339503     0.0449594772496     0.955856522467      -0.0579534944322    0.955856522467      -0.0579534944322    0.0440451339503     0.0449594772496     
5600000000.0        0.0441589697792     0.0457701085285     0.955739329382      -0.0590004710648    0.955739329382      -0.0590004710648    0.0441589697792     0.0457701085285     
5700000000.0        0.044274340191      0.0465804276106     0.955620544943      -0.0600471399605    0.955620544943      -0.0600471399605    0.044274340191      0.0465804276106     
5800000000.0        0.0443912535917     0.0473904298461     0.955500160738      -0.0610934965284    0.955500160738      -0.0610934965284    0.0443912535917     0.0473904298461     
5900000000.0        0.0445097179233     0.048200110567      0.955378168821      -0.0621395361595    0.955378168821      -0.0621395361595    0.0445097179233     0.048200110567      
6000000000.0        0.0446297406906     0.0490094650888     0.95525456168       -0.0631852542276    0.95525456168       -0.0631852542276    0.0446297406906     0.0490094650888     
6100000000.0        0.0447513289866     0.0498184887113     0.955129332218      -0.0642306460909    0.955129332218      -0.0642306460909    0.0447513289866     0.0498184887113     
6200000000.0        0.0448744895149     0.0506271767201     0.955002473727      -0.0652757070931    0.955002473727      -0.0652757070931    0.0448744895149     0.0506271767201     
6300000000.0        0.0449992286118     0.0514355243874     0.954873979863      -0.0663204325642    0.954873979863      -0.0663204325642    0.0449992286118     0.0514355243874     
6400000000.0        0.0451255522655     0.0522435269733     0.954743844635      -0.0673648178216    0.954743844635      -0.0673648178216    0.0451255522655     0.0522435269733     
6500000000.0        0.0452534661349     0.0530511797263     0.954612062376      -0.0684088581716    0.954612062376      -0.0684088581716    0.0452534661349     0.0530511797263     
6600000000.0        0.0453829755666     0.053858477885      0.954478627736      -0.0694525489095    0.954478627736      -0.0694525489095    0.0453829755666     0.053858477885      
6700000000.0        0.0455140856111     0.0546654166781     0.954343535658      -0.070495885321     0.954343535658      -0.070495885321     0.0455140856111     0.0546654166781     
6800000000.0        0.0456468010375     0.0554719913258     0.954206781367      -0.0715388626832    0.954206781367      -0.0715388626832    0.0456468010375     0.0554719913258     
6900000000.0        0.0457811263472     0.0562781970405     0.954068360356      -0.0725814762646    0.954068360356      -0.0725814762646    0.0457811263472     0.0562781970405     
7000000000.0        0.0459170657875     0.0570840290274     0.953928268372      -0.0736237213268    0.953928268372      -0.0736237213268    0.0459170657875     0.0570840290274     
7100000000.0        0.0460546233632     0.0578894824852     0.953786501404      -0.0746655931246    0.953786501404      -0.0746655931246    0.0460546233632     0.0578894824852     
7200000000.0        0.0461938028481     0.058694552607      0.953643055673      -0.0757070869068    0.953643055673      -0.0757070869068    0.0461938028481     0.058694552607      
7300000000.0        0.0463346077961     0.0594992345807     0.953497927618      -0.076748197917     0.953497927618      -0.076748197917     0.0463346077961     0.0594992345807     
7400000000.0        0.0464770415503     0.0603035235899     0.953351113891      -0.0777889213942    0.953351113891      -0.0777889213942    0.0464770415503     0.0603035235899     
7500000000.0        0.0466211072534     0.0611074148142     0.953202611342      -0.0788292525732    0.953202611342      -0.0788292525732    0.0466211072534     0.0611074148142     
7600000000.0        0.0467668078559     0.0619109034298     0.953052417016      -0.0798691866853    0.953052417016      -0.0798691866853    0.0467668078559     0.0619109034298     
7700000000.0        0.0469141461244     0.0627139846103     0.952900528138      -0.080908718959     0.952900528138      -0.080908718959     0.0469141461244     0.0627139846103     
7800000000.0        0.0470631246497     0.063516653527      0.952746942112      -0.0819478446201    0.952746942112      -0.0819478446201    0.0470631246497     0.063516653527      
7900000000.0        0.0472137458541     0.0643189053493     0.95259165651       -0.0829865588927    0.95259165651       -0.0829865588927    0.0472137458541     0.0643189053493     
8000000000.0        0.0473660119981     0.0651207352456     0.952434669064      -0.0840248569993    0.952434669064      -0.0840248569993    0.0473660119981     0.0651207352456     
8100000000.0        0.0475199251871     0.0659221383832     0.952275977663      -0.0850627341615    0.952275977663      -0.0850627341615    0.0475199251871     0.0659221383832     
8200000000.0        0.0476754873776     0.0667231099292     0.952115580343      -0.0861001856002    0.952115580343      -0.0861001856002    0.0476754873776     0.0667231099292     
8300000000.0        0.0478327003831     0.0675236450506     0.951953475285      -0.0871372065363    0.951953475285      -0.0871372065363    0.0478327003831     0.0675236450506     
8400000000.0        0.0479915658794     0.0683237389149     0.951789660805      -0.0881737921909    0.951789660805      -0.0881737921909    0.0479915658794     0.0683237389149     
8500000000.0        0.04815208541       0.0691233866905     0.951624135354      -0.0892099377859    0.951624135354      -0.0892099377859    0.04815208541       0.0691233866905     
8600000000.0        0.048314260391      0.069922583547      0.951456897508      -0.0902456385439    0.951456897508      -0.0902456385439    0.048314260391      0.069922583547      
8700000000.0        0.0484780921157     0.0707213246554     0.951287945968      -0.0912808896894    0.951287945968      -0.0912808896894    0.0484780921157     0.0707213246554     
8800000000.0        0.0486435817593     0.0715196051889     0.951117279552      -0.0923156864482    0.951117279552      -0.0923156864482    0.0486435817593     0.0715196051889     
8900000000.0        0.0488107303827     0.0723174203227     0.950944897191      -0.0933500240485    0.950944897191      -0.0933500240485    0.0488107303827     0.0723174203227     
9000000000.0        0.0489795389368     0.0731147652347     0.950770797927      -0.0943838977208    0.950770797927      -0.0943838977208    0.0489795389368     0.0731147652347     
9100000000.0        0.0491500082664     0.0739116351057     0.950594980909      -0.0954173026984    0.950594980909      -0.0954173026984    0.0491500082664     0.0739116351057     
9200000000.0        0.0493221391134     0.0747080251197     0.950417445388      -0.0964502342177    0.950417445388      -0.0964502342177    0.0493221391134     0.0747080251197     
9300000000.0        0.0494959321207     0.0755039304643     0.950238190714      -0.0974826875183    0.950238190714      -0.0974826875183    0.0494959321207     0.0755039304643     
9400000000.0        0.049671387835      0.0762993463306     0.950057216331      -0.0985146578435    0.950057216331      -0.0985146578435    0.049671387835      0.0762993463306     
9500000000.0        0.0498485067103     0.0770942679141     0.94987452178       -0.0995461404406    0.94987452178       -0.0995461404406    0.0498485067103     0.0770942679141     
9600000000.0        0.0500272891108     0.0778886904145     0.949690106689      -0.100577130561     0.949690106689      -0.100577130561     0.0500272891108     0.0778886904145     
9700000000.0        0.0502077353135     0.0786826090359     0.949503970772      -0.10160762346      0.949503970772      -0.10160762346      0.0502077353135     0.0786826090359     
9800000000.0        0.050389845511      0.0794760189875     0.949316113831      -0.1026376144       0.949316113831      -0.1026376144       0.050389845511      0.0794760189875     
9900000000.0        0.0505736198144     0.0802689154834     0.949126535746      -0.103667098644     0.949126535746      -0.103667098644     0.0505736198144     0.0802689154834     
10000000000.0       0.0507590582551     0.0810612937432     0.948935236478      -0.104696071464     0.948935236478      -0.104696071464     0.0507590582551     0.0810612937432     
