# Hz S RI R 50.00 
100000000.0         -4.36353212696e-06  -0.0057653551738    0.999921249392      -0.00610093677968   0.999921249392      -0.00610093677968   -4.36353212674e-06  -0.0057653551738    
200000000.0         -0.000115487175658  -0.0115298024598    0.999809451862      -0.0122010122136    0.999809451862      -0.0122010122136    -0.000115487175658  -0.0115298024598    
300000000.0         -0.00029700161411   -0.0172923357014    0.999627279485      -0.0182992444343    0.999627279485      -0.0182992444343    -0.00029700161411   -0.0172923357014    
400000000.0         -0.000548833561016  -0.0230518890216    0.999374741396      -0.0243945861846    0.999374741396      -0.0243945861846    -0.000548833561016  -0.0230518890216    
500000000.0         -0.000870907023258  -0.0288073657287    0.999051888906      -0.0304859565074    0.999051888906      -0.0304859565074    -0.000870907023258  -0.0288073657287    
600000000.0         -0.00126312843204   -0.0345576490608    0.998658802969      -0.0365722524574    0.998658802969      -0.0365722524574    -0.00126312843204   -0.0345576490608    
700000000.0         -0.00172538234246   -0.0403016081107    0.99819559154       -0.0426523555196    0.99819559154       -0.0426523555196    -0.00172538234246   -0.0403016081107    
800000000.0         -0.002257529551     -0.0460381017346    0.997662388921      -0.0487251358154    0.997662388921      -0.0487251358154    -0.002257529551     -0.0460381017346    
900000000.0         -0.00285940606203   -0.0517659814435    0.997059355674      -0.0547894551905    0.997059355674      -0.0547894551905    -0.00285940606203   -0.0517659814435    
1000000000.0        -0.00353082244331   -0.0574840937097    0.996386678699      -0.0608441696606    0.996386678699      -0.0608441696606    -0.00353082244331   -0.0574840937097    
1100000000.0        -0.00427156339867   -0.0631912819094    0.995644571337      -0.0668881314587    0.995644571337      -0.0668881314587    -0.00427156339867   -0.0631912819094    
1200000000.0        -0.00508138748204   -0.0688863880252    0.994833273481      -0.0729201908173    0.994833273481      -0.0729201908173    -0.00508138748204   -0.0688863880252    
1300000000.0        -0.00596002691451   -0.0745682541801    0.993953051632      -0.0789391975671    0.993953051632      -0.0789391975671    -0.00596002691451   -0.0745682541801    
1400000000.0        -0.0069071874833    -0.0802357240482    0.993004198928      -0.0849440026006    0.993004198928      -0.0849440026006    -0.0069071874833    -0.0802357240482    
1500000000.0        -0.00792254850975   -0.0858876441727    0.991987035122      -0.0909334592329    0.991987035122      -0.0909334592329    -0.00792254850975   -0.0858876441727    
1600000000.0        -0.00900576287797   -0.0915228652088    0.990901906517      -0.0969064244831    0.990901906517      -0.0969064244831    -0.00900576287797   -0.0915228652088    
1700000000.0        -0.0101564571183    -0.0971402431072    0.989749185859      -0.102861760289     0.989749185859      -0.102861760289     -0.0101564571183    -0.0971402431072    
1800000000.0        -0.0113742315412    -0.102738640245     0.988529272181      -0.108798334666     0.988529272181      -0.108798334666     -0.0113742315412    -0.102738640245     
1900000000.0        -0.0126586604185    -0.108316926515     0.987242590608      -0.114715022821     0.987242590608      -0.114715022821     -0.0126586604185    -0.108316926515     
2000000000.0        -0.0140092922088    -0.11387398037      0.985889592123      -0.120610708219     0.985889592123      -0.120610708219     -0.0140092922088    -0.11387398037      
2100000000.0        -0.0154256498244    -0.119408689831     0.984470753288      -0.126484283614     0.984470753288      -0.126484283614     -0.0154256498244    -0.119408689831     
2200000000.0        -0.0169072309392    -0.124919953468     0.982986575933      -0.132334652041     0.982986575933      -0.132334652041     -0.0169072309392    -0.124919953468     
2300000000.0        -0.0184535083331    -0.130406681337     0.981437586806      -0.138160727775     0.981437586806      -0.138160727775     -0.0184535083331    -0.130406681337     
2400000000.0        -0.0200639302736    -0.13586779589      0.979824337185      -0.143961437253     0.979824337185      -0.143961437253     -0.0200639302736    -0.13586779589      
2500000000.0        -0.0217379209314    -0.141302232852     0.978147402464      -0.149735719966     0.978147402464      -0.149735719966     -0.0217379209314    -0.141302232852     
2600000000.0        -0.0234748808283    -0.146708942071     0.976407381694      -0.155482529322     0.976407381694      -0.155482529322     -0.0234748808283    -0.146708942071     
2700000000.0        -0.0252741873165    -0.152086888329     0.974604897113      -0.161200833467     0.974604897113      -0.161200833467     -0.0252741873165    -0.152086888329     
2800000000.0        -0.0271351950877    -0.157435052128     0.972740593625      -0.166889616082     0.972740593625      -0.166889616082     -0.0271351950877    -0.157435052128     
2900000000.0        -0.0290572367092    -0.162752430441     0.970815138267      -0.172547877147     0.970815138267      -0.172547877147     -0.0290572367092    -0.162752430441     
3000000000.0        -0.0310396231865    -0.168038037436     0.968829219647      -0.17817463367      0.968829219647      -0.17817463367      -0.0310396231865    -0.168038037436     
3100000000.0        -0.0330816445515    -0.173290905161     0.966783547349      -0.183768920386     0.966783547349      -0.183768920386     -0.0330816445515    -0.173290905161     
3200000000.0        -0.0351825704721    -0.178510084206     0.96467885133       -0.189329790424     0.96467885133       -0.189329790424     -0.0351825704721    -0.178510084206     
3300000000.0        -0.0373416508848    -0.183694644325     0.96251588128       -0.194856315937     0.96251588128       -0.194856315937     -0.0373416508848    -0.183694644325     
3400000000.0        -0.0395581166463    -0.188843675031     0.960295405973      -0.200347588704     0.960295405973      -0.200347588704     -0.0395581166463    -0.188843675031     
3500000000.0        -0.0418311802041    -0.193956286157     0.958018212597      -0.205802720701     0.958018212597      -0.205802720701     -0.0418311802041    -0.193956286157     
3600000000.0        -0.0441600362833    -0.199031608383     0.955685106063      -0.21122084463      0.955685106063      -0.21122084463      -0.0441600362833    -0.199031608383     
3700000000.0        -0.0465438625893    -0.204068793729     0.953296908307      -0.216601114425     0.953296908307      -0.216601114425     -0.0465438625893    -0.204068793729     
3800000000.0        -0.0489818205238    -0.209067016022     0.950854457568      -0.221942705717     0.950854457568      -0.221942705717     -0.0489818205238    -0.209067016022     
3900000000.0        -0.051473055913     -0.214025471323     0.948358607664      -0.227244816273     0.948358607664      -0.227244816273     -0.051473055913     -0.214025471323     
4000000000.0        -0.0540166997469    -0.218943378323     0.945810227252      -0.232506666392     0.945810227252      -0.232506666392     -0.0540166997469    -0.218943378323     
4100000000.0        -0.0566118689272    -0.22381997871      0.943210199077      -0.23772749928      0.943210199077      -0.23772749928      -0.0566118689272    -0.22381997871      
4200000000.0        -0.0592576670236    -0.228654537496     0.940559419217      -0.242906581386     0.940559419217      -0.242906581386     -0.0592576670236    -0.228654537496     
4300000000.0        -0.0619531850358    -0.23344634332      0.937858796322      -0.248043202699     0.937858796322      -0.248043202699     -0.0619531850358    -0.23344634332      
4400000000.0        -0.0646975021606    -0.238194708712     0.935109250847      -0.253136677028     0.935109250847      -0.253136677028     -0.0646975021606    -0.238194708712     
4500000000.0        -0.0674896865626    -0.24289897033      0.932311714279      -0.258186342232     0.932311714279      -0.258186342232     -0.0674896865626    -0.24289897033      
4600000000.0        -0.0703287961468    -0.247558489162     0.929467128364      -0.263191560436     0.929467128364      -0.263191560436     -0.0703287961468    -0.247558489162     
4700000000.0        -0.073213879332     -0.252172650697     0.926576444339      -0.2681517182       0.926576444339      -0.2681517182       -0.073213879332     -0.252172650697     
4800000000.0        -0.0761439758236    -0.256740865069     0.92364062215       -0.273066226665     0.92364062215       -0.273066226665     -0.0761439758236    -0.256740865069     
4900000000.0        -0.0791181173852    -0.261262567164     0.920660629689      -0.277934521672     0.920660629689      -0.277934521672     -0.0791181173852    -0.261262567164     
5000000000.0        -0.0821353286059    -0.265737216706     0.917637442023      -0.282756063838     0.917637442023      -0.282756063838     -0.0821353286059    -0.265737216706     
5100000000.0        -0.0851946276651    -0.270164298303     0.914572040626      -0.287530338618     0.914572040626      -0.287530338618     -0.0851946276651    -0.270164298303     
5200000000.0        -0.0882950270903    -0.274543321476     0.911465412628      -0.29225685633      0.911465412628      -0.29225685633      -0.0882950270903    -0.274543321476     
5300000000.0        -0.0914355345098    -0.278873820649     0.908318550056      -0.296935152149     0.908318550056      -0.296935152149     -0.0914355345098    -0.278873820649     
5400000000.0        -0.0946151533972    -0.283155355123     0.905132449093      -0.301564786081     0.905132449093      -0.301564786081     -0.0946151533972    -0.283155355123     
5500000000.0        -0.0978328838075    -0.287387509009     0.901908109342      -0.306145342905     0.901908109342      -0.306145342905     -0.0978328838075    -0.287387509009     
5600000000.0        -0.101087723104     -0.29156989115      0.898646533095      -0.310676432094     0.898646533095      -0.310676432094     -0.101087723104     -0.29156989115      
5700000000.0        -0.104378666675     -0.295702135012     0.895348724622      -0.315157687704     0.895348724622      -0.315157687704     -0.104378666675     -0.295702135012     
5800000000.0        -0.107704708637     -0.299783898542     0.892015689464      -0.319588768242     0.892015689464      -0.319588768242     -0.107704708637     -0.299783898542     
5900000000.0        -0.111064842532     -0.30381486402      0.888648433735      -0.323969356514     0.888648433735      -0.323969356514     -0.111064842532     -0.30381486402      
6000000000.0        -0.114458062004     -0.307794737872     0.885247963452      -0.328299159443     0.885247963452      -0.328299159443     -0.114458062004     -0.307794737872     
6100000000.0        -0.117883361467     -0.311723250472     0.881815283856      -0.332577907872     0.881815283856      -0.332577907872     -0.117883361467     -0.311723250472     
6200000000.0        -0.121339736758     -0.315600155917     0.878351398768      -0.336805356341     0.878351398768      -0.336805356341     -0.121339736758     -0.315600155917     
6300000000.0        -0.124826185774     -0.319425231783     0.874857309949      -0.340981282846     0.874857309949      -0.340981282846     -0.124826185774     -0.319425231783     
6400000000.0        -0.128341709098     -0.323198278868     0.871334016474      -0.345105488577     0.871334016474      -0.345105488577     -0.128341709098     -0.323198278868     
6500000000.0        -0.131885310598     -0.326919120904     0.867782514133      -0.349177797645     0.867782514133      -0.349177797645     -0.131885310598     -0.326919120904     
6600000000.0        -0.135455998028     -0.330587604267     0.86420379483       -0.353198056778     0.86420379483       -0.353198056778     -0.135455998028     -0.330587604267     
6700000000.0        -0.139052783589     -0.334203597656     0.86059884602       -0.357166135012     0.86059884602       -0.357166135012     -0.139052783589     -0.334203597656     
6800000000.0        -0.142674684497     -0.337766991768     0.856968650146      -0.361081923364     0.856968650146      -0.361081923364     -0.142674684497     -0.337766991768     
6900000000.0        -0.146320723515     -0.341277698952     0.853314184104      -0.364945334486     0.853314184104      -0.364945334486     -0.146320723515     -0.341277698952     
7000000000.0        -0.149989929473     -0.344735652851     0.849636418717      -0.36875630231      0.849636418717      -0.36875630231      -0.149989929473     -0.344735652851     
7100000000.0        -0.153681337776     -0.348140808031     0.84593631824       -0.372514781679     0.84593631824       -0.372514781679     -0.153681337776     -0.348140808031     
7200000000.0        -0.157393990887     -0.351493139599     0.842214839867      -0.376220747961     0.842214839867      -0.376220747961     -0.157393990887     -0.351493139599     
7300000000.0        -0.161126938789     -0.354792642809     0.83847293327       -0.379874196664     0.83847293327       -0.379874196664     -0.161126938789     -0.354792642809     
7400000000.0        -0.164879239439     -0.358039332656     0.83471154015       -0.383475143026     0.83471154015       -0.383475143026     -0.164879239439     -0.358039332656     
7500000000.0        -0.168649959194     -0.361233243468     0.830931593806      -0.387023621605     0.830931593806      -0.387023621605     -0.168649959194     -0.361233243468     
7600000000.0        -0.172438173221     -0.364374428479     0.827134018727      -0.390519685859     0.827134018727      -0.390519685859     -0.172438173221     -0.364374428479     
7700000000.0        -0.176242965888     -0.367462959403     0.823319730199      -0.39396340772      0.823319730199      -0.39396340772      -0.176242965888     -0.367462959403     
7800000000.0        -0.180063431144     -0.370498925995     0.819489633931      -0.397354877152     0.819489633931      -0.397354877152     -0.180063431144     -0.370498925995     
7900000000.0        -0.183898672862     -0.373482435613     0.815644625703      -0.400694201718     0.815644625703      -0.400694201718     -0.183898672862     -0.373482435613     
8000000000.0        -0.187747805187     -0.37641361277      0.811785591025      -0.403981506127     0.811785591025      -0.403981506127     -0.187747805187     -0.37641361277      
8100000000.0        -0.191609952845     -0.37929259868      0.807913404826      -0.407216931787     0.807913404826      -0.407216931787     -0.191609952845     -0.37929259868      
8200000000.0        -0.195484251448     -0.382119550804     0.804028931147      -0.41040063635      0.804028931147      -0.41040063635      -0.195484251448     -0.382119550804     
8300000000.0        -0.199369847772     -0.384894642393     0.800133022867      -0.413532793252     0.800133022867      -0.413532793252     -0.199369847772     -0.384894642393     
8400000000.0        -0.203265900023     -0.387618062028     0.796226521432      -0.416613591258     0.796226521432      -0.416613591258     -0.203265900023     -0.387618062028     
8500000000.0        -0.20717157808      -0.390290013155     0.792310256615      -0.419643233994     0.792310256615      -0.419643233994     -0.20717157808      -0.390290013155     
8600000000.0        -0.211086063728     -0.392910713624     0.788385046284      -0.422621939492     0.788385046284      -0.422621939492     -0.211086063728     -0.392910713624     
8700000000.0        -0.215008550868     -0.395480395228     0.78445169619       -0.42554993972      0.78445169619       -0.42554993972      -0.215008550868     -0.395480395228     
8800000000.0        -0.218938245708     -0.397999303236     0.780510999774      -0.428427480126     0.780510999774      -0.428427480126     -0.218938245708     -0.397999303236     
8900000000.0        -0.222874366947     -0.400467695933     0.776563737991      -0.431254819172     0.776563737991      -0.431254819172     -0.222874366947     -0.400467695933     
9000000000.0        -0.226816145932     -0.402885844161     0.77261067914       -0.434032227878     0.77261067914       -0.434032227878     -0.226816145932     -0.402885844161     
9100000000.0        -0.23076282681      -0.405254030859     0.768652578727      -0.436759989358     0.768652578727      -0.436759989358     -0.23076282681      -0.405254030859     
9200000000.0        -0.234713666652     -0.407572550605     0.764690179329      -0.439438398372     0.764690179329      -0.439438398372     -0.234713666652     -0.407572550605     
9300000000.0        -0.238667935573     -0.409841709169     0.760724210478      -0.442067760866     0.760724210478      -0.442067760866     -0.238667935573     -0.409841709169     
9400000000.0        -0.242624916833     -0.412061823057     0.756755388563      -0.444648393528     0.756755388563      -0.444648393528     -0.242624916833     -0.412061823057     
9500000000.0        -0.246583906921     -0.414233219067     0.752784416741      -0.447180623341     0.752784416741      -0.447180623341     -0.246583906921     -0.414233219067     
9600000000.0        -0.250544215628     -0.416356233853     0.748811984868      -0.449664787141     0.748811984868      -0.449664787141     -0.250544215628     -0.416356233853     
9700000000.0        -0.254505166109     -0.41843121348      0.744838769436      -0.452101231182     0.744838769436      -0.452101231182     -0.254505166109     -0.41843121348      
9800000000.0        -0.258466094924     -0.420458512999     0.740865433528      -0.454490310705     0.740865433528      -0.454490310705     -0.258466094924     -0.420458512999     
9900000000.0        -0.262426352075     -0.422438496019     0.736892626787      -0.456832389511     0.736892626787      -0.456832389511     -0.262426352075     -0.422438496019     
10000000000.0       -0.266385301024     -0.424371534283     0.732920985395      -0.45912783954      0.732920985395      -0.45912783954      -0.266385301024     -0.424371534283     
