# Hz S RI R 50.00 
100000000.0         -0.00701971477721   -0.0829921542022    0.992953025917      -0.0831481476103    0.992953025917      -0.0831481476103    -0.00701971477721   -0.0829921542022    
200000000.0         -0.0273732062477    -0.162553244074     0.972599311305      -0.16286529742      0.972599311305      -0.16286529742      -0.0273732062477    -0.162553244074     
300000000.0         -0.0594407811633    -0.235740671882     0.940531535443      -0.236208885473     0.940531535443      -0.236208885473     -0.0594407811633    -0.235740671882     
400000000.0         -0.100893654463     -0.300395164964     0.899078459917      -0.301019664094     0.899078459917      -0.301019664094     -0.100893654463     -0.300395164964     
500000000.0         -0.149067754584     -0.355279571065     0.850904147249      -0.356060501094     0.850904147249      -0.356060501094     -0.149067754584     -0.355279571065     
600000000.0         -0.201327950718     -0.400035097222     0.798643723611      -0.400972620064     0.798643723611      -0.400972620064     -0.201327950718     -0.400035097222     
700000000.0         -0.255335916744     -0.435011335474     0.74463551236       -0.436105626829     0.74463551236       -0.436105626829     -0.255335916744     -0.435011335474     
800000000.0         -0.309196827772     -0.46104320202      0.690774336565      -0.462294449097     0.690774336565      -0.462294449097     -0.309196827772     -0.46104320202      
900000000.0         -0.361499271126     -0.479234942755     0.638471607616      -0.48064334234      0.638471607616      -0.48064334234      -0.361499271126     -0.479234942755     
1000000000.0        -0.411281640973     -0.490785862301     0.588688930388      -0.492351619091     0.588688930388      -0.492351619091     -0.411281640973     -0.490785862301     
1100000000.0        -0.457959702595     -0.496868832331     0.542010538853      -0.498592157488     0.542010538853      -0.498592157488     -0.457959702595     -0.496868832331     
1200000000.0        -0.501242065927     -0.498557399082     0.498727822477      -0.500438508971     0.498727822477      -0.500438508971     -0.501242065927     -0.498557399082     
1300000000.0        -0.541050103791     -0.496790528916     0.458919407942      -0.498829643998     0.458919407942      -0.498829643998     -0.541050103791     -0.496790528916     
1400000000.0        -0.577450296246     -0.492363003411     0.422518814767      -0.494560347277     0.422518814767      -0.494560347277     -0.577450296246     -0.492363003411     
1500000000.0        -0.610601269819     -0.485931319752     0.389367416063      -0.488287118276     0.389367416063      -0.488287118276     -0.610601269819     -0.485931319752     
1600000000.0        -0.640714646897     -0.478027666674     0.359253589123      -0.480542147277     0.359253589123      -0.480542147277     -0.640714646897     -0.478027666674     
1700000000.0        -0.668027458925     -0.469077081991     0.331940302217      -0.471750473002     0.331940302217      -0.471750473002     -0.668027458925     -0.469077081991     
1800000000.0        -0.692783570489     -0.459414866318     0.307183690499      -0.462247396421     0.307183690499      -0.462247396421     -0.692783570489     -0.459414866318     
1900000000.0        -0.715221778025     -0.449302693276     0.2847449573        -0.452294591038     0.2847449573        -0.452294591038     -0.715221778025     -0.449302693276     
2000000000.0        -0.735568661476     -0.438942726513     0.264397522462      -0.442094219977     0.264397522462      -0.442094219977     -0.735568661476     -0.438942726513     
2100000000.0        -0.754034707525     -0.428489566138     0.245930899096      -0.431800882488     0.245930899096      -0.431800882488     -0.754034707525     -0.428489566138     
2200000000.0        -0.770812611905     -0.418060122299     0.229152391287      -0.421531487571     0.229152391287      -0.421531487571     -0.770812611905     -0.418060122299     
2300000000.0        -0.786076981267     -0.407741641921     0.213887392205      -0.411373280773     0.213887392205      -0.411373280773     -0.786076981267     -0.407741641921     
2400000000.0        -0.799984893282     -0.397598157671     0.199978824013      -0.401390293195     0.199978824013      -0.401390293195     -0.799984893282     -0.397598157671     
2500000000.0        -0.812676947959     -0.387675625386     0.187286086545      -0.391628478959     0.187286086545      -0.391628478959     -0.812676947959     -0.387675625386     
2600000000.0        -0.82427856742      -0.378005991307     0.175683757528      -0.382119782481     0.175683757528      -0.382119782481     -0.82427856742      -0.378005991307     
2700000000.0        -0.834901387853     -0.368610397277     0.165060200629      -0.372885343698     0.165060200629      -0.372885343698     -0.834901387853     -0.368610397277     
2800000000.0        -0.844644646566     -0.359501697819     0.155316178404      -0.363938015172     0.155316178404      -0.363938015172     -0.844644646566     -0.359501697819     
2900000000.0        -0.853596506781     -0.350686431434     0.146363527497      -0.355284333419     0.146363527497      -0.355284333419     -0.853596506781     -0.350686431434     
3000000000.0        -0.861835289043     -0.342166360977     0.138123927235      -0.3469260593       0.138123927235      -0.3469260593       -0.861835289043     -0.342166360977     
3100000000.0        -0.869430595006     -0.333939674821     0.13052777584       -0.338861379208     0.13052777584       -0.338861379208     -0.869430595006     -0.333939674821     
3200000000.0        -0.876444320006     -0.326001921624     0.123513177855      -0.331085839849     0.123513177855      -0.331085839849     -0.876444320006     -0.326001921624     
3300000000.0        -0.882931557209     -0.318346736143     0.117025039997      -0.323593074071     0.117025039997      -0.323593074071     -0.882931557209     -0.318346736143     
3400000000.0        -0.888941399775     -0.310966401346     0.111014268992      -0.316375362984     0.111014268992      -0.316375362984     -0.888941399775     -0.310966401346     
3500000000.0        -0.894517649311     -0.303852282341     0.10543706312       -0.309424069908     0.10543706312       -0.309424069908     -0.894517649311     -0.303852282341     
3600000000.0        -0.899699439577     -0.296995160004     0.100254288512      -0.302729974003     0.100254288512      -0.302729974003     -0.899699439577     -0.296995160004     
3700000000.0        -0.904521784436     -0.290385486155     0.0954309311967     -0.29628352545      0.0954309311967     -0.29628352545      -0.904521784436     -0.290385486155     
3800000000.0        -0.909016058594     -0.284013577405     0.0909356163616     -0.290075039311     0.0909356163616     -0.290075039311     -0.909016058594     -0.284013577405     
3900000000.0        -0.913210419103     -0.27786976111      0.0867401868519     -0.284094841484     0.0867401868519     -0.284094841484     -0.913210419103     -0.27786976111      
4000000000.0        -0.917130174819     -0.271944483954     0.0828193337069     -0.278333377287     0.0828193337069     -0.278333377287     -0.917130174819     -0.271944483954     
4100000000.0        -0.920798110317     -0.266228391419     0.0791502722498     -0.272781290936     0.0791502722498     -0.272781290936     -0.920798110317     -0.266228391419     
4200000000.0        -0.924234769989     -0.26071238462      0.0757124579866     -0.26742948238      0.0757124579866     -0.26742948238      -0.924234769989     -0.26071238462      
4300000000.0        -0.927458707404     -0.255387659598     0.0724873372486     -0.262269146594     0.0724873372486     -0.262269146594     -0.927458707404     -0.255387659598     
4400000000.0        -0.930486704359     -0.250245733056     0.0694581281384     -0.257291799317     0.0694581281384     -0.257291799317     -0.930486704359     -0.250245733056     
4500000000.0        -0.933333963512     -0.245278457671     0.0666096278982     -0.252489292364     0.0666096278982     -0.252489292364     -0.933333963512     -0.245278457671     
4600000000.0        -0.936014277971     -0.240478029451     0.0639280433215     -0.247853820986     0.0639280433215     -0.247853820986     -0.936014277971     -0.240478029451     
4700000000.0        -0.938540180776     -0.23583698906      0.0614008412676     -0.243377925188     0.0614008412676     -0.243377925188     -0.938540180776     -0.23583698906      
4800000000.0        -0.940923076839     -0.231348218628     0.059016616726      -0.239054486543     0.059016616726      -0.239054486543     -0.940923076839     -0.231348218628     
4900000000.0        -0.943173359545     -0.227004935223     0.0567649762128     -0.234876721663     0.0567649762128     -0.234876721663     -0.943173359545     -0.227004935223     
5000000000.0        -0.945300513948     -0.222800681917     0.0546364345744     -0.230838173261     0.0546364345744     -0.230838173261     -0.945300513948     -0.222800681917     
5100000000.0        -0.94731320823      -0.218729317169     0.0526223235289     -0.226932699535     0.0526223235289     -0.226932699535     -0.94731320823      -0.218729317169     
5200000000.0        -0.949219374872     -0.214785003068     0.0507147104936     -0.223154462408     0.0507147104936     -0.223154462408     -0.949219374872     -0.214785003068     
5300000000.0        -0.951026282805     -0.210962192895     0.048906326439      -0.219497915085     0.048906326439      -0.219497915085     -0.951026282805     -0.210962192895     
5400000000.0        -0.95274060162      -0.207255618304     0.0471905016722     -0.21595778924      0.0471905016722     -0.21595778924      -0.95274060162      -0.207255618304     
5500000000.0        -0.95436845881      -0.203660276403     0.045561108597      -0.212529082088     0.045561108597      -0.212529082088     -0.95436845881      -0.203660276403     
5600000000.0        -0.955915490868     -0.200171416911     0.0440125106189     -0.209207043543     0.0440125106189     -0.209207043543     -0.955915490868     -0.200171416911     
5700000000.0        -0.957386888956     -0.196784529534     0.0425395164712     -0.205987163589     0.0425395164712     -0.205987163589     -0.957386888956     -0.196784529534     
5800000000.0        -0.958787439796     -0.193495331663     0.0411373393291     -0.202865159983     0.0411373393291     -0.202865159983     -0.958787439796     -0.193495331663     
5900000000.0        -0.960121562314     -0.190299756476     0.0398015601589     -0.199836966346     0.0398015601589     -0.199836966346     -0.960121562314     -0.190299756476     
6000000000.0        -0.961393340548     -0.18719394148      0.0385280948183     -0.196898720705     0.0385280948183     -0.196898720705     -0.961393340548     -0.18719394148      
6100000000.0        -0.962606553213     -0.18417421753      0.0373131644843     -0.194046754517     0.0373131644843     -0.194046754517     -0.962606553213     -0.18417421753      
6200000000.0        -0.963764700321     -0.181237098352     0.0361532690357     -0.191277582181     0.0361532690357     -0.191277582181     -0.963764700321     -0.181237098352     
6300000000.0        -0.964871027171     -0.178379270557     0.0350451630644     -0.188587891056     0.0350451630644     -0.188587891056     -0.964871027171     -0.178379270557     
6400000000.0        -0.965928545994     -0.175597584167     0.0339858342271     -0.185974531978     0.0339858342271     -0.185974531978     -0.965928545994     -0.175597584167     
6500000000.0        -0.966940055519     -0.172889043622     0.0329724836837     -0.183434510275     0.0329724836837     -0.183434510275     -0.966940055519     -0.172889043622     
6600000000.0        -0.967908158664     -0.170250799282     0.0320025084013     -0.180964977258     0.0320025084013     -0.180964977258     -0.967908158664     -0.170250799282     
6700000000.0        -0.968835278572     -0.167680139381     0.0310734851227     -0.178563222177     0.0310734851227     -0.178563222177     -0.968835278572     -0.167680139381     
6800000000.0        -0.969723673146     -0.165174482438     0.0301831558287     -0.176226664632     0.0301831558287     -0.176226664632     -0.969723673146     -0.165174482438     
6900000000.0        -0.970575448249     -0.162731370097     0.0293294145373     -0.173952847407     0.0293294145373     -0.173952847407     -0.970575448249     -0.162731370097     
7000000000.0        -0.971392569707     -0.160348460374     0.0285102953028     -0.171739429718     0.0285102953028     -0.171739429718     -0.971392569707     -0.160348460374     
7100000000.0        -0.97217687423      -0.158023521295     0.0277239612949     -0.169584180847     0.0277239612949     -0.169584180847     -0.97217687423      -0.158023521295     
7200000000.0        -0.97293007936      -0.155754424905     0.0269686948478     -0.167484974152     0.0269686948478     -0.167484974152     -0.97293007936      -0.155754424905     
7300000000.0        -0.973653792552     -0.153539141624     0.0262428883836     -0.165439781422     0.0262428883836     -0.165439781422     -0.973653792552     -0.153539141624     
7400000000.0        -0.974349519456     -0.151375734937     0.0255450361252     -0.163446667562     0.0255450361252     -0.163446667562     -0.974349519456     -0.151375734937     
7500000000.0        -0.975018671498     -0.149262356398     0.0248737265203     -0.161503785597     0.0248737265203     -0.161503785597     -0.975018671498     -0.149262356398     
7600000000.0        -0.975662572805     -0.147197240917     0.0242276353098     -0.159609371959     0.0242276353098     -0.159609371959     -0.975662572805     -0.147197240917     
7700000000.0        -0.976282466563     -0.145178702339     0.0236055191789     -0.157761742063     0.0236055191789     -0.157761742063     -0.976282466563     -0.145178702339     
7800000000.0        -0.976879520831     -0.143205129271     0.0230062099352     -0.155959286134     0.0230062099352     -0.155959286134     -0.976879520831     -0.143205129271     
7900000000.0        -0.977454833885     -0.141274981159     0.0224286091663     -0.15420046528      0.0224286091663     -0.15420046528      -0.977454833885     -0.141274981159     
8000000000.0        -0.97800943913      -0.139386784594     0.0218716833319     -0.152483807802     0.0218716833319     -0.152483807802     -0.97800943913      -0.139386784594     
8100000000.0        -0.978544309609     -0.137539129833     0.0213344592504     -0.150807905707     0.0213344592504     -0.150807905707     -0.978544309609     -0.137539129833     
8200000000.0        -0.979060362157     -0.135730667523     0.0208160199456     -0.149171411438     0.0208160199456     -0.149171411438     -0.979060362157     -0.135730667523     
8300000000.0        -0.979558461228     -0.133960105612     0.0203155008204     -0.147573034779     0.0203155008204     -0.147573034779     -0.979558461228     -0.133960105612     
8400000000.0        -0.980039422425     -0.132226206446     0.0198320861286     -0.146011539951     0.0198320861286     -0.146011539951     -0.980039422425     -0.132226206446     
8500000000.0        -0.980504015751     -0.130527784023     0.0193650057194     -0.144485742868     0.0193650057194     -0.144485742868     -0.980504015751     -0.130527784023     
8600000000.0        -0.98095296862      -0.128863701408     0.0189135320309     -0.142994508552     0.0189135320309     -0.142994508552     -0.98095296862      -0.128863701408     
8700000000.0        -0.981386968635     -0.127232868302     0.0184769773097     -0.141536748693     0.0184769773097     -0.141536748693     -0.981386968635     -0.127232868302     
8800000000.0        -0.981806666159     -0.125634238735     0.0180546910402     -0.140111419352     0.0180546910402     -0.140111419352     -0.981806666159     -0.125634238735     
8900000000.0        -0.982212676695     -0.124066808902     0.0176460575633     -0.138717518789     0.0176460575633     -0.138717518789     -0.982212676695     -0.124066808902     
9000000000.0        -0.982605583095     -0.122529615112     0.0172504938702     -0.137354085413     0.0172504938702     -0.137354085413     -0.982605583095     -0.122529615112     
9100000000.0        -0.982985937605     -0.121021731853     0.0168674475566     -0.136020195848     0.0168674475566     -0.136020195848     -0.982985937605     -0.121021731853     
9200000000.0        -0.983354263761     -0.119542269967     0.0164963949242     -0.134714963105     0.0164963949242     -0.134714963105     -0.983354263761     -0.119542269967     
9300000000.0        -0.983711058156     -0.118090374922     0.0161368392165     -0.133437534854     0.0161368392165     -0.133437534854     -0.983711058156     -0.118090374922     
9400000000.0        -0.984056792077     -0.11666522518      0.0157883089809     -0.132187091794     0.0157883089809     -0.132187091794     -0.984056792077     -0.11666522518      
9500000000.0        -0.98439191303      -0.115266030655     0.0154503565433     -0.130962846104     0.0154503565433     -0.130962846104     -0.98439191303      -0.115266030655     
9600000000.0        -0.984716846157     -0.113892031248     0.01512255659       -0.129764039985     0.01512255659       -0.129764039985     -0.984716846157     -0.113892031248     
9700000000.0        -0.985031995562     -0.11254249547      0.0148045048457     -0.128589944279     0.0148045048457     -0.128589944279     -0.985031995562     -0.11254249547      
9800000000.0        -0.985337745536     -0.111216719134     0.0144958168418     -0.127439857158     0.0144958168418     -0.127439857158     -0.985337745536     -0.111216719134     
9900000000.0        -0.985634461714     -0.109914024111     0.0141961267678     -0.126313102884     0.0141961267678     -0.126313102884     -0.985634461714     -0.109914024111     
10000000000.0       -0.98592249214      -0.108633757159     0.0139050863993     -0.125209030637     0.0139050863993     -0.125209030637     -0.98592249214      -0.108633757159     
