# Hz S RI R 50.00 
100000000.0         0.046439765278      0.0016196844275     0.953558703365      -0.00208265396982   0.953558703365      -0.00208265396982   0.046439765278      0.0016196844275     
200000000.0         0.0467407553875     0.00323707030788    0.953256964029      -0.00416301080411   0.953256964029      -0.00416301080411   0.0467407553875     0.00323707030788    
300000000.0         0.0469690652973     0.0048530496782     0.953027686976      -0.00624196361165   0.953027686976      -0.00624196361165   0.0469690652973     0.0048530496782     
400000000.0         0.0471634846036     0.006467910313      0.952832082576      -0.00831980106251   0.952832082576      -0.00831980106251   0.0471634846036     0.006467910313      
500000000.0         0.0473390009285     0.00808179914129    0.952655163178      -0.0103966708933    0.952655163178      -0.0103966708933    0.0473390009285     0.00808179914129    
600000000.0         0.0475032814647     0.00969480061084    0.952489261561      -0.0124726583023    0.952489261561      -0.0124726583023    0.0475032814647     0.00969480061084    
700000000.0         0.0476608688412     0.0113069648553     0.95232983507       -0.0145478141327    0.95232983507       -0.0145478141327    0.0476608688412     0.0113069648553     
800000000.0         0.047814714526      0.0129183207667     0.952173932211      -0.0166221679537    0.952173932211      -0.0166221679537    0.047814714526      0.0129183207667     
900000000.0         0.0479668624531     0.0145288830196     0.952019509025      -0.0186957350918    0.952019509025      -0.0186957350918    0.0479668624531     0.0145288830196     
1000000000.0        0.0481187959752     0.0161386562328     0.951865082133      -0.0207685207959    0.951865082133      -0.0207685207959    0.0481187959752     0.0161386562328     
1100000000.0        0.0482716309703     0.0177476376122     0.951709535632      -0.0228405228842    0.951709535632      -0.0228405228842    0.0482716309703     0.0177476376122     
1200000000.0        0.0484262310491     0.0193558187227     0.951552005885      -0.0249117335177    0.951552005885      -0.0249117335177    0.0484262310491     0.0193558187227     
1300000000.0        0.0485832801273     0.0209631867247     0.951391808949      -0.0269821404392    0.951391808949      -0.0269821404392    0.0485832801273     0.0209631867247     
1400000000.0        0.0487433301838     0.0225697252689     0.951228392818      -0.0290517278692    0.951228392818      -0.0290517278692    0.0487433301838     0.0225697252689     
1500000000.0        0.0489068338448     0.0241754151597     0.951061304838      -0.0311204771709    0.951061304838      -0.0311204771709    0.0489068338448     0.0241754151597     
1600000000.0        0.0490741672949     0.0257802348611     0.950890168795      -0.033188367357     0.950890168795      -0.033188367357     0.0490741672949     0.0257802348611     
1700000000.0        0.0492456468086     0.0273841608887     0.950714668387      -0.0352553754823    0.950714668387      -0.0352553754823    0.0492456468086     0.0273841608887     
1800000000.0        0.0494215409455     0.028987168119      0.950534535022      -0.0373214769543    0.950534535022      -0.0373214769543    0.0494215409455     0.028987168119      
1900000000.0        0.0496020797213     0.0305892300384     0.950349538655      -0.0393866457823    0.950349538655      -0.0393866457823    0.0496020797213     0.0305892300384     
2000000000.0        0.0497874616239     0.0321903189448     0.950159480766      -0.0414508547797    0.950159480766      -0.0414508547797    0.0497874616239     0.0321903189448     
2100000000.0        0.0499778590619     0.0337904061133     0.949964188914      -0.0435140757308    0.949964188914      -0.0435140757308    0.0499778590619     0.0337904061133     
2200000000.0        0.0501734226526     0.035389461935      0.949763512448      -0.0455762795286    0.949763512448      -0.0455762795286    0.0501734226526     0.035389461935      
2300000000.0        0.0503742846381     0.0369874560321     0.949557319092      -0.0476374362919    0.949557319092      -0.0476374362919    0.0503742846381     0.0369874560321     
2400000000.0        0.0505805616369     0.0385843573566     0.949345492192      -0.0496975154634    0.949345492192      -0.0496975154634    0.0505805616369     0.0385843573566     
2500000000.0        0.0507923568811     0.0401801342741     0.949127928481      -0.051756485894     0.949127928481      -0.051756485894     0.0507923568811     0.0401801342741     
2600000000.0        0.0510097620536     0.0417747546358     0.948904536239      -0.0538143159149    0.948904536239      -0.0538143159149    0.0510097620536     0.0417747546358     
2700000000.0        0.0512328588077     0.0433681858411     0.948675233774      -0.055870973401     0.948675233774      -0.055870973401     0.0512328588077     0.0433681858411     
2800000000.0        0.0514617200346     0.044960394892      0.948439948158      -0.057926425825     0.948439948158      -0.057926425825     0.0514617200346     0.044960394892      
2900000000.0        0.0516964109278     0.0465513484414     0.948198614157      -0.0599806403059    0.948198614157      -0.0599806403059    0.0516964109278     0.0465513484414     
3000000000.0        0.0519369898827     0.0481410128346     0.947951173336      -0.0620335836512    0.947951173336      -0.0620335836512    0.0519369898827     0.0481410128346     
3100000000.0        0.0521835092615     0.0497293541469     0.947697573292      -0.0640852223942    0.947697573292      -0.0640852223942    0.0521835092615     0.0497293541469     
3200000000.0        0.0524360160475     0.0513163382174     0.947437766999      -0.0661355228281    0.947437766999      -0.0661355228281    0.0524360160475     0.0513163382174     
3300000000.0        0.0526945524071     0.0529019306783     0.947171712248      -0.0681844510353    0.947171712248      -0.0681844510353    0.0526945524071     0.0529019306783     
3400000000.0        0.0529591561759     0.0544860969819     0.946899371159      -0.070231972915     0.946899371159      -0.070231972915     0.0529591561759     0.0544860969819     
3500000000.0        0.05322986128       0.0560688024248     0.946620709763      -0.0722780542072    0.946620709763      -0.0722780542072    0.05322986128       0.0560688024248     
3600000000.0        0.0535066981036     0.0576500121702     0.946335697629      -0.0743226605148    0.946335697629      -0.0743226605148    0.0535066981036     0.0576500121702     
3700000000.0        0.0537896938105     0.0592296912675     0.946044307546      -0.076365757324     0.946044307546      -0.076365757324     0.0537896938105     0.0592296912675     
3800000000.0        0.0540788726269     0.0608078046706     0.945746515243      -0.0784073100222    0.945746515243      -0.0784073100222    0.0540788726269     0.0608078046706     
3900000000.0        0.0543742560901     0.0623843172548     0.945442299133      -0.0804472839154    0.945442299133      -0.0804472839154    0.0543742560901     0.0623843172548     
4000000000.0        0.0546758632692     0.0639591938322     0.945131640098      -0.0824856442432    0.945131640098      -0.0824856442432    0.0546758632692     0.0639591938322     
4100000000.0        0.054983710961      0.065532399166      0.944814521291      -0.0845223561934    0.944814521291      -0.0845223561934    0.054983710961      0.065532399166      
4200000000.0        0.0552978138639     0.0671038979832     0.944490927964      -0.0865573849151    0.944490927964      -0.0865573849151    0.0552978138639     0.0671038979832     
4300000000.0        0.0556181847338     0.0686736549871     0.944160847308      -0.088590695531     0.944160847308      -0.088590695531     0.0556181847338     0.0686736549871     
4400000000.0        0.055944834524      0.0702416348689     0.943824268319      -0.0906222531487    0.943824268319      -0.0906222531487    0.055944834524      0.0702416348689     
4500000000.0        0.0562777725097     0.0718078023178     0.943481181667      -0.0926520228717    0.943481181667      -0.0926520228717    0.0562777725097     0.0718078023178     
4600000000.0        0.0566170064013     0.0733721220312     0.943131579588      -0.0946799698089    0.943131579588      -0.0946799698089    0.0566170064013     0.0733721220312     
4700000000.0        0.0569625424463     0.0749345587237     0.942775455779      -0.0967060590842    0.942775455779      -0.0967060590842    0.0569625424463     0.0749345587237     
4800000000.0        0.0573143855215     0.0764950771363     0.942412805308      -0.0987302558455    0.942412805308      -0.0987302558455    0.0573143855215     0.0764950771363     
4900000000.0        0.0576725392166     0.0780536420441     0.942043624528      -0.100752525272     0.942043624528      -0.100752525272     0.0576725392166     0.0780536420441     
5000000000.0        0.0580370059101     0.0796102182643     0.941667911003      -0.102772832584     0.941667911003      -0.102772832584     0.0580370059101     0.0796102182643     
5100000000.0        0.0584077868392     0.0811647706637     0.941285663437      -0.104791143048     0.941285663437      -0.104791143048     0.0584077868392     0.0811647706637     
5200000000.0        0.0587848821622     0.0827172641652     0.940896881612      -0.106807421985     0.940896881612      -0.106807421985     0.0587848821622     0.0827172641652     
5300000000.0        0.0591682910174     0.0842676637547     0.940501566331      -0.108821634777     0.940501566331      -0.108821634777     0.0591682910174     0.0842676637547     
5400000000.0        0.0595580115756     0.0858159344875     0.94009971936       -0.110833746873     0.94009971936       -0.110833746873     0.0595580115756     0.0858159344875     
5500000000.0        0.0599540410891     0.0873620414938     0.939691343387      -0.112843723794     0.939691343387      -0.112843723794     0.0599540410891     0.0873620414938     
5600000000.0        0.0603563759364     0.0889059499848     0.939276441969      -0.114851531143     0.939276441969      -0.114851531143     0.0603563759364     0.0889059499848     
5700000000.0        0.0607650116641     0.090447625258      0.938855019496      -0.116857134603     0.938855019496      -0.116857134603     0.0607650116641     0.090447625258      
5800000000.0        0.0611799430246     0.0919870327025     0.938427081152      -0.118860499952     0.938427081152      -0.118860499952     0.0611799430246     0.0919870327025     
5900000000.0        0.0616011640118     0.0935241378039     0.937992632877      -0.120861593058     0.937992632877      -0.120861593058     0.0616011640118     0.0935241378039     
6000000000.0        0.062028667894      0.0950589061488     0.937551681338      -0.12286037989      0.937551681338      -0.12286037989      0.062028667894      0.0950589061488     
6100000000.0        0.0624624472441     0.0965913034302     0.937104233893      -0.124856826522     0.937104233893      -0.124856826522     0.0624624472441     0.0965913034302     
6200000000.0        0.062902493968      0.0981212954509     0.936650298569      -0.126850899136     0.936650298569      -0.126850899136     0.062902493968      0.0981212954509     
6300000000.0        0.0633487993313     0.0996488481286     0.936189884033      -0.128842564027     0.936189884033      -0.128842564027     0.0633487993313     0.0996488481286     
6400000000.0        0.0638013539834     0.1011739275        0.935722999565      -0.130831787606     0.935722999565      -0.130831787606     0.0638013539834     0.1011739275        
6500000000.0        0.0642601479809     0.102696499723      0.935249655038      -0.132818536406     0.935249655038      -0.132818536406     0.0642601479809     0.102696499723      
6600000000.0        0.0647251708093     0.104216531083      0.934769860897      -0.134802777084     0.934769860897      -0.134802777084     0.0647251708093     0.104216531083      
6700000000.0        0.0651964114026     0.105733987997      0.934283628133      -0.136784476428     0.934283628133      -0.136784476428     0.0651964114026     0.105733987997      
6800000000.0        0.0656738581628     0.107248837013      0.933790968274      -0.138763601354     0.933790968274      -0.138763601354     0.0656738581628     0.107248837013      
6900000000.0        0.0661574989774     0.108761044817      0.933291893358      -0.140740118917     0.933291893358      -0.140740118917     0.0661574989774     0.108761044817      
7000000000.0        0.0666473212363     0.110270578236      0.932786415921      -0.14271399631      0.932786415921      -0.14271399631      0.0666473212363     0.110270578236      
7100000000.0        0.0671433118478     0.111777404241      0.932274548978      -0.144685200868     0.932274548978      -0.144685200868     0.0671433118478     0.111777404241      
7200000000.0        0.0676454572532     0.113281489949      0.931756306013      -0.146653700071     0.931756306013      -0.146653700071     0.0676454572532     0.113281489949      
7300000000.0        0.068153743441      0.114782802628      0.931231700961      -0.148619461548     0.931231700961      -0.148619461548     0.068153743441      0.114782802628      
7400000000.0        0.0686681559606     0.116281309698      0.930700748194      -0.150582453079     0.930700748194      -0.150582453079     0.0686681559606     0.116281309698      
7500000000.0        0.0691886799344     0.117776978734      0.930163462512      -0.152542642601     0.930163462512      -0.152542642601     0.0691886799344     0.117776978734      
7600000000.0        0.0697153000705     0.119269777472      0.929619859127      -0.154499998203     0.929619859127      -0.154499998203     0.0697153000705     0.119269777472      
7700000000.0        0.0702480006736     0.120759673807      0.929069953654      -0.15645448814      0.929069953654      -0.15645448814      0.0702480006736     0.120759673807      
7800000000.0        0.0707867656561     0.1222466358        0.9285137621        -0.158406080824     0.9285137621        -0.158406080824     0.0707867656561     0.1222466358        
7900000000.0        0.0713315785487     0.123730631676      0.927951300853      -0.160354744836     0.927951300853      -0.160354744836     0.0713315785487     0.123730631676      
8000000000.0        0.0718824225098     0.12521162983       0.927382586671      -0.162300448923     0.927382586671      -0.162300448923     0.0718824225098     0.12521162983       
8100000000.0        0.0724392803356     0.126689598831      0.926807636676      -0.164243162003     0.926807636676      -0.164243162003     0.0724392803356     0.126689598831      
8200000000.0        0.0730021344686     0.128164507417      0.926226468341      -0.166182853166     0.926226468341      -0.166182853166     0.0730021344686     0.128164507417      
8300000000.0        0.0735709670066     0.129636324506      0.925639099483      -0.168119491677     0.925639099483      -0.168119491677     0.0735709670066     0.129636324506      
8400000000.0        0.0741457597108     0.131105019193      0.925045548254      -0.170053046979     0.925045548254      -0.170053046979     0.0741457597108     0.131105019193      
8500000000.0        0.0747264940143     0.132570560754      0.924445833137      -0.171983488691     0.924445833137      -0.171983488691     0.0747264940143     0.132570560754      
8600000000.0        0.075313151029      0.134032918646      0.923839972931      -0.173910786618     0.923839972931      -0.173910786618     0.075313151029      0.134032918646      
8700000000.0        0.0759057115537     0.135492062512      0.92322798675       -0.175834910746     0.92322798675       -0.175834910746     0.0759057115537     0.135492062512      
8800000000.0        0.0765041560809     0.136947962183      0.922609894012      -0.177755831248     0.922609894012      -0.177755831248     0.0765041560809     0.136947962183      
8900000000.0        0.0771084648037     0.138400587676      0.921985714434      -0.179673518482     0.921985714434      -0.179673518482     0.0771084648037     0.138400587676      
9000000000.0        0.0777186176225     0.139849909202      0.921355468027      -0.181587942998     0.921355468027      -0.181587942998     0.0777186176225     0.139849909202      
9100000000.0        0.0783345941514     0.141295897161      0.920719175084      -0.183499075537     0.920719175084      -0.183499075537     0.0783345941514     0.141295897161      
9200000000.0        0.0789563737244     0.142738522151      0.92007685618       -0.185406887033     0.92007685618       -0.185406887033     0.0789563737244     0.142738522151      
9300000000.0        0.0795839354014     0.144177754962      0.919428532161      -0.187311348616     0.919428532161      -0.187311348616     0.0795839354014     0.144177754962      
9400000000.0        0.0802172579743     0.145613566586      0.918774224143      -0.189212431609     0.918774224143      -0.189212431609     0.0802172579743     0.145613566586      
9500000000.0        0.0808563199722     0.147045928212      0.918113953502      -0.191110107539     0.918113953502      -0.191110107539     0.0808563199722     0.147045928212      
9600000000.0        0.0815010996673     0.14847481123       0.917447741872      -0.193004348129     0.917447741872      -0.193004348129     0.0815010996673     0.14847481123       
9700000000.0        0.08215157508       0.149900187235      0.916775611134      -0.194895125307     0.916775611134      -0.194895125307     0.08215157508       0.149900187235      
9800000000.0        0.0828077239844     0.151322028024      0.91609758342       -0.1967824112       0.91609758342       -0.1967824112       0.0828077239844     0.151322028024      
9900000000.0        0.083469523913      0.152740305602      0.915413681099      -0.198666178144     0.915413681099      -0.198666178144     0.083469523913      0.152740305602      
10000000000.0       0.0841369521619     0.15415499218       0.914723926777      -0.20054639868      0.914723926777      -0.20054639868      0.0841369521619     0.15415499218       
