# Hz S RI R 50.00 
100000000.0         0.000544809656359   -0.00473808741213   0.999364719022      -0.007701800341     0.999364719022      -0.007701800341     0.00054480965636    -0.00473808741213   
200000000.0         0.000433255312972   -0.00947503602216   0.999232029393      -0.0154025339801    0.999232029393      -0.0154025339801    0.000433255312972   -0.00947503602216   
300000000.0         0.000247720250761   -0.0142096638075    0.999018603268      -0.0231011061938    0.999018603268      -0.0231011061938    0.000247720250761   -0.0142096638075    
400000000.0         -1.12354798861e-05  -0.0189407555854    0.998723982245      -0.0307963651102    0.998723982245      -0.0307963651102    -1.12354798862e-05  -0.0189407555854    
500000000.0         -0.000343339633589  -0.0236670783252    0.998348044709      -0.0384871323236    0.998348044709      -0.0384871323236    -0.00034333963359   -0.0236670783252    
600000000.0         -0.000748390098896  -0.0283873878834    0.99789078978       -0.0461722132926    0.99789078978       -0.0461722132926    -0.000748390098896  -0.0283873878834    
700000000.0         -0.001226199307     -0.0331004329387    0.997352282806      -0.0538504029024    0.997352282806      -0.0538504029024    -0.001226199307     -0.0331004329387    
800000000.0         -0.00177657379011   -0.0378049577019    0.996732635685      -0.0615204890688    0.996732635685      -0.0615204890688    -0.00177657379011   -0.0378049577019    
900000000.0         -0.00239930499565   -0.0424997039862    0.996031998208      -0.0691812553639    0.996031998208      -0.0691812553639    -0.00239930499565   -0.0424997039862    
1000000000.0        -0.00309416459179   -0.0471834129049    0.995250553737      -0.0768314830882    0.995250553737      -0.0768314830882    -0.00309416459179   -0.0471834129049    
1100000000.0        -0.00386090185137   -0.051854826335     0.994388516808      -0.0844699529991    0.994388516808      -0.0844699529991    -0.00386090185137   -0.051854826335     
1200000000.0        -0.00469924210987   -0.0565126882228    0.993446131697      -0.0920954468136    0.993446131697      -0.0920954468136    -0.00469924210987   -0.0565126882228    
1300000000.0        -0.00560888582968   -0.0611557457775    0.992423671491      -0.0997067485538    0.992423671491      -0.0997067485538    -0.00560888582968   -0.0611557457775    
1400000000.0        -0.00658950803287   -0.0657827505833    0.991321437426      -0.107302645777     0.991321437426      -0.107302645777     -0.00658950803287   -0.0657827505833    
1500000000.0        -0.00764075797333   -0.0703924596478    0.990139758382      -0.114881930718     0.990139758382      -0.114881930718     -0.00764075797333   -0.0703924596478    
1600000000.0        -0.00876225897363   -0.0749836363992    0.988878990468      -0.12244340137      0.988878990468      -0.12244340137      -0.00876225897363   -0.0749836363992    
1700000000.0        -0.00995360838163   -0.0795550516423    0.987539516642      -0.129985862497     0.987539516642      -0.129985862497     -0.00995360838163   -0.0795550516423    
1800000000.0        -0.0112143776181    -0.0841054844782    0.986121746356      -0.137508126614     0.986121746356      -0.137508126614     -0.0112143776181    -0.0841054844782    
1900000000.0        -0.0125441122971    -0.0886337231923    0.984626115209      -0.145009014919     0.984626115209      -0.145009014919     -0.0125441122971    -0.0886337231923    
2000000000.0        -0.0139423324058    -0.0931385661133    0.983053084588      -0.152487358192     0.983053084588      -0.152487358192     -0.0139423324058    -0.0931385661133    
2100000000.0        -0.0154085325349    -0.0976188224461    0.981403141302      -0.15994199766      0.981403141302      -0.15994199766      -0.0154085325349    -0.0976188224461    
2200000000.0        -0.0169421821545    -0.102073313079     0.979676797204      -0.167371785838     0.979676797204      -0.167371785838     -0.0169421821545    -0.102073313079     
2300000000.0        -0.0185427259276    -0.106500871366     0.977874588787      -0.174775587334     0.977874588787      -0.174775587334     -0.0185427259276    -0.106500871366     
2400000000.0        -0.0202095840606    -0.110900343886     0.975997076773      -0.182152279631     0.975997076773      -0.182152279631     -0.0202095840606    -0.110900343886     
2500000000.0        -0.0219421526853    -0.115270591181     0.974044845667      -0.189500753846     0.974044845667      -0.189500753846     -0.0219421526853    -0.115270591181     
2600000000.0        -0.0237398042717    -0.119610488462     0.97201850331       -0.196819915456     0.97201850331       -0.196819915456     -0.0237398042717    -0.119610488462     
2700000000.0        -0.0256018880679    -0.123918926307     0.969918680392      -0.204108685008     0.969918680392      -0.204108685008     -0.0256018880679    -0.123918926307     
2800000000.0        -0.0275277305663    -0.128194811318     0.96774602996       -0.211365998792     0.96774602996       -0.211365998792     -0.0275277305663    -0.128194811318     
2900000000.0        -0.0295166359937    -0.132437066769     0.9655012269        -0.218590809504     0.9655012269        -0.218590809504     -0.0295166359937    -0.132437066769     
3000000000.0        -0.0315678868243    -0.136644633221     0.963184967406      -0.225782086867     0.963184967406      -0.225782086867     -0.0315678868243    -0.136644633221     
3100000000.0        -0.0336807443135    -0.140816469117     0.960797968419      -0.232938818244     0.960797968419      -0.232938818244     -0.0336807443135    -0.140816469117     
3200000000.0        -0.0358544490521    -0.144951551354     0.958340967064      -0.240060009211     0.958340967064      -0.240060009211     -0.0358544490521    -0.144951551354     
3300000000.0        -0.0380882215378    -0.149048875825     0.955814720061      -0.247144684111     0.955814720061      -0.247144684111     -0.0380882215378    -0.149048875825     
3400000000.0        -0.0403812627654    -0.153107457941     0.953220003123      -0.254191886587     0.953220003123      -0.254191886587     -0.0403812627654    -0.153107457941     
3500000000.0        -0.0427327548313    -0.157126333127     0.950557610339      -0.261200680078     0.950557610339      -0.261200680078     -0.0427327548313    -0.157126333127     
3600000000.0        -0.0451418615539    -0.161104557294     0.947828353546      -0.268170148301     0.947828353546      -0.268170148301     -0.0451418615539    -0.161104557294     
3700000000.0        -0.0476077291069    -0.165041207279     0.945033061688      -0.275099395697     0.945033061688      -0.275099395697     -0.0476077291069    -0.165041207279     
3800000000.0        -0.0501294866647    -0.168935381268     0.942172580157      -0.281987547857     0.942172580157      -0.281987547857     -0.0501294866647    -0.168935381268     
3900000000.0        -0.0527062470596    -0.17278619919      0.939247770135      -0.288833751918     0.939247770135      -0.288833751918     -0.0527062470596    -0.17278619919      
4000000000.0        -0.055337107448     -0.17659280308      0.936259507917      -0.295637176939     0.936259507917      -0.295637176939     -0.055337107448     -0.17659280308      
4100000000.0        -0.0580211499866    -0.180354357425     0.933208684232      -0.302397014239     0.933208684232      -0.302397014239     -0.0580211499866    -0.180354357425     
4200000000.0        -0.0607574425148    -0.184070049479     0.930096203549      -0.309112477723     0.930096203549      -0.309112477723     -0.0607574425148    -0.184070049479     
4300000000.0        -0.0635450392455    -0.18773908955      0.926922983389      -0.315782804169     0.926922983389      -0.315782804169     -0.0635450392455    -0.18773908955      
4400000000.0        -0.0663829814592    -0.191360711267     0.923689953618      -0.322407253496     0.923689953618      -0.322407253496     -0.0663829814592    -0.191360711267     
4500000000.0        -0.0692702982048    -0.194934171815     0.920398055749      -0.328985109004     0.920398055749      -0.328985109004     -0.0692702982048    -0.194934171815     
4600000000.0        -0.0722060070018    -0.198458752149     0.917048242226      -0.335515677586     0.917048242226      -0.335515677586     -0.0722060070018    -0.198458752149     
4700000000.0        -0.0751891145458    -0.201933757178     0.913641475722      -0.341998289921     0.913641475722      -0.341998289921     -0.0751891145458    -0.201933757178     
4800000000.0        -0.0782186174153    -0.20535851593      0.910178728426      -0.348432300628     0.910178728426      -0.348432300628     -0.0782186174153    -0.20535851593      
4900000000.0        -0.0812935027779    -0.208732381685     0.906660981328      -0.354817088411     0.906660981328      -0.354817088411     -0.0812935027779    -0.208732381685     
5000000000.0        -0.0844127490972    -0.212054732087     0.903089223514      -0.361152056165     0.903089223514      -0.361152056165     -0.0844127490972    -0.212054732087     
5100000000.0        -0.0875753268362    -0.215324969228     0.899464451455      -0.367436631068     0.899464451455      -0.367436631068     -0.0875753268362    -0.215324969228     
5200000000.0        -0.09078019916      -0.218542519716     0.895787668302      -0.373670264636     0.895787668302      -0.373670264636     -0.09078019916      -0.218542519716     
5300000000.0        -0.0940263226334    -0.221706834706     0.892059883183      -0.37985243277      0.892059883183      -0.37985243277      -0.0940263226334    -0.221706834706     
5400000000.0        -0.097312647915     -0.224817389922     0.888282110505      -0.385982635764     0.888282110505      -0.385982635764     -0.097312647915     -0.224817389922     
5500000000.0        -0.100638120446     -0.227873685641     0.884455369266      -0.3920603983       0.884455369266      -0.3920603983       -0.100638120446     -0.227873685641     
5600000000.0        -0.104001681131     -0.230875246672     0.880580682359      -0.398085269415     0.880580682359      -0.398085269415     -0.104001681131     -0.230875246672     
5700000000.0        -0.107402267017     -0.233821622291     0.876659075904      -0.404056822449     0.876659075904      -0.404056822449     -0.107402267017     -0.233821622291     
5800000000.0        -0.110838811959     -0.236712386179     0.872691578568      -0.409974654967     0.872691578568      -0.409974654967     -0.110838811959     -0.236712386179     
5900000000.0        -0.114310247278     -0.239547136315     0.868679220904      -0.415838388664     0.868679220904      -0.415838388664     -0.114310247278     -0.239547136315     
6000000000.0        -0.117815502417     -0.242325494868     0.864623034697      -0.421647669249     0.864623034697      -0.421647669249     -0.117815502417     -0.242325494868     
6100000000.0        -0.121353505574     -0.24504710806      0.860524052319      -0.427402166305     0.860524052319      -0.427402166305     -0.121353505574     -0.24504710806      
6200000000.0        -0.124923184342     -0.247711646004     0.856383306094      -0.433101573133     0.856383306094      -0.433101573133     -0.124923184342     -0.247711646004     
6300000000.0        -0.128523466318     -0.25031880254      0.852201827677      -0.438745606579     0.852201827677      -0.438745606579     -0.128523466318     -0.25031880254      
6400000000.0        -0.13215327972      -0.252868295035     0.847980647437      -0.444334006837     0.847980647437      -0.444334006837     -0.13215327972      -0.252868295035     
6500000000.0        -0.135811553977     -0.255359864177     0.843720793862      -0.449866537238     0.843720793862      -0.449866537238     -0.135811553977     -0.255359864177     
6600000000.0        -0.139497220316     -0.25779327375      0.83942329297       -0.455342984022     0.83942329297       -0.455342984022     -0.139497220316     -0.25779327375      
6700000000.0        -0.143209212331     -0.260168310387     0.835089167733      -0.460763156097     0.835089167733      -0.460763156097     -0.143209212331     -0.260168310387     
6800000000.0        -0.146946466537     -0.262484783318     0.830719437518      -0.466126884773     0.830719437518      -0.466126884773     -0.146946466537     -0.262484783318     
6900000000.0        -0.15070792292      -0.264742524095     0.826315117538      -0.471434023491     0.826315117538      -0.471434023491     -0.15070792292      -0.264742524095     
7000000000.0        -0.154492525458     -0.266941386304     0.821877218322      -0.476684447535     0.821877218322      -0.476684447535     -0.154492525458     -0.266941386304     
7100000000.0        -0.15829922264      -0.269081245268     0.81740674519       -0.481878053724     0.81740674519       -0.481878053724     -0.15829922264      -0.269081245268     
7200000000.0        -0.162126967966     -0.271161997732     0.812904697758      -0.487014760106     0.812904697758      -0.487014760106     -0.162126967966     -0.271161997732     
7300000000.0        -0.16597472043      -0.273183561544     0.80837206944       -0.492094505619     0.80837206944       -0.492094505619     -0.16597472043      -0.273183561544     
7400000000.0        -0.169841444987     -0.275145875312     0.803809846981      -0.497117249765     0.803809846981      -0.497117249765     -0.169841444987     -0.275145875312     
7500000000.0        -0.173726113011     -0.277048898063     0.799219009996      -0.50208297225      0.799219009996      -0.50208297225      -0.173726113011     -0.277048898063     
7600000000.0        -0.17762770273      -0.278892608887     0.794600530528      -0.506991672632     0.794600530528      -0.506991672632     -0.17762770273      -0.278892608887     
7700000000.0        -0.18154519965      -0.280677006569     0.789955372621      -0.511843369948     0.789955372621      -0.511843369948     -0.18154519965      -0.280677006569     
7800000000.0        -0.185477596961     -0.282402109219     0.785284491908      -0.516638102341     0.785284491908      -0.516638102341     -0.185477596961     -0.282402109219     
7900000000.0        -0.189423895925     -0.284067953888     0.780588835218      -0.52137592667      0.780588835218      -0.52137592667      -0.189423895925     -0.284067953888     
8000000000.0        -0.193383106254     -0.285674596182     0.775869340195      -0.526056918124     0.775869340195      -0.526056918124     -0.193383106254     -0.285674596182     
8100000000.0        -0.197354246467     -0.287222109863     0.771126934936      -0.530681169816     0.771126934936      -0.530681169816     -0.197354246467     -0.287222109863     
8200000000.0        -0.201336344231     -0.288710586454     0.766362537644      -0.535248792385     0.766362537644      -0.535248792385     -0.201336344231     -0.288710586454     
8300000000.0        -0.205328436688     -0.29014013483      0.761577056294      -0.539759913582     0.761577056294      -0.539759913582     -0.205328436688     -0.29014013483      
8400000000.0        -0.209329570767     -0.291510880807     0.756771388322      -0.544214677856     0.756771388322      -0.544214677856     -0.209329570767     -0.291510880807     
8500000000.0        -0.213338803475     -0.292822966728     0.751946420322      -0.548613245936     0.751946420322      -0.548613245936     -0.213338803475     -0.292822966728     
8600000000.0        -0.217355202181     -0.294076551047     0.747103027765      -0.552955794406     0.747103027765      -0.552955794406     -0.217355202181     -0.294076551047     
8700000000.0        -0.221377844872     -0.295271807906     0.742242074728      -0.557242515286     0.742242074728      -0.557242515286     -0.221377844872     -0.295271807906     
8800000000.0        -0.225405820406     -0.296408926715     0.737364413642      -0.561473615597     0.737364413642      -0.561473615597     -0.225405820406     -0.296408926715     
8900000000.0        -0.229438228744     -0.297488111724     0.732470885056      -0.565649316935     0.732470885056      -0.565649316935     -0.229438228744     -0.297488111724     
9000000000.0        -0.233474181162     -0.298509581603     0.727562317415      -0.569769855044     0.727562317415      -0.569769855044     -0.233474181162     -0.298509581603     
9100000000.0        -0.23751280046      -0.299473569011     0.722639526848      -0.573835479378     0.722639526848      -0.573835479378     -0.23751280046      -0.299473569011     
9200000000.0        -0.241553221143     -0.300380320171     0.717703316982      -0.577846452675     0.717703316982      -0.577846452675     -0.241553221143     -0.300380320171     
9300000000.0        -0.245594589599     -0.301230094446     0.712754478759      -0.581803050524     0.712754478759      -0.581803050524     -0.245594589599     -0.301230094446     
9400000000.0        -0.249636064252     -0.302023163914     0.707793790271      -0.585705560932     0.707793790271      -0.585705560932     -0.249636064252     -0.302023163914     
9500000000.0        -0.253676815711     -0.302759812944     0.702822016617      -0.589554283901     0.702822016617      -0.589554283901     -0.253676815711     -0.302759812944     
9600000000.0        -0.257716026899     -0.303440337771     0.697839909759      -0.593349530995     0.697839909759      -0.593349530995     -0.257716026899     -0.303440337771     
9700000000.0        -0.26175289317      -0.304065046085     0.692848208402      -0.597091624916     0.692848208402      -0.597091624916     -0.26175289317      -0.304065046085     
9800000000.0        -0.26578662241      -0.304634256603     0.687847637886      -0.600780899081     0.687847637886      -0.600780899081     -0.26578662241      -0.304634256603     
9900000000.0        -0.269816435135     -0.305148298666     0.682838910087      -0.604417697203     0.682838910087      -0.604417697203     -0.269816435135     -0.305148298666     
10000000000.0       -0.273841564561     -0.305607511819     0.677822723333      -0.608002372873     0.677822723333      -0.608002372873     -0.273841564561     -0.305607511819     
