# Hz S RI R 50.00 
100000000.0         -0.0277835446409    -0.163817435833     0.972195623373      -0.163947023111     0.972195623373      -0.163947023111     -0.0277835446409    -0.163817435833     
200000000.0         -0.102295415937     -0.30242081587      0.897683583986      -0.302680090221     0.897683583986      -0.302680090221     -0.102295415937     -0.30242081587      
300000000.0         -0.203832206689     -0.402158986558     0.796146643731      -0.402548096604     0.796146643731      -0.402548096604     -0.203832206689     -0.402158986558     
400000000.0         -0.312552273399     -0.462778137474     0.687426428138      -0.463297266        0.687426428138      -0.463297266        -0.312552273399     -0.462778137474     
500000000.0         -0.41511787385      -0.491919093387     0.584860672483      -0.492568448678     0.584860672483      -0.492568448678     -0.41511787385      -0.491919093387     
600000000.0         -0.505234305319     -0.499081860967     0.494744075914      -0.499861670459     0.494744075914      -0.499861670459     -0.505234305319     -0.499081860967     
700000000.0         -0.581373646884     -0.492375812557     0.418604557205      -0.493286317833     0.418604557205      -0.493286317833     -0.581373646884     -0.492375812557     
800000000.0         -0.64443680556      -0.477658230457     0.355541207916      -0.478699683202     0.355541207916      -0.478699683202     -0.64443680556      -0.477658230457     
900000000.0         -0.69623901889      -0.458787951128     0.303738789493      -0.459960609805     0.303738789493      -0.459960609805     -0.69623901889      -0.458787951128     
1000000000.0        -0.738734180422     -0.438164312241     0.261243407625      -0.439468439371     0.261243407625      -0.439468439371     -0.738734180422     -0.438164312241     
1100000000.0        -0.773689463702     -0.41721476002      0.226287888169      -0.418650619953     0.226287888169      -0.418650619953     -0.773689463702     -0.41721476002      
1200000000.0        -0.802587312174     -0.396751053442     0.197389787205      -0.398318910562     0.197389787205      -0.398318910562     -0.802587312174     -0.396751053442     
1300000000.0        -0.826626819611     -0.377206475681     0.173350010556      -0.378906592961     0.173350010556      -0.378906592961     -0.826626819611     -0.377206475681     
1400000000.0        -0.846761051818     -0.358786666942     0.153215492082      -0.360619304821     0.153215492082      -0.360619304821     -0.846761051818     -0.358786666942     
1500000000.0        -0.863742052171     -0.341563203737     0.136234188113      -0.343528619248     0.136234188113      -0.343528619248     -0.863742052171     -0.341563203737     
1600000000.0        -0.878162428497     -0.325530846305     0.121813490568      -0.327629292437     0.121813490568      -0.327629292437     -0.878162428497     -0.325530846305     
1700000000.0        -0.890490131529     -0.310642223601     0.109485448487      -0.312873948847     0.109485448487      -0.312873948847     -0.890490131529     -0.310642223601     
1800000000.0        -0.901096209381     -0.296828653667     0.0988790135519     -0.299193901724     0.0988790135519     -0.299193901724     -0.901096209381     -0.296828653667     
1900000000.0        -0.910276444971     -0.284012486996     0.0896984026612     -0.286511496604     0.0896984026612     -0.286511496604     -0.910276444971     -0.284012486996     
2000000000.0        -0.918268036358     -0.272114281634     0.081706417589      -0.274747286522     0.081706417589      -0.274747286522     -0.918268036358     -0.272114281634     
2100000000.0        -0.925262399973     -0.261056836384     0.0747116417468     -0.2638240653       0.0747116417468     -0.2638240653       -0.925262399973     -0.261056836384     
2200000000.0        -0.931414995613     -0.250767323241     0.0685586151966     -0.253669000055     0.0685586151966     -0.253669000055     -0.931414995613     -0.250767323241     
2300000000.0        -0.936852883173     -0.241178280078     0.0631202779073     -0.244214623945     0.0631202779073     -0.244214623945     -0.936852883173     -0.241178280078     
2400000000.0        -0.94168055716      -0.232227930571     0.0582921352476     -0.235399156131     0.0582921352476     -0.235399156131     -0.94168055716      -0.232227930571     
2500000000.0        -0.945984473115     -0.22386011774      0.0539877315572     -0.227166435358     0.0539877315572     -0.227166435358     -0.945984473115     -0.22386011774      
2600000000.0        -0.9498365781       -0.216024026186     0.050135119661      -0.219465642211     0.050135119661      -0.219465642211     -0.9498365781       -0.216024026186     
2700000000.0        -0.953297080032     -0.208673799252     0.0466740915332     -0.212250916296     0.0466740915332     -0.212250916296     -0.953297080032     -0.208673799252     
2800000000.0        -0.956416632617     -0.201768114749     0.0435539933651     -0.205480931977     0.0435539933651     -0.205480931977     -0.956416632617     -0.201768114749     
2900000000.0        -0.959238069279     -0.195269756465     0.0407319916319     -0.19911846989      0.0407319916319     -0.19911846989      -0.959238069279     -0.195269756465     
3000000000.0        -0.961797787156     -0.189145202391     0.038171689098      -0.193130005172     0.038171689098      -0.193130005172     -0.961797787156     -0.189145202391     
3100000000.0        -0.964126858061     -0.183364240558     0.0358420138555     -0.187485323296     0.0358420138555     -0.187485323296     -0.964126858061     -0.183364240558     
3200000000.0        -0.966251925216     -0.177899617328     0.0337163225891     -0.182157168358     0.0337163225891     -0.182157168358     -0.966251925216     -0.177899617328     
3300000000.0        -0.968195930972     -0.172726719358     0.0317716728582     -0.177120925035     0.0317716728582     -0.177120925035     -0.968195930972     -0.172726719358     
3400000000.0        -0.969978710435     -0.167823288386     0.0299882294653     -0.172354333367     0.0299882294653     -0.172354333367     -0.969978710435     -0.167823288386     
3500000000.0        -0.971617478161     -0.163169166858     0.0283487777657     -0.167837234372     0.0283487777657     -0.167837234372     -0.971617478161     -0.163169166858     
3600000000.0        -0.9731272291       -0.158746071886     0.0268383227199     -0.163551343994     0.0268383227199     -0.163551343994     -0.9731272291       -0.158746071886     
3700000000.0        -0.974521070454     -0.154537394834     0.0254437570394     -0.159480052681     0.0254437570394     -0.159480052681     -0.974521070454     -0.154537394834     
3800000000.0        -0.975810497573     -0.150528023855     0.0241535852858     -0.155608247915     0.0241535852858     -0.155608247915     -0.975810497573     -0.150528023855     
3900000000.0        -0.977005624329     -0.146704186846     0.0229576934974     -0.15192215715      0.0229576934974     -0.15192215715      -0.977005624329     -0.146704186846     
4000000000.0        -0.978115376276     -0.143053312469     0.021847156033      -0.148409208827     0.021847156033      -0.148409208827     -0.978115376276     -0.143053312469     
4100000000.0        -0.979147653246     -0.13956390711      0.0208140729716     -0.145057909323     0.0208140729716     -0.145057909323     -0.979147653246     -0.13956390711      
4200000000.0        -0.980109466752     -0.136225445885     0.019851432711      -0.141857733947     0.019851432711      -0.141857733947     -0.980109466752     -0.136225445885     
4300000000.0        -0.981007056524     -0.13302827599      0.0189529954299     -0.138799030277     0.0189529954299     -0.138799030277     -0.981007056524     -0.13302827599      
4400000000.0        -0.981845989704     -0.129963530907     0.0181131938956     -0.13587293236      0.0181131938956     -0.13587293236      -0.981845989704     -0.129963530907     
4500000000.0        -0.982631245561     -0.127023054156     0.0173270487468     -0.133071284453     0.0173270487468     -0.133071284453     -0.982631245561     -0.127023054156     
4600000000.0        -0.983367288084     -0.124199331436     0.0165900959019     -0.13038657316      0.0165900959019     -0.13038657316      -0.983367288084     -0.124199331436     
4700000000.0        -0.984058128377     -0.121485430156     0.0158983241602     -0.127811866946     0.0158983241602     -0.127811866946     -0.984058128377     -0.121485430156     
4800000000.0        -0.984707378467     -0.118874945461     0.0152481214007     -0.125340762163     0.0152481214007     -0.125340762163     -0.984707378467     -0.118874945461     
4900000000.0        -0.98531829782      -0.116361952005     0.0146362280594     -0.122967334813     0.0146362280594     -0.122967334813     -0.98531829782      -0.116361952005     
5000000000.0        -0.985893833688     -0.11394096077      0.0140596967848     -0.120686097356     0.0140596967848     -0.120686097356     -0.985893833688     -0.11394096077      
5100000000.0        -0.98643665619      -0.111606880364     0.0135158573571     -0.11849196001      0.0135158573571     -0.11849196001      -0.98643665619      -0.111606880364     
5200000000.0        -0.986949188898     -0.109354982278     0.0130022861031     -0.116380195992     0.0130022861031     -0.116380195992     -0.986949188898     -0.109354982278     
5300000000.0        -0.987433635567     -0.107180869639     0.0125167791635     -0.114346410273     0.0125167791635     -0.114346410273     -0.987433635567     -0.107180869639     
5400000000.0        -0.98789200356      -0.105080449083     0.0120573290697     -0.112386511439     0.0120573290697     -0.112386511439     -0.98789200356      -0.105080449083     
5500000000.0        -0.988326124418     -0.103049905383     0.0116221041722     -0.110496686319     0.0116221041722     -0.110496686319     -0.988326124418     -0.103049905383     
5600000000.0        -0.988737671972     -0.101085678543     0.0112094305312     -0.10867337707      0.0112094305312     -0.10867337707      -0.988737671972     -0.101085678543     
5700000000.0        -0.989128178317     -0.0991844430757    0.0108177759407     -0.106913260454     0.0108177759407     -0.106913260454     -0.989128178317     -0.0991844430757    
5800000000.0        -0.989499047936     -0.0973430892423    0.0104457358033     -0.105213229068     0.0104457358033     -0.105213229068     -0.989499047936     -0.0973430892423    
5900000000.0        -0.989851570217     -0.095558706032     0.0100920206161     -0.103570374326     0.0100920206161     -0.103570374326     -0.989851570217     -0.095558706032     
6000000000.0        -0.990186930559     -0.0938285657105    0.00975544486124    -0.101981971        0.00975544486124    -0.101981971        -0.990186930559     -0.0938285657105    
6100000000.0        -0.990506220256     -0.0921501097665    0.00943491712521    -0.100445463162     0.00943491712521    -0.100445463162     -0.990506220256     -0.0921501097665    
6200000000.0        -0.990810445302     -0.0905209361168    0.00912943129303    -0.0989584513891    0.00912943129303    -0.0989584513891    -0.990810445302     -0.0905209361168    
6300000000.0        -0.99110053425      -0.0889387874407    0.00883805868714    -0.097518681092     0.00883805868714    -0.097518681092     -0.99110053425      -0.0889387874407    
6400000000.0        -0.991377345242     -0.0874015405307    0.00855994103678    -0.0961240318648    0.00855994103678    -0.0961240318648    -0.991377345242     -0.0874015405307    
6500000000.0        -0.991641672314     -0.0859071965606    0.00829428417947    -0.0947725077493    0.00829428417947    -0.0947725077493    -0.991641672314     -0.0859071965606    
6600000000.0        -0.99189425104      -0.0844538721788    0.00804035240867    -0.0934622283267    0.00804035240867    -0.0934622283267    -0.99189425104      -0.0844538721788    
6700000000.0        -0.992135763618     -0.0830397913496    0.00779746339349    -0.0921914205558    0.00779746339349    -0.0921914205558    -0.992135763618     -0.0830397913496    
6800000000.0        -0.992366843439     -0.081663277869     0.00756498360507    -0.0909584112877    0.00756498360507    -0.0909584112877    -0.992366843439     -0.081663277869     
6900000000.0        -0.992588079216     -0.0803227484936    0.00734232419298    -0.0897616203919    0.00734232419298    -0.0897616203919    -0.992588079216     -0.0803227484936    
7000000000.0        -0.992800018702     -0.0790167066232    0.00712893726172    -0.0885995544377    0.00712893726172    -0.0885995544377    -0.992800018702     -0.0790167066232    
7100000000.0        -0.993003172063     -0.0777437364883    0.00692431250371    -0.0874708008795    0.00692431250371    -0.0874708008795    -0.993003172063     -0.0777437364883    
7200000000.0        -0.993198014918     -0.0765024977944    0.00672797415035    -0.0863740227005    0.00672797415035    -0.0863740227005    -0.993198014918     -0.0765024977944    
7300000000.0        -0.993384991115     -0.0752917207844    0.00653947820732    -0.0853079534728    0.00653947820732    -0.0853079534728    -0.993384991115     -0.0752917207844    
7400000000.0        -0.99356451523      -0.0741102016799    0.00635840994424    -0.084271392798     0.00635840994424    -0.084271392798     -0.99356451523      -0.0741102016799    
7500000000.0        -0.99373697486      -0.0729567984692    0.00618438161243    -0.0832632020937    0.00618438161243    -0.0832632020937    -0.99373697486      -0.0729567984692    
7600000000.0        -0.993902732689     -0.0718304270112    0.00601703036732    -0.0822823006967    0.00601703036732    -0.0822823006967    -0.993902732689     -0.0718304270112    
7700000000.0        -0.994062128394     -0.0707300574295    0.0058560163749     -0.0813276622561    0.0058560163749     -0.0813276622561    -0.994062128394     -0.0707300574295    
7800000000.0        -0.994215480361     -0.0696547107699    0.00570102108381    -0.0803983113894    0.00570102108381    -0.0803983113894    -0.994215480361     -0.0696547107699    
7900000000.0        -0.994363087272     -0.0686034559008    0.00555174564677    -0.0794933205829    0.00555174564677    -0.0794933205829    -0.994363087272     -0.0686034559008    
8000000000.0        -0.994505229546     -0.0675754066362    0.0054079094767     -0.0786118073136    0.0054079094767     -0.0786118073136    -0.994505229546     -0.0675754066362    
8100000000.0        -0.99464217066      -0.066569719062     0.00526924892476    -0.0777529313748    0.00526924892476    -0.0777529313748    -0.99464217066      -0.066569719062     
8200000000.0        -0.994774158361     -0.0655855890503    0.00513551606841    -0.0769158923901    0.00513551606841    -0.0769158923901    -0.994774158361     -0.0655855890503    
8300000000.0        -0.994901425779     -0.0646222499455    0.00500647759953    -0.0760999274989    0.00500647759953    -0.0760999274989    -0.994901425779     -0.0646222499455    
8400000000.0        -0.995024192449     -0.0636789704099    0.00488191380291    -0.0753043092015    0.00488191380291    -0.0753043092015    -0.995024192449     -0.0636789704099    
8500000000.0        -0.995142665249     -0.0627550524145    0.00476161761709    -0.0745283433498    0.00476161761709    -0.0745283433498    -0.995142665249     -0.0627550524145    
8600000000.0        -0.995257039262     -0.0618498293654    0.00464539376993    -0.0737713672731    0.00464539376993    -0.0737713672731    -0.995257039262     -0.0618498293654    
8700000000.0        -0.995367498578     -0.0609626643541    0.0045330579822     -0.0730327480284    0.0045330579822     -0.0730327480284    -0.995367498578     -0.0609626643541    
8800000000.0        -0.995474217024     -0.0600929485232    0.00442443623324    -0.0723118807656    0.00442443623324    -0.0723118807656    -0.995474217024     -0.0600929485232    
8900000000.0        -0.995577358842     -0.0592400995375    0.00431936408305    -0.0716081871989    0.00431936408305    -0.0716081871989    -0.995577358842     -0.0592400995375    
9000000000.0        -0.995677079318     -0.0584035601547    0.00421768604618    -0.0709211141771    0.00421768604618    -0.0709211141771    -0.995677079318     -0.0584035601547    
9100000000.0        -0.995773525358     -0.057582796886     0.00411925501261    -0.0702501323442    0.00411925501261    -0.0702501323442    -0.995773525358     -0.057582796886     
9200000000.0        -0.995866836025     -0.0567772987419    0.00402393171195    -0.0695947348851    0.00402393171195    -0.0695947348851    -0.995866836025     -0.0567772987419    
9300000000.0        -0.995957143034     -0.0559865760555    0.00393158421711    -0.0689544363492    0.00393158421711    -0.0689544363492    -0.995957143034     -0.0559865760555    
9400000000.0        -0.996044571217     -0.0552101593794    0.00384208748423    -0.0683287715469    0.00384208748423    -0.0683287715469    -0.996044571217     -0.0552101593794    
9500000000.0        -0.996129238941     -0.0544475984491    0.00375532292584    -0.0677172945136    0.00375532292584    -0.0677172945136    -0.996129238941     -0.0544475984491    
9600000000.0        -0.996211258513     -0.05369846121      0.00367117801455    -0.0671195775367    0.00367117801455    -0.0671195775367    -0.996211258513     -0.05369846121      
9700000000.0        -0.996290736543     -0.0529623329022    0.00358954591484    -0.0665352102402    0.00358954591484    -0.0665352102402    -0.996290736543     -0.0529623329022    
9800000000.0        -0.996367774288     -0.0522388152001    0.00351032514057    -0.0659637987248    0.00351032514057    -0.0659637987248    -0.996367774288     -0.0522388152001    
9900000000.0        -0.996442467971     -0.0515275254018    0.00343341923644    -0.0654049647579    0.00343341923644    -0.0654049647579    -0.996442467971     -0.0515275254018    
10000000000.0       -0.996514909075     -0.050828095667     0.0033587364811     -0.0648583450109    0.0033587364811     -0.0648583450109    -0.996514909075     -0.050828095667     
