# Hz S RI R 50.00 
100000000.0         0.0108274585304     0.00122974924595    0.989168760052      -0.00283185333556   0.989168760052      -0.00283185333556   0.0108274585304     0.00122974924595    
200000000.0         0.0109084058901     0.00245887220781    0.989082455025      -0.00566307815461   0.989082455025      -0.00566307815461   0.0109084058901     0.00245887220781    
300000000.0         0.0109773855537     0.0036875595071     0.989005541293      -0.00849386597877   0.989005541293      -0.00849386597877   0.0109773855537     0.0036875595071     
400000000.0         0.0110437200111     0.00491584835194    0.988928696225      -0.0113242545172    0.988928696225      -0.0113242545172    0.0110437200111     0.00491584835194    
500000000.0         0.0111110018032     0.00614374037954    0.988848327132      -0.0141542457092    0.988848327132      -0.0141542457092    0.0111110018032     0.00614374037954    
600000000.0         0.0111810636205     0.00737122152083    0.988762601167      -0.0169838256588    0.988762601167      -0.0169838256588    0.0111810636205     0.00737122152083    
700000000.0         0.0112549879099     0.00859826912399    0.988670435711      -0.0198129717939    0.988670435711      -0.0198129717939    0.0112549879099     0.00859826912399    
800000000.0         0.0113334754669     0.00982485525354    0.988571129782      -0.0226416561868    0.988571129782      -0.0226416561868    0.0113334754669     0.00982485525354    
900000000.0         0.0114170096002     0.01105094846       0.988464199869      -0.0254698473371    0.988464199869      -0.0254698473371    0.0114170096002     0.01105094846       
1000000000.0        0.0115059393664     0.0122765148265     0.988349296697      -0.0282975112286    0.988349296697      -0.0282975112286    0.0115059393664     0.0122765148265     
1100000000.0        0.0116005258519     0.0135015186326     0.988226158946      -0.0311246120002    0.988226158946      -0.0311246120002    0.0116005258519     0.0135015186326     
1200000000.0        0.0117009697579     0.0147259227991     0.988094585662      -0.0339511123958    0.988094585662      -0.0339511123958    0.0117009697579     0.0147259227991     
1300000000.0        0.0118074287603     0.0159496891982     0.987954418902      -0.0367769740789    0.987954418902      -0.0367769740789    0.0118074287603     0.0159496891982     
1400000000.0        0.0119200289226     0.0171727788777     0.987805532318      -0.0396021578605    0.987805532318      -0.0396021578605    0.0119200289226     0.0171727788777     
1500000000.0        0.0120388724753     0.0183951522282     0.987647823376      -0.0424266238682    0.987647823376      -0.0424266238682    0.0120388724753     0.0183951522282     
1600000000.0        0.0121640432802     0.0196167691097     0.987481207897      -0.045250331676     0.987481207897      -0.045250331676     0.0121640432802     0.0196167691097     
1700000000.0        0.0122956107703     0.0208375889505     0.987305616112      -0.0480732404044    0.987305616112      -0.0480732404044    0.0122956107703     0.0208375889505     
1800000000.0        0.0124336328524     0.0220575708255     0.987120989762      -0.0508953088009    0.987120989762      -0.0508953088009    0.0124336328524     0.0220575708255     
1900000000.0        0.0125781580885     0.0232766735191     0.986927279914      -0.0537164953038    0.986927279914      -0.0537164953038    0.0125781580885     0.0232766735191     
2000000000.0        0.0127292273631     0.0244948555768     0.986724445298      -0.0565367580953    0.986724445298      -0.0565367580953    0.0127292273631     0.0244948555768     
2100000000.0        0.0128868751765     0.0257120753478     0.986512451011      -0.0593560551447    0.986512451011      -0.0593560551447    0.0128868751765     0.0257120753478     
2200000000.0        0.013051130662      0.0269282910203     0.986291267498      -0.0621743442454    0.986291267498      -0.0621743442454    0.013051130662      0.0269282910203     
2300000000.0        0.0132220183953     0.028143460652      0.986060869748      -0.0649915830454    0.986060869748      -0.0649915830454    0.0132220183953     0.028143460652      
2400000000.0        0.013399559046      0.0293575421958     0.985821236637      -0.0678077290741    0.985821236637      -0.0678077290741    0.013399559046      0.0293575421958     
2500000000.0        0.0135837699071     0.0305704935221     0.985572350401      -0.070622739765     0.985572350401      -0.070622739765     0.0135837699071     0.0305704935221     
2600000000.0        0.0137746653292     0.031782272438      0.985314196202      -0.073436572476     0.985314196202      -0.073436572476     0.0137746653292     0.031782272438      
2700000000.0        0.0139722570797     0.0329928367045     0.98504676177       -0.0762491845065    0.98504676177       -0.0762491845065    0.0139722570797     0.0329928367045     
2800000000.0        0.0141765546415     0.0342021440516     0.984770037101      -0.079060533113     0.984770037101      -0.079060533113     0.0141765546415     0.0342021440516     
2900000000.0        0.0143875654649     0.0354101521915     0.984484014206      -0.0818705755231    0.984484014206      -0.0818705755231    0.0143875654649     0.0354101521915     
3000000000.0        0.0146052951793     0.0366168188308     0.984188686904      -0.0846792689478    0.984188686904      -0.0846792689478    0.0146052951793     0.0366168188308     
3100000000.0        0.0148297477733     0.0378221016813     0.983884050635      -0.0874865705924    0.983884050635      -0.0874865705924    0.0148297477733     0.0378221016813     
3200000000.0        0.0150609257495     0.0390259584698     0.983570102309      -0.0902924376674    0.983570102309      -0.0902924376674    0.0150609257495     0.0390259584698     
3300000000.0        0.0152988302565     0.0402283469472     0.983246840174      -0.0930968273969    0.983246840174      -0.0930968273969    0.0152988302565     0.0402283469472     
3400000000.0        0.0155434612035     0.0414292248967     0.982914263701      -0.0958996970278    0.982914263701      -0.0958996970278    0.0155434612035     0.0414292248967     
3500000000.0        0.0157948173597     0.0426285501416     0.982572373485      -0.0987010038374    0.982572373485      -0.0987010038374    0.0157948173597     0.0426285501416     
3600000000.0        0.0160528964405     0.0438262805521     0.982221171157      -0.10150070514      0.982221171157      -0.10150070514      0.0160528964405     0.0438262805521     
3700000000.0        0.0163176951841     0.0450223740524     0.981860659311      -0.104298758296     0.981860659311      -0.104298758296     0.0163176951841     0.0450223740524     
3800000000.0        0.0165892094174     0.046216788626      0.981490841433      -0.107095120716     0.981490841433      -0.107095120716     0.0165892094174     0.046216788626      
3900000000.0        0.016867434115      0.0474094823227     0.981111721847      -0.109889749865     0.981111721847      -0.109889749865     0.016867434115      0.0474094823227     
4000000000.0        0.0171523634516     0.0486004132628     0.98072330566       -0.112682603275     0.98072330566       -0.112682603275     0.0171523634516     0.0486004132628     
4100000000.0        0.0174439908482     0.0497895396435     0.980325598717      -0.115473638542     0.980325598717      -0.115473638542     0.0174439908482     0.0497895396435     
4200000000.0        0.0177423090132     0.0509768197427     0.979918607559      -0.118262813337     0.979918607559      -0.118262813337     0.0177423090132     0.0509768197427     
4300000000.0        0.0180473099795     0.0521622119245     0.979502339386      -0.121050085406     0.979502339386      -0.121050085406     0.0180473099795     0.0521622119245     
4400000000.0        0.0183589851379     0.0533456746433     0.979076802024      -0.123835412581     0.979076802024      -0.123835412581     0.0183589851379     0.0533456746433     
4500000000.0        0.0186773252668     0.0545271664482     0.978642003895      -0.126618752777     0.978642003895      -0.126618752777     0.0186773252668     0.0545271664482     
4600000000.0        0.019002320559      0.0557066459871     0.978197953991      -0.129400064002     0.978197953991      -0.129400064002     0.019002320559      0.0557066459871     
4700000000.0        0.0193339606467     0.0568840720103     0.977744661849      -0.132179304357     0.977744661849      -0.132179304357     0.0193339606467     0.0568840720103     
4800000000.0        0.0196722346234     0.0580594033751     0.977282137527      -0.134956432044     0.977282137527      -0.134956432044     0.0196722346234     0.0580594033751     
4900000000.0        0.0200171310641     0.0592325990485     0.976810391587      -0.137731405364     0.976810391587      -0.137731405364     0.0200171310641     0.0592325990485     
5000000000.0        0.0203686380439     0.0604036181118     0.976329435073      -0.140504182727     0.976329435073      -0.140504182727     0.0203686380439     0.0604036181118     
5100000000.0        0.020726743155      0.061572419763      0.975839279498      -0.143274722652     0.975839279498      -0.143274722652     0.020726743155      0.061572419763      
5200000000.0        0.0210914335224     0.0627389633209     0.975339936825      -0.14604298377      0.975339936825      -0.14604298377      0.0210914335224     0.0627389633209     
5300000000.0        0.0214626958176     0.0639032082282     0.974831419455      -0.148808924829     0.974831419455      -0.148808924829     0.0214626958176     0.0639032082282     
5400000000.0        0.0218405162728     0.0650651140544     0.974313740211      -0.151572504695     0.974313740211      -0.151572504695     0.0218405162728     0.0650651140544     
5500000000.0        0.0222248806924     0.0662246404991     0.97378691233       -0.154333682358     0.97378691233       -0.154333682358     0.0222248806924     0.0662246404991     
5600000000.0        0.0226157744645     0.067381747395      0.973250949447      -0.157092416934     0.973250949447      -0.157092416934     0.0226157744645     0.067381747395      
5700000000.0        0.0230131825719     0.0685363947108     0.972705865589      -0.159848667665     0.972705865589      -0.159848667665     0.0230131825719     0.0685363947108     
5800000000.0        0.0234170896014     0.0696885425541     0.972151675161      -0.162602393928     0.972151675161      -0.162602393928     0.0234170896014     0.0696885425541     
5900000000.0        0.0238274797534     0.0708381511742     0.97158839294       -0.165353555231     0.97158839294       -0.165353555231     0.0238274797534     0.0708381511742     
6000000000.0        0.0242443368504     0.0719851809647     0.971016034063      -0.168102111221     0.971016034063      -0.168102111221     0.0242443368504     0.0719851809647     
6100000000.0        0.0246676443449     0.0731295924665     0.970434614024      -0.170848021684     0.970434614024      -0.170848021684     0.0246676443449     0.0731295924665     
6200000000.0        0.0250973853274     0.0742713463701     0.969844148661      -0.173591246548     0.969844148661      -0.173591246548     0.0250973853274     0.0742713463701     
6300000000.0        0.0255335425336     0.0754104035185     0.969244654151      -0.176331745888     0.969244654151      -0.176331745888     0.0255335425336     0.0754104035185     
6400000000.0        0.0259760983508     0.0765467249095     0.968636147005      -0.179069479923     0.968636147005      -0.179069479923     0.0259760983508     0.0765467249095     
6500000000.0        0.0264250348247     0.0776802716982     0.96801864406       -0.181804409026     0.96801864406       -0.181804409026     0.0264250348247     0.0776802716982     
6600000000.0        0.0268803336653     0.0788110051998     0.96739216247       -0.18453649372      0.96739216247       -0.18453649372      0.0268803336653     0.0788110051998     
6700000000.0        0.0273419762532     0.0799388868915     0.966756719706      -0.187265694683     0.966756719706      -0.187265694683     0.0273419762532     0.0799388868915     
6800000000.0        0.0278099436446     0.0810638784149     0.966112333547      -0.18999197275      0.966112333547      -0.18999197275      0.0278099436446     0.0810638784149     
6900000000.0        0.0282842165767     0.082185941579      0.965459022073      -0.192715288918     0.965459022073      -0.192715288918     0.0282842165767     0.082185941579      
7000000000.0        0.0287647754733     0.0833050383615     0.964796803664      -0.195435604342     0.964796803664      -0.195435604342     0.0287647754733     0.0833050383615     
7100000000.0        0.0292516004491     0.0844211309118     0.964125696994      -0.198152880344     0.964125696994      -0.198152880344     0.0292516004491     0.0844211309118     
7200000000.0        0.0297446713147     0.0855341815527     0.963445721023      -0.200867078411     0.963445721023      -0.200867078411     0.0297446713147     0.0855341815527     
7300000000.0        0.030243967581      0.0866441527831     0.962756894997      -0.203578160199     0.962756894997      -0.203578160199     0.030243967581      0.0866441527831     
7400000000.0        0.0307494684638     0.0877510072796     0.962059238439      -0.206286087533     0.962059238439      -0.206286087533     0.0307494684638     0.0877510072796     
7500000000.0        0.0312611528876     0.0888547078988     0.961352771152      -0.208990822413     0.961352771152      -0.208990822413     0.0312611528876     0.0888547078988     
7600000000.0        0.0317789994903     0.0899552176794     0.960637513206      -0.211692327011     0.960637513206      -0.211692327011     0.0317789994903     0.0899552176794     
7700000000.0        0.0323029866265     0.0910524998445     0.95991348494       -0.214390563678     0.95991348494       -0.214390563678     0.0323029866265     0.0910524998445     
7800000000.0        0.0328330923719     0.0921465178029     0.959180706957      -0.217085494943     0.959180706957      -0.217085494943     0.0328330923719     0.0921465178029     
7900000000.0        0.0333692945266     0.0932372351516     0.958439200119      -0.219777083514     0.958439200119      -0.219777083514     0.0333692945266     0.0932372351516     
8000000000.0        0.0339115706193     0.0943246156779     0.957688985544      -0.222465292283     0.957688985544      -0.222465292283     0.0339115706193     0.0943246156779     
8100000000.0        0.0344598979102     0.0954086233606     0.956930084604      -0.225150084327     0.956930084604      -0.225150084327     0.0344598979102     0.0954086233606     
8200000000.0        0.0350142533951     0.0964892223725     0.956162518919      -0.227831422907     0.956162518919      -0.227831422907     0.0350142533951     0.0964892223725     
8300000000.0        0.0355746138086     0.0975663770821     0.955386310354      -0.230509271474     0.955386310354      -0.230509271474     0.0355746138086     0.0975663770821     
8400000000.0        0.0361409556271     0.0986400520552     0.954601481018      -0.233183593668     0.954601481018      -0.233183593668     0.0361409556271     0.0986400520552     
8500000000.0        0.0367132550727     0.0997102120568     0.953808053258      -0.23585435332      0.953808053258      -0.23585435332      0.0367132550727     0.0997102120568     
8600000000.0        0.037291488116      0.100776822053      0.953006049658      -0.238521514456     0.953006049658      -0.238521514456     0.037291488116      0.100776822053      
8700000000.0        0.0378756304793     0.101839847213      0.952195493032      -0.241185041295     0.952195493032      -0.241185041295     0.0378756304793     0.101839847213      
8800000000.0        0.0384656576398     0.102899252909      0.951376406428      -0.243844898255     0.951376406428      -0.243844898255     0.0384656576398     0.102899252909      
8900000000.0        0.0390615448328     0.103955004721      0.950548813117      -0.246501049949     0.950548813117      -0.246501049949     0.0390615448328     0.103955004721      
9000000000.0        0.0396632670545     0.105007068436      0.949712736594      -0.249153461194     0.949712736594      -0.249153461194     0.0396632670545     0.105007068436      
9100000000.0        0.040270799065      0.10605541005       0.948868200576      -0.251802097004     0.948868200576      -0.251802097004     0.040270799065      0.10605541005       
9200000000.0        0.0408841153915     0.10709999577       0.948015228998      -0.2544469226       0.948015228998      -0.2544469226       0.0408841153915     0.10709999577       
9300000000.0        0.0415031903309     0.108140792015      0.947153846007      -0.257087903405     0.947153846007      -0.257087903405     0.0415031903309     0.108140792015      
9400000000.0        0.0421279979528     0.10917776542       0.946284075964      -0.25972500505      0.946284075964      -0.25972500505      0.0421279979528     0.10917776542       
9500000000.0        0.0427585121024     0.110210882833      0.945405943438      -0.262358193371     0.945405943438      -0.262358193371     0.0427585121024     0.110210882833      
9600000000.0        0.0433947064035     0.111240111321      0.944519473206      -0.264987434414     0.944519473206      -0.264987434414     0.0433947064035     0.111240111321      
9700000000.0        0.0440365542609     0.112265418167      0.943624690246      -0.267612694437     0.943624690246      -0.267612694437     0.0440365542609     0.112265418167      
9800000000.0        0.0446840288633     0.113286770876      0.942721619739      -0.270233939908     0.942721619739      -0.270233939908     0.0446840288633     0.113286770876      
9900000000.0        0.0453371031864     0.114304137173      0.94181028706       -0.272851137508     0.94181028706       -0.272851137508     0.0453371031864     0.114304137173      
10000000000.0       0.0459957499951     0.115317485007      0.940890717784      -0.275464254133     0.940890717784      -0.275464254133     0.0459957499951     0.115317485007      
