# Hz S RI R 50.00 
100000000.0         0.000527897991891   -0.000460898571394  0.999462788185      -0.0027691198418    0.999462788185      -0.0027691198418    0.000527897991891   -0.000460898571394  
200000000.0         0.000526091717484   -0.000921849979294  0.999445844407      -0.0055383199863    0.999445844407      -0.0055383199863    0.000526091717484   -0.000921849979294  
300000000.0         0.000520802445078   -0.0013828634472    0.999421944851      -0.00830764917219   0.999421944851      -0.00830764917219   0.000520802445078   -0.0013828634472    
400000000.0         0.000512488703459   -0.00184394457356   0.999390627703      -0.0110771360518    0.999390627703      -0.0110771360518    0.000512488703459   -0.00184394457356   
500000000.0         0.000501325897285   -0.00230509574809   0.999351713721      -0.0138468002088    0.999351713721      -0.0138468002088    0.000501325897285   -0.00230509574809   
600000000.0         0.000487402551513   -0.00276631692387   0.999305110099      -0.0166166554469    0.999305110099      -0.0166166554469    0.000487402551512   -0.00276631692387   
700000000.0         0.00047077017826    -0.00322760610835   0.999250760682      -0.0193867113914    0.999250760682      -0.0193867113914    0.000470770178261   -0.00322760610835   
800000000.0         0.000451461476015   -0.00368895969318   0.999188627835      -0.0221569744272    0.999188627835      -0.0221569744272    0.000451461476015   -0.00368895969318   
900000000.0         0.000429498436314   -0.00415037268862   0.999118684385      -0.0249274483091    0.999118684385      -0.0249274483091    0.000429498436314   -0.00415037268862   
1000000000.0        0.000404896457022   -0.00461183889892   0.999040909552      -0.0276981345888    0.999040909552      -0.0276981345888    0.000404896457022   -0.00461183889892   
1100000000.0        0.000377666632791   -0.00507335105788   0.998955286695      -0.0304690329284    0.998955286695      -0.0304690329284    0.00037766663279    -0.00507335105788   
1200000000.0        0.000347817123383   -0.00553490093738   0.998861801982      -0.0332401413407    0.998861801982      -0.0332401413407    0.000347817123383   -0.00553490093738   
1300000000.0        0.000315354017628   -0.005996479436     0.998760443549      -0.0360114563778    0.998760443549      -0.0360114563778    0.000315354017628   -0.005996479436     
1400000000.0        0.000280281903944   -0.00645807665321   0.998651200963      -0.038782973284     0.998651200963      -0.038782973284     0.000280281903944   -0.00645807665321   
1500000000.0        0.00024260426143    -0.00691968195231   0.998534064848      -0.0415546861215    0.998534064848      -0.0415546861215    0.00024260426143    -0.00691968195232   
1600000000.0        0.000202323736546   -0.00738128401471   0.998409026635      -0.0443265878758    0.998409026635      -0.0443265878758    0.000202323736546   -0.00738128401471   
1700000000.0        0.000159442344284   -0.00784287088728   0.998276078379      -0.0470986705449    0.998276078379      -0.0470986705449    0.000159442344285   -0.00784287088728   
1800000000.0        0.000113961617923   -0.00830443002427   0.99813521263       -0.049870925217     0.99813521263       -0.049870925217     0.000113961617923   -0.00830443002427   
1900000000.0        6.58827229012e-05   -0.00876594832439   0.997986422333      -0.052643342137     0.997986422333      -0.052643342137     6.58827229012e-05   -0.00876594832439   
2000000000.0        1.52065450358e-05   -0.00922741216429   0.997829700758      -0.0554159107656    0.997829700758      -0.0554159107656    1.52065450358e-05   -0.00922741216429   
2100000000.0        -3.80662399866e-05  -0.00968880742885   0.997665041446      -0.0581886198314    0.997665041446      -0.0581886198314    -3.80662399867e-05  -0.00968880742885   
2200000000.0        -9.3935111007e-05   -0.0101501195386    0.997492438164      -0.0609614573773    0.997492438164      -0.0609614573773    -9.39351110071e-05  -0.0101501195386    
2300000000.0        -0.000152399656298  -0.010611333475     0.997311884878      -0.0637344108024    0.997311884878      -0.0637344108024    -0.000152399656298  -0.010611333475     
2400000000.0        -0.000213459536519  -0.0110724338035    0.997123375723      -0.0665074668998    0.997123375723      -0.0665074668998    -0.000213459536519  -0.0110724338035    
2500000000.0        -0.000277114453925  -0.0115334046951    0.99692690499       -0.0692806118902    0.99692690499       -0.0692806118902    -0.000277114453925  -0.0115334046951    
2600000000.0        -0.000343364126503  -0.0119942299462    0.996722467102      -0.0720538314542    0.996722467102      -0.0720538314542    -0.000343364126503  -0.0119942299462    
2700000000.0        -0.000412208266027  -0.0124548929972    0.996510056612      -0.0748271107597    0.996510056612      -0.0748271107597    -0.000412208266027  -0.0124548929972    
2800000000.0        -0.000483646559277  -0.0129153769496    0.996289668188      -0.0776004344895    0.996289668188      -0.0776004344895    -0.000483646559277  -0.0129153769496    
2900000000.0        -0.000557678651815  -0.0133756645825    0.996061296607      -0.0803737868646    0.996061296607      -0.0803737868646    -0.000557678651815  -0.0133756645825    
3000000000.0        -0.000634304133883  -0.0138357383679    0.99582493675       -0.0831471516672    0.99582493675       -0.0831471516672    -0.000634304133883  -0.0138357383679    
3100000000.0        -0.000713522528035  -0.0142955804848    0.995580583599      -0.0859205122618    0.995580583599      -0.0859205122618    -0.000713522528035  -0.0142955804848    
3200000000.0        -0.000795333278239  -0.0147551728332    0.995328232231      -0.0886938516144    0.995328232231      -0.0886938516144    -0.000795333278239  -0.0147551728332    
3300000000.0        -0.000879735740195  -0.015214497047     0.995067877818      -0.0914671523107    0.995067877818      -0.0914671523107    -0.000879735740195  -0.015214497047     
3400000000.0        -0.000966729172709  -0.0156735345059    0.994799515625      -0.0942403965739    0.994799515625      -0.0942403965739    -0.000966729172709  -0.0156735345059    
3500000000.0        -0.00105631272995   -0.0161322663475    0.994523141009      -0.0970135662797    0.994523141009      -0.0970135662797    -0.00105631272995   -0.0161322663475    
3600000000.0        -0.00114848545447   -0.0165906734779    0.994238749417      -0.0997866429724    0.994238749417      -0.0997866429724    -0.00114848545447   -0.0165906734779    
3700000000.0        -0.0012432462709    -0.017048736583     0.993946336387      -0.102559607878     0.993946336387      -0.102559607878     -0.0012432462709    -0.017048736583     
3800000000.0        -0.00134059398021   -0.0175064361381    0.993645897548      -0.10533244192      0.993645897548      -0.10533244192      -0.00134059398021   -0.0175064361381    
3900000000.0        -0.0014405272545    -0.0179637524176    0.993337428619      -0.108105125728     0.993337428619      -0.108105125728     -0.0014405272545    -0.0179637524176    
4000000000.0        -0.00154304463219   -0.0184206655047    0.99302092541       -0.110877639655     0.99302092541       -0.110877639655     -0.00154304463219   -0.0184206655047    
4100000000.0        -0.00164814451365   -0.0188771552999    0.992696383823      -0.113649963784     0.992696383823      -0.113649963784     -0.00164814451365   -0.0188771552999    
4200000000.0        -0.00175582515721   -0.01933320153      0.992363799853      -0.116422077942     0.992363799853      -0.116422077942     -0.00175582515721   -0.01933320153      
4300000000.0        -0.00186608467537   -0.0197887837557    0.992023169587      -0.119193961708     0.992023169587      -0.119193961708     -0.00186608467537   -0.0197887837557    
4400000000.0        -0.00197892103142   -0.0202438813805    0.991674489204      -0.121965594427     0.991674489204      -0.121965594427     -0.00197892103142   -0.0202438813805    
4500000000.0        -0.00209433203626   -0.0206984736574    0.991317754981      -0.124736955215     0.991317754981      -0.124736955215     -0.00209433203626   -0.0206984736574    
4600000000.0        -0.00221231534545   -0.0211525396969    0.990952963287      -0.127508022968     0.990952963287      -0.127508022968     -0.00221231534545   -0.0211525396969    
4700000000.0        -0.00233286845646   -0.021606058474     0.990580110588      -0.130278776374     0.990580110588      -0.130278776374     -0.00233286845646   -0.021606058474     
4800000000.0        -0.00245598870618   -0.0220590088349    0.990199193449      -0.133049193921     0.990199193449      -0.133049193921     -0.00245598870618   -0.0220590088349    
4900000000.0        -0.00258167326851   -0.022511369504     0.98981020853       -0.135819253899     0.98981020853       -0.135819253899     -0.00258167326851   -0.022511369504     
5000000000.0        -0.00270991915219   -0.0229631190901    0.98941315259       -0.138588934417     0.98941315259       -0.138588934417     -0.00270991915219   -0.0229631190901    
5100000000.0        -0.00284072319876   -0.0234142360928    0.98900802249       -0.141358213401     0.98900802249       -0.141358213401     -0.00284072319876   -0.0234142360928    
5200000000.0        -0.00297408208062   -0.0238646989085    0.988594815188      -0.144127068607     0.988594815188      -0.144127068607     -0.00297408208062   -0.0238646989085    
5300000000.0        -0.00310999229929   -0.0243144858362    0.988173527746      -0.146895477625     0.988173527746      -0.146895477625     -0.00310999229929   -0.0243144858362    
5400000000.0        -0.00324845018372   -0.0247635750837    0.987744157326      -0.149663417886     0.987744157326      -0.149663417886     -0.00324845018372   -0.0247635750837    
5500000000.0        -0.00338945188879   -0.0252119447725    0.987306701193      -0.152430866671     0.987306701193      -0.152430866671     -0.00338945188879   -0.0252119447725    
5600000000.0        -0.00353299339381   -0.0256595729436    0.986861156718      -0.15519780111      0.986861156718      -0.15519780111      -0.00353299339381   -0.0256595729436    
5700000000.0        -0.00367907050126   -0.0261064375625    0.986407521372      -0.157964198195     0.986407521372      -0.157964198195     -0.00367907050126   -0.0261064375625    
5800000000.0        -0.00382767883546   -0.0265525165249    0.985945792733      -0.160730034783     0.985945792733      -0.160730034783     -0.00382767883546   -0.0265525165249    
5900000000.0        -0.00397881384147   -0.0269977876608    0.985475968486      -0.163495287598     0.985475968486      -0.163495287598     -0.00397881384147   -0.0269977876608    
6000000000.0        -0.00413247078399   -0.0274422287401    0.98499804642       -0.166259933243     0.98499804642       -0.166259933243     -0.00413247078399   -0.0274422287401    
6100000000.0        -0.0042886447464    -0.0278858174769    0.984512024431      -0.169023948197     0.984512024431      -0.169023948197     -0.0042886447464    -0.0278858174769    
6200000000.0        -0.00444733062976   -0.0283285315345    0.984017900523      -0.171787308827     0.984017900523      -0.171787308827     -0.00444733062976   -0.0283285315345    
6300000000.0        -0.00460852315206   -0.0287703485293    0.983515672809      -0.174549991389     0.983515672809      -0.174549991389     -0.00460852315206   -0.0287703485293    
6400000000.0        -0.00477221684734   -0.0292112460361    0.983005339506      -0.177311972031     0.983005339506      -0.177311972031     -0.00477221684734   -0.0292112460361    
6500000000.0        -0.00493840606503   -0.0296512015914    0.982486898946      -0.180073226803     0.982486898946      -0.180073226803     -0.00493840606503   -0.0296512015914    
6600000000.0        -0.0051070849693    -0.0300901926984    0.981960349565      -0.182833731653     0.981960349565      -0.182833731653     -0.0051070849693    -0.0300901926984    
6700000000.0        -0.0052782475384    -0.0305281968306    0.981425689913      -0.185593462441     0.981425689913      -0.185593462441     -0.0052782475384    -0.0305281968306    
6800000000.0        -0.00545188756417   -0.0309651914362    0.980882918646      -0.188352394933     0.980882918646      -0.188352394933     -0.00545188756417   -0.0309651914362    
6900000000.0        -0.00562799865152   -0.0314011539418    0.980332034533      -0.191110504812     0.980332034533      -0.191110504812     -0.00562799865152   -0.0314011539418    
7000000000.0        -0.00580657421803   -0.0318360617562    0.979773036454      -0.193867767678     0.979773036454      -0.193867767678     -0.00580657421803   -0.0318360617562    
7100000000.0        -0.0059876074935    -0.0322698922744    0.979205923399      -0.196624159054     0.979205923399      -0.196624159054     -0.0059876074935    -0.0322698922744    
7200000000.0        -0.00617109151967   -0.0327026228812    0.97863069447       -0.199379654387     0.97863069447       -0.199379654387     -0.00617109151967   -0.0327026228812    
7300000000.0        -0.00635701914988   -0.0331342309547    0.978047348881      -0.202134229054     0.978047348881      -0.202134229054     -0.00635701914988   -0.0331342309547    
7400000000.0        -0.00654538304885   -0.0335646938701    0.977455885955      -0.204887858363     0.977455885955      -0.204887858363     -0.00654538304885   -0.0335646938701    
7500000000.0        -0.00673617569244   -0.0339939890029    0.976856305132      -0.207640517557     0.976856305132      -0.207640517557     -0.00673617569244   -0.0339939890029    
7600000000.0        -0.00692938936753   -0.0344220937327    0.976248605959      -0.210392181819     0.976248605959      -0.210392181819     -0.00692938936753   -0.0344220937327    
7700000000.0        -0.00712501617183   -0.0348489854461    0.9756327881        -0.213142826271     0.9756327881        -0.213142826271     -0.00712501617183   -0.0348489854461    
7800000000.0        -0.00732304801386   -0.0352746415405    0.975008851329      -0.215892425981     0.975008851329      -0.215892425981     -0.00732304801386   -0.0352746415405    
7900000000.0        -0.00752347661284   -0.0356990394268    0.974376795531      -0.218640955963     0.974376795531      -0.218640955963     -0.00752347661284   -0.0356990394268    
8000000000.0        -0.00772629349871   -0.0361221565331    0.973736620707      -0.221388391182     0.973736620707      -0.221388391182     -0.00772629349871   -0.0361221565331    
8100000000.0        -0.00793149001215   -0.0365439703076    0.97308832697       -0.224134706555     0.97308832697       -0.224134706555     -0.00793149001215   -0.0365439703076    
8200000000.0        -0.00813905730461   -0.0369644582215    0.972431914543      -0.226879876953     0.972431914543      -0.226879876953     -0.00813905730461   -0.0369644582215    
8300000000.0        -0.00834898633844   -0.0373835977724    0.971767383764      -0.229623877208     0.971767383764      -0.229623877208     -0.00834898633844   -0.0373835977724    
8400000000.0        -0.00856126788697   -0.0378013664871    0.971094735085      -0.232366682108     0.971094735085      -0.232366682108     -0.00856126788698   -0.0378013664871    
8500000000.0        -0.00877589253471   -0.0382177419245    0.970413969067      -0.235108266408     0.970413969067      -0.235108266408     -0.00877589253471   -0.0382177419245    
8600000000.0        -0.00899285067745   -0.0386327016785    0.969725086386      -0.237848604825     0.969725086386      -0.237848604825     -0.00899285067745   -0.0386327016785    
8700000000.0        -0.0092121325226    -0.039046223381     0.969028087831      -0.240587672044     0.969028087831      -0.240587672044     -0.0092121325226    -0.039046223381     
8800000000.0        -0.00943372808932   -0.0394582847045    0.968322974302      -0.243325442722     0.968322974302      -0.243325442722     -0.00943372808932   -0.0394582847045    
8900000000.0        -0.00965762720886   -0.0398688633649    0.967609746811      -0.246061891484     0.967609746811      -0.246061891484     -0.00965762720886   -0.0398688633649    
9000000000.0        -0.00988381952481   -0.0402779371245    0.966888406484      -0.248796992931     0.966888406484      -0.248796992931     -0.00988381952481   -0.0402779371245    
9100000000.0        -0.0101122944935    -0.0406854837943    0.966158954557      -0.251530721641     0.966158954557      -0.251530721641     -0.0101122944935    -0.0406854837943    
9200000000.0        -0.0103430413843    -0.0410914812367    0.96542139238       -0.254263052169     0.96542139238       -0.254263052169     -0.0103430413843    -0.0410914812367    
9300000000.0        -0.0105760492799    -0.0414959073685    0.964675721413      -0.256993959049     0.964675721413      -0.256993959049     -0.0105760492799    -0.0414959073685    
9400000000.0        -0.0108113070771    -0.0418987401631    0.963921943228      -0.259723416798     0.963921943228      -0.259723416798     -0.0108113070771    -0.0418987401631    
9500000000.0        -0.0110488034867    -0.0422999576531    0.963160059507      -0.262451399918     0.963160059507      -0.262451399918     -0.0110488034867    -0.0422999576531    
9600000000.0        -0.0112885270344    -0.0426995379329    0.962390072045      -0.265177882894     0.962390072045      -0.265177882894     -0.0112885270344    -0.0426995379329    
9700000000.0        -0.011530466061     -0.043097459161     0.961611982748      -0.267902840201     0.961611982748      -0.267902840201     -0.011530466061     -0.043097459161     
9800000000.0        -0.0117746087231    -0.0434936995629    0.96082579363       -0.270626246302     0.96082579363       -0.270626246302     -0.0117746087231    -0.0434936995629    
9900000000.0        -0.0120209429935    -0.043888237433     0.960031506816      -0.273348075652     0.960031506816      -0.273348075652     -0.0120209429935    -0.043888237433     
10000000000.0       -0.012269456662     -0.0442810511372    0.959229124543      -0.276068302696     0.959229124543      -0.276068302696     -0.012269456662     -0.0442810511372    
