# Hz S RI R 50.00 
100000000.0         -0.000156818670882  -0.0122466200402    0.999830045734      -0.0123024660651    0.999830045734      -0.0123024660651    -0.000156818670882  -0.0122466200402    
200000000.0         -0.000620693913636  -0.0244805785895    0.999366076124      -0.0245922835427    0.999366076124      -0.0245922835427    -0.000620693913636  -0.0244805785895    
300000000.0         -0.00138465959138   -0.0366903418664    0.998602035562      -0.0368579251806    0.998602035562      -0.0368579251806    -0.00138465959138   -0.0366903418664    
400000000.0         -0.00244718127976   -0.048864578351     0.997539447177      -0.0490880643707    0.997539447177      -0.0490880643707    -0.00244718127976   -0.048864578351     
500000000.0         -0.00380616978658   -0.0609921361902    0.996180395831      -0.0612715533134    0.996180395831      -0.0612715533134    -0.00380616978658   -0.0609921361902    
600000000.0         -0.00545899356892   -0.0730620565669    0.994527510869      -0.0733974366554    0.994527510869      -0.0733974366554    -0.00545899356892   -0.0730620565669    
700000000.0         -0.00740249406057   -0.0850635955872    0.992583949561      -0.0854549735148    0.992583949561      -0.0854549735148    -0.00740249406057   -0.0850635955872    
800000000.0         -0.00963300291478   -0.0969862488142    0.990353379415      -0.0974336620996    0.990353379415      -0.0974336620996    -0.00963300291478   -0.0969862488142    
900000000.0         -0.0121463610035    -0.108819776311     0.987839958983      -0.109323264807     0.987839958983      -0.109323264807     -0.0121463610035    -0.108819776311     
1000000000.0        -0.0149379390726    -0.120554227147     0.9850483171        -0.121113832772     0.9850483171        -0.121113832772     -0.0149379390726    -0.120554227147     
1100000000.0        -0.0180026599432    -0.13217996284      0.98198353063       -0.13279572934      0.98198353063       -0.13279572934      -0.0180026599432    -0.13217996284      
1200000000.0        -0.0213350221191    -0.14368767935      0.978651100827      -0.144359652086     0.978651100827      -0.144359652086     -0.0213350221191    -0.14368767935      
1300000000.0        -0.0249291246485    -0.155068427408     0.975056928448      -0.155796653166     0.975056928448      -0.155796653166     -0.0249291246485    -0.155068427408     
1400000000.0        -0.0287786930712    -0.166313631003     0.971207287797      -0.167098157816     0.971207287797      -0.167098157816     -0.0287786930712    -0.166313631003     
1500000000.0        -0.0328771062783    -0.177415103913     0.967108799855      -0.178255980906     0.967108799855      -0.178255980906     -0.0328771062783    -0.177415103913     
1600000000.0        -0.0372174241033    -0.188365064216     0.962768404678      -0.189262341457     0.962768404678      -0.189262341457     -0.0372174241033    -0.188365064216     
1700000000.0        -0.041792415464     -0.199156146712     0.958193333258      -0.200109875081     0.958193333258      -0.200109875081     -0.041792415464     -0.199156146712     
1800000000.0        -0.0465945868733    -0.209781413255     0.953391079002      -0.210791644317     0.953391079002      -0.210791644317     -0.0465945868733    -0.209781413255     
1900000000.0        -0.0516162111431    -0.220234360984     0.948369369029      -0.221301146876     0.948369369029      -0.221301146876     -0.0516162111431    -0.220234360984     
2000000000.0        -0.0568493561059    -0.230508928472     0.943136135448      -0.231632321798     0.943136135448      -0.231632321798     -0.0568493561059    -0.230508928472     
2100000000.0        -0.0622859131914    -0.240599499841     0.937699486775      -0.241779553575     0.937699486775      -0.241779553575     -0.0622859131914    -0.240599499841     
2200000000.0        -0.0679176256966    -0.250500906888     0.932067679665      -0.251737674283     0.932067679665      -0.251737674283     -0.0679176256966    -0.250500906888     
2300000000.0        -0.0737361166056    -0.260208429294     0.926249091092      -0.261501963801     0.926249091092      -0.261501963801     -0.0737361166056    -0.260208429294     
2400000000.0        -0.0797329158153    -0.269717792995     0.920252191119      -0.271068148183     0.920252191119      -0.271068148183     -0.0797329158153    -0.269717792995     
2500000000.0        -0.0858994866464    -0.279025166806     0.914085516392      -0.280432396293     0.914085516392      -0.280432396293     -0.0858994866464    -0.279025166806     
2600000000.0        -0.092227251521     -0.288127157395     0.907757644457      -0.289591314784     0.907757644457      -0.289591314784     -0.092227251521     -0.288127157395     
2700000000.0        -0.0987076167039    -0.297020802715     0.901277169018      -0.298541941532     0.901277169018      -0.298541941532     -0.0987076167039    -0.297020802715     
2800000000.0        -0.105331996022     -0.305703564011     0.894652676223      -0.307281737651     0.894652676223      -0.307281737651     -0.105331996022     -0.305703564011     
2900000000.0        -0.112091833476     -0.314173316511     0.887892722044      -0.315808578186     0.887892722044      -0.315808578186     -0.112091833476     -0.314173316511     
3000000000.0        -0.118978624694     -0.322428338922     0.881005810831      -0.324120741617     0.881005810831      -0.324120741617     -0.118978624694     -0.322428338922     
3100000000.0        -0.125983937154     -0.330467301861     0.874000375083      -0.332216898287     0.874000375083      -0.332216898287     -0.125983937154     -0.330467301861     
3200000000.0        -0.133099429154     -0.338289255323     0.866884756483      -0.340096097884     0.866884756483      -0.340096097884     -0.133099429154     -0.338289255323     
3300000000.0        -0.14031686749      -0.345893615332     0.859667188215      -0.347757756086     0.859667188215      -0.347757756086     -0.14031686749      -0.345893615332     
3400000000.0        -0.147628143827     -0.353280149867     0.852355778597      -0.355201640495     0.852355778597      -0.355201640495     -0.147628143827     -0.353280149867     
3500000000.0        -0.155025289748     -0.360448964201     0.844958496028      -0.362427855977     0.844958496028      -0.362427855977     -0.155025289748     -0.360448964201     
3600000000.0        -0.162500490499     -0.367400485745     0.837483155246      -0.369436829513     0.837483155246      -0.369436829513     -0.162500490499     -0.367400485745     
3700000000.0        -0.170046097423     -0.374135448524     0.829937404894      -0.376229294672     0.829937404894      -0.376229294672     -0.170046097423     -0.374135448524     
3800000000.0        -0.177654639109     -0.380654877374     0.822328716368      -0.382806275812     0.822328716368      -0.382806275812     -0.177654639109     -0.380654877374     
3900000000.0        -0.185318831281     -0.386960071953     0.814664373929      -0.389169072099     0.814664373929      -0.389169072099     -0.185318831281     -0.386960071953     
4000000000.0        -0.193031585465     -0.393052590679     0.806951466039      -0.395319241438     0.806951466039      -0.395319241438     -0.193031585465     -0.393052590679     
4100000000.0        -0.200786016461     -0.398934234657     0.799196877886      -0.401258584409     0.799196877886      -0.401258584409     -0.200786016461     -0.398934234657     
4200000000.0        -0.208575448668     -0.40460703168      0.79140728506       -0.406989128267     0.79140728506       -0.406989128267     -0.208575448668     -0.40460703168      
4300000000.0        -0.21639342131      -0.410073220389     0.783589148323      -0.412513111105     0.783589148323      -0.412513111105     -0.21639342131      -0.410073220389     
4400000000.0        -0.224233692619     -0.415335234637     0.775748709435      -0.417832966218     0.775748709435      -0.417832966218     -0.224233692619     -0.415335234637     
4500000000.0        -0.232090243006     -0.420395688132     0.767891987973      -0.422951306748     0.767891987973      -0.422951306748     -0.232090243006     -0.420395688132     
4600000000.0        -0.239957277308     -0.425257359405     0.76002477909       -0.427870910659     0.76002477909       -0.427870910659     -0.239957277308     -0.425257359405     
4700000000.0        -0.247829226137     -0.429923177156     0.752152652166      -0.43259470607      0.752152652166      -0.43259470607      -0.247829226137     -0.429923177156     
4800000000.0        -0.255700746405     -0.434396206        0.744280950278      -0.437125757021     0.744280950278      -0.437125757021     -0.255700746405     -0.434396206        
4900000000.0        -0.263566721081     -0.43867963268      0.736414790451      -0.441467249671     0.736414790451      -0.441467249671     -0.263566721081     -0.43867963268      
5000000000.0        -0.271422258228     -0.442776752744     0.728559064611      -0.445622478986     0.728559064611      -0.445622478986     -0.271422258228     -0.442776752744     
5100000000.0        -0.279262689393     -0.446690957726     0.720718441204      -0.449594835918     0.720718441204      -0.449594835918     -0.279262689393     -0.446690957726     
5200000000.0        -0.287083567385     -0.450425722856     0.712897367413      -0.453387795112     0.712897367413      -0.453387795112     -0.287083567385     -0.450425722856     
5300000000.0        -0.29488066352      -0.453984595291     0.705100071914      -0.457004903145     0.705100071914      -0.457004903145     -0.29488066352      -0.453984595291     
5400000000.0        -0.302649964362     -0.457371182904     0.697330568137      -0.460449767312     0.697330568137      -0.460449767312     -0.302649964362     -0.457371182904     
5500000000.0        -0.310387668028     -0.460589143622     0.689592657958      -0.46372604496      0.689592657958      -0.46372604496      -0.310387668028     -0.460589143622     
5600000000.0        -0.318090180099     -0.463642175307     0.681889935788      -0.466837433381     0.681889935788      -0.466837433381     -0.318090180099     -0.463642175307     
5700000000.0        -0.325754109188     -0.466534006208     0.674225793007      -0.469787660255     0.674225793007      -0.469787660255     -0.325754109188     -0.466534006208     
5800000000.0        -0.333376262207     -0.469268385949     0.666603422699      -0.472580474639     0.666603422699      -0.472580474639     -0.333376262207     -0.469268385949     
5900000000.0        -0.340953639374     -0.471849077066     0.659025824639      -0.475219638511     0.659025824639      -0.475219638511     -0.340953639374     -0.471849077066     
6000000000.0        -0.348483429004     -0.474279847078     0.651495810507      -0.477708918836     0.651495810507      -0.477708918836     -0.348483429004     -0.474279847078     
6100000000.0        -0.355963002122     -0.476564461082     0.64401600927       -0.480052080164     0.64401600927       -0.480052080164     -0.355963002122     -0.476564461082     
6200000000.0        -0.363389906933     -0.478706674863     0.63658887272       -0.482252877734     0.63658887272       -0.482252877734     -0.363389906933     -0.478706674863     
6300000000.0        -0.370761863172     -0.480710228493     0.629216681115      -0.484315051085     0.629216681115      -0.484315051085     -0.370761863172     -0.480710228493     
6400000000.0        -0.378076756385     -0.482578840421     0.621901548905      -0.486242318138     0.621901548905      -0.486242318138     -0.378076756385     -0.482578840421     
6500000000.0        -0.385332632145     -0.484316202029     0.614645430511      -0.48803836975      0.614645430511      -0.48803836975      -0.385332632145     -0.484316202029     
6600000000.0        -0.392527690254     -0.48592597263      0.607450126127      -0.48970686472      0.607450126127      -0.48970686472      -0.392527690254     -0.48592597263      
6700000000.0        -0.399660278927     -0.487411774904     0.600317287533      -0.491251425221     0.600317287533      -0.491251425221     -0.399660278927     -0.487411774904     
6800000000.0        -0.406728889005     -0.488777190746     0.593248423884      -0.492675632649     0.593248423884      -0.492675632649     -0.406728889005     -0.488777190746     
6900000000.0        -0.413732148202     -0.490025757508     0.586244907462      -0.493983023861     0.586244907462      -0.493983023861     -0.413732148202     -0.490025757508     
7000000000.0        -0.420668815404     -0.491160964615     0.579307979376      -0.4951770878       0.579307979376      -0.4951770878       -0.420668815404     -0.491160964615     
7100000000.0        -0.427537775039     -0.492186250544     0.572438755192      -0.496261262463     0.572438755192      -0.496261262463     -0.427537775039     -0.492186250544     
7200000000.0        -0.434338031539     -0.493105000132     0.565638230477      -0.497238932222     0.565638230477      -0.497238932222     -0.434338031539     -0.493105000132     
7300000000.0        -0.441068703884     -0.493920542219     0.558907286246      -0.498113425453     0.558907286246      -0.498113425453     -0.441068703884     -0.493920542219     
7400000000.0        -0.447729020265     -0.494636147577     0.552246694305      -0.498888012477     0.552246694305      -0.498888012477     -0.447729020265     -0.494636147577     
7500000000.0        -0.454318312855     -0.495255027134     0.545657122476      -0.499565903776     0.545657122476      -0.499565903776     -0.454318312855     -0.495255027134     
7600000000.0        -0.460836012712     -0.495780330462     0.539139139698      -0.500150248486     0.539139139698      -0.500150248486     -0.460836012712     -0.495780330462     
7700000000.0        -0.4672816448       -0.496215144515     0.532693221002      -0.500644133131     0.532693221002      -0.500644133131     -0.4672816448       -0.496215144515     
7800000000.0        -0.47365482316      -0.496562492596     0.526319752346      -0.501050580596     0.526319752346      -0.501050580596     -0.47365482316      -0.496562492596     
7900000000.0        -0.479955246208     -0.496825333553     0.52001903531       -0.501372549313     0.52001903531       -0.501372549313     -0.479955246208     -0.496825333553     
8000000000.0        -0.486182692184     -0.497006561162     0.51379129165       -0.501612932656     0.51379129165       -0.501612932656     -0.486182692184     -0.497006561162     
8100000000.0        -0.492337014741     -0.497109003711     0.507636667711      -0.501774558514     0.507636667711      -0.501774558514     -0.492337014741     -0.497109003711     
8200000000.0        -0.498418138687     -0.497135423749     0.50155523868       -0.501860189049     0.50155523868       -0.501860189049     -0.498418138687     -0.497135423749     
8300000000.0        -0.504426055871     -0.497088517999     0.495547012706      -0.501872520602     0.495547012706      -0.501872520602     -0.504426055871     -0.497088517999     
8400000000.0        -0.510360821216     -0.496970917417     0.489611934864      -0.501814183755     0.489611934864      -0.501814183755     -0.510360821216     -0.496970917417     
8500000000.0        -0.5162225489       -0.496785187381     0.483749890971      -0.501687743523     0.483749890971      -0.501687743523     -0.5162225489       -0.496785187381     
8600000000.0        -0.52201140869      -0.496533828017     0.47796071126       -0.50149569967      0.47796071126       -0.50149569967      -0.52201140869      -0.496533828017     
8700000000.0        -0.527727622409     -0.496219274616     0.472244173903      -0.50124048714      0.472244173903      -0.50124048714      -0.527727622409     -0.496219274616     
8800000000.0        -0.533371460558     -0.495843898173     0.466600008398      -0.500924476584     0.466600008398      -0.500924476584     -0.533371460558     -0.495843898173     
8900000000.0        -0.538943239071     -0.495410006007     0.461027898806      -0.500549974984     0.461027898806      -0.500549974984     -0.538943239071     -0.495410006007     
9000000000.0        -0.544443316213     -0.494919842464     0.455527486862      -0.500119226359     0.455527486862      -0.500119226359     -0.544443316213     -0.494919842464     
9100000000.0        -0.549872089613     -0.494375589697     0.450098374933      -0.49963441254      0.450098374933      -0.49963441254      -0.549872089613     -0.494375589697     
9200000000.0        -0.555229993426     -0.493779368509     0.444740128861      -0.499097654016     0.444740128861      -0.499097654016     -0.555229993426     -0.493779368509     
9300000000.0        -0.560517495629     -0.493133239258     0.439452280667      -0.498511010839     0.439452280667      -0.498511010839     -0.560517495629     -0.493133239258     
9400000000.0        -0.565735095444     -0.49243920281      0.434234331128      -0.497876483573     0.434234331128      -0.497876483573     -0.565735095444     -0.49243920281      
9500000000.0        -0.570883320876     -0.491699201535     0.429085752235      -0.497196014294     0.429085752235      -0.497196014294     -0.570883320876     -0.491699201535     
9600000000.0        -0.575962726377     -0.490915120345     0.424005989535      -0.496471487629     0.424005989535      -0.496471487629     -0.575962726377     -0.490915120345     
9700000000.0        -0.580973890622     -0.490088787761     0.418994464349      -0.495704731817     0.418994464349      -0.495704731817     -0.580973890622     -0.490088787761     
9800000000.0        -0.585917414402     -0.489221977009     0.414050575885      -0.494897519811     0.414050575885      -0.494897519811     -0.585917414402     -0.489221977009     
9900000000.0        -0.590793918612     -0.488316407139     0.409173703246      -0.494051570393     0.409173703246      -0.494051570393     -0.590793918612     -0.488316407139     
10000000000.0       -0.595604042358     -0.48737374416      0.404363207322      -0.493168549311     0.404363207322      -0.493168549311     -0.595604042358     -0.48737374416      
