# Hz S RI R 50.00 
100000000.0         0.000137232285644   -0.00873527543746   0.999679191123      -0.00941539090634   0.999679191123      -0.00941539090634   0.000137232285644   -0.00873527543746   
200000000.0         -0.000116822348129  -0.0174658952076    0.999421335504      -0.0188261382103    0.999421335504      -0.0188261382103    -0.00011682234813   -0.0174658952076    
300000000.0         -0.000535466219057  -0.0261874847125    0.998999220183      -0.0282278791542    0.998999220183      -0.0282278791542    -0.000535466219057  -0.0261874847125    
400000000.0         -0.00111810448514   -0.0348956727548    0.998413045238      -0.0376162518504    0.998413045238      -0.0376162518504    -0.00111810448514   -0.0348956727548    
500000000.0         -0.00186410924089   -0.043586103619     0.997663287034      -0.0469869089205    0.997663287034      -0.0469869089205    -0.00186410924089   -0.043586103619     
600000000.0         -0.00277273612979   -0.0522544458081    0.996750612857      -0.0563355266262    0.996750612857      -0.0563355266262    -0.00277273612979   -0.0522544458081    
700000000.0         -0.00384310437747   -0.0608963997815    0.99567585805       -0.065657812787     0.99567585805       -0.065657812787     -0.00384310437747   -0.0608963997815    
800000000.0         -0.00507419084161   -0.0695077052007    0.994440016364      -0.0749495141263    0.994440016364      -0.0749495141263    -0.00507419084161   -0.0695077052007    
900000000.0         -0.00646482877513   -0.0780841478501    0.993044234256      -0.0842064232548    0.993044234256      -0.0842064232548    -0.00646482877513   -0.0780841478501    
1000000000.0        -0.00801370866135   -0.0866215662918    0.991489806542      -0.0934243853689    0.991489806542      -0.0934243853689    -0.00801370866135   -0.0866215662918    
1100000000.0        -0.00971938017188   -0.0951158582803    0.989778172497      -0.102599304696     0.989778172497      -0.102599304696     -0.00971938017188   -0.0951158582803    
1200000000.0        -0.0115802548441    -0.103562986939     0.987910912014      -0.111727150694     0.987910912014      -0.111727150694     -0.0115802548441    -0.103562986939     
1300000000.0        -0.0135946092823    -0.111958986695     0.985889741677      -0.120803964005     0.985889741677      -0.120803964005     -0.0135946092823    -0.111958986695     
1400000000.0        -0.0157605887755    -0.120299968965     0.983716510665      -0.129825862154     0.983716510665      -0.129825862154     -0.0157605887755    -0.120299968965     
1500000000.0        -0.0180762112651    -0.128582127583     0.981393196459      -0.138789044988     0.981393196459      -0.138789044988     -0.0180762112651    -0.128582127583     
1600000000.0        -0.0205393716169    -0.136801743953     0.978921900345      -0.147689799838     0.978921900345      -0.147689799838     -0.0205393716169    -0.136801743953     
1700000000.0        -0.0231478461608    -0.144955191928     0.976304842707      -0.156524506411     0.976304842707      -0.156524506411     -0.0231478461608    -0.144955191928     
1800000000.0        -0.0258992974712    -0.153038942397     0.973544358129      -0.165289641375     0.973544358129      -0.165289641375     -0.0258992974712    -0.153038942397     
1900000000.0        -0.0287912793581    -0.16104956757      0.970642890311      -0.173981782655     0.970642890311      -0.173981782655     -0.0287912793581    -0.16104956757      
2000000000.0        -0.0318212420477    -0.168983744961     0.967602986823      -0.182597613424     0.967602986823      -0.182597613424     -0.0318212420477    -0.168983744961     
2100000000.0        -0.0349865375268    -0.176838261058     0.964427293705      -0.19113392577      0.964427293705      -0.19113392577      -0.0349865375268    -0.176838261058     
2200000000.0        -0.0382844250294    -0.184610014674     0.961118549937      -0.199587624056     0.961118549937      -0.199587624056     -0.0382844250294    -0.184610014674     
2300000000.0        -0.0417120766428    -0.192296019977     0.957679581803      -0.207955727952     0.957679581803      -0.207955727952     -0.0417120766428    -0.192296019977     
2400000000.0        -0.0452665830121    -0.199893409195     0.95411329716       -0.216235375144     0.95411329716       -0.216235375144     -0.0452665830121    -0.199893409195     
2500000000.0        -0.0489449591207    -0.207399434999     0.950422679632      -0.224423823721     0.950422679632      -0.224423823721     -0.0489449591207    -0.207399434999     
2600000000.0        -0.0527441501273    -0.214811472562     0.94661078276       -0.232518454229     0.94661078276       -0.232518454229     -0.0527441501273    -0.214811472562     
2700000000.0        -0.0566610372379    -0.222127021288     0.942680724111      -0.240516771412     0.942680724111      -0.240516771412     -0.0566610372379    -0.222127021288     
2800000000.0        -0.0606924435936    -0.22934370623      0.938635679382      -0.248416405629     0.938635679382      -0.248416405629     -0.0606924435936    -0.22934370623      
2900000000.0        -0.0648351401546    -0.236459279185     0.934478876505      -0.256215113948     0.934478876505      -0.256215113948     -0.0648351401546    -0.236459279185     
3000000000.0        -0.0690858515617    -0.243471619487     0.930213589774      -0.263910780941     0.930213589774      -0.263910780941     -0.0690858515617    -0.243471619487     
3100000000.0        -0.0734412619583    -0.250378734482     0.925843134021      -0.271501419167     0.925843134021      -0.271501419167     -0.0734412619583    -0.250378734482     
3200000000.0        -0.077898020755     -0.257178759724     0.921370858839      -0.278985169361     0.921370858839      -0.278985169361     -0.077898020755     -0.257178759724     
3300000000.0        -0.0824527483202    -0.263869958865     0.916800142893      -0.286360300332     0.916800142893      -0.286360300332     -0.0824527483202    -0.263869958865     
3400000000.0        -0.087102041583     -0.27045072328      0.912134388306      -0.293625208586     0.912134388306      -0.293625208586     -0.087102041583     -0.27045072328      
3500000000.0        -0.0918424795323    -0.276919571416     0.907377015161      -0.300778417674     0.907377015161      -0.300778417674     -0.0918424795323    -0.276919571416     
3600000000.0        -0.0966706285994    -0.283275147881     0.902531456113      -0.307818577289     0.902531456113      -0.307818577289     -0.0966706285994    -0.283275147881     
3700000000.0        -0.101583047911     -0.289516222295     0.897601151131      -0.314744462112     0.897601151131      -0.314744462112     -0.101583047911     -0.289516222295     
3800000000.0        -0.106576294405     -0.295641687895     0.892589542386      -0.321554970422     0.892589542386      -0.321554970422     -0.106576294405     -0.295641687895     
3900000000.0        -0.111646927787     -0.301650559926     0.887500069284      -0.328249122486     0.887500069284      -0.328249122486     -0.111646927787     -0.301650559926     
4000000000.0        -0.116791515338     -0.307541973823     0.882336163661      -0.334826058737     0.882336163661      -0.334826058737     -0.116791515338     -0.307541973823     
4100000000.0        -0.122006636545     -0.313315183184     0.877101245152      -0.341285037763     0.877101245152      -0.341285037763     -0.122006636545     -0.313315183184     
4200000000.0        -0.127288887558     -0.318969557581     0.87179871673       -0.347625434099     0.87179871673       -0.347625434099     -0.127288887558     -0.318969557581     
4300000000.0        -0.132634885463     -0.32450458018      0.866431960428      -0.353846735864     0.866431960428      -0.353846735864     -0.132634885463     -0.32450458018      
4400000000.0        -0.138041272372     -0.329919845219     0.861004333257      -0.359948542229     0.861004333257      -0.359948542229     -0.138041272372     -0.329919845219     
4500000000.0        -0.143504719315     -0.335215055337     0.855519163305      -0.365930560756     0.855519163305      -0.365930560756     -0.143504719315     -0.335215055337     
4600000000.0        -0.14902192994      -0.340390018778     0.849979746039      -0.371792604594     0.849979746039      -0.371792604594     -0.14902192994      -0.340390018778     
4700000000.0        -0.154589644013     -0.345444646472     0.844389340802      -0.377534589566     0.844389340802      -0.377534589566     -0.154589644013     -0.345444646472     
4800000000.0        -0.160204640721     -0.350378949025     0.838751167515      -0.383156531156     0.838751167515      -0.383156531156     -0.160204640721     -0.350378949025     
4900000000.0        -0.165863741769     -0.355193033604     0.833068403572      -0.388658541402     0.833068403572      -0.388658541402     -0.165863741769     -0.355193033604     
5000000000.0        -0.171563814282     -0.359887100759     0.827344180941      -0.394040825707     0.827344180941      -0.394040825707     -0.171563814282     -0.359887100759     
5100000000.0        -0.177301773503     -0.364461441171     0.821581583466      -0.399303679599     0.821581583466      -0.399303679599     -0.177301773503     -0.364461441171     
5200000000.0        -0.183074585294     -0.368916432349     0.815783644362      -0.40444748542      0.815783644362      -0.40444748542      -0.183074585294     -0.368916432349     
5300000000.0        -0.188879268442     -0.373252535288     0.809953343914      -0.409472708991     0.809953343914      -0.409472708991     -0.188879268442     -0.373252535288     
5400000000.0        -0.194712896766     -0.377470291093     0.804093607364      -0.41437989623      0.804093607364      -0.41437989623      -0.194712896766     -0.377470291093     
5500000000.0        -0.20057260104      -0.381570317584     0.798207302991      -0.419169669765     0.798207302991      -0.419169669765     -0.20057260104      -0.381570317584     
5600000000.0        -0.206455570725     -0.38555330589      0.79229724038       -0.423842725522     0.79229724038       -0.423842725522     -0.206455570725     -0.38555330589      
5700000000.0        -0.212359055514     -0.389420017047     0.786366168867      -0.428399829326     0.786366168867      -0.428399829326     -0.212359055514     -0.389420017047     
5800000000.0        -0.218280366713     -0.393171278596     0.780416776174      -0.432841813501     0.780416776174      -0.432841813501     -0.218280366713     -0.393171278596     
5900000000.0        -0.224216878432     -0.396807981208     0.774451687203      -0.437169573493     0.774451687203      -0.437169573493     -0.224216878432     -0.396807981208     
6000000000.0        -0.23016602862      -0.400331075327     0.768473463007      -0.441384064513     0.768473463007      -0.441384064513     -0.23016602862      -0.400331075327     
6100000000.0        -0.236125319931     -0.403741567846     0.762484599924      -0.445486298218     0.762484599924      -0.445486298218     -0.236125319931     -0.403741567846     
6200000000.0        -0.242092320441     -0.407040518828     0.756487528858      -0.449477339426     0.756487528858      -0.449477339426     -0.242092320441     -0.407040518828     
6300000000.0        -0.248064664205     -0.410229038268     0.750484614725      -0.453358302883     0.750484614725      -0.453358302883     -0.248064664205     -0.410229038268     
6400000000.0        -0.25404005168      -0.413308282906     0.744478156024      -0.457130350074     0.744478156024      -0.457130350074     -0.25404005168      -0.413308282906     
6500000000.0        -0.26001625         -0.416279453099     0.738470384567      -0.4607946861       0.738470384567      -0.4607946861       -0.26001625         -0.416279453099     
6600000000.0        -0.265991093132     -0.419143789759     0.732463465322      -0.464352556607     0.732463465322      -0.464352556607     -0.265991093132     -0.419143789759     
6700000000.0        -0.271962481894     -0.421902571349     0.726459496391      -0.467805244791     0.726459496391      -0.467805244791     -0.271962481894     -0.421902571349     
6800000000.0        -0.277928383865     -0.424557110954     0.720460509105      -0.471154068468     0.720460509105      -0.471154068468     -0.277928383865     -0.424557110954     
6900000000.0        -0.283886833176     -0.427108753426     0.71446846823       -0.474400377216     0.71446846823       -0.474400377216     -0.283886833176     -0.427108753426     
7000000000.0        -0.289835930202     -0.429558872606     0.708485272274      -0.477545549598     0.708485272274      -0.477545549598     -0.289835930202     -0.429558872606     
7100000000.0        -0.29577384115      -0.43190886862      0.702512753903      -0.480590990462     0.702512753903      -0.480590990462     -0.29577384115      -0.43190886862      
7200000000.0        -0.301698797553     -0.434160165265     0.696552680441      -0.483538128322     0.696552680441      -0.483538128322     -0.301698797553     -0.434160165265     
7300000000.0        -0.307609095687     -0.436314207468     0.690606754457      -0.486388412823     0.690606754457      -0.486388412823     -0.307609095687     -0.436314207468     
7400000000.0        -0.313503095896     -0.438372458838     0.684676614439      -0.489143312289     0.684676614439      -0.489143312289     -0.313503095896     -0.438372458838     
7500000000.0        -0.319379221849     -0.4403363993       0.678763835537      -0.491804311358     0.678763835537      -0.491804311358     -0.319379221849     -0.4403363993       
7600000000.0        -0.32523595973      -0.442207522814     0.672869930374      -0.494372908703     0.672869930374      -0.494372908703     -0.32523595973      -0.442207522814     
7700000000.0        -0.331071857356     -0.443987335181     0.666996349922      -0.496850614838     0.666996349922      -0.496850614838     -0.331071857356     -0.443987335181     
7800000000.0        -0.336885523251     -0.445677351942     0.661144484436      -0.499238950013     0.661144484436      -0.499238950013     -0.336885523251     -0.445677351942     
7900000000.0        -0.342675625658     -0.447279096349     0.655315664437      -0.501539442196     0.655315664437      -0.501539442196     -0.342675625658     -0.447279096349     
8000000000.0        -0.348440891506     -0.448794097442     0.649511161747      -0.503753625136     0.649511161747      -0.503753625136     -0.348440891506     -0.448794097442     
8100000000.0        -0.354180105337     -0.450223888192     0.643732190559      -0.505883036516     0.643732190559      -0.505883036516     -0.354180105337     -0.450223888192     
8200000000.0        -0.359892108195     -0.451570003742     0.637979908552      -0.507929216195     0.637979908552      -0.507929216195     -0.359892108195     -0.451570003742     
8300000000.0        -0.365575796482     -0.452833979729     0.632255418032      -0.509893704521     0.632255418032      -0.509893704521     -0.365575796482     -0.452833979729     
8400000000.0        -0.371230120785     -0.454017350683     0.626559767106      -0.511778040741     0.626559767106      -0.511778040741     -0.371230120785     -0.454017350683     
8500000000.0        -0.376854084681     -0.455121648513     0.620893950875      -0.513583761481     0.620893950875      -0.513583761481     -0.376854084681     -0.455121648513     
8600000000.0        -0.382446743519     -0.45614840107      0.615258912655      -0.51531239931      0.615258912655      -0.51531239931      -0.382446743519     -0.45614840107      
8700000000.0        -0.388007203186     -0.45709913079      0.609655545209      -0.516965481387     0.609655545209      -0.516965481387     -0.388007203186     -0.45709913079      
8800000000.0        -0.393534618864     -0.457975353413     0.604084691992      -0.518544528173     0.604084691992      -0.518544528173     -0.393534618864     -0.457975353413     
8900000000.0        -0.399028193769     -0.45877857677      0.598547148408      -0.520051052226     0.598547148408      -0.520051052226     -0.399028193769     -0.45877857677      
9000000000.0        -0.404487177892     -0.459510299655     0.593043663071      -0.52148655707      0.593043663071      -0.52148655707      -0.404487177892     -0.459510299655     
9100000000.0        -0.409910866731     -0.460172010758     0.587574939074      -0.522852536125     0.587574939074      -0.522852536125     -0.409910866731     -0.460172010758     
9200000000.0        -0.415298600026     -0.460765187669     0.582141635255      -0.524150471715     0.582141635255      -0.524150471715     -0.415298600026     -0.460765187669     
9300000000.0        -0.420649760489     -0.461291295947     0.57674436746       -0.525381834142     0.57674436746       -0.525381834142     -0.420649760489     -0.461291295947     
9400000000.0        -0.425963772547     -0.461751788261     0.571383709808      -0.526548080813     0.571383709808      -0.526548080813     -0.425963772547     -0.461751788261     
9500000000.0        -0.431240101088     -0.462148103582     0.566060195943      -0.527650655448     0.566060195943      -0.527650655448     -0.431240101088     -0.462148103582     
9600000000.0        -0.436478250208     -0.462481666443     0.560774320281      -0.52869098733      0.560774320281      -0.52869098733      -0.436478250208     -0.462481666443     
9700000000.0        -0.44167776198      -0.462753886253     0.55552653925       -0.529670490624     0.55552653925       -0.529670490624     -0.44167776198      -0.462753886253     
9800000000.0        -0.446838215229     -0.462966156672     0.550317272509      -0.530590563751     0.550317272509      -0.530590563751     -0.446838215229     -0.462966156672     
9900000000.0        -0.45195922432      -0.463119855034     0.54514690416       -0.531452588807     0.54514690416       -0.531452588807     -0.45195922432      -0.463119855034     
10000000000.0       -0.45704043796      -0.463216341821     0.540015783948      -0.532257931048     0.540015783948      -0.532257931048     -0.45704043796      -0.463216341821     
