# Hz S RI R 50.00 
100000000.0         -0.00538701372208   -0.0727828412996    0.994559454986      -0.0729758814328    0.994559454986      -0.0729758814328    -0.00538701372208   -0.0727828412996    
200000000.0         -0.0211380651714    -0.143242172815     0.978807981285      -0.143628296584     0.978807981285      -0.143628296584     -0.0211380651714    -0.143242172815     
300000000.0         -0.0462599217326    -0.20931738259      0.953685756698      -0.209896656939     0.953685756698      -0.209896656939     -0.0462599217326    -0.20931738259      
400000000.0         -0.0793064048506    -0.269373384185     0.920638913733      -0.270145894353     0.920638913733      -0.270145894353     -0.0793064048506    -0.269373384185     
500000000.0         -0.118546686399     -0.322304321024     0.881398262832      -0.323270167823     0.881398262832      -0.323270167823     -0.118546686399     -0.322304321024     
600000000.0         -0.16216618573      -0.367549077779     0.837778375628      -0.368708375732     0.837778375628      -0.368708375732     -0.16216618573      -0.367549077779     
700000000.0         -0.208436895491     -0.405034208189     0.791507254137      -0.406387084094     0.791507254137      -0.406387084094     -0.208436895491     -0.405034208189     
800000000.0         -0.255836310164     -0.435072194052     0.744107400398      -0.436618785822     0.744107400398      -0.436618785822     -0.255836310164     -0.435072194052     
900000000.0         -0.303111150092     -0.458243924272     0.696832091643      -0.459984379952     0.696832091643      -0.459984379952     -0.303111150092     -0.458243924272     
1000000000.0        -0.34929414297      -0.475287650365     0.650648598396      -0.47722212728      0.650648598396      -0.47722212728      -0.34929414297      -0.475287650365     
1100000000.0        -0.393687651715     -0.487007362935     0.60625455638       -0.489136026935     0.60625455638       -0.489136026935     -0.393687651715     -0.487007362935     
1200000000.0        -0.435828197589     -0.4942052172       0.564113443253      -0.496528241987     0.564113443253      -0.496528241987     -0.435828197589     -0.4942052172       
1300000000.0        -0.475443231404     -0.49763697026      0.524497807329      -0.500154536781     0.524497807329      -0.500154536781     -0.475443231404     -0.49763697026      
1400000000.0        -0.512407881637     -0.49798646048      0.487532519399      -0.500698756373     0.487532519399      -0.500698756373     -0.512407881637     -0.49798646048      
1500000000.0        -0.546706100322     -0.495854270298     0.453233626806      -0.498761489389     0.453233626806      -0.498761489389     -0.546706100322     -0.495854270298     
1600000000.0        -0.578398150519     -0.491756031198     0.421540865951      -0.494858373036     0.421540865951      -0.494858373036     -0.578398150519     -0.491756031198     
1700000000.0        -0.607594781594     -0.486126683703     0.39234348699       -0.489424353138     0.39234348699       -0.489424353138     -0.607594781594     -0.486126683703     
1800000000.0        -0.634437553431     -0.479327972023     0.365499929612      -0.482821178808     0.365499929612      -0.482821178808     -0.634437553431     -0.479327972023     
1900000000.0        -0.6590843787       -0.47165731585      0.340852280759      -0.475346274287     0.340852280759      -0.475346274287     -0.6590843787       -0.47165731585      
2000000000.0        -0.681699261119     -0.463356881812     0.31823653636       -0.467241810415     0.31823653636       -0.467241810415     -0.681699261119     -0.463356881812     
2100000000.0        -0.702445276783     -0.454622169941     0.297489619988      -0.458703291131     0.297489619988      -0.458703291131     -0.702445276783     -0.454622169941     
2200000000.0        -0.721479984545     -0.445609765225     0.278453972485      -0.449887305045     0.278453972485      -0.449887305045     -0.721479984545     -0.445609765225     
2300000000.0        -0.738952607474     -0.436444118332     0.260980370488      -0.440918306185     0.260980370488      -0.440918306185     -0.738952607474     -0.436444118332     
2400000000.0        -0.755002473692     -0.427223347863     0.244929485602      -0.431894416275     0.244929485602      -0.431894416275     -0.755002473692     -0.427223347863     
2500000000.0        -0.769758329973     -0.418024127149     0.230172570789      -0.422892311545     0.230172570789      -0.422892311545     -0.769758329973     -0.418024127149     
2600000000.0        -0.783338242715     -0.408905752236     0.2165915594        -0.41397129074      0.2165915594        -0.41397129074      -0.783338242715     -0.408905752236     
2700000000.0        -0.795849879696     -0.399913498905     0.20407878341       -0.40517663215      0.20407878341       -0.40517663215      -0.795849879696     -0.399913498905     
2800000000.0        -0.807391025869     -0.391081374871     0.192536457632      -0.396542345832     0.192536457632      -0.396542345832     -0.807391025869     -0.391081374871     
2900000000.0        -0.818050230794     -0.38243436493      0.181876032277      -0.388093418767     0.181876032277      -0.388093418767     -0.818050230794     -0.38243436493      
3000000000.0        -0.827907517759     -0.373990255482     0.172017483831      -0.379847639399     0.172017483831      -0.379847639399     -0.827907517759     -0.373990255482     
3100000000.0        -0.837035107977     -0.365761112832     0.162888590863      -0.371817075946     0.162888590863      -0.371817075946     -0.837035107977     -0.365761112832     
3200000000.0        -0.845498129764     -0.357754478146     0.154424224841      -0.364009271375     0.154424224841      -0.364009271375     -0.845498129764     -0.357754478146     
3300000000.0        -0.853355294248     -0.349974331489     0.146565674427      -0.356428207444     0.146565674427      -0.356428207444     -0.853355294248     -0.349974331489     
3400000000.0        -0.860659527128     -0.342421868251     0.139260013713      -0.349075081144     0.139260013713      -0.349075081144     -0.860659527128     -0.342421868251     
3500000000.0        -0.867458551429     -0.335096123491     0.132459519468      -0.34194892905      0.132459519468      -0.34194892905      -0.867458551429     -0.335096123491     
3600000000.0        -0.873795419799     -0.327994473197     0.126121138841      -0.335047128592     0.126121138841      -0.335047128592     -0.873795419799     -0.327994473197     
3700000000.0        -0.879708997202     -0.321113036046     0.120206006665      -0.328365799824     0.120206006665      -0.328365799824     -0.879708997202     -0.321113036046     
3800000000.0        -0.885234396274     -0.314446994801     0.114679010106      -0.321900126828     0.114679010106      -0.321900126828     -0.885234396274     -0.314446994801     
3900000000.0        -0.890403368415     -0.307990852818     0.109508397566      -0.31564461423      0.109508397566      -0.31564461423      -0.890403368415     -0.307990852818     
4000000000.0        -0.895244654099     -0.301738638216     0.104665428372      -0.309593291376     0.104665428372      -0.309593291376     -0.895244654099     -0.301738638216     
4100000000.0        -0.899784295982     -0.295684065819     0.100124059672      -0.303739874285     0.100124059672      -0.303739874285     -0.899784295982     -0.295684065819     
4200000000.0        -0.904045918363     -0.289820665059     0.0958606669726     -0.298077893551     0.0958606669726     -0.298077893551     -0.904045918363     -0.289820665059     
4300000000.0        -0.908050976359     -0.284141880447     0.0918537949595     -0.292600794825     0.0918537949595     -0.292600794825     -0.908050976359     -0.284141880447     
4400000000.0        -0.911818977978     -0.278641149955     0.0880839354326     -0.287302017203     0.0880839354326     -0.287302017203     -0.911818977978     -0.278641149955     
4500000000.0        -0.915367681968     -0.273311965618     0.0845333294472     -0.282175053831     0.0845333294472     -0.282175053831     -0.915367681968     -0.273311965618     
4600000000.0        -0.918713274124     -0.268147919858     0.0811857910151     -0.277213498234     0.0811857910151     -0.277213498234     -0.918713274124     -0.268147919858     
4700000000.0        -0.921870524414     -0.263142740329     0.0780265499734     -0.272411079165     0.0780265499734     -0.272411079165     -0.921870524414     -0.263142740329     
4800000000.0        -0.92485292709      -0.258290315585     0.0750421118757     -0.26776168628      0.0750421118757     -0.26776168628      -0.92485292709      -0.258290315585     
4900000000.0        -0.927672825692     -0.253584713403     0.0722201329874     -0.263259388461     0.0722201329874     -0.263259388461     -0.927672825692     -0.253584713403     
5000000000.0        -0.930341524651     -0.249020193256     0.0695493086796     -0.258898446296     0.0695493086796     -0.258898446296     -0.930341524651     -0.249020193256     
5100000000.0        -0.93286938902      -0.244591214148     0.0670192737057     -0.254673319915     0.0670192737057     -0.254673319915     -0.93286938902      -0.244591214148     
5200000000.0        -0.93526593365      -0.24029243878      0.0646205130174     -0.250578673157     0.0646205130174     -0.250578673157     -0.93526593365      -0.24029243878      
5300000000.0        -0.937539903025     -0.236118734845     0.0623442819331     -0.246609374875     0.0623442819331     -0.246609374875     -0.937539903025     -0.236118734845     
5400000000.0        -0.939699342792     -0.232065174078     0.0601825346069     -0.242760497982     0.0601825346069     -0.242760497982     -0.939699342792     -0.232065174078     
5500000000.0        -0.941751663921     -0.228127029593     0.0581278598698     -0.239027316792     0.0581278598698     -0.239027316792     -0.941751663921     -0.228127029593     
5600000000.0        -0.94370370031      -0.224299771905     0.0561734236238     -0.235405303044     0.0561734236238     -0.235405303044     -0.94370370031      -0.224299771905     
5700000000.0        -0.945561760562     -0.220579063976     0.054312917064      -0.231890120951     0.054312917064      -0.231890120951     -0.945561760562     -0.220579063976     
5800000000.0        -0.947331674576     -0.216960755561     0.0525405100878     -0.22847762155      0.0525405100878     -0.22847762155      -0.947331674576     -0.216960755561     
5900000000.0        -0.949018835517     -0.213440877057     0.0508508093271     -0.225163836548     0.0508508093271     -0.225163836548     -0.949018835517     -0.213440877057     
6000000000.0        -0.950628237659     -0.210015633036     0.0492388203022     -0.221944971857     0.0492388203022     -0.221944971857     -0.950628237659     -0.210015633036     
6100000000.0        -0.952164510553     -0.206681395585     0.0476999132551     -0.21881740094      0.0476999132551     -0.21881740094      -0.952164510553     -0.206681395585     
6200000000.0        -0.953631949905     -0.203434697577     0.0462297922702     -0.215777658077     0.0462297922702     -0.215777658077     -0.953631949905     -0.203434697577     
6300000000.0        -0.955034545517     -0.200272225937     0.044824467337      -0.212822431639     0.044824467337      -0.212822431639     -0.955034545517     -0.200272225937     
6400000000.0        -0.956376006587     -0.197190814991     0.0434802290443     -0.209948557433     0.0434802290443     -0.209948557433     -0.956376006587     -0.197190814991     
6500000000.0        -0.957659784657     -0.194187439924     0.0421936256357     -0.207153012161     0.0421936256357     -0.207153012161     -0.957659784657     -0.194187439924     
6600000000.0        -0.958889094442     -0.191259210399     0.0409614421816     -0.204432907043     0.0409614421816     -0.204432907043     -0.958889094442     -0.191259210399     
6700000000.0        -0.960066932753     -0.188403364365     0.0397806816541     -0.201785481624     0.0397806816541     -0.201785481624     -0.960066932753     -0.188403364365     
6800000000.0        -0.96119609571      -0.185617262063     0.0386485477115     -0.199208097779     0.0386485477115     -0.199208097779     -0.96119609571      -0.185617262063     
6900000000.0        -0.962279194424     -0.182898380252     0.037562429022      -0.196698233943     0.037562429022      -0.196698233943     -0.962279194424     -0.182898380252     
7000000000.0        -0.963318669283     -0.180244306662     0.0365198849748     -0.194253479561     0.0365198849748     -0.194253479561     -0.963318669283     -0.180244306662     
7100000000.0        -0.964316802987     -0.177652734672     0.0355186326418     -0.191871529769     0.0355186326418     -0.191871529769     -0.964316802987     -0.177652734672     
7200000000.0        -0.965275732463     -0.17512145822      0.0345565348693     -0.189550180304     0.0345565348693     -0.189550180304     -0.965275732463     -0.17512145822      
7300000000.0        -0.966197459747     -0.172648366943     0.0336315893899     -0.187287322644     0.0336315893899     -0.187287322644     -0.966197459747     -0.172648366943     
7400000000.0        -0.967083861949     -0.170231441537     0.0327419188592     -0.185080939366     0.0327419188592     -0.185080939366     -0.967083861949     -0.170231441537     
7500000000.0        -0.967936700384     -0.167868749339     0.0318857617286     -0.182929099735     0.0318857617286     -0.182929099735     -0.967936700384     -0.167868749339     
7600000000.0        -0.968757628935     -0.165558440122     0.0310614638761     -0.180829955489     0.0310614638761     -0.180829955489     -0.968757628935     -0.165558440122     
7700000000.0        -0.969548201736     -0.163298742096     0.0302674709262     -0.17878173685      0.0302674709262     -0.17878173685      -0.969548201736     -0.163298742096     
7800000000.0        -0.970309880229     -0.161087958104     0.029502321195      -0.176782748715     0.029502321195      -0.176782748715     -0.970309880229     -0.161087958104     
7900000000.0        -0.971044039645     -0.158924462018     0.0287646392032     -0.174831367052     0.0287646392032     -0.174831367052     -0.971044039645     -0.158924462018     
8000000000.0        -0.971751974979     -0.156806695307     0.0280531297075     -0.172926035468     0.0280531297075     -0.172926035468     -0.971751974979     -0.156806695307     
8100000000.0        -0.972434906485     -0.154733163783     0.0273665722023     -0.171065261961     0.0273665722023     -0.171065261961     -0.972434906485     -0.154733163783     
8200000000.0        -0.973093984744     -0.152702434522     0.0267038158522     -0.16924761583      0.0267038158522     -0.16924761583      -0.973093984744     -0.152702434522     
8300000000.0        -0.973730295338     -0.15071313293      0.0260637748162     -0.167471724753     0.0260637748162     -0.167471724753     -0.973730295338     -0.15071313293      
8400000000.0        -0.974344863171     -0.148763939972     0.0254454239306     -0.165736272005     0.0254454239306     -0.165736272005     -0.974344863171     -0.148763939972     
8500000000.0        -0.974938656454     -0.146853589537     0.0248477947192     -0.164039993831     0.0248477947192     -0.164039993831     -0.974938656454     -0.146853589537     
8600000000.0        -0.975512590399     -0.144980865942     0.0242699717038     -0.162381676946     0.0242699717038     -0.162381676946     -0.975512590399     -0.144980865942     
8700000000.0        -0.976067530632     -0.143144601567     0.0237110889886     -0.160760156173     0.0237110889886     -0.160760156173     -0.976067530632     -0.143144601567     
8800000000.0        -0.976604296354     -0.141343674608     0.0231703270973     -0.159174312193     0.0231703270973     -0.159174312193     -0.976604296354     -0.141343674608     
8900000000.0        -0.977123663279     -0.139577006954     0.0226469100403     -0.157623069419     0.0226469100403     -0.157623069419     -0.977123663279     -0.139577006954     
9000000000.0        -0.977626366349     -0.13784356216      0.0221401025944     -0.15610539398      0.0221401025944     -0.15610539398      -0.977626366349     -0.13784356216      
9100000000.0        -0.978113102263     -0.136142343543     0.0216492077773     -0.154620291803     0.0216492077773     -0.154620291803     -0.978113102263     -0.136142343543     
9200000000.0        -0.978584531821     -0.134472392357     0.0211735645011     -0.153166806799     0.0211735645011     -0.153166806799     -0.978584531821     -0.134472392357     
9300000000.0        -0.979041282108     -0.132832786076     0.0207125453913     -0.151744019139     0.0207125453913     -0.151744019139     -0.979041282108     -0.132832786076     
9400000000.0        -0.979483948519     -0.131222636755     0.0202655547571     -0.15035104362      0.0202655547571     -0.15035104362      -0.979483948519     -0.131222636755     
9500000000.0        -0.979913096652     -0.129641089484     0.019832026702      -0.148987028113     0.019832026702      -0.148987028113     -0.979913096652     -0.129641089484     
9600000000.0        -0.980329264069     -0.128087320909     0.0194114233639     -0.147651152091     0.0194114233639     -0.147651152091     -0.980329264069     -0.128087320909     
9700000000.0        -0.980732961931     -0.126560537837     0.0190032332743     -0.146342625226     0.0190032332743     -0.146342625226     -0.980732961931     -0.126560537837     
9800000000.0        -0.981124676535     -0.125059975908     0.0186069698272     -0.145060686068     0.0186069698272     -0.145060686068     -0.981124676535     -0.125059975908     
9900000000.0        -0.981504870739     -0.123584898331     0.0182221698508     -0.143804600778     0.0182221698508     -0.143804600778     -0.981504870739     -0.123584898331     
10000000000.0       -0.981873985298     -0.122134594689     0.017848392273      -0.14257366193      0.017848392273      -0.14257366193      -0.981873985298     -0.122134594689     
