# Hz S RI R 50.00 
100000000.0         0.00240775058609    -0.00169136654789   0.99756738359       -0.00432570077013   0.99756738359       -0.00432570077013   0.00240775058609    -0.00169136654789   
200000000.0         0.00239913595222    -0.00338265758733   0.997515898822      -0.00865115401642   0.997515898822      -0.00865115401642   0.00239913595222    -0.00338265758733   
300000000.0         0.00237166288186    -0.00507370822216   0.997447042864      -0.0129762584973    0.997447042864      -0.0129762584973    0.00237166288186    -0.00507370822216   
400000000.0         0.00232742469091    -0.00676437458092   0.997358729003      -0.0173008890511    0.997358729003      -0.0173008890511    0.00232742469091    -0.00676437458092   
500000000.0         0.00226722982929    -0.0084545173809    0.997250158019      -0.021624914547     0.997250158019      -0.021624914547     0.00226722982929    -0.0084545173809    
600000000.0         0.00219149370156    -0.010143999283     0.997120926378      -0.0259482010806    0.997120926378      -0.0259482010806    0.00219149370156    -0.010143999283     
700000000.0         0.0021004652127     -0.0118326839866    0.996970799684      -0.0302706131759    0.996970799684      -0.0302706131759    0.0021004652127     -0.0118326839866    
800000000.0         0.00199430939338    -0.0135204358334    0.996799630064      -0.0345920143701    0.996799630064      -0.0345920143701    0.00199430939338    -0.0135204358334    
900000000.0         0.00187314416418    -0.0152071196117    0.996607319404      -0.0389122675465    0.996607319404      -0.0389122675465    0.00187314416418    -0.0152071196117    
1000000000.0        0.001737058958      -0.0168926004506    0.996393800733      -0.0432312351433    0.996393800733      -0.0432312351433    0.001737058958      -0.0168926004506    
1100000000.0        0.00158612506472    -0.0185767437639    0.996159027877      -0.0475487792975    0.996159027877      -0.0475487792975    0.00158612506472    -0.0185767437639    
1200000000.0        0.00142040179073    -0.0202594152188    0.995902969302      -0.0518647619476    0.995902969302      -0.0518647619476    0.00142040179073    -0.0202594152188    
1300000000.0        0.00123994033104    -0.0219404807214    0.995625604241      -0.0561790449134    0.995625604241      -0.0561790449134    0.00123994033104    -0.0219404807214    
1400000000.0        0.00104478631191    -0.0236198064115    0.995326920147      -0.0604914899587    0.995326920147      -0.0604914899587    0.00104478631191    -0.0236198064115    
1500000000.0        0.000834981521641   -0.0252972586641    0.995006910965      -0.0648019588435    0.995006910965      -0.0648019588435    0.000834981521641   -0.0252972586641    
1600000000.0        0.000610565124483   -0.026972704095     0.994665575915      -0.0691103133674    0.994665575915      -0.0691103133674    0.000610565124483   -0.026972704095     
1700000000.0        0.000371574533974   -0.0286460095694    0.994302918608      -0.0734164154089    0.994302918608      -0.0734164154089    0.000371574533974   -0.0286460095694    
1800000000.0        0.00011804605509    -0.0303170422128    0.99391894641       -0.0777201269585    0.99391894641       -0.0777201269585    0.00011804605509    -0.0303170422128    
1900000000.0        -0.000149984634662  -0.0319856694226    0.993513669946      -0.0820213101503    0.993513669946      -0.0820213101503    -0.000149984634662  -0.0319856694226    
2000000000.0        -0.000432482118886  -0.0336517588819    0.993087102735      -0.0863198272897    0.993087102735      -0.0863198272897    -0.000432482118886  -0.0336517588819    
2100000000.0        -0.000729410959326  -0.0353151785729    0.992639260898      -0.0906155408802    0.992639260898      -0.0906155408802    -0.000729410959326  -0.0353151785729    
2200000000.0        -0.00104073547459   -0.0369757967914    0.992170162929      -0.0949083136474    0.992170162929      -0.0949083136474    -0.00104073547459   -0.0369757967914    
2300000000.0        -0.00136641956527   -0.0386334821622    0.991679829514      -0.0991980085631    0.991679829514      -0.0991980085631    -0.00136641956527   -0.0386334821622    
2400000000.0        -0.00170642657435   -0.0402881036535    0.991168283385      -0.103484488867     0.991168283385      -0.103484488867     -0.00170642657435   -0.0402881036535    
2500000000.0        -0.00206071917506   -0.0419395305929    0.990635549194      -0.107767618087     0.990635549194      -0.107767618087     -0.00206071917506   -0.0419395305929    
2600000000.0        -0.00242925928      -0.0435876326824    0.990081653418      -0.112047260064     0.990081653418      -0.112047260064     -0.00242925928      -0.0435876326824    
2700000000.0        -0.00281200796724   -0.0452322800144    0.989506624274      -0.116323278965     0.989506624274      -0.116323278965     -0.00281200796724   -0.0452322800144    
2800000000.0        -0.00320892541983   -0.0468733430869    0.988910491648      -0.120595539307     0.988910491648      -0.120595539307     -0.00320892541983   -0.0468733430869    
2900000000.0        -0.00361997087635   -0.0485106928194    0.988293287033      -0.124863905976     0.988293287033      -0.124863905976     -0.00361997087634   -0.0485106928194    
3000000000.0        -0.00404510259014   -0.0501442005686    0.987655043481      -0.129128244243     0.987655043481      -0.129128244243     -0.00404510259014   -0.0501442005686    
3100000000.0        -0.00448427779602   -0.0517737381436    0.986995795553      -0.133388419782     0.986995795553      -0.133388419782     -0.00448427779602   -0.0517737381436    
3200000000.0        -0.00493745268281   -0.0533991778219    0.986315579284      -0.137644298691     0.986315579284      -0.137644298691     -0.00493745268281   -0.0533991778219    
3300000000.0        -0.00540458237108   -0.0550203923646    0.985614432144      -0.141895747504     0.985614432144      -0.141895747504     -0.00540458237108   -0.0550203923646    
3400000000.0        -0.00588562089494   -0.0566372550316    0.984892393011      -0.14614263321      0.984892393011      -0.14614263321      -0.00588562089494   -0.0566372550316    
3500000000.0        -0.00638052118754   -0.0582496395974    0.984149502137      -0.150384823272     0.984149502137      -0.150384823272     -0.00638052118754   -0.0582496395974    
3600000000.0        -0.00688923506949   -0.0598574203658    0.983385801127      -0.15462218564      0.983385801127      -0.15462218564      -0.00688923506949   -0.0598574203658    
3700000000.0        -0.00741171323994   -0.0614604721854    0.982601332914      -0.158854588767     0.982601332914      -0.158854588767     -0.00741171323994   -0.0614604721854    
3800000000.0        -0.00794790526993   -0.0630586704643    0.981796141737      -0.163081901627     0.981796141737      -0.163081901627     -0.00794790526993   -0.0630586704643    
3900000000.0        -0.00849775959757   -0.064651891185     0.98097027312       -0.167303993729     0.98097027312       -0.167303993729     -0.00849775959757   -0.064651891185     
4000000000.0        -0.00906122352507   -0.0662400109192    0.980123773854      -0.171520735132     0.980123773854      -0.171520735132     -0.00906122352507   -0.0662400109192    
4100000000.0        -0.00963824321711   -0.0678229068423    0.979256691979      -0.175731996461     0.979256691979      -0.175731996461     -0.00963824321711   -0.0678229068423    
4200000000.0        -0.0102287637006    -0.0694004567481    0.978369076768      -0.179937648921     0.978369076768      -0.179937648921     -0.0102287637006    -0.0694004567481    
4300000000.0        -0.0108327288656    -0.0709725390627    0.977460978707      -0.184137564311     0.977460978707      -0.184137564311     -0.0108327288656    -0.0709725390627    
4400000000.0        -0.0114500814672    -0.0725390328591    0.976532449483      -0.18833161504      0.976532449483      -0.18833161504      -0.0114500814672    -0.0725390328591    
4500000000.0        -0.0120807631284    -0.074099817871     0.975583541967      -0.192519674141     0.975583541967      -0.192519674141     -0.0120807631284    -0.074099817871     
4600000000.0        -0.0127247143441    -0.0756547745065    0.974614310201      -0.196701615282     0.974614310201      -0.196701615282     -0.0127247143441    -0.0756547745065    
4700000000.0        -0.0133818744849    -0.0772037838623    0.973624809382      -0.200877312783     0.973624809382      -0.200877312783     -0.0133818744849    -0.0772037838623    
4800000000.0        -0.0140521818028    -0.0787467277366    0.972615095846      -0.205046641629     0.972615095846      -0.205046641629     -0.0140521818028    -0.0787467277366    
4900000000.0        -0.0147355734366    -0.0802834886433    0.97158522706       -0.209209477481     0.97158522706       -0.209209477481     -0.0147355734366    -0.0802834886433    
5000000000.0        -0.0154319854187    -0.0818139498243    0.970535261602      -0.213365696693     0.970535261602      -0.213365696693     -0.0154319854187    -0.0818139498243    
5100000000.0        -0.0161413526812    -0.0833379952633    0.969465259153      -0.217515176321     0.969465259153      -0.217515176321     -0.0161413526812    -0.0833379952633    
5200000000.0        -0.0168636090639    -0.0848555096982    0.968375280479      -0.221657794137     0.968375280479      -0.221657794137     -0.0168636090639    -0.0848555096982    
5300000000.0        -0.0175986873216    -0.0863663786341    0.967265387421      -0.225793428642     0.967265387421      -0.225793428642     -0.0175986873216    -0.0863663786341    
5400000000.0        -0.0183465191324    -0.0878704883555    0.96613564288       -0.229921959079     0.96613564288       -0.229921959079     -0.0183465191324    -0.0878704883555    
5500000000.0        -0.0191070351066    -0.0893677259389    0.964986110804      -0.234043265444     0.964986110804      -0.234043265444     -0.0191070351066    -0.0893677259389    
5600000000.0        -0.0198801647949    -0.0908579792652    0.963816856179      -0.238157228496     0.963816856179      -0.238157228496     -0.0198801647949    -0.0908579792652    
5700000000.0        -0.0206658366984    -0.0923411370308    0.962627945007      -0.242263729772     0.962627945007      -0.242263729772     -0.0206658366984    -0.0923411370308    
5800000000.0        -0.0214639782776    -0.0938170887603    0.961419444303      -0.246362651596     0.961419444303      -0.246362651596     -0.0214639782776    -0.0938170887603    
5900000000.0        -0.0222745159625    -0.0952857248176    0.960191422076      -0.250453877094     0.960191422076      -0.250453877094     -0.0222745159625    -0.0952857248176    
6000000000.0        -0.0230973751626    -0.0967469364175    0.958943947317      -0.254537290198     0.958943947317      -0.254537290198     -0.0230973751626    -0.0967469364175    
6100000000.0        -0.0239324802774    -0.0982006156367    0.957677089985      -0.258612775664     0.957677089985      -0.258612775664     -0.0239324802774    -0.0982006156367    
6200000000.0        -0.024779754707     -0.0996466554251    0.956390920997      -0.262680219079     0.956390920997      -0.262680219079     -0.024779754707     -0.0996466554251    
6300000000.0        -0.0256391208629    -0.101084949616     0.955085512214      -0.26673950687      0.955085512214      -0.26673950687      -0.0256391208629    -0.101084949616     
6400000000.0        -0.026510500179     -0.102515392938     0.953760936422      -0.270790526319     0.953760936422      -0.270790526319     -0.026510500179     -0.102515392938     
6500000000.0        -0.0273938131232    -0.103937881024     0.95241726733       -0.274833165569     0.95241726733       -0.274833165569     -0.0273938131232    -0.103937881024     
6600000000.0        -0.0282889792085    -0.105352310422     0.951054579544      -0.278867313634     0.951054579544      -0.278867313634     -0.0282889792085    -0.105352310422     
6700000000.0        -0.0291959170048    -0.106758578605     0.949672948565      -0.282892860409     0.949672948565      -0.282892860409     -0.0291959170048    -0.106758578605     
6800000000.0        -0.0301145441509    -0.10815658398      0.948272450766      -0.286909696681     0.948272450766      -0.286909696681     -0.0301145441509    -0.10815658398      
6900000000.0        -0.0310447773662    -0.109546225901     0.946853163386      -0.290917714137     0.946853163386      -0.290917714137     -0.0310447773662    -0.109546225901     
7000000000.0        -0.0319865324634    -0.110927404674     0.945415164513      -0.294916805371     0.945415164513      -0.294916805371     -0.0319865324634    -0.110927404674     
7100000000.0        -0.0329397243599    -0.112300021569     0.943958533071      -0.298906863895     0.943958533071      -0.298906863895     -0.0329397243599    -0.112300021569     
7200000000.0        -0.0339042670914    -0.113663978825     0.942483348804      -0.302887784146     0.942483348804      -0.302887784146     -0.0339042670914    -0.113663978825     
7300000000.0        -0.0348800738236    -0.115019179666     0.940989692268      -0.306859461496     0.940989692268      -0.306859461496     -0.0348800738236    -0.115019179666     
7400000000.0        -0.0358670568652    -0.116365528303     0.939477644811      -0.310821792258     0.939477644811      -0.310821792258     -0.0358670568652    -0.116365528303     
7500000000.0        -0.0368651276811    -0.117702929945     0.937947288565      -0.314774673695     0.937947288565      -0.314774673695     -0.0368651276811    -0.117702929945     
7600000000.0        -0.0378741969047    -0.119031290806     0.936398706426      -0.318718004026     0.936398706426      -0.318718004026     -0.0378741969047    -0.119031290806     
7700000000.0        -0.0388941743516    -0.120350518116     0.934831982047      -0.322651682437     0.934831982047      -0.322651682437     -0.0388941743516    -0.120350518116     
7800000000.0        -0.0399249690325    -0.121660520122     0.933247199818      -0.326575609082     0.933247199818      -0.326575609082     -0.0399249690325    -0.121660520122     
7900000000.0        -0.0409664891663    -0.122961206105     0.931644444854      -0.330489685097     0.931644444854      -0.330489685097     -0.0409664891663    -0.122961206105     
8000000000.0        -0.0420186421938    -0.124252486378     0.930023802983      -0.3343938126       0.930023802983      -0.3343938126       -0.0420186421938    -0.124252486378     
8100000000.0        -0.043081334791     -0.125534272298     0.92838536073       -0.338287894704     0.92838536073       -0.338287894704     -0.043081334791     -0.125534272298     
8200000000.0        -0.0441544728827    -0.126806476274     0.926729205304      -0.342171835516     0.926729205304      -0.342171835516     -0.0441544728827    -0.126806476274     
8300000000.0        -0.0452379616557    -0.128069011769     0.925055424582      -0.346045540148     0.925055424582      -0.346045540148     -0.0452379616557    -0.128069011769     
8400000000.0        -0.0463317055733    -0.12932179331      0.923364107095      -0.349908914724     0.923364107095      -0.349908914724     -0.0463317055733    -0.12932179331      
8500000000.0        -0.0474356083883    -0.130564736492     0.921655342018      -0.35376186638      0.921655342018      -0.35376186638      -0.0474356083883    -0.130564736492     
8600000000.0        -0.048549573157     -0.131797757986     0.91992921915       -0.357604303272     0.91992921915       -0.357604303272     -0.048549573157     -0.131797757986     
8700000000.0        -0.0496735022533    -0.133020775544     0.918185828902      -0.361436134585     0.918185828902      -0.361436134585     -0.0496735022533    -0.133020775544     
8800000000.0        -0.0508072973824    -0.134233708003     0.916425262285      -0.365257270531     0.916425262285      -0.365257270531     -0.0508072973824    -0.134233708003     
8900000000.0        -0.0519508595946    -0.135436475293     0.914647610893      -0.369067622357     0.914647610893      -0.369067622357     -0.0519508595946    -0.135436475293     
9000000000.0        -0.0531040892999    -0.13662899844      0.912852966888      -0.372867102352     0.912852966888      -0.372867102352     -0.0531040892999    -0.13662899844      
9100000000.0        -0.0542668862811    -0.137811199571     0.911041422988      -0.376655623846     0.911041422988      -0.376655623846     -0.0542668862811    -0.137811199571     
9200000000.0        -0.0554391497087    -0.138983001919     0.909213072453      -0.380433101218     0.909213072453      -0.380433101218     -0.0554391497087    -0.138983001919     
9300000000.0        -0.0566207781547    -0.140144329829     0.907368009066      -0.384199449898     0.907368009066      -0.384199449898     -0.0566207781547    -0.140144329829     
9400000000.0        -0.0578116696065    -0.141295108759     0.905506327126      -0.387954586371     0.905506327126      -0.387954586371     -0.0578116696065    -0.141295108759     
9500000000.0        -0.0590117214814    -0.142435265287     0.903628121428      -0.391698428179     0.903628121428      -0.391698428179     -0.0590117214814    -0.142435265287     
9600000000.0        -0.0602208306404    -0.143564727113     0.901733487248      -0.395430893927     0.901733487248      -0.395430893927     -0.0602208306404    -0.143564727113     
9700000000.0        -0.0614388934028    -0.144683423064     0.899822520334      -0.399151903284     0.899822520334      -0.399151903284     -0.0614388934028    -0.144683423064     
9800000000.0        -0.0626658055599    -0.145791283096     0.897895316887      -0.402861376984     0.897895316887      -0.402861376984     -0.0626658055599    -0.145791283096     
9900000000.0        -0.0639014623896    -0.146888238297     0.89595197355       -0.406559236834     0.89595197355       -0.406559236834     -0.0639014623896    -0.146888238297     
10000000000.0       -0.06514575867      -0.147974220891     0.893992587389      -0.410245405708     0.893992587389      -0.410245405708     -0.06514575867      -0.147974220891     
