# Hz S RI R 50.00 
100000000.0         0.0109271897457     0.00366606661435    0.989065145372      -0.00649257750943   0.989065145372      -0.00649257750943   0.0109271897457     0.00366606661435    
200000000.0         0.0110700225384     0.00732995126785    0.988907628199      -0.0129830246876    0.988907628199      -0.0129830246876    0.0110700225384     0.00732995126785    
300000000.0         0.0112419365376     0.0109915210367     0.988713008775      -0.019471246197     0.988713008775      -0.019471246197     0.0112419365376     0.0109915210367     
400000000.0         0.0114522694665     0.0146502558467     0.988471947405      -0.025956752418     0.988471947405      -0.025956752418     0.0114522694665     0.0146502558467     
500000000.0         0.0117045815225     0.0183055464225     0.988180881484      -0.0324389608879    0.988180881484      -0.0324389608879    0.0117045815225     0.0183055464225     
600000000.0         0.0120006509396     0.021956744882      0.987838029946      -0.0389172481269    0.987838029946      -0.0389172481269    0.0120006509396     0.021956744882      
700000000.0         0.0123414896014     0.0256031830929     0.987442377658      -0.0453909686246    0.987442377658      -0.0453909686246    0.0123414896014     0.0256031830929     
800000000.0         0.0127277136616     0.0292441813369     0.986993304813      -0.0518594638829    0.986993304813      -0.0518594638829    0.0127277136616     0.0292441813369     
900000000.0         0.0131597085489     0.0328790530918     0.986490421935      -0.0583220674488    0.986490421935      -0.0583220674488    0.0131597085489     0.0328790530918     
1000000000.0        0.0136377126093     0.0365071079761     0.985933486241      -0.0647781080349    0.985933486241      -0.0647781080349    0.0136377126093     0.0365071079761     
1100000000.0        0.0141618636185     0.0401276537181     0.98532235514       -0.0712269116204    0.98532235514       -0.0712269116204    0.0141618636185     0.0401276537181     
1200000000.0        0.0147322265185     0.0437399975653     0.9846569585        -0.0776678029599    0.9846569585        -0.0776678029599    0.0147322265185     0.0437399975653     
1300000000.0        0.0153488108959     0.0473434473487     0.983937281178      -0.0841001067274    0.983937281178      -0.0841001067274    0.0153488108959     0.0473434473487     
1400000000.0        0.0160115824999     0.0509373123264     0.983163351507      -0.0905231484232    0.983163351507      -0.0905231484232    0.0160115824999     0.0509373123264     
1500000000.0        0.0167204711228     0.0545209038762     0.982335233418      -0.0969362551196    0.982335233418      -0.0969362551196    0.0167204711228     0.0545209038762     
1600000000.0        0.0174753761674     0.0580935360847     0.981453020878      -0.103338756093     0.981453020878      -0.103338756093     0.0174753761674     0.0580935360847     
1700000000.0        0.0182761706945     0.0616545262611     0.980516833852      -0.109729983376     0.980516833852      -0.109729983376     0.0182761706945     0.0616545262611     
1800000000.0        0.0191227044388     0.0652031953936     0.979526815281      -0.116109272245     0.979526815281      -0.116109272245     0.0191227044388     0.0652031953936     
1900000000.0        0.0200148061104     0.068738868565      0.978483128793      -0.122475961662     0.978483128793      -0.122475961662     0.0200148061104     0.068738868565      
2000000000.0        0.0209522851889     0.0722608753331     0.977385956906      -0.128829394681     0.977385956906      -0.128829394681     0.0209522851889     0.0722608753331     
2100000000.0        0.0219349333505     0.0757685500852     0.976235499608      -0.135168918822     0.976235499608      -0.135168918822     0.0219349333505     0.0757685500852     
2200000000.0        0.0229625256262     0.0792612323699     0.9750319732        -0.141493886424     0.9750319732        -0.141493886424     0.0229625256262     0.0792612323699     
2300000000.0        0.0240348213582     0.0827382672107     0.97377560934       -0.147803654971     0.97377560934       -0.147803654971     0.0240348213582     0.0827382672107     
2400000000.0        0.0251515650064     0.0861990054035     0.972466654245      -0.154097587408     0.972466654245      -0.154097587408     0.0251515650064     0.0861990054035     
2500000000.0        0.0263124868379     0.0896428037996     0.971105367995      -0.160375052436     0.971105367995      -0.160375052436     0.0263124868379     0.0896428037996     
2600000000.0        0.0275173035281     0.0930690255772     0.969692023944      -0.166635424794     0.969692023944      -0.166635424794     0.0275173035281     0.0930690255772     
2700000000.0        0.0287657186928     0.0964770405004     0.96822690818       -0.172878085534     0.96822690818       -0.172878085534     0.0287657186928     0.0964770405004     
2800000000.0        0.030057423366      0.0998662251685     0.966710319056      -0.179102422273     0.966710319056      -0.179102422273     0.030057423366      0.0998662251685     
2900000000.0        0.0313920964346     0.103235963255      0.965142566754      -0.185307829447     0.965142566754      -0.185307829447     0.0313920964346     0.103235963255      
3000000000.0        0.0327694050409     0.106585645739      0.963523972886      -0.191493708547     0.963523972886      -0.191493708547     0.0327694050409     0.106585645739      
3100000000.0        0.0341890049564     0.109914671122      0.961854870119      -0.197659468346     0.961854870119      -0.197659468346     0.0341890049564     0.109914671122      
3200000000.0        0.0356505409359     0.113222445647      0.960135601823      -0.203804525122     0.960135601823      -0.203804525122     0.0356505409359     0.113222445647      
3300000000.0        0.0371536470534     0.116508383496      0.95836652174       -0.209928302867     0.95836652174       -0.209928302867     0.0371536470534     0.116508383496      
3400000000.0        0.0386979470248     0.11977190699       0.956547993656      -0.216030233488     0.956547993656      -0.216030233488     0.0386979470248     0.11977190699       
3500000000.0        0.0402830545195     0.123012446777      0.954680391096      -0.222109757        0.954680391096      -0.222109757        0.0402830545195     0.123012446777      
3600000000.0        0.041908573463      0.126229442011      0.95276409702       -0.228166321715     0.95276409702       -0.228166321715     0.041908573463      0.126229442011      
3700000000.0        0.0435740983325     0.129422340523      0.950799503529      -0.234199384416     0.950799503529      -0.234199384416     0.0435740983325     0.129422340523      
3800000000.0        0.0452792144466     0.132590598991      0.948787011573      -0.240208410525     0.948787011573      -0.240208410525     0.0452792144466     0.132590598991      
3900000000.0        0.0470234982503     0.135733683092      0.946727030674      -0.24619287427      0.946727030674      -0.24619287427      0.0470234982503     0.135733683092      
4000000000.0        0.0488065175963     0.138851067654      0.944619978637      -0.252152258831     0.944619978637      -0.252152258831     0.0488065175963     0.138851067654      
4100000000.0        0.0506278320228     0.141942236799      0.942466281279      -0.258086056491     0.942466281279      -0.258086056491     0.0506278320228     0.141942236799      
4200000000.0        0.0524869930295     0.145006684075      0.940266372151      -0.263993768773     0.940266372151      -0.263993768773     0.0524869930295     0.145006684075      
4300000000.0        0.0543835443504     0.148043912587      0.938020692266      -0.269874906568     0.938020692266      -0.269874906568     0.0543835443504     0.148043912587      
4400000000.0        0.0563170222259     0.151053435114      0.935729689825      -0.275728990261     0.935729689825      -0.275728990261     0.0563170222259     0.151053435114      
4500000000.0        0.0582869556724     0.154034774223      0.933393819953      -0.281555549844     0.933393819953      -0.281555549844     0.0582869556724     0.154034774223      
4600000000.0        0.0602928667511     0.156987462376      0.931013544427      -0.287354125023     0.931013544427      -0.287354125023     0.0602928667511     0.156987462376      
4700000000.0        0.062334270835      0.159911042024      0.928589331409      -0.293124265323     0.928589331409      -0.293124265323     0.062334270835      0.159911042024      
4800000000.0        0.0644106768757     0.162805065702      0.926121655181      -0.298865530175     0.926121655181      -0.298865530175     0.0644106768757     0.162805065702      
4900000000.0        0.0665215876675     0.165669096109      0.923610995878      -0.304577489004     0.923610995878      -0.304577489004     0.0665215876675     0.165669096109      
5000000000.0        0.0686665001122     0.168502706188      0.921057839229      -0.310259721309     0.921057839229      -0.310259721309     0.0686665001122     0.168502706188      
5100000000.0        0.070844905481      0.171305479196      0.91846267629       -0.315911816732     0.91846267629       -0.315911816732     0.070844905481      0.171305479196      
5200000000.0        0.0730562896765     0.174077008761      0.915826003183      -0.321533375123     0.915826003183      -0.321533375123     0.0730562896765     0.174077008761      
5300000000.0        0.0753001334928     0.176816898946      0.913148320839      -0.327124006597     0.913148320839      -0.327124006597     0.0753001334928     0.176816898946      
5400000000.0        0.0775759128745     0.179524764289      0.910430134734      -0.332683331583     0.910430134734      -0.332683331583     0.0775759128745     0.179524764289      
5500000000.0        0.0798830991739     0.182200229853      0.907671954635      -0.338210980868     0.907671954635      -0.338210980868     0.0798830991739     0.182200229853      
5600000000.0        0.0822211594075     0.184842931256      0.904874294342      -0.343706595635     0.904874294342      -0.343706595635     0.0822211594075     0.184842931256      
5700000000.0        0.0845895565099     0.187452514703      0.902037671437      -0.349169827488     0.902037671437      -0.349169827488     0.0845895565099     0.187452514703      
5800000000.0        0.0869877495868     0.190028637003      0.899162607025      -0.354600338481     0.899162607025      -0.354600338481     0.0869877495868     0.190028637003      
5900000000.0        0.0894151941655     0.192570965594      0.896249625488      -0.359997801128     0.896249625488      -0.359997801128     0.0894151941655     0.192570965594      
6000000000.0        0.0918713424441     0.195079178542      0.893299254232      -0.365361898418     0.893299254232      -0.365361898418     0.0918713424441     0.195079178542      
6100000000.0        0.0943556435382     0.197552964551      0.890312023445      -0.370692323817     0.890312023445      -0.370692323817     0.0943556435382     0.197552964551      
6200000000.0        0.0968675437251     0.199992022957      0.887288465845      -0.375988781262     0.887288465845      -0.375988781262     0.0968675437251     0.199992022957      
6300000000.0        0.099406486687      0.202396063721      0.884229116444      -0.381250985161     0.884229116444      -0.381250985161     0.099406486687      0.202396063721      
6400000000.0        0.10197191375       0.204764807413      0.881134512304      -0.386478660367     0.881134512304      -0.386478660367     0.10197191375       0.204764807413      
6500000000.0        0.104563264121      0.207097985188      0.878005192299      -0.391671542167     0.878005192299      -0.391671542167     0.104563264121      0.207097985188      
6600000000.0        0.107179975124      0.209395338767      0.874841696881      -0.39682937625      0.874841696881      -0.39682937625      0.107179975124      0.209395338767      
6700000000.0        0.10982148243       0.211656620398      0.871644567848      -0.401951918678     0.871644567848      -0.401951918678     0.10982148243       0.211656620398      
6800000000.0        0.112487220289      0.213881592821      0.868414348113      -0.407038935845     0.868414348113      -0.407038935845     0.112487220289      0.213881592821      
6900000000.0        0.115176621751      0.216070029226      0.865151581478      -0.41209020444      0.865151581478      -0.41209020444      0.115176621751      0.216070029226      
7000000000.0        0.117889118893      0.218221713206      0.861856812411      -0.417105511391     0.861856812411      -0.417105511391     0.117889118893      0.218221713206      
7100000000.0        0.120624143039      0.220336438699      0.858530585825      -0.42208465382      0.858530585825      -0.42208465382      0.120624143039      0.220336438699      
7200000000.0        0.123381124971      0.222414009936      0.855173446861      -0.427027438979     0.855173446861      -0.427027438979     0.123381124971      0.222414009936      
7300000000.0        0.126159495148      0.224454241376      0.851785940674      -0.431933684189     0.851785940674      -0.431933684189     0.126159495148      0.224454241376      
7400000000.0        0.128958683914      0.226456957638      0.848368612225      -0.436803216772     0.848368612225      -0.436803216772     0.128958683914      0.226456957638      
7500000000.0        0.1317781217        0.228421993429      0.844922006069      -0.441635873981     0.844922006069      -0.441635873981     0.1317781217        0.228421993429      
7600000000.0        0.13461723923       0.23034919347       0.84144666616       -0.446431502918     0.84144666616       -0.446431502918     0.13461723923       0.23034919347       
7700000000.0        0.13747546772       0.232238412413      0.837943135644      -0.451189960459     0.837943135644      -0.451189960459     0.13747546772       0.232238412413      
7800000000.0        0.140352239069      0.234089514761      0.834411956666      -0.455911113167     0.834411956666      -0.455911113167     0.140352239069      0.234089514761      
7900000000.0        0.143246986053      0.235902374773      0.830853670182      -0.460594837199     0.830853670182      -0.460594837199     0.143246986053      0.235902374773      
8000000000.0        0.146159142511      0.237676876378      0.827268815765      -0.46524101822      0.827268815765      -0.46524101822      0.146159142511      0.237676876378      
8100000000.0        0.149088143525      0.239412913078      0.823657931425      -0.469849551303     0.823657931425      -0.469849551303     0.149088143525      0.239412913078      
8200000000.0        0.152033425604      0.241110387846      0.82002155343       -0.474420340829     0.82002155343       -0.474420340829     0.152033425604      0.241110387846      
8300000000.0        0.154994426854      0.242769213026      0.816360216126      -0.478953300383     0.816360216126      -0.478953300383     0.154994426854      0.242769213026      
8400000000.0        0.157970587153      0.244389310229      0.812674451768      -0.48344835265      0.812674451768      -0.48344835265      0.157970587153      0.244389310229      
8500000000.0        0.160961348312      0.245970610219      0.808964790356      -0.487905429303     0.808964790356      -0.487905429303     0.160961348312      0.245970610219      
8600000000.0        0.163966154242      0.24751305281       0.805231759464      -0.492324470893     0.805231759464      -0.492324470893     0.163966154242      0.24751305281       
8700000000.0        0.166984451109      0.249016586742      0.801475884086      -0.49670542673      0.801475884086      -0.49670542673      0.166984451109      0.249016586742      
8800000000.0        0.170015687487      0.250481169571      0.797697686481      -0.501048254769     0.797697686481      -0.501048254769     0.170015687487      0.250481169571      
8900000000.0        0.173059314513      0.25190676755       0.793897686022      -0.505352921487     0.793897686022      -0.505352921487     0.173059314513      0.25190676755       
9000000000.0        0.176114786024      0.253293355501      0.790076399048      -0.509619401761     0.790076399048      -0.509619401761     0.176114786024      0.253293355501      
9100000000.0        0.179181558705      0.254640916698      0.786234338722      -0.513847678745     0.786234338722      -0.513847678745     0.179181558705      0.254640916698      
9200000000.0        0.182259092219      0.255949442741      0.782372014897      -0.518037743737     0.782372014897      -0.518037743737     0.182259092219      0.255949442741      
9300000000.0        0.185346849344      0.257218933421      0.778489933978      -0.522189596058     0.778489933978      -0.522189596058     0.185346849344      0.257218933421      
9400000000.0        0.188444296101      0.258449396602      0.774588598795      -0.526303242916     0.774588598795      -0.526303242916     0.188444296101      0.258449396602      
9500000000.0        0.191550901873      0.259640848081      0.770668508478      -0.530378699275     0.770668508478      -0.530378699275     0.191550901873      0.259640848081      
9600000000.0        0.194666139528      0.260793311458      0.766730158335      -0.534415987721     0.766730158335      -0.534415987721     0.194666139528      0.260793311458      
9700000000.0        0.197789485533      0.261906818005      0.762774039739      -0.538415138326     0.762774039739      -0.538415138326     0.197789485533      0.261906818005      
9800000000.0        0.200920420064      0.26298140653       0.758800640011      -0.542376188513     0.758800640011      -0.542376188513     0.200920420064      0.26298140653       
9900000000.0        0.204058427113      0.264017123236      0.754810442317      -0.546299182918     0.754810442317      -0.546299182918     0.204058427113      0.264017123236      
10000000000.0       0.207202994591      0.265014021593      0.75080392556       -0.550184173251     0.75080392556       -0.550184173251     0.207202994591      0.265014021593      
