# Hz S RI R 50.00 
100000000.0         0.00426054867668    0.000493557397964   0.995721209222      -0.00549053570429   0.995721209222      -0.00549053570429   0.00426054867668    0.000493557397964   
200000000.0         0.00429482508842    0.000986724203446   0.9956446844        -0.0109805763184    0.9956446844        -0.0109805763184    0.00429482508842    0.000986724203446   
300000000.0         0.00432713503064    0.00147956820985    0.995545118964      -0.016470105652     0.995545118964      -0.016470105652     0.00432713503064    0.00147956820985    
400000000.0         0.0043611572459     0.00197207002025    0.995418833466      -0.0219590138066    0.995418833466      -0.0219590138066    0.0043611572459     0.00197207002025    
500000000.0         0.00439830522299    0.00246419051715    0.995264413788      -0.0274471678681    0.995264413788      -0.0274471678681    0.00439830522299    0.00246419051715    
600000000.0         0.00443929702339    0.00295588208942    0.995081141336      -0.0329344242641    0.995081141336      -0.0329344242641    0.00443929702339    0.00295588208942    
700000000.0         0.00448455419732    0.0034470926178     0.99486859415       -0.0384206333237    0.99486859415       -0.0384206333237    0.00448455419732    0.0034470926178     
800000000.0         0.00453434732102    0.00393776730338    0.994626501384      -0.04390564145      0.994626501384      -0.04390564145      0.00453434732102    0.00393776730338    
900000000.0         0.00458886077323    0.00442784964009    0.994354678543      -0.0493892923172    0.994354678543      -0.0493892923172    0.00458886077323    0.00442784964009    
1000000000.0        0.00464822555685    0.00491728198547    0.994052994677      -0.0548714276002    0.994052994677      -0.0548714276002    0.00464822555685    0.00491728198547    
1100000000.0        0.00471253753755    0.00540600592052    0.993721354156      -0.0603518874496    0.993721354156      -0.0603518874496    0.00471253753755    0.00540600592052    
1200000000.0        0.00478186830801    0.00589396248952    0.993359685816      -0.0658305108205    0.993359685816      -0.0658305108205    0.00478186830801    0.00589396248952    
1300000000.0        0.00485627202106    0.00638109236709    0.992967936133      -0.0713071357086    0.992967936133      -0.0713071357086    0.00485627202106    0.00638109236709    
1400000000.0        0.00493578987986    0.00686733597889    0.992546064749      -0.0767815993257    0.992546064749      -0.0767815993257    0.00493578987986    0.00686733597889    
1500000000.0        0.00502045319713    0.00735263359157    0.992094041414      -0.0822537382355    0.992094041414      -0.0822537382355    0.00502045319713    0.00735263359157    
1600000000.0        0.00511028554346    0.0078369253818     0.99161184385       -0.0877233884598    0.99161184385       -0.0877233884598    0.00511028554346    0.0078369253818     
1700000000.0        0.00520530429552    0.00832015149039    0.991099456208      -0.0931903855641    0.991099456208      -0.0931903855641    0.00520530429552    0.00832015149039    
1800000000.0        0.00530552177694    0.00880225206579    0.990556867936      -0.0986545647281    0.990556867936      -0.0986545647281    0.00530552177694    0.00880225206579    
1900000000.0        0.00541094611567    0.00928316729965    0.989984072926      -0.104115760804     0.989984072926      -0.104115760804     0.00541094611567    0.00928316729965    
2000000000.0        0.00552158189932    0.00976283745658    0.989381068866      -0.109573808366     0.989381068866      -0.109573808366     0.00552158189932    0.00976283745658    
2100000000.0        0.00563743068392    0.0102412028993     0.98874785674       -0.115028541755     0.98874785674       -0.115028541755     0.00563743068392    0.0102412028993     
2200000000.0        0.0057584913943     0.0107182041103     0.988084440425      -0.120479795112     0.988084440425      -0.120479795112     0.0057584913943     0.0107182041103     
2300000000.0        0.00588476064315    0.0111937817111     0.987390826387      -0.125927402413     0.987390826387      -0.125927402413     0.00588476064315    0.0111937817111     
2400000000.0        0.00601623298811    0.0116678764787     0.986667023423      -0.1313711975       0.986667023423      -0.1313711975       0.00601623298811    0.0116678764787     
2500000000.0        0.00615290114116    0.0121404293609     0.98591304246       -0.136811014103     0.98591304246       -0.136811014103     0.00615290114116    0.0121404293609     
2600000000.0        0.00629475614074    0.0126113814901     0.985128896383      -0.142246685865     0.985128896383      -0.142246685865     0.00629475614074    0.0126113814901     
2700000000.0        0.00644178749454    0.0130806741954     0.984314599903      -0.147678046365     0.984314599903      -0.147678046365     0.00644178749454    0.0130806741954     
2800000000.0        0.00659398329895    0.0135482490149     0.983470169437      -0.153104929136     0.983470169437      -0.153104929136     0.00659398329895    0.0135482490149     
2900000000.0        0.0067513303397     0.0140140477058     0.982595623015      -0.158527167685     0.982595623015      -0.158527167685     0.0067513303397     0.0140140477058     
3000000000.0        0.00691381417734    0.0144780122551     0.981690980198      -0.163944595508     0.981690980198      -0.163944595508     0.00691381417734    0.0144780122551     
3100000000.0        0.00708141922039    0.0149400848891     0.980756262007      -0.169357046107     0.980756262007      -0.169357046107     0.00708141922039    0.0149400848891     
3200000000.0        0.00725412878824    0.0154002080821     0.979791490866      -0.174764353005     0.979791490866      -0.174764353005     0.00725412878824    0.0154002080821     
3300000000.0        0.00743192516571    0.0158583245657     0.978796690553      -0.18016634976      0.978796690553      -0.18016634976      0.00743192516571    0.0158583245657     
3400000000.0        0.00761478965059    0.0163143773372     0.977771886152      -0.185562869976     0.977771886152      -0.185562869976     0.00761478965059    0.0163143773372     
3500000000.0        0.00780270259534    0.0167683096669     0.976717104019      -0.190953747323     0.976717104019      -0.190953747323     0.00780270259534    0.0167683096669     
3600000000.0        0.00799564344389    0.017220065107      0.975632371748      -0.196338815539     0.975632371748      -0.196338815539     0.00799564344389    0.017220065107      
3700000000.0        0.00819359076425    0.0176695874984     0.974517718141      -0.201717908451     0.974517718141      -0.201717908451     0.00819359076425    0.0176695874984     
3800000000.0        0.00839652227769    0.0181168209783     0.973373173182      -0.207090859981     0.973373173182      -0.207090859981     0.00839652227769    0.0181168209783     
3900000000.0        0.00860441488483    0.0185617099876     0.972198768017      -0.212457504156     0.972198768017      -0.212457504156     0.00860441488483    0.0185617099876     
4000000000.0        0.00881724468919    0.0190041992776     0.970994534932      -0.217817675125     0.970994534932      -0.217817675125     0.00881724468919    0.0190041992776     
4100000000.0        0.00903498701858    0.0194442339172     0.969760507335      -0.22317120716      0.969760507335      -0.22317120716      0.00903498701858    0.0194442339172     
4200000000.0        0.00925761644454    0.0198817592994     0.968496719742      -0.228517934675     0.968496719742      -0.228517934675     0.00925761644454    0.0198817592994     
4300000000.0        0.00948510680017    0.0203167211479     0.967203207757      -0.233857692229     0.967203207757      -0.233857692229     0.00948510680017    0.0203167211479     
4400000000.0        0.00971743119653    0.0207490655239     0.965880008068      -0.239190314538     0.965880008068      -0.239190314538     0.00971743119653    0.0207490655239     
4500000000.0        0.00995456203783    0.0211787388322     0.964527158427      -0.244515636484     0.964527158427      -0.244515636484     0.00995456203783    0.0211787388322     
4600000000.0        0.0101964710355     0.0216056878277     0.963144697642      -0.249833493124     0.963144697642      -0.249833493124     0.0101964710355     0.0216056878277     
4700000000.0        0.0104431292213     0.0220298596214     0.961732665567      -0.255143719699     0.961732665567      -0.255143719699     0.0104431292213     0.0220298596214     
4800000000.0        0.0106945069598     0.0224512016866     0.960291103094      -0.26044615164      0.960291103094      -0.26044615164      0.0106945069598     0.0224512016866     
4900000000.0        0.0109505739598     0.0228696618652     0.958820052143      -0.265740624582     0.958820052143      -0.265740624582     0.0109505739598     0.0228696618652     
5000000000.0        0.0112112992854     0.0232851883731     0.957319555655      -0.271026974365     0.957319555655      -0.271026974365     0.0112112992854     0.0232851883731     
5100000000.0        0.0114766513667     0.0236977298066     0.955789657582      -0.276305037048     0.955789657582      -0.276305037048     0.0114766513667     0.0236977298066     
5200000000.0        0.011746598009      0.0241072351479     0.954230402885      -0.281574648915     0.954230402885      -0.281574648915     0.011746598009      0.0241072351479     
5300000000.0        0.0120211064031     0.0245136537709     0.952641837523      -0.286835646481     0.952641837523      -0.286835646481     0.0120211064031     0.0245136537709     
5400000000.0        0.0123001431339     0.0249169354468     0.951024008449      -0.292087866503     0.951024008449      -0.292087866503     0.0123001431339     0.0249169354468     
5500000000.0        0.0125836741896     0.02531703035       0.949376963605      -0.297331145985     0.949376963605      -0.297331145985     0.0125836741896     0.02531703035       
5600000000.0        0.0128716649695     0.0257138890631     0.947700751915      -0.302565322187     0.947700751915      -0.302565322187     0.0128716649695     0.0257138890631     
5700000000.0        0.0131640802932     0.026107462583      0.945995423278      -0.307790232631     0.945995423278      -0.307790232631     0.0131640802932     0.026107462583      
5800000000.0        0.0134608844076     0.0264977023255     0.944261028568      -0.313005715109     0.944261028568      -0.313005715109     0.0134608844076     0.0264977023255     
5900000000.0        0.0137620409953     0.0268845601313     0.942497619623      -0.318211607693     0.942497619623      -0.318211607693     0.0137620409953     0.0268845601313     
6000000000.0        0.014067513182      0.0272679882712     0.940705249246      -0.323407748734     0.940705249246      -0.323407748734     0.014067513182      0.0272679882712     
6100000000.0        0.0143772635438     0.027647939451      0.938883971197      -0.328593976881     0.938883971197      -0.328593976881     0.0143772635438     0.027647939451      
6200000000.0        0.0146912541148     0.0280243668166     0.937033840189      -0.333770131075     0.937033840189      -0.333770131075     0.0146912541148     0.0280243668166     
6300000000.0        0.015009446394      0.0283972239596     0.935154911883      -0.338936050566     0.935154911883      -0.338936050566     0.015009446394      0.0283972239596     
6400000000.0        0.0153318013524     0.0287664649218     0.933247242887      -0.344091574916     0.933247242887      -0.344091574916     0.0153318013524     0.0287664649218     
6500000000.0        0.01565827944       0.0291320442006     0.931310890748      -0.349236544003     0.931310890748      -0.349236544003     0.01565827944       0.0291320442006     
6600000000.0        0.0159888405926     0.0294939167535     0.929345913951      -0.354370798032     0.929345913951      -0.354370798032     0.0159888405926     0.0294939167535     
6700000000.0        0.0163234442389     0.029852038003      0.927352371913      -0.359494177541     0.927352371913      -0.359494177541     0.0163234442389     0.029852038003      
6800000000.0        0.0166620493065     0.0302063638419     0.925330324977      -0.364606523403     0.925330324977      -0.364606523403     0.0166620493065     0.0302063638419     
6900000000.0        0.0170046142294     0.0305568506372     0.923279834416      -0.369707676838     0.923279834416      -0.369707676838     0.0170046142294     0.0305568506372     
7000000000.0        0.017351096954      0.0309034552355     0.921200962418      -0.374797479417     0.921200962418      -0.374797479417     0.017351096954      0.0309034552355     
7100000000.0        0.0177014549461     0.0312461349672     0.919093772093      -0.379875773067     0.919093772093      -0.379875773067     0.0177014549461     0.0312461349672     
7200000000.0        0.0180556451972     0.0315848476511     0.916958327461      -0.384942400079     0.916958327461      -0.384942400079     0.0180556451972     0.0315848476511     
7300000000.0        0.0184136242308     0.0319195515991     0.914794693452      -0.389997203114     0.914794693452      -0.389997203114     0.0184136242308     0.0319195515991     
7400000000.0        0.0187753481095     0.0322502056202     0.912602935903      -0.395040025208     0.912602935903      -0.395040025208     0.0187753481095     0.0322502056202     
7500000000.0        0.0191407724409     0.0325767690252     0.910383121551      -0.40007070978      0.910383121551      -0.40007070978      0.0191407724409     0.0325767690252     
7600000000.0        0.0195098523842     0.0328992016312     0.908135318033      -0.405089100634     0.908135318033      -0.405089100634     0.0195098523842     0.0328992016312     
7700000000.0        0.0198825426567     0.0332174637651     0.905859593878      -0.41009504197      0.905859593878      -0.41009504197      0.0198825426567     0.0332174637651     
7800000000.0        0.0202587975402     0.0335315162686     0.903556018507      -0.415088378386     0.903556018507      -0.415088378386     0.0202587975402     0.0335315162686     
7900000000.0        0.0206385708874     0.0338413205019     0.901224662229      -0.420068954887     0.901224662229      -0.420068954887     0.0206385708874     0.0338413205019     
8000000000.0        0.0210218161281     0.0341468383477     0.898865596235      -0.425036616887     0.898865596235      -0.425036616887     0.0210218161281     0.0341468383477     
8100000000.0        0.0214084862761     0.0344480322153     0.896478892594      -0.429991210216     0.896478892594      -0.429991210216     0.0214084862761     0.0344480322153     
8200000000.0        0.0217985339349     0.0347448650447     0.894064624253      -0.434932581129     0.894064624253      -0.434932581129     0.0217985339349     0.0347448650447     
8300000000.0        0.0221919113048     0.0350373003104     0.89162286503       -0.439860576305     0.89162286503       -0.439860576305     0.0221919113048     0.0350373003104     
8400000000.0        0.0225885701888     0.0353253020247     0.889153689611      -0.44477504286      0.889153689611      -0.44477504286      0.0225885701888     0.0353253020247     
8500000000.0        0.0229884619994     0.0356088347425     0.886657173547      -0.449675828346     0.886657173547      -0.449675828346     0.0229884619994     0.0356088347425     
8600000000.0        0.0233915377645     0.0358878635638     0.884133393249      -0.454562780761     0.884133393249      -0.454562780761     0.0233915377645     0.0358878635638     
8700000000.0        0.0237977481345     0.0361623541382     0.881582425984      -0.459435748549     0.881582425984      -0.459435748549     0.0237977481345     0.0361623541382     
8800000000.0        0.024207043388      0.0364322726681     0.879004349874      -0.464294580613     0.879004349874      -0.464294580613     0.024207043388      0.0364322726681     
8900000000.0        0.024619373439      0.0366975859123     0.876399243889      -0.469139126312     0.876399243889      -0.469139126312     0.024619373439      0.0366975859123     
9000000000.0        0.0250346878425     0.0369582611891     0.873767187844      -0.473969235473     0.873767187844      -0.473969235473     0.0250346878425     0.0369582611891     
9100000000.0        0.0254529358019     0.0372142663802     0.871108262397      -0.478784758392     0.871108262397      -0.478784758392     0.0254529358019     0.0372142663802     
9200000000.0        0.0258740661747     0.0374655699337     0.868422549041      -0.48358554584      0.868422549041      -0.48358554584      0.0258740661747     0.0374655699337     
9300000000.0        0.0262980274793     0.0377121408672     0.865710130105      -0.488371449068     0.865710130105      -0.488371449068     0.0262980274793     0.0377121408672     
9400000000.0        0.0267247679015     0.0379539487715     0.862971088747      -0.493142319814     0.862971088747      -0.493142319814     0.0267247679015     0.0379539487715     
9500000000.0        0.0271542353009     0.038190963813      0.860205508951      -0.497898010304     0.860205508951      -0.497898010304     0.0271542353009     0.038190963813      
9600000000.0        0.0275863772177     0.0384231567373     0.857413475523      -0.50263837326      0.857413475523      -0.50263837326      0.0275863772177     0.0384231567373     
9700000000.0        0.0280211408788     0.038650498872      0.854595074088      -0.507363261904     0.854595074088      -0.507363261904     0.0280211408788     0.038650498872      
9800000000.0        0.0284584732047     0.0388729621294     0.851750391084      -0.512072529962     0.851750391084      -0.512072529962     0.0284584732047     0.0388729621294     
9900000000.0        0.0288983208158     0.0390905190098     0.848879513758      -0.516766031669     0.848879513758      -0.516766031669     0.0288983208158     0.0390905190098     
10000000000.0       0.0293406300393     0.0393031426038     0.845982530165      -0.521443621776     0.845982530165      -0.521443621776     0.0293406300393     0.0393031426038     
