# Hz S RI R 50.00 
100000000.0         -0.000110918615739  -0.0100559242878    0.999887414864      -0.0100642500785    0.999887414864      -0.0100642500785    -0.000110918615739  -0.0100559242878    
200000000.0         -0.000424379907144  -0.0201033189107    0.999573942071      -0.020119974642     0.999573942071      -0.020119974642     -0.000424379907143  -0.0201033189107    
300000000.0         -0.000939489874587  -0.0301351194364    0.999058823397      -0.0301601112802    0.999058823397      -0.0301601112802    -0.000939489874587  -0.0301351194364    
400000000.0         -0.00165538143198   -0.0401445870316    0.998342924495      -0.0401779225983    0.998342924495      -0.0401779225983    -0.00165538143198   -0.0401445870316    
500000000.0         -0.00257090897257   -0.0501252020228    0.997427390424      -0.0501668900271    0.997427390424      -0.0501668900271    -0.00257090897257   -0.0501252020228    
600000000.0         -0.00368466309157   -0.0600706328714    0.996313630311      -0.060120682889     0.996313630311      -0.060120682889     -0.00368466309157   -0.0600706328714    
700000000.0         -0.00499498374147   -0.0699747240941    0.995003304039      -0.0700331463691    0.995003304039      -0.0700331463691    -0.00499498374147   -0.0699747240941    
800000000.0         -0.00649997246471   -0.0798314915075    0.993498309961      -0.0798982967931    0.993498309961      -0.0798982967931    -0.00649997246471   -0.0798314915075    
900000000.0         -0.00819750404728   -0.089635120875     0.991800773218      -0.0897103202991    0.991800773218      -0.0897103202991    -0.00819750404728   -0.089635120875     
1000000000.0        -0.0100852377348    -0.0993799681504    0.989913034513      -0.0994635731002    0.989913034513      -0.0994635731002    -0.0100852377348    -0.0993799681504    
1100000000.0        -0.0121606281457    -0.109060560702     0.987837639188      -0.109152582726     0.987837639188      -0.109152582726     -0.0121606281457    -0.109060560702     
1200000000.0        -0.0144209359214    -0.118671598941     0.985577326571      -0.118772049663     0.985577326571      -0.118772049663     -0.0144209359214    -0.118671598941     
1300000000.0        -0.0168632381687    -0.128207958182     0.983135019532      -0.128316849232     0.983135019532      -0.128316849232     -0.0168632381687    -0.128207958182     
1400000000.0        -0.0194844387352    -0.137664690619     0.980513814205      -0.137782033565     0.980513814205      -0.137782033565     -0.0194844387352    -0.137664690619     
1500000000.0        -0.0222812783333    -0.147037027263     0.977716969862      -0.147162833566     0.977716969862      -0.147162833566     -0.0222812783333    -0.147037027263     
1600000000.0        -0.0252503445455    -0.156320379847     0.974747898907      -0.15645466081      0.974747898907      -0.15645466081      -0.0252503445455    -0.156320379847     
1700000000.0        -0.0283880817236    -0.165510342611     0.971610156979      -0.165653109347     0.971610156979      -0.165653109347     -0.0283880817236    -0.165510342611     
1800000000.0        -0.0316908007881    -0.174602693929     0.968307433146      -0.17475395733      0.968307433146      -0.17475395733      -0.0316908007881    -0.174602693929     
1900000000.0        -0.0351546889523    -0.183593397794     0.96484354019       -0.183753168503     0.96484354019       -0.183753168503     -0.0351546889523    -0.183593397794     
2000000000.0        -0.0387758193548    -0.192478605065     0.961222404963      -0.192646893461     0.961222404963      -0.192646893461     -0.0387758193548    -0.192478605065     
2100000000.0        -0.042550160615     -0.201254654503     0.957448058842      -0.201431470683     0.957448058842      -0.201431470683     -0.042550160615     -0.201254654503     
2200000000.0        -0.0464735863038    -0.209918073557     0.95352462825       -0.210103427325     0.95352462825       -0.210103427325     -0.0464735863038    -0.209918073557     
2300000000.0        -0.0505418843246    -0.218465578882     0.949456325279      -0.218659479744     0.949456325279      -0.218659479744     -0.0505418843246    -0.218465578882     
2400000000.0        -0.0547507661889    -0.226894076562     0.945247438414      -0.227096533717     0.945247438414      -0.227096533717     -0.0547507661889    -0.226894076562     
2500000000.0        -0.059095876191     -0.235200662054     0.940902323358      -0.235411684394     0.940902323358      -0.235411684394     -0.059095876191     -0.235200662054     
2600000000.0        -0.0635728004485    -0.243382619805     0.93642539399       -0.243602215914     0.93642539399       -0.243602215914     -0.0635728004485    -0.243382619805     
2700000000.0        -0.0681770758136    -0.251437422564     0.931821113454      -0.251665600722     0.931821113454      -0.251665600722     -0.0681770758136    -0.251437422564     
2800000000.0        -0.0729041986196    -0.259362730365     0.927093985416      -0.259599498546     0.927093985416      -0.259599498546     -0.0729041986196    -0.259362730365     
2900000000.0        -0.0777496332671    -0.267156389188     0.922248545472      -0.267401755069     0.922248545472      -0.267401755069     -0.0777496332671    -0.267156389188     
3000000000.0        -0.0827088206195    -0.274816429307     0.917289352757      -0.275070400272     0.917289352757      -0.275070400272     -0.0827088206195    -0.274816429307     
3100000000.0        -0.0877771861908    -0.282341063304     0.912220981755      -0.282603646448     0.912220981755      -0.282603646448     -0.0877771861908    -0.282341063304     
3200000000.0        -0.0929501481184    -0.289728683774     0.907048014328      -0.289999885913     0.907048014328      -0.289999885913     -0.0929501481184    -0.289728683774     
3300000000.0        -0.0982231248999    -0.296977860738     0.901775031976      -0.297257688415     0.901775031976      -0.297257688415     -0.0982231248999    -0.296977860738     
3400000000.0        -0.103591542872     -0.304087338737     0.896406608362      -0.30437579823      0.896406608362      -0.30437579823      -0.103591542872     -0.304087338737     
3500000000.0        -0.109050843439     -0.311056033674     0.890947302079      -0.311353131005     0.890947302079      -0.311353131005     -0.109050843439     -0.311056033674     
3600000000.0        -0.114596490003     -0.317883029356     0.885401649724      -0.318188770298     0.885401649724      -0.318188770298     -0.114596490003     -0.317883029356     
3700000000.0        -0.120223974631     -0.324567573816     0.87977415923       -0.324881963902     0.87977415923       -0.324881963902     -0.120223974631     -0.324567573816     
3800000000.0        -0.125928824396     -0.331109075374     0.874069303523      -0.331432119905     0.874069303523      -0.331432119905     -0.125928824396     -0.331109075374     
3900000000.0        -0.13170660743      -0.33750709849      0.868291514471      -0.337838802545     0.868291514471      -0.337838802545     -0.13170660743      -0.33750709849      
4000000000.0        -0.13755293865      -0.343761359424     0.862445177154      -0.344101727866     0.862445177154      -0.344101727866     -0.13755293865      -0.343761359424     
4100000000.0        -0.143463485176     -0.349871721705     0.856534624453      -0.350220759192     0.856534624453      -0.350220759192     -0.143463485176     -0.349871721705     
4200000000.0        -0.149433971409     -0.355838191449     0.850564131966      -0.356195902439     0.850564131966      -0.356195902439     -0.149433971409     -0.355838191449     
4300000000.0        -0.155460183793     -0.361660912529     0.844537913249      -0.362027301293     0.844537913249      -0.362027301293     -0.155460183793     -0.361660912529     
4400000000.0        -0.161537975244     -0.367340161631     0.838460115384      -0.367715232255     0.838460115384      -0.367715232255     -0.161537975244     -0.367340161631     
4500000000.0        -0.167663269254     -0.372876343206     0.832334814878      -0.373260099602     0.832334814878      -0.373260099602     -0.167663269254     -0.372876343206     
4600000000.0        -0.173832063664     -0.378269984336     0.826166013892      -0.378662430248     0.826166013892      -0.378662430248     -0.173832063664     -0.378269984336     
4700000000.0        -0.180040434118     -0.383521729547     0.819957636781      -0.383922868561     0.819957636781      -0.383922868561     -0.180040434118     -0.383521729547     
4800000000.0        -0.186284537194     -0.388632335569     0.813713526966      -0.389042171115     0.813713526966      -0.389042171115     -0.186284537194     -0.388632335569     
4900000000.0        -0.192560613224     -0.393602666072     0.807437444115      -0.394021201435     0.807437444115      -0.394021201435     -0.192560613224     -0.393602666072     
5000000000.0        -0.198864988806     -0.398433686395     0.801133061628      -0.39886092472      0.801133061628      -0.39886092472      -0.198864988806     -0.398433686395     
5100000000.0        -0.205194079017     -0.403126458282     0.794803964431      -0.403562402579     0.794803964431      -0.403562402579     -0.205194079017     -0.403126458282     
5200000000.0        -0.211544389324     -0.407682134632     0.788453647054      -0.408126787783     0.788453647054      -0.408126787783     -0.211544389324     -0.407682134632     
5300000000.0        -0.217912517232     -0.4121019543       0.782085511993      -0.412555319065     0.782085511993      -0.412555319065     -0.217912517232     -0.4121019543       
5400000000.0        -0.224295153632     -0.416387236935     0.775702868357      -0.416849315957     0.775702868357      -0.416849315957     -0.224295153632     -0.416387236935     
5500000000.0        -0.230689083909     -0.420539377891     0.769308930759      -0.421010173702     0.769308930759      -0.421010173702     -0.230689083909     -0.420539377891     
5600000000.0        -0.237091188786     -0.42455984321      0.762906818478      -0.425039358235     0.762906818478      -0.425039358235     -0.237091188786     -0.42455984321      
5700000000.0        -0.24349844492      -0.428450164687     0.756499554856      -0.42893840125      0.756499554856      -0.42893840125      -0.24349844492      -0.428450164687     
5800000000.0        -0.249907925284     -0.432211935038     0.750090066919      -0.432708895366     0.750090066919      -0.432708895366     -0.249907925284     -0.432211935038     
5900000000.0        -0.256316799311     -0.435846803168     0.743681185235      -0.436352489394     0.743681185235      -0.436352489394     -0.256316799311     -0.435846803168     
6000000000.0        -0.262722332846     -0.43935646955      0.737275643959      -0.439870883719     0.737275643959      -0.439870883719     -0.262722332846     -0.43935646955      
6100000000.0        -0.269121887892     -0.442742681729     0.730876081088      -0.443265825803     0.730876081088      -0.443265825803     -0.269121887892     -0.442742681729     
6200000000.0        -0.275512922171     -0.446007229947     0.724485038897      -0.446539105807     0.724485038897      -0.446539105807     -0.275512922171     -0.446007229947     
6300000000.0        -0.281892988528     -0.449151942903     0.718104964546      -0.449692552353     0.718104964546      -0.449692552353     -0.281892988528     -0.449151942903     
6400000000.0        -0.288259734151     -0.452178683645     0.711738210843      -0.452728028415     0.711738210843      -0.452728028415     -0.288259734151     -0.452178683645     
6500000000.0        -0.29461089966      -0.455089345599     0.705387037169      -0.455647427351     0.705387037169      -0.455647427351     -0.29461089966      -0.455089345599     
6600000000.0        -0.300944318048     -0.457885848749     0.69905361053       -0.458452669076     0.69905361053       -0.458452669076     -0.300944318048     -0.457885848749     
6700000000.0        -0.307257913505     -0.460570135953     0.692740006738      -0.461145696384     0.692740006738      -0.461145696384     -0.307257913505     -0.460570135953     
6800000000.0        -0.313549700107     -0.463144169403     0.686448211715      -0.463728471409     0.686448211715      -0.463728471409     -0.313549700107     -0.463144169403     
6900000000.0        -0.319817780425     -0.465609927242     0.680180122892      -0.466202972234     0.680180122892      -0.466202972234     -0.319817780425     -0.465609927242     
7000000000.0        -0.326060344012     -0.467969400317     0.673937550715      -0.468571189651     0.673937550715      -0.468571189651     -0.326060344012     -0.467969400317     
7100000000.0        -0.332275665825     -0.470224589084     0.667722220226      -0.470835124064     0.667722220226      -0.470835124064     -0.332275665825     -0.470224589084     
7200000000.0        -0.338462104558     -0.472377500658     0.661535772732      -0.472996782537     0.661535772732      -0.472996782537     -0.338462104558     -0.472377500658     
7300000000.0        -0.344618100913     -0.474430146008     0.655379767531      -0.475058175989     0.655379767531      -0.475058175989     -0.344618100913     -0.474430146008     
7400000000.0        -0.35074217581      -0.476384537289     0.649255683703      -0.477021316532     0.649255683703      -0.477021316532     -0.35074217581      -0.476384537289     
7500000000.0        -0.356832928546     -0.478242685329     0.64316492195       -0.478888214948     0.64316492195       -0.478888214948     -0.356832928546     -0.478242685329     
7600000000.0        -0.362889034916     -0.480006597237     0.637108806478      -0.480660878306     0.637108806478      -0.480660878306     -0.362889034916     -0.480006597237     
7700000000.0        -0.368909245289     -0.481678274162     0.631088586917      -0.482341307713     0.631088586917      -0.482341307713     -0.368909245289     -0.481678274162     
7800000000.0        -0.374892382668     -0.483259709174     0.625105440266      -0.483931496203     0.625105440266      -0.483931496203     -0.374892382668     -0.483259709174     
7900000000.0        -0.380837340716     -0.484752885285     0.61916047286       -0.485433426749     0.61916047286       -0.485433426749     -0.380837340716     -0.484752885285     
8000000000.0        -0.386743081777     -0.486159773585     0.613254722357      -0.486849070408     0.613254722357      -0.486849070408     -0.386743081777     -0.486159773585     
8100000000.0        -0.392608634878     -0.487482331512     0.607389159727      -0.488180384584     0.607389159727      -0.488180384584     -0.392608634878     -0.487482331512     
8200000000.0        -0.398433093735     -0.488722501234     0.601564691256      -0.489429311413     0.601564691256      -0.489429311413     -0.398433093735     -0.488722501234     
8300000000.0        -0.404215614755     -0.489882208151     0.595782160537      -0.490597776265     0.595782160537      -0.490597776265     -0.404215614755     -0.489882208151     
8400000000.0        -0.409955415044     -0.490963359505     0.590042350465      -0.491687686354     0.590042350465      -0.491687686354     -0.409955415044     -0.490963359505     
8500000000.0        -0.415651770423     -0.491967843101     0.584345985216      -0.492700929455     0.584345985216      -0.492700929455     -0.415651770423     -0.491967843101     
8600000000.0        -0.421304013463     -0.492897526131     0.578693732221      -0.493639372735     0.578693732221      -0.493639372735     -0.421304013463     -0.492897526131     
8700000000.0        -0.426911531535     -0.493754254093     0.573086204111      -0.494504861666     0.573086204111      -0.494504861666     -0.426911531535     -0.493754254093     
8800000000.0        -0.432473764872     -0.494539849816     0.567523960648      -0.495299219054     0.567523960648      -0.495299219054     -0.432473764872     -0.494539849816     
8900000000.0        -0.437990204672     -0.495256112567     0.562007510638      -0.496024244141     0.562007510638      -0.496024244141     -0.437990204672     -0.495256112567     
9000000000.0        -0.443460391213     -0.49590481725      0.556537313803      -0.49668171181      0.556537313803      -0.49668171181      -0.443460391213     -0.49590481725      
9100000000.0        -0.448883912        -0.496487713688     0.551113782636      -0.497273371863     0.551113782636      -0.497273371863     -0.448883912        -0.496487713688     
9200000000.0        -0.454260399948     -0.497006525986     0.545737284223      -0.497800948384     0.545737284223      -0.497800948384     -0.454260399948     -0.497006525986     
9300000000.0        -0.459589531591     -0.497462951969     0.54040814203       -0.498266139179     0.54040814203       -0.498266139179     -0.459589531591     -0.497462951969     
9400000000.0        -0.464871025332     -0.49785866269      0.535126637654      -0.498670615284     0.535126637654      -0.498670615284     -0.464871025332     -0.49785866269      
9500000000.0        -0.470104639724     -0.498195302014     0.529893012543      -0.499016020544     0.529893012543      -0.499016020544     -0.470104639724     -0.498195302014     
9600000000.0        -0.475290171788     -0.498474486257     0.524707469673      -0.499303971258     0.524707469673      -0.499303971258     -0.475290171788     -0.498474486257     
9700000000.0        -0.480427455377     -0.498697803891     0.519570175195      -0.499536055885     0.519570175195      -0.499536055885     -0.480427455377     -0.498697803891     
9800000000.0        -0.485516359569     -0.498866815314     0.514481260029      -0.499713834804     0.514481260029      -0.499713834804     -0.485516359569     -0.498866815314     
9900000000.0        -0.490556787107     -0.49898305266      0.509440821432      -0.499838840136     0.509440821432      -0.499838840136     -0.490556787107     -0.49898305266      
10000000000.0       -0.495548672873     -0.499048019671     0.504448924522      -0.499912575608     0.504448924522      -0.499912575608     -0.495548672873     -0.499048019671     
