# Hz S RI R 50.00 
100000000.0         0.00410249104958    -0.000970895666196  0.995875965133      -0.0045523314773    0.995875965133      -0.0045523314773    0.00410249104958    -0.000970895666196  
200000000.0         0.00411404523024    -0.00194188482842   0.995813319172      -0.00910433440743   0.995813319172      -0.00910433440743   0.00411404523024    -0.00194188482842   
300000000.0         0.00410958373261    -0.00291281122388   0.99573614286       -0.0136559778596    0.99573614286       -0.0136559778596    0.00410958373261    -0.00291281122388   
400000000.0         0.00409265867902    -0.00388356895779   0.99564088755       -0.0182071780619    0.99564088755       -0.0182071780619    0.00409265867902    -0.00388356895779   
500000000.0         0.00406463871778    -0.00485406356491   0.99552618957       -0.022757838606     0.99552618957       -0.022757838606     0.00406463871778    -0.00485406356491   
600000000.0         0.00402622322408    -0.00582420554481   0.995391356007      -0.0273078573638    0.995391356007      -0.0273078573638    0.00402622322408    -0.00582420554481   
700000000.0         0.0039778270539     -0.00679390807586   0.995235979953      -0.031857129011     0.995235979953      -0.031857129011     0.0039778270539     -0.00679390807586   
800000000.0         0.00391972090656    -0.00776308597283   0.995059800147      -0.0364055462161    0.995059800147      -0.0364055462161    0.00391972090656    -0.00776308597283   
900000000.0         0.00385209379448    -0.00873165513813   0.994862638503      -0.040953000291     0.994862638503      -0.040953000291     0.00385209379448    -0.00873165513813   
1000000000.0        0.00377508469428    -0.00969953224484   0.994644368467      -0.0454993815831    0.994644368467      -0.0454993815831    0.00377508469428    -0.00969953224484   
1100000000.0        0.00368880013351    -0.010666634541     0.994404897426      -0.0500445797306    0.994404897426      -0.0500445797306    0.00368880013351    -0.010666634541     
1200000000.0        0.00359332466545    -0.0116328797232    0.994144156237      -0.0545884838375    0.994144156237      -0.0545884838375    0.00359332466545    -0.0116328797232    
1300000000.0        0.00348872745629    -0.012598185852     0.993862092643      -0.0591309825989    0.993862092643      -0.0591309825989    0.00348872745629    -0.012598185852     
1400000000.0        0.00337506661271    -0.0135624712943    0.993558666943      -0.0636719643952    0.993558666943      -0.0636719643952    0.00337506661271    -0.0135624712943    
1500000000.0        0.00325239212932    -0.0145256546832    0.993233849048      -0.0682113173638    0.993233849048      -0.0682113173638    0.00325239212932    -0.0145256546832    
1600000000.0        0.00312074795754    -0.0154876548898    0.99288761641       -0.0727489294565    0.99288761641       -0.0727489294565    0.00312074795754    -0.0154876548898    
1700000000.0        0.00298017349556    -0.0164483910038    0.992519952533      -0.0772846884853    0.992519952533      -0.0772846884853    0.00298017349556    -0.0164483910038    
1800000000.0        0.00283070468548    -0.0174077823203    0.992130845877      -0.081818482161     0.992130845877      -0.081818482161     0.00283070468548    -0.0174077823203    
1900000000.0        0.00267237483662    -0.0183657483308    0.99172028903       -0.0863501981252    0.99172028903       -0.0863501981252    0.00267237483662    -0.0183657483308    
2000000000.0        0.00250521525412    -0.0193222087179    0.991288278083      -0.0908797239783    0.991288278083      -0.0908797239783    0.00250521525411    -0.0193222087179    
2100000000.0        0.00232925572587    -0.0202770833523    0.990834812139      -0.0954069473032    0.990834812139      -0.0954069473032    0.00232925572587    -0.0202770833523    
2200000000.0        0.00214452490482    -0.0212302922919    0.990359892928      -0.099931755687     0.990359892928      -0.099931755687     0.00214452490482    -0.0212302922919    
2300000000.0        0.00195105061265    -0.0221817557826    0.989863524506      -0.10445403674      0.989863524506      -0.10445403674      0.00195105061265    -0.0221817557826    
2400000000.0        0.00174886008362    -0.0231313942604    0.989345713007      -0.108973678112     0.989345713007      -0.108973678112     0.00174886008362    -0.0231313942604    
2500000000.0        0.00153798016214    -0.0240791283535    0.98880646644       -0.113490567511     0.98880646644       -0.113490567511     0.00153798016214    -0.0240791283535    
2600000000.0        0.00131843746439    -0.0250248788869    0.98824579453       -0.118004592713     0.98824579453       -0.118004592713     0.00131843746439    -0.0250248788869    
2700000000.0        0.00109025851132    -0.0259685668861    0.98766370858       -0.12251564158      0.98766370858       -0.12251564158      0.00109025851132    -0.0259685668861    
2800000000.0        0.000853469839126   -0.0269101135817    0.987060221357      -0.127023602071     0.987060221357      -0.127023602071     0.000853469839126   -0.0269101135817    
2900000000.0        0.000608098091388   -0.0278494404152    0.986435346998      -0.131528362253     0.986435346998      -0.131528362253     0.000608098091388   -0.0278494404152    
3000000000.0        0.000354170096429   -0.0287864690442    0.985789100929      -0.136029810313     0.985789100929      -0.136029810313     0.000354170096429   -0.0287864690442    
3100000000.0        9.17129326055e-05   -0.0297211213481    0.985121499796      -0.140527834569     0.985121499796      -0.140527834569     9.17129326052e-05   -0.0297211213481    
3200000000.0        -0.000179246016379  -0.0306533194344    0.984432561405      -0.145022323481     0.984432561405      -0.145022323481     -0.000179246016379  -0.0306533194344    
3300000000.0        -0.000458679014408  -0.0315829856448    0.983722304675      -0.149513165658     0.983722304675      -0.149513165658     -0.000458679014408  -0.0315829856448    
3400000000.0        -0.000746557932781  -0.0325100425615    0.982990749587      -0.154000249873     0.982990749587      -0.154000249873     -0.000746557932781  -0.0325100425615    
3500000000.0        -0.00104285421582   -0.0334344130139    0.982237917151      -0.158483465065     0.982237917151      -0.158483465065     -0.00104285421582   -0.0334344130139    
3600000000.0        -0.00134753885138   -0.0343560200853    0.98146382937       -0.162962700354     0.98146382937       -0.162962700354     -0.00134753885138   -0.0343560200853    
3700000000.0        -0.00166058234545   -0.0352747871191    0.98066850921       -0.167437845047     0.98066850921       -0.167437845047     -0.00166058234545   -0.0352747871191    
3800000000.0        -0.00198195470041   -0.0361906377264    0.979851980573      -0.171908788647     0.979851980573      -0.171908788647     -0.00198195470041   -0.0361906377264    
3900000000.0        -0.00231162539618   -0.0371034957919    0.979014268274      -0.176375420859     0.979014268274      -0.176375420859     -0.00231162539618   -0.0371034957919    
4000000000.0        -0.00264956337407   -0.0380132854815    0.978155398018      -0.180837631602     0.978155398018      -0.180837631602     -0.00264956337407   -0.0380132854815    
4100000000.0        -0.00299573702292   -0.0389199312487    0.977275396382      -0.185295311016     0.977275396382      -0.185295311016     -0.00299573702292   -0.0389199312487    
4200000000.0        -0.00335011416713   -0.0398233578419    0.976374290799      -0.189748349467     0.976374290799      -0.189748349467     -0.00335011416713   -0.0398233578419    
4300000000.0        -0.00371266205647   -0.0407234903109    0.975452109537      -0.194196637556     0.975452109537      -0.194196637556     -0.00371266205647   -0.0407234903109    
4400000000.0        -0.0040833473574    -0.0416202540143    0.974508881691      -0.198640066126     0.974508881691      -0.198640066126     -0.0040833473574    -0.0416202540143    
4500000000.0        -0.00446213614565   -0.042513574626     0.973544637164      -0.203078526273     0.973544637164      -0.203078526273     -0.00446213614565   -0.042513574626     
4600000000.0        -0.00484899390008   -0.0434033781422    0.972559406656      -0.207511909348     0.972559406656      -0.207511909348     -0.00484899390008   -0.0434033781422    
4700000000.0        -0.00524388549749   -0.0442895908887    0.971553221655      -0.211940106965     0.971553221655      -0.211940106965     -0.00524388549749   -0.0442895908887    
4800000000.0        -0.00564677520841   -0.0451721395271    0.970526114424      -0.216363011011     0.970526114424      -0.216363011011     -0.00564677520841   -0.0451721395271    
4900000000.0        -0.00605762669369   -0.0460509510623    0.969478117989      -0.22078051365      0.969478117989      -0.22078051365      -0.00605762669369   -0.0460509510623    
5000000000.0        -0.00647640300185   -0.0469259528487    0.968409266133      -0.225192507331     0.968409266133      -0.225192507331     -0.00647640300185   -0.0469259528487    
5100000000.0        -0.0069030665671    -0.0477970725978    0.967319593386      -0.229598884795     0.967319593386      -0.229598884795     -0.0069030665671    -0.0477970725978    
5200000000.0        -0.00733757920794   -0.0486642383841    0.966209135014      -0.233999539078     0.966209135014      -0.233999539078     -0.00733757920794   -0.0486642383841    
5300000000.0        -0.00777990212632   -0.0495273786525    0.965077927013      -0.238394363523     0.965077927013      -0.238394363523     -0.00777990212632   -0.0495273786525    
5400000000.0        -0.00822999590732   -0.0503864222248    0.963926006102      -0.242783251782     0.963926006102      -0.242783251782     -0.00822999590732   -0.0503864222248    
5500000000.0        -0.00868782051922   -0.051241298306     0.962753409713      -0.247166097826     0.962753409713      -0.247166097826     -0.00868782051921   -0.051241298306     
5600000000.0        -0.00915333531405   -0.0520919364917    0.961560175983      -0.251542795946     0.961560175983      -0.251542795946     -0.00915333531405   -0.0520919364917    
5700000000.0        -0.00962649902849   -0.0529382667738    0.960346343752      -0.255913240763     0.960346343752      -0.255913240763     -0.00962649902849   -0.0529382667738    
5800000000.0        -0.0101072697851    -0.0537802195477    0.959111952549      -0.260277327235     0.959111952549      -0.260277327235     -0.0101072697851    -0.0537802195477    
5900000000.0        -0.0105956050939    -0.0546177256183    0.957857042593      -0.26463495066      0.957857042593      -0.26463495066      -0.0105956050939    -0.0546177256183    
6000000000.0        -0.0110914618542    -0.0554507162068    0.956581654779      -0.268986006681     0.956581654779      -0.268986006681     -0.0110914618542    -0.0554507162068    
6100000000.0        -0.0115947963568    -0.0562791229569    0.955285830677      -0.273330391295     0.955285830677      -0.273330391295     -0.0115947963568    -0.0562791229569    
6200000000.0        -0.0121055642863    -0.057102877941     0.953969612522      -0.27766800086      0.953969612522      -0.27766800086      -0.0121055642863    -0.057102877941     
6300000000.0        -0.0126237207238    -0.057921913667     0.952633043212      -0.281998732093     0.952633043212      -0.281998732093     -0.0126237207238    -0.057921913667     
6400000000.0        -0.0131492201498    -0.0587361630837    0.951276166298      -0.286322482083     0.951276166298      -0.286322482083     -0.0131492201498    -0.0587361630837    
6500000000.0        -0.0136820164469    -0.0595455595877    0.949899025978      -0.290639148296     0.949899025978      -0.290639148296     -0.0136820164469    -0.0595455595877    
6600000000.0        -0.0142220629037    -0.0603500370291    0.948501667096      -0.294948628575     0.948501667096      -0.294948628575     -0.0142220629037    -0.0603500370291    
6700000000.0        -0.0147693122176    -0.0611495297177    0.947084135129      -0.299250821149     0.947084135129      -0.299250821149     -0.0147693122176    -0.0611495297177    
6800000000.0        -0.0153237164986    -0.0619439724289    0.945646476186      -0.303545624641     0.945646476186      -0.303545624641     -0.0153237164986    -0.0619439724289    
6900000000.0        -0.0158852272735    -0.0627333004097    0.944188737003      -0.307832938065     0.944188737003      -0.307832938065     -0.0158852272735    -0.0627333004097    
7000000000.0        -0.0164537954889    -0.0635174493845    0.942710964931      -0.312112660841     0.942710964931      -0.312112660841     -0.0164537954889    -0.0635174493845    
7100000000.0        -0.0170293715162    -0.0642963555611    0.941213207937      -0.316384692793     0.941213207937      -0.316384692793     -0.0170293715162    -0.0642963555611    
7200000000.0        -0.0176119051554    -0.065069955636     0.939695514597      -0.320648934155     0.939695514597      -0.320648934155     -0.0176119051554    -0.065069955636     
7300000000.0        -0.018201345639     -0.0658381868005    0.938157934085      -0.324905285578     0.938157934085      -0.324905285578     -0.018201345639     -0.0658381868005    
7400000000.0        -0.0187976416374    -0.0666009867462    0.936600516174      -0.329153648134     0.936600516174      -0.329153648134     -0.0187976416374    -0.0666009867462    
7500000000.0        -0.0194007412625    -0.0673582936704    0.935023311228      -0.333393923319     0.935023311228      -0.333393923319     -0.0194007412625    -0.0673582936704    
7600000000.0        -0.0200105920732    -0.0681100462817    0.933426370193      -0.337626013061     0.933426370193      -0.337626013061     -0.0200105920732    -0.0681100462817    
7700000000.0        -0.0206271410794    -0.0688561838054    0.931809744596      -0.341849819721     0.931809744596      -0.341849819721     -0.0206271410794    -0.0688561838054    
7800000000.0        -0.0212503347477    -0.0695966459888    0.930173486539      -0.346065246099     0.930173486539      -0.346065246099     -0.0212503347477    -0.0695966459888    
7900000000.0        -0.0218801190056    -0.0703313731065    0.928517648689      -0.350272195439     0.928517648689      -0.350272195439     -0.0218801190056    -0.0703313731065    
8000000000.0        -0.0225164392471    -0.0710603059655    0.926842284277      -0.354470571433     0.926842284277      -0.354470571433     -0.0225164392471    -0.0710603059655    
8100000000.0        -0.0231592403379    -0.0717833859106    0.925147447089      -0.358660278223     0.925147447089      -0.358660278223     -0.0231592403379    -0.0717833859106    
8200000000.0        -0.0238084666201    -0.072500554829     0.923433191463      -0.36284122041      0.923433191463      -0.36284122041      -0.0238084666201    -0.072500554829     
8300000000.0        -0.0244640619183    -0.0732117551559    0.921699572281      -0.367013303053     0.921699572281      -0.367013303053     -0.0244640619183    -0.0732117551559    
8400000000.0        -0.0251259695443    -0.0739169298788    0.919946644966      -0.371176431676     0.919946644966      -0.371176431676     -0.0251259695443    -0.0739169298788    
8500000000.0        -0.025794132303     -0.0746160225427    0.918174465473      -0.37533051227      0.918174465473      -0.37533051227      -0.025794132303     -0.0746160225427    
8600000000.0        -0.026468492498     -0.0753089772547    0.916383090285      -0.379475451301     0.916383090285      -0.379475451301     -0.026468492498     -0.0753089772547    
8700000000.0        -0.0271489919369    -0.0759957386891    0.914572576408      -0.383611155707     0.914572576408      -0.383611155707     -0.0271489919369    -0.0759957386891    
8800000000.0        -0.0278355719373    -0.0766762520913    0.912742981364      -0.387737532909     0.912742981364      -0.387737532909     -0.0278355719373    -0.0766762520913    
8900000000.0        -0.0285281733326    -0.077350463283     0.910894363184      -0.391854490808     0.910894363184      -0.391854490808     -0.0285281733326    -0.077350463283     
9000000000.0        -0.0292267364775    -0.0780183186663    0.909026780408      -0.395961937793     0.909026780408      -0.395961937793     -0.0292267364775    -0.0780183186663    
9100000000.0        -0.029931201254     -0.0786797652284    0.907140292069      -0.400059782744     0.907140292069      -0.400059782744     -0.029931201254     -0.0786797652284    
9200000000.0        -0.0306415070777    -0.0793347505455    0.905234957699      -0.404147935033     0.905234957699      -0.404147935033     -0.0306415070777    -0.0793347505455    
9300000000.0        -0.0313575929032    -0.0799832227874    0.903310837314      -0.40822630453      0.903310837314      -0.40822630453      -0.0313575929032    -0.0799832227874    
9400000000.0        -0.0320793972307    -0.0806251307215    0.901367991412      -0.412294801604     0.901367991412      -0.412294801604     -0.0320793972307    -0.0806251307215    
9500000000.0        -0.0328068581118    -0.0812604237172    0.899406480967      -0.416353337128     0.899406480967      -0.416353337128     -0.0328068581118    -0.0812604237172    
9600000000.0        -0.0335399131557    -0.0818890517492    0.897426367423      -0.420401822481     0.897426367423      -0.420401822481     -0.0335399131557    -0.0818890517492    
9700000000.0        -0.0342784995353    -0.0825109654023    0.895427712689      -0.424440169551     0.895427712689      -0.424440169551     -0.0342784995353    -0.0825109654023    
9800000000.0        -0.0350225539938    -0.0831261158747    0.893410579129      -0.428468290738     0.893410579129      -0.428468290738     -0.0350225539938    -0.0831261158747    
9900000000.0        -0.0357720128506    -0.0837344549819    0.891375029562      -0.432486098959     0.891375029562      -0.432486098959     -0.0357720128506    -0.0837344549819    
10000000000.0       -0.0365268120077    -0.0843359351605    0.889321127252      -0.436493507647     0.889321127252      -0.436493507647     -0.0365268120077    -0.0843359351605    
