# Hz S RI R 50.00 
100000000.0         0.00416103110297    0.00113470186649    0.995831830129      -0.00381588417432   0.995831830129      -0.00381588417432   0.00416103110297    0.00113470186649    
200000000.0         0.00420047386452    0.00226906409131    0.995779049473      -0.00763143941571   0.995779049473      -0.00763143941571   0.00420047386452    0.00226906409131    
300000000.0         0.00424131601391    0.00340312533266    0.995717669723      -0.0114467114655    0.995717669723      -0.0114467114655    0.00424131601391    0.00340312533266    
400000000.0         0.00428715293401    0.00453685294998    0.99564409477       -0.0152616705792    0.99564409477       -0.0152616705792    0.00428715293401    0.00453685294998    
500000000.0         0.00433936743785    0.00567019792851    0.995556940938      -0.01907626852      0.995556940938      -0.01907626852      0.00433936743785    0.00567019792851    
600000000.0         0.00439866294856    0.00680310410299    0.995455503805      -0.0228904485102    0.995455503805      -0.0228904485102    0.00439866294856    0.00680310410299    
700000000.0         0.00446545319491    0.0079355114557     0.995339368527      -0.0267041488997    0.995339368527      -0.0267041488997    0.00446545319491    0.0079355114557     
800000000.0         0.00454000441513    0.00906735764016    0.995208267629      -0.030517304912     0.995208267629      -0.030517304912     0.00454000441513    0.00906735764016    
900000000.0         0.00462249866246    0.0101985787967     0.995062017715      -0.0343298496062    0.995062017715      -0.0343298496062    0.00462249866246    0.0101985787967     
1000000000.0        0.00471306588755    0.0113291100344     0.994900487384      -0.0381417144618    0.994900487384      -0.0381417144618    0.00471306588755    0.0113291100344     
1100000000.0        0.00481180176918    0.0124588857366     0.994723579406      -0.0419528297599    0.994723579406      -0.0419528297599    0.00481180176918    0.0124588857366     
1200000000.0        0.0049187783371     0.0135878397656     0.994531220105      -0.0457631248462    0.994531220105      -0.0457631248462    0.0049187783371     0.0135878397656     
1300000000.0        0.00503405065403    0.0147159056062     0.994323352677      -0.0495725283198    0.994323352677      -0.0495725283198    0.00503405065403    0.0147159056062     
1400000000.0        0.00515766120699    0.0158430164697     0.994099932801      -0.0533809681738    0.994099932801      -0.0533809681738    0.00515766120699    0.0158430164697     
1500000000.0        0.00528964289911    0.0169691053715     0.993860925657      -0.057188371903     0.993860925657      -0.057188371903     0.00528964289911    0.0169691053715     
1600000000.0        0.00543002115065    0.0180941051911     0.993606303819      -0.0609946665889    0.993606303819      -0.0609946665889    0.00543002115065    0.0180941051911     
1700000000.0        0.00557881541295    0.019217948719      0.993336045748      -0.0647997789678    0.993336045748      -0.0647997789678    0.00557881541295    0.019217948719      
1800000000.0        0.00573604028392    0.0203405686948     0.993050134678      -0.0686036354863    0.993050134678      -0.0686036354863    0.00573604028392    0.0203405686948     
1900000000.0        0.00590170634601    0.0214618978376     0.992748557782      -0.0724061623478    0.992748557782      -0.0724061623478    0.00590170634601    0.0214618978376     
2000000000.0        0.00607582080655    0.0225818688719     0.992431305529      -0.076207285552     0.992431305529      -0.076207285552     0.00607582080655    0.0225818688719     
2100000000.0        0.00625838799466    0.0237004145498     0.992098371194      -0.0800069309281    0.992098371194      -0.0800069309281    0.00625838799466    0.0237004145498     
2200000000.0        0.00644940975194    0.0248174676691     0.991749750465      -0.0838050241643    0.991749750465      -0.0838050241643    0.00644940975194    0.0248174676691     
2300000000.0        0.00664888574365    0.0259329610898     0.991385441137      -0.0876014908332    0.991385441137      -0.0876014908332    0.00664888574365    0.0259329610898     
2400000000.0        0.00685681370918    0.0270468277488     0.991005442858      -0.0913962564145    0.991005442858      -0.0913962564145    0.00685681370917    0.0270468277488     
2500000000.0        0.00707318966577    0.0281590006721     0.990609756934      -0.0951892463151    0.990609756934      -0.0951892463151    0.00707318966577    0.0281590006721     
2600000000.0        0.0072980080758     0.0292694129866     0.990198386157      -0.0989803858875    0.990198386157      -0.0989803858875    0.0072980080758     0.0292694129866     
2700000000.0        0.00753126198527    0.0303779979308     0.989771334671      -0.102769600446     0.989771334671      -0.102769600446     0.00753126198527    0.0303779979308     
2800000000.0        0.00777294313942    0.0314846888641     0.989328607855      -0.106556815284     0.989328607855      -0.106556815284     0.00777294313942    0.0314846888641     
2900000000.0        0.00802304207995    0.0325894192759     0.98887021223       -0.110341955683     0.98887021223       -0.110341955683     0.00802304207995    0.0325894192759     
3000000000.0        0.00828154822741    0.033692122794      0.988396155378      -0.114124946932     0.988396155378      -0.114124946932     0.00828154822741    0.033692122794      
3100000000.0        0.00854844995138    0.0347927331921     0.987906445867      -0.117905714335     0.987906445867      -0.117905714335     0.00854844995138    0.0347927331921     
3200000000.0        0.00882373463071    0.0358911843976     0.987401093202      -0.121684183222     0.987401093202      -0.121684183222     0.00882373463071    0.0358911843976     
3300000000.0        0.00910738870556    0.0369874104983     0.986880107763      -0.125460278964     0.986880107763      -0.125460278964     0.00910738870556    0.0369874104983     
3400000000.0        0.00939939772249    0.0380813457493     0.98634350077       -0.12923392698      0.98634350077       -0.12923392698      0.00939939772249    0.0380813457493     
3500000000.0        0.00969974637389    0.0391729245792     0.98579128424       -0.133005052745     0.98579128424       -0.133005052745     0.00969974637389    0.0391729245792     
3600000000.0        0.0100084185326     0.0402620815965     0.985223470952      -0.136773581802     0.985223470952      -0.136773581802     0.0100084185326     0.0402620815965     
3700000000.0        0.0103253972822     0.0413487515955     0.984640074422      -0.14053943977      0.984640074422      -0.14053943977      0.0103253972822     0.0413487515955     
3800000000.0        0.0106506649445     0.0424328695619     0.984041108873      -0.14430255235      0.984041108873      -0.14430255235      0.0106506649445     0.0424328695619     
3900000000.0        0.0109842031031     0.0435143706787     0.983426589215      -0.148062845338     0.983426589215      -0.148062845338     0.0109842031031     0.0435143706787     
4000000000.0        0.0113259926253     0.0445931903315     0.98279653102       -0.151820244626     0.98279653102       -0.151820244626     0.0113259926253     0.0445931903315     
4100000000.0        0.0116760136815     0.0456692641137     0.982150950507      -0.155574676215     0.982150950507      -0.155574676215     0.0116760136815     0.0456692641137     
4200000000.0        0.0120342457625     0.046742527832      0.981489864524      -0.159326066219     0.981489864524      -0.159326066219     0.0120342457625     0.046742527832      
4300000000.0        0.0124006676957     0.0478129175113     0.980813290534      -0.163074340873     0.980813290534      -0.163074340873     0.0124006676957     0.0478129175113     
4400000000.0        0.0127752576594     0.0488803693996     0.980121246598      -0.166819426539     0.980121246598      -0.166819426539     0.0127752576594     0.0488803693996     
4500000000.0        0.0131579931961     0.0499448199734     0.979413751365      -0.170561249713     0.979413751365      -0.170561249713     0.0131579931961     0.0499448199734     
4600000000.0        0.0135488512249     0.0510062059417     0.978690824062      -0.174299737034     0.978690824062      -0.174299737034     0.0135488512249     0.0510062059417     
4700000000.0        0.0139478080527     0.0520644642515     0.977952484479      -0.178034815282     0.977952484479      -0.178034815282     0.0139478080527     0.0520644642515     
4800000000.0        0.0143548393844     0.0531195320919     0.977198752964      -0.181766411395     0.977198752964      -0.181766411395     0.0143548393844     0.0531195320919     
4900000000.0        0.0147699203333     0.0541713468992     0.976429650409      -0.185494452466     0.976429650409      -0.185494452466     0.0147699203333     0.0541713468992     
5000000000.0        0.0151930254296     0.0552198463609     0.975645198245      -0.189218865752     0.975645198245      -0.189218865752     0.0151930254296     0.0552198463609     
5100000000.0        0.0156241286292     0.0562649684205     0.974845418434      -0.192939578682     0.974845418434      -0.192939578682     0.0156241286292     0.0562649684205     
5200000000.0        0.0160632033219     0.057306651282      0.974030333459      -0.196656518856     0.974030333459      -0.196656518856     0.0160632033219     0.057306651282      
5300000000.0        0.0165102223388     0.0583448334138     0.97319996632       -0.200369614059     0.97319996632       -0.200369614059     0.0165102223388     0.0583448334138     
5400000000.0        0.0169651579598     0.0593794535533     0.972354340524      -0.204078792258     0.972354340524      -0.204078792258     0.0169651579598     0.0593794535533     
5500000000.0        0.0174279819205     0.0604104507113     0.971493480082      -0.207783981613     0.971493480082      -0.207783981613     0.0174279819205     0.0604104507113     
5600000000.0        0.0178986654183     0.0614377641756     0.970617409501      -0.211485110477     0.970617409501      -0.211485110477     0.0178986654183     0.0614377641756     
5700000000.0        0.0183771791197     0.0624613335158     0.969726153779      -0.215182107407     0.969726153779      -0.215182107407     0.0183771791197     0.0624613335158     
5800000000.0        0.0188634931654     0.0634810985869     0.968819738397      -0.218874901164     0.968819738397      -0.218874901164     0.0188634931654     0.0634810985869     
5900000000.0        0.0193575771768     0.0644969995337     0.967898189319      -0.222563420718     0.967898189319      -0.222563420718     0.0193575771768     0.0644969995337     
6000000000.0        0.0198594002615     0.0655089767944     0.96696153298       -0.226247595256     0.96696153298       -0.226247595256     0.0198594002615     0.0655089767944     
6100000000.0        0.020368931019      0.0665169711048     0.966009796287      -0.229927354184     0.966009796287      -0.229927354184     0.020368931019      0.0665169711048     
6200000000.0        0.0208861375456     0.0675209235022     0.96504300661       -0.233602627131     0.96504300661       -0.233602627131     0.0208861375456     0.0675209235022     
6300000000.0        0.0214109874401     0.0685207753293     0.964061191779      -0.237273343956     0.964061191779      -0.237273343956     0.0214109874401     0.0685207753293     
6400000000.0        0.0219434478089     0.0695164682376     0.963064380081      -0.240939434749     0.963064380081      -0.240939434749     0.0219434478089     0.0695164682376     
6500000000.0        0.0224834852707     0.0705079441916     0.962052600251      -0.244600829838     0.962052600251      -0.244600829838     0.0224834852707     0.0705079441916     
6600000000.0        0.0230310659616     0.0714951454726     0.961025881472      -0.248257459794     0.961025881472      -0.248257459794     0.0230310659616     0.0714951454726     
6700000000.0        0.02358615554       0.0724780146818     0.959984253367      -0.25190925543      0.959984253367      -0.25190925543      0.02358615554       0.0724780146818     
6800000000.0        0.024148719191      0.0734564947445     0.958927745998      -0.255556147812     0.958927745998      -0.255556147812     0.024148719191      0.0734564947445     
6900000000.0        0.0247187216316     0.0744305289135     0.957856389859      -0.259198068256     0.957856389859      -0.259198068256     0.0247187216316     0.0744305289135     
7000000000.0        0.0252961271149     0.0754000607725     0.956770215874      -0.262834948338     0.956770215874      -0.262834948338     0.0252961271149     0.0754000607725     
7100000000.0        0.025880899435      0.0763650342398     0.955669255391      -0.266466719894     0.955669255391      -0.266466719894     0.025880899435      0.0763650342398     
7200000000.0        0.0264730019311     0.0773253935717     0.954553540179      -0.270093315027     0.954553540179      -0.270093315027     0.0264730019311     0.0773253935717     
7300000000.0        0.0270723974923     0.0782810833659     0.953423102425      -0.273714666106     0.953423102425      -0.273714666106     0.0270723974923     0.0782810833659     
7400000000.0        0.0276790485621     0.0792320485647     0.952277974725      -0.277330705775     0.952277974725      -0.277330705775     0.0276790485621     0.0792320485647     
7500000000.0        0.0282929171425     0.0801782344589     0.951118190087      -0.280941366951     0.951118190087      -0.280941366951     0.0282929171425     0.0801782344589     
7600000000.0        0.0289139647986     0.0811195866904     0.949943781922      -0.284546582835     0.949943781922      -0.284546582835     0.0289139647986     0.0811195866904     
7700000000.0        0.029542152663      0.0820560512558     0.948754784042      -0.288146286907     0.948754784042      -0.288146286907     0.029542152663      0.0820560512558     
7800000000.0        0.0301774414398     0.0829875745096     0.947551230656      -0.291740412937     0.947551230656      -0.291740412937     0.0301774414398     0.0829875745096     
7900000000.0        0.0308197914095     0.0839141031673     0.946333156364      -0.295328894981     0.946333156364      -0.295328894981     0.0308197914095     0.0839141031673     
8000000000.0        0.0314691624328     0.0848355843085     0.945100596156      -0.298911667393     0.945100596156      -0.298911667393     0.0314691624328     0.0848355843085     
8100000000.0        0.0321255139549     0.0857519653801     0.943853585408      -0.30248866482      0.943853585408      -0.30248866482      0.0321255139549     0.0857519653801     
8200000000.0        0.0327888050102     0.086663194199      0.942592159874      -0.30605982221      0.942592159874      -0.30605982221      0.0327888050102     0.086663194199      
8300000000.0        0.0334589942261     0.0875692189557     0.941316355686      -0.309625074813     0.941316355686      -0.309625074813     0.0334589942261     0.0875692189557     
8400000000.0        0.0341360398275     0.0884699882166     0.940026209351      -0.313184358187     0.940026209351      -0.313184358187     0.0341360398275     0.0884699882166     
8500000000.0        0.0348198996411     0.0893654509272     0.938721757742      -0.316737608196     0.938721757742      -0.316737608196     0.0348198996411     0.0893654509272     
8600000000.0        0.0355105310995     0.0902555564149     0.9374030381        -0.320284761019     0.9374030381        -0.320284761019     0.0355105310995     0.0902555564149     
8700000000.0        0.0362078912454     0.0911402543921     0.936070088025      -0.323825753147     0.936070088025      -0.323825753147     0.0362078912454     0.0911402543921     
8800000000.0        0.0369119367361     0.0920194949584     0.934722945476      -0.327360521391     0.934722945476      -0.327360521391     0.0369119367361     0.0920194949584     
8900000000.0        0.0376226238476     0.0928932286038     0.933361648764      -0.330889002881     0.933361648764      -0.330889002881     0.0376226238476     0.0928932286038     
9000000000.0        0.0383399084786     0.0937614062111     0.93198623655       -0.334411135072     0.93198623655       -0.334411135072     0.0383399084786     0.0937614062111     
9100000000.0        0.0390637461552     0.0946239790589     0.930596747842      -0.337926855742     0.930596747842      -0.337926855742     0.0390637461552     0.0946239790589     
9200000000.0        0.0397940920348     0.0954808988238     0.929193221988      -0.341436103        0.929193221988      -0.341436103        0.0397940920348     0.0954808988238     
9300000000.0        0.0405309009106     0.0963321175831     0.927775698674      -0.344938815286     0.927775698674      -0.344938815286     0.0405309009106     0.0963321175831     
9400000000.0        0.0412741272155     0.0971775878173     0.926344217921      -0.348434931372     0.926344217921      -0.348434931372     0.0412741272155     0.0971775878173     
9500000000.0        0.0420237250265     0.0980172624128     0.924898820077      -0.351924390369     0.924898820077      -0.351924390369     0.0420237250265     0.0980172624128     
9600000000.0        0.0427796480693     0.0988510946637     0.92343954582       -0.355407131723     0.92343954582       -0.355407131723     0.0427796480693     0.0988510946637     
9700000000.0        0.0435418497219     0.099679038275      0.921966436147      -0.358883095225     0.921966436147      -0.358883095225     0.0435418497219     0.099679038275      
9800000000.0        0.0443102830194     0.100501047364      0.920479532374      -0.362352221006     0.920479532374      -0.362352221006     0.0443102830194     0.100501047364      
9900000000.0        0.0450849006581     0.101317076464      0.918978876131      -0.365814449543     0.918978876131      -0.365814449543     0.0450849006581     0.101317076464      
10000000000.0       0.0458656549994     0.102127080525      0.917464509357      -0.369269721663     0.917464509357      -0.369269721663     0.0458656549994     0.102127080525      
