# Hz S RI R 50.00 
100000000.0         -0.00208775491362   -0.0453923080954    0.99785323892       -0.0455361765886    0.99785323892       -0.0455361765886    -0.00208775491362   -0.0453923080954    
200000000.0         -0.00829446975243   -0.090213033604     0.991646089901      -0.0905007912684    0.991646089901      -0.0905007912684    -0.00829446975243   -0.090213033604     
300000000.0         -0.0184387247016    -0.133923355891     0.981501481377      -0.134355034525     0.981501481377      -0.134355034525     -0.0184387247016    -0.133923355891     
400000000.0         -0.0322777326089    -0.176029133654     0.967662149762      -0.176604773756     0.967662149762      -0.176604773756     -0.0322777326089    -0.176029133654     
500000000.0         -0.0494927901588    -0.216098066097     0.950446778919      -0.216817715618     0.950446778919      -0.216817715618     -0.0494927901588    -0.216098066097     
600000000.0         -0.0697068045233    -0.253772129715     0.930232451791      -0.254635843231     0.930232451791      -0.254635843231     -0.0697068045233    -0.253772129715     
700000000.0         -0.0925035171397    -0.28877469514      0.907435421118      -0.289782533224     0.907435421118      -0.289782533224     -0.0925035171397    -0.28877469514      
800000000.0         -0.117446745236     -0.320912386421     0.882491865906      -0.322064415139     0.882491865906      -0.322064415139     -0.117446745236     -0.320912386421     
900000000.0         -0.144098203305     -0.35007226598      0.85584006906       -0.351368556481     0.85584006906       -0.351368556481     -0.144098203305     -0.35007226598      
1000000000.0        -0.1720328424       -0.376215283238     0.827905077646      -0.377655911388     0.827905077646      -0.377655911388     -0.1720328424       -0.376215283238     
1100000000.0        -0.200851074041     -0.399367097173     0.799086478723      -0.400952143243     0.799086478723      -0.400952143243     -0.200851074041     -0.399367097173     
1200000000.0        -0.23018765431      -0.419607389978     0.76974951511       -0.421336938362     0.76974951511       -0.421336938362     -0.23018765431      -0.419607389978     
1300000000.0        -0.259717340681     -0.437058670546     0.740219428457      -0.438932809505     0.740219428457      -0.438932809505     -0.259717340681     -0.437058670546     
1400000000.0        -0.289157673918     -0.45187537202      0.710778677289      -0.453894193454     0.710778677289      -0.453894193454     -0.289157673918     -0.45187537202      
1500000000.0        -0.318269376873     -0.464233823488     0.681666538162      -0.466397422718     0.681666538162      -0.466397422718     -0.318269376873     -0.464233823488     
1600000000.0        -0.346854914376     -0.474323458198     0.653080545751      -0.47663193377      0.653080545751      -0.47663193377      -0.346854914376     -0.474323458198     
1700000000.0        -0.374755744617     -0.482339432934     0.625179241442      -0.484792886438     0.625179241442      -0.484792886438     -0.374755744617     -0.482339432934     
1800000000.0        -0.4018487355       -0.488476686563     0.598085756961      -0.491075222459     0.598085756961      -0.491075222459     -0.4018487355       -0.488476686563     
1900000000.0        -0.428042139766     -0.492925362245     0.571891839246      -0.495669087703     0.571891839246      -0.495669087703     -0.428042139766     -0.492925362245     
2000000000.0        -0.453271436135     -0.495867453295     0.546662009292      -0.498756478047     0.546662009292      -0.498756478047     -0.453271436135     -0.495867453295     
2100000000.0        -0.477495261163     -0.497474499816     0.522437630289      -0.50050893601      0.522437630289      -0.50050893601      -0.477495261163     -0.497474499816     
2200000000.0        -0.500691584128     -0.497906154015     0.499240732726      -0.501086116085     0.499240732726      -0.501086116085     -0.500691584128     -0.497906154015     
2300000000.0        -0.522854218003     -0.497309438871     0.477077503424      -0.500635043411     0.477077503424      -0.500635043411     -0.522854218003     -0.497309438871     
2400000000.0        -0.543989713562     -0.495818541257     0.455941391414      -0.499289906901     0.455941391414      -0.499289906901     -0.543989713562     -0.495818541257     
2500000000.0        -0.564114650074     -0.493555001891     0.43581581725       -0.497172249199     0.43581581725       -0.497172249199     -0.564114650074     -0.493555001891     
2600000000.0        -0.583253312744     -0.490628187201     0.416676495561      -0.494391438557     0.416676495561      -0.494391438557     -0.583253312744     -0.490628187201     
2700000000.0        -0.601435732215     -0.487135950112     0.398493395552      -0.491045329619     0.398493395552      -0.491045329619     -0.601435732215     -0.487135950112     
2800000000.0        -0.618696052931     -0.483165406641     0.381232372631      -0.487221040028     0.381232372631      -0.487221040028     -0.618696052931     -0.483165406641     
2900000000.0        -0.635071193314     -0.478793772413     0.364856508239      -0.482995786945     0.364856508239      -0.482995786945     -0.635071193314     -0.478793772413     
3000000000.0        -0.650599760036     -0.474089217614     0.349327195575      -0.478437742006     0.349327195575      -0.478437742006     -0.650599760036     -0.474089217614     
3100000000.0        -0.66532118014      -0.469111710609     0.33460500747       -0.473606874944     0.33460500747       -0.473606874944     -0.66532118014      -0.469111710609     
3200000000.0        -0.679275017433     -0.463913829723     0.320650379998      -0.468555765377     0.320650379998      -0.468555765377     -0.679275017433     -0.463913829723     
3300000000.0        -0.692500442964     -0.458541529904     0.307424141994      -0.463330369472     0.307424141994      -0.463330369472     -0.692500442964     -0.458541529904     
3400000000.0        -0.705035832956     -0.453034856369     0.294887917127      -0.4579707336       0.294887917127      -0.4579707336       -0.705035832956     -0.453034856369     
3500000000.0        -0.716918471149     -0.447428601429     0.283004421548      -0.452511651157     0.283004421548      -0.452511651157     -0.716918471149     -0.447428601429     
3600000000.0        -0.72818433585      -0.441752903512     0.271737676845      -0.446983261596     0.271737676845      -0.446983261596     -0.72818433585      -0.441752903512     
3700000000.0        -0.738867955056     -0.436033789472     0.261053154922      -0.441411592742     0.261053154922      -0.441411592742     -0.738867955056     -0.436033789472     
3800000000.0        -0.749002315723     -0.430293662599     0.250917868724      -0.435819048795     0.250917868724      -0.435819048795     -0.749002315723     -0.430293662599     
3900000000.0        -0.758618815661     -0.424551739563     0.241300420345      -0.430224847288     0.241300420345      -0.430224847288     -0.758618815661     -0.424551739563     
4000000000.0        -0.767747248548     -0.418824440053     0.232171016011      -0.424645408725     0.232171016011      -0.424645408725     -0.767747248548     -0.418824440053     
4100000000.0        -0.776415814327     -0.413125733008     0.223501455689      -0.419094702811     0.223501455689      -0.419094702811     -0.776415814327     -0.413125733008     
4200000000.0        -0.784651148694     -0.407467443407     0.21526510359       -0.413584555251     0.21526510359       -0.413584555251     -0.784651148694     -0.407467443407     
4300000000.0        -0.79247836662      -0.401859523445     0.207436844655      -0.408124918926     0.207436844655      -0.408124918926     -0.79247836662      -0.401859523445     
4400000000.0        -0.799921115861     -0.396310291746     0.199993031041      -0.402724113106     0.199993031041      -0.402724113106     -0.799921115861     -0.396310291746     
4500000000.0        -0.807001637249     -0.390826644015     0.192911421827      -0.397389034108     0.192911421827      -0.397389034108     -0.807001637249     -0.390826644015     
4600000000.0        -0.813740829233     -0.385414238264     0.186171118481      -0.392125340525     0.186171118481      -0.392125340525     -0.813740829233     -0.385414238264     
4700000000.0        -0.820158314708     -0.380077657488     0.179752498021      -0.386937615898     0.179752498021      -0.386937615898     -0.820158314708     -0.380077657488     
4800000000.0        -0.826272508609     -0.374820552367     0.17363714543       -0.381829511429     0.17363714543       -0.381829511429     -0.826272508609     -0.374820552367     
4900000000.0        -0.832100685119     -0.369645766348     0.16780778644       -0.376803871056     0.16780778644       -0.376803871056     -0.832100685119     -0.369645766348     
5000000000.0        -0.837659043636     -0.364555445184     0.162248221573      -0.371862841001     0.162248221573      -0.371862841001     -0.837659043636     -0.364555445184     
5100000000.0        -0.842962772856     -0.359551132784     0.15694326205       -0.36700796562      0.15694326205       -0.36700796562      -0.842962772856     -0.359551132784     
5200000000.0        -0.848026112544     -0.35463385505      0.151878668026      -0.362240271238     0.151878668026      -0.362240271238     -0.848026112544     -0.35463385505      
5300000000.0        -0.852862412681     -0.349804193136     0.147041089439      -0.357560339413     0.147041089439      -0.357560339413     -0.852862412681     -0.349804193136     
5400000000.0        -0.85748418981      -0.345062347445     0.142418009666      -0.352968370937     0.142418009666      -0.352968370937     -0.85748418981      -0.345062347445     
5500000000.0        -0.861903180481     -0.34040819349      0.137997692078      -0.348464241693     0.137997692078      -0.348464241693     -0.861903180481     -0.34040819349      
5600000000.0        -0.866130391758     -0.335841330632     0.133769129532      -0.344047551399     0.133769129532      -0.344047551399     -0.866130391758     -0.335841330632     
5700000000.0        -0.870176148822     -0.331361124568     0.129721996767      -0.339717666094     0.129721996767      -0.339717666094     -0.870176148822     -0.331361124568     
5800000000.0        -0.874050139717     -0.326966744353     0.125846605662      -0.335473755166     0.125846605662      -0.335473755166     -0.874050139717     -0.326966744353     
5900000000.0        -0.877761457326     -0.322657194633     0.122133863256      -0.33131482358      0.122133863256      -0.33131482358      -0.877761457326     -0.322657194633     
6000000000.0        -0.881318638688     -0.31843134368      0.118575232431      -0.327239739916     0.118575232431      -0.327239739916     -0.881318638688     -0.31843134368      
6100000000.0        -0.884729701768     -0.314287947759     0.115162695144      -0.323247260747     0.115162695144      -0.323247260747     -0.884729701768     -0.314287947759     
6200000000.0        -0.888002179806     -0.310225672291     0.111888718078      -0.319336051785     0.111888718078      -0.319336051785     -0.888002179806     -0.310225672291     
6300000000.0        -0.891143153374     -0.306243110193     0.108746220584      -0.315504706238     0.108746220584      -0.315504706238     -0.891143153374     -0.306243110193     
6400000000.0        -0.894159280276     -0.302338797768     0.10572854478       -0.311751760693     0.10572854478       -0.311751760693     -0.894159280276     -0.302338797768     
6500000000.0        -0.897056823407     -0.298511228442     0.102829427693      -0.308075708857     0.102829427693      -0.308075708857     -0.897056823407     -0.298511228442     
6600000000.0        -0.899841676716     -0.294758864621     0.100042975297      -0.304475013411     0.100042975297      -0.304475013411     -0.899841676716     -0.294758864621     
6700000000.0        -0.902519389376     -0.291080147902     0.0973636383431     -0.300948116228     0.0973636383431     -0.300948116228     -0.902519389376     -0.291080147902     
6800000000.0        -0.905095188287     -0.287473507845     0.0947861898528     -0.29749344714      0.0947861898528     -0.29749344714      -0.905095188287     -0.287473507845     
6900000000.0        -0.907573999028     -0.283937369493     0.0923057041706     -0.294109431464     0.0923057041706     -0.294109431464     -0.907573999028     -0.283937369493     
7000000000.0        -0.909960465351     -0.280470159791     0.0899175374663     -0.290794496416     0.0899175374663     -0.290794496416     -0.909960465351     -0.280470159791     
7100000000.0        -0.912258967331     -0.277070313044     0.0876173095883     -0.287547076575     0.0876173095883     -0.287547076575     -0.912258967331     -0.277070313044     
7200000000.0        -0.914473638254     -0.273736275543     0.0854008871722     -0.284365618507     0.0854008871722     -0.284365618507     -0.914473638254     -0.273736275543     
7300000000.0        -0.916608380342     -0.27046650946      0.0832643679192     -0.28124858466      0.0832643679192     -0.28124858466      -0.916608380342     -0.27046650946      
7400000000.0        -0.918666879388     -0.267259496097     0.081204065958      -0.278194456617     0.081204065958      -0.278194456617     -0.918666879388     -0.267259496097     
7500000000.0        -0.920652618386     -0.264113738595     0.0792164982165     -0.275201737801     0.0792164982165     -0.275201737801     -0.920652618386     -0.264113738595     
7600000000.0        -0.922568890226     -0.261027764153     0.0772983717283     -0.272268955697     0.0772983717283     -0.272268955697     -0.922568890226     -0.261027764153     
7700000000.0        -0.924418809512     -0.258000125818     0.0754465718086     -0.269394663646     0.0754465718086     -0.269394663646     -0.924418809512     -0.258000125818     
7800000000.0        -0.926205323588     -0.255029403931     0.0736581510368     -0.266577442282     0.0736581510368     -0.266577442282     -0.926205323588     -0.255029403931     
7900000000.0        -0.927931222801     -0.252114207235     0.0719303189869     -0.263815900651     0.0719303189869     -0.263815900651     -0.927931222801     -0.252114207235     
8000000000.0        -0.929599150077     -0.249253173723     0.0702604326534     -0.261108677054     0.0702604326534     -0.261108677054     -0.929599150077     -0.249253173723     
8100000000.0        -0.931211609853     -0.246444971245     0.068645987521      -0.258454439652     0.068645987521      -0.258454439652     -0.931211609853     -0.246444971245     
8200000000.0        -0.932770976404     -0.24368829791      0.067084609234      -0.255851886876     0.067084609234      -0.255851886876     -0.932770976404     -0.24368829791      
8300000000.0        -0.934279501624     -0.240981882312     0.0655740458196     -0.253299747647     0.0655740458196     -0.253299747647     -0.934279501624     -0.240981882312     
8400000000.0        -0.935739322281     -0.238324483608     0.0641121604284     -0.250796781455     0.0641121604284     -0.250796781455     -0.935739322281     -0.238324483608     
8500000000.0        -0.937152466804     -0.235714891466     0.0626969245529     -0.24834177831      0.0626969245529     -0.24834177831      -0.937152466804     -0.235714891466     
8600000000.0        -0.938520861613     -0.233151925899     0.0613264116917     -0.245933558576     0.0613264116917     -0.245933558576     -0.938520861613     -0.233151925899     
8700000000.0        -0.939846337045     -0.230634437017     0.0599987914264     -0.24357097272      0.0599987914264     -0.24357097272      -0.939846337045     -0.230634437017     
8800000000.0        -0.941130632893     -0.228161304686     0.0587123238826     -0.241252900975     0.0587123238826     -0.241252900975     -0.941130632893     -0.228161304686     
8900000000.0        -0.942375403587     -0.225731438136     0.0574653545485     -0.238978252947     0.0574653545485     -0.238978252947     -0.942375403587     -0.225731438136     
9000000000.0        -0.943582223043     -0.223343775504     0.0562563094256     -0.236745967156     0.0562563094256     -0.236745967156     -0.943582223043     -0.223343775504     
9100000000.0        -0.944752589205     -0.220997283342     0.0550836904869     -0.234555010548     0.0550836904869     -0.234555010548     -0.944752589205     -0.220997283342     
9200000000.0        -0.945887928299     -0.218690956076     0.0539460714249     -0.232404377951     0.0539460714249     -0.232404377951     -0.945887928299     -0.218690956076     
9300000000.0        -0.946989598815     -0.216423815451     0.0528420936645     -0.230293091524     0.0528420936645     -0.230293091524     -0.946989598815     -0.216423815451     
9400000000.0        -0.948058895248     -0.214194909944     0.0517704626272     -0.228220200166     0.0517704626272     -0.228220200166     -0.948058895248     -0.214194909944     
9500000000.0        -0.949097051601     -0.212003314166     0.0507299442259     -0.226184778919     0.0507299442259     -0.226184778919     -0.949097051601     -0.212003314166     
9600000000.0        -0.950105244673     -0.209848128247     0.0497193615765     -0.224185928356     0.0497193615765     -0.224185928356     -0.950105244673     -0.209848128247     
9700000000.0        -0.951084597146     -0.207728477215     0.0487375919114     -0.222222773958     0.0487375919114     -0.222222773958     -0.951084597146     -0.207728477215     
9800000000.0        -0.952036180485     -0.205643510378     0.0477835636802     -0.220294465495     0.0477835636802     -0.220294465495     -0.952036180485     -0.205643510378     
9900000000.0        -0.952961017659     -0.203592400693     0.0468562538262     -0.218400176398     0.0468562538262     -0.218400176398     -0.952961017659     -0.203592400693     
10000000000.0       -0.953860085704     -0.201574344145     0.0459546852271     -0.216539103136     0.0459546852271     -0.216539103136     -0.953860085704     -0.201574344145     
