# Hz S RI R 50.00 
100000000.0         0.0826911568287     0.00311397341086    0.917305813048      -0.00440083395935   0.917305813048      -0.00440083395935   0.0826911568287     0.00311397341086    
200000000.0         0.0832341881983     0.00621938307938    0.916759045106      -0.00879310745766   0.916759045106      -0.00879310745766   0.0832341881983     0.00621938307938    
300000000.0         0.0836707671984     0.00931924033977    0.916317022439      -0.0131798370708    0.916317022439      -0.0131798370708    0.0836707671984     0.00931924033977    
400000000.0         0.0840672931331     0.012414366736      0.915913345252      -0.0175618493067    0.915913345252      -0.0175618493067    0.0840672931331     0.012414366736      
500000000.0         0.0844493785856     0.0155050748181     0.91552240052       -0.0219394615408    0.91552240052       -0.0219394615408    0.0844493785856     0.0155050748181     
600000000.0         0.0848300952852     0.0185914520915     0.915131116094      -0.0263127660143    0.915131116094      -0.0263127660143    0.0848300952852     0.0185914520915     
700000000.0         0.0852171624302     0.0216734630289     0.914731772357      -0.0306817318705    0.914731772357      -0.0306817318705    0.0852171624302     0.0216734630289     
800000000.0         0.0856155727593     0.0247509964108     0.914319376145      -0.0350462525105    0.914319376145      -0.0350462525105    0.0856155727593     0.0247509964108     
900000000.0         0.0860287628775     0.027823890779      0.913890490416      -0.0394061710563    0.913890490416      -0.0394061710563    0.0860287628775     0.027823890779      
1000000000.0        0.0864592069853     0.0308919495328     0.913442640515      -0.0437612954541    0.913442640515      -0.0437612954541    0.0864592069853     0.0308919495328     
1100000000.0        0.0869087472019     0.0339549505426     0.912973983849      -0.0481114080922    0.912973983849      -0.0481114080922    0.0869087472019     0.0339549505426     
1200000000.0        0.0873787905597     0.037012652612      0.91248311289       -0.0524562722678    0.91248311289       -0.0524562722678    0.0873787905597     0.037012652612      
1300000000.0        0.0878704330443     0.0400648000135     0.911968931132      -0.0567956367252    0.911968931132      -0.0567956367252    0.0878704330443     0.0400648000135     
1400000000.0        0.0883845411962     0.0431111257863     0.911430571491      -0.0611292389563    0.911430571491      -0.0611292389563    0.0883845411962     0.0431111257863     
1500000000.0        0.0889218077634     0.0461513542059     0.910867340649      -0.0654568076721    0.910867340649      -0.0654568076721    0.0889218077634     0.0461513542059     
1600000000.0        0.0894827908267     0.0491852026813     0.910278679929      -0.0697780647011    0.910278679929      -0.0697780647011    0.0894827908267     0.0491852026813     
1700000000.0        0.090067942023      0.0522123832444     0.909664137068      -0.0740927264806    0.909664137068      -0.0740927264806    0.090067942023      0.0522123832444     
1800000000.0        0.0906776273654     0.0552326037423     0.909023345403      -0.0784005052505    0.909023345403      -0.0784005052505    0.0906776273654     0.0552326037423     
1900000000.0        0.0913121429033     0.0582455688093     0.908356008202      -0.0827011100253    0.908356008202      -0.0827011100253    0.0913121429033     0.0582455688093     
2000000000.0        0.0919717267055     0.0612509806702     0.907661886688      -0.086994247399     0.907661886688      -0.086994247399     0.0919717267055     0.0612509806702     
2100000000.0        0.092656568172      0.064248539815      0.90694079072       -0.0912796222204    0.90694079072       -0.0912796222204    0.092656568172      0.064248539815      
2200000000.0        0.0933668153692     0.0672379455716     0.906192571464      -0.0955569381666    0.906192571464      -0.0955569381666    0.0933668153692     0.0672379455716     
2300000000.0        0.0941025808807     0.0702188965992     0.905417115537      -0.0998258982367    0.905417115537      -0.0998258982367    0.0941025808807     0.0702188965992     
2400000000.0        0.0948639465281     0.0731910913163     0.90461434029       -0.104086205181     0.90461434029       -0.104086205181     0.0948639465281     0.0731910913163     
2500000000.0        0.0956509672186     0.0761542282763     0.903784189955      -0.108337561875     0.903784189955      -0.108337561875     0.0956509672186     0.0761542282763     
2600000000.0        0.0964636741125     0.0791080065011     0.902926632483      -0.112579671658     0.902926632483      -0.112579671658     0.0964636741125     0.0791080065011     
2700000000.0        0.0973020772534     0.0820521257773     0.902041656908      -0.116812238625     0.902041656908      -0.116812238625     0.0973020772534     0.0820521257773     
2800000000.0        0.0981661677713     0.0849862869239     0.901129271151      -0.121034967895     0.901129271151      -0.121034967895     0.0981661677713     0.0849862869239     
2900000000.0        0.0990559197417     0.0879101920342     0.900189500152      -0.125247565858     0.900189500152      -0.125247565858     0.0990559197417     0.0879101920342     
3000000000.0        0.0999712917678     0.0908235446957     0.899222384295      -0.129449740389     0.899222384295      -0.129449740389     0.0999712917678     0.0908235446957     
3100000000.0        0.100912228334      0.0937260501923     0.898227978049      -0.133641201056     0.898227978049      -0.133641201056     0.100912228334      0.0937260501923     
3200000000.0        0.101878660976      0.0966174156899     0.897206348803      -0.137821659301     0.897206348803      -0.137821659301     0.101878660976      0.0966174156899     
3300000000.0        0.102870509293      0.0994973504084     0.89615757585       -0.141990828615     0.89615757585       -0.141990828615     0.102870509293      0.0994973504084     
3400000000.0        0.103887681833      0.10236556578       0.895081749501      -0.146148424699     0.895081749501      -0.146148424699     0.103887681833      0.10236556578       
3500000000.0        0.104930076874      0.105221775601      0.893978970307      -0.150294165607     0.893978970307      -0.150294165607     0.104930076874      0.105221775601      
3600000000.0        0.105997583111      0.108065696164      0.892849348369      -0.154427771892     0.892849348369      -0.154427771892     0.105997583111      0.108065696164      
3700000000.0        0.107090080268      0.110897046395      0.891693002728      -0.158548966729     0.891693002728      -0.158548966729     0.107090080268      0.110897046395      
3800000000.0        0.108207439646      0.113715547971      0.890510060817      -0.162657476044     0.890510060817      -0.162657476044     0.108207439646      0.113715547971      
3900000000.0        0.109349524613      0.116520925438      0.889300657966      -0.166753028623     0.889300657966      -0.166753028623     0.109349524613      0.116520925438      
4000000000.0        0.110516191055      0.119312906314      0.88806493696       -0.170835356226     0.88806493696       -0.170835356226     0.110516191055      0.119312906314      
4100000000.0        0.111707287772      0.122091221196      0.886803047633      -0.174904193683     0.886803047633      -0.174904193683     0.111707287772      0.122091221196      
4200000000.0        0.112922656854      0.124855603854      0.8855151465        -0.178959278994     0.8855151465        -0.178959278994     0.112922656854      0.124855603854      
4300000000.0        0.114162134019      0.127605791324      0.884201396415      -0.183000353423     0.884201396415      -0.183000353423     0.114162134019      0.127605791324      
4400000000.0        0.115425548921      0.130341523992      0.882861966262      -0.187027161578     0.882861966262      -0.187027161578     0.115425548921      0.130341523992      
4500000000.0        0.116712725446      0.133062545674      0.881497030663      -0.191039451495     0.881497030663      -0.191039451495     0.116712725446      0.133062545674      
4600000000.0        0.118023481977      0.135768603699      0.880106769706      -0.195036974719     0.880106769706      -0.195036974719     0.118023481977      0.135768603699      
4700000000.0        0.119357631649      0.138459448977      0.878691368701      -0.19901948637      0.878691368701      -0.19901948637      0.119357631649      0.138459448977      
4800000000.0        0.120714982583      0.141134836066      0.877251017933      -0.20298674522      0.877251017933      -0.20298674522      0.120714982583      0.141134836066      
4900000000.0        0.122095338109      0.143794523246      0.875785912449      -0.20693851375      0.875785912449      -0.20693851375      0.122095338109      0.143794523246      
5000000000.0        0.123498496978      0.146438272568      0.874296251841      -0.210874558217     0.874296251841      -0.210874558217     0.123498496978      0.146438272568      
5100000000.0        0.124924253561      0.149065849925      0.872782240048      -0.214794648712     0.872782240048      -0.214794648712     0.124924253561      0.149065849925      
5200000000.0        0.126372398038      0.151677025096      0.871244085168      -0.218698559211     0.871244085168      -0.218698559211     0.126372398038      0.151677025096      
5300000000.0        0.127842716581      0.154271571801      0.869681999271      -0.222586067628     0.869681999271      -0.222586067628     0.127842716581      0.154271571801      
5400000000.0        0.129334991528      0.156849267752      0.868096198232      -0.226456955865     0.868096198232      -0.226456955865     0.129334991528      0.156849267752      
5500000000.0        0.130849001549      0.159409894693      0.866486901559      -0.230311009855     0.866486901559      -0.230311009855     0.130849001549      0.159409894693      
5600000000.0        0.132384521807      0.161953238445      0.864854332233      -0.234148019604     0.864854332233      -0.234148019604     0.132384521807      0.161953238445      
5700000000.0        0.133941324112      0.164479088945      0.863198716554      -0.237967779232     0.863198716554      -0.237967779232     0.133941324112      0.164479088945      
5800000000.0        0.135519177076      0.166987240281      0.861520283992      -0.241770087005     0.861520283992      -0.241770087005     0.135519177076      0.166987240281      
5900000000.0        0.137117846249      0.169477490726      0.859819267038      -0.245554745374     0.859819267038      -0.245554745374     0.137117846249      0.169477490726      
6000000000.0        0.13873709427       0.171949642766      0.858095901067      -0.249321561002     0.858095901067      -0.249321561002     0.13873709427       0.171949642766      
6100000000.0        0.140376680996      0.174403503135      0.856350424197      -0.253070344793     0.856350424197      -0.253070344793     0.140376680996      0.174403503135      
6200000000.0        0.142036363641      0.176838882832      0.85458307716       -0.256800911918     0.85458307716       -0.256800911918     0.142036363641      0.176838882832      
6300000000.0        0.143715896903      0.179255597151      0.852794103168      -0.260513081835     0.852794103168      -0.260513081835     0.143715896903      0.179255597151      
6400000000.0        0.145415033091      0.181653465695      0.850983747788      -0.264206678316     0.850983747788      -0.264206678316     0.145415033091      0.181653465695      
6500000000.0        0.147133522252      0.1840323124        0.849152258818      -0.267881529456     0.849152258818      -0.267881529456     0.147133522252      0.1840323124        
6600000000.0        0.148871112286      0.186391965545      0.847299886164      -0.271537467698     0.847299886164      -0.271537467698     0.148871112286      0.186391965545      
6700000000.0        0.150627549074      0.188732257769      0.845426881723      -0.275174329838     0.845426881723      -0.275174329838     0.150627549074      0.188732257769      
6800000000.0        0.152402576584      0.191053026081      0.843533499265      -0.27879195704      0.843533499265      -0.27879195704      0.152402576584      0.191053026081      
6900000000.0        0.154195936993      0.193354111867      0.841619994322      -0.282390194846     0.841619994322      -0.282390194846     0.154195936993      0.193354111867      
7000000000.0        0.156007370796      0.195635360899      0.839686624072      -0.285968893178     0.839686624072      -0.285968893178     0.156007370796      0.195635360899      
7100000000.0        0.157836616912      0.197896623337      0.837733647232      -0.289527906346     0.837733647232      -0.289527906346     0.157836616912      0.197896623337      
7200000000.0        0.1596834128        0.200137753732      0.835761323951      -0.293067093049     0.835761323951      -0.293067093049     0.1596834128        0.200137753732      
7300000000.0        0.161547494555      0.202358611026      0.833769915701      -0.296586316373     0.833769915701      -0.296586316373     0.161547494555      0.202358611026      
7400000000.0        0.163428597019      0.204559058549      0.831759685176      -0.300085443794     0.831759685176      -0.300085443794     0.163428597019      0.204559058549      
7500000000.0        0.16532645388       0.206738964018      0.829730896189      -0.303564347169     0.829730896189      -0.303564347169     0.16532645388       0.206738964018      
7600000000.0        0.167240797772      0.208898199528      0.827683813571      -0.307022902731     0.827683813571      -0.307022902731     0.167240797772      0.208898199528      
7700000000.0        0.169171360375      0.211036641544      0.825618703075      -0.310460991085     0.825618703075      -0.310460991085     0.169171360375      0.211036641544      
7800000000.0        0.171117872511      0.213154170895      0.823535831275      -0.313878497193     0.823535831275      -0.313878497193     0.171117872511      0.213154170895      
7900000000.0        0.173080064238      0.215250672756      0.821435465476      -0.317275310367     0.821435465476      -0.317275310367     0.173080064238      0.215250672756      
8000000000.0        0.175057664943      0.217326036643      0.819317873616      -0.320651324251     0.819317873616      -0.320651324251     0.175057664943      0.217326036643      
8100000000.0        0.177050403437      0.21938015639       0.817183324176      -0.32400643681      0.817183324176      -0.32400643681      0.177050403437      0.21938015639       
8200000000.0        0.179058008043      0.221412930137      0.81503208609       -0.327340550312     0.81503208609       -0.327340550312     0.179058008043      0.221412930137      
8300000000.0        0.181080206683      0.22342426031       0.812864428657      -0.33065357131      0.812864428657      -0.33065357131      0.181080206683      0.22342426031       
8400000000.0        0.183116726969      0.225414053602      0.810680621453      -0.333945410621     0.810680621453      -0.333945410621     0.183116726969      0.225414053602      
8500000000.0        0.185167296284      0.227382220951      0.808480934244      -0.337215983302     0.808480934244      -0.337215983302     0.185167296284      0.227382220951      
8600000000.0        0.187231641868      0.229328677515      0.806265636905      -0.340465208635     0.806265636905      -0.340465208635     0.187231641868      0.229328677515      
8700000000.0        0.189309490903      0.231253342649      0.804034999335      -0.343693010093     0.804034999335      -0.343693010093     0.189309490903      0.231253342649      
8800000000.0        0.191400570586      0.233156139881      0.801789291378      -0.346899315319     0.801789291378      -0.346899315319     0.191400570586      0.233156139881      
8900000000.0        0.193504608219      0.235036996882      0.799528782744      -0.350084056101     0.799528782744      -0.350084056101     0.193504608219      0.235036996882      
9000000000.0        0.195621331277      0.236895845436      0.797253742929      -0.353247168334     0.797253742929      -0.353247168334     0.195621331277      0.236895845436      
9100000000.0        0.197750467488      0.238732621413      0.794964441139      -0.356388592002     0.794964441139      -0.356388592002     0.197750467488      0.238732621413      
9200000000.0        0.199891744911      0.240547264738      0.792661146219      -0.359508271138     0.792661146219      -0.359508271138     0.199891744911      0.240547264738      
9300000000.0        0.202044892002      0.242339719353      0.790344126575      -0.362606153792     0.790344126575      -0.362606153792     0.202044892002      0.242339719353      
9400000000.0        0.204209637692      0.244109933191      0.788013650104      -0.365682192002     0.788013650104      -0.365682192002     0.204209637692      0.244109933191      
9500000000.0        0.206385711454      0.245857858135      0.785669984125      -0.368736341757     0.785669984125      -0.368736341757     0.206385711454      0.245857858135      
9600000000.0        0.208572843372      0.247583449984      0.783313395309      -0.371768562958     0.783313395309      -0.371768562958     0.208572843372      0.247583449984      
9700000000.0        0.210770764208      0.249286668418      0.780944149613      -0.374778819385     0.780944149613      -0.374778819385     0.210770764208      0.249286668418      
9800000000.0        0.212979205468      0.250967476957      0.778562512212      -0.377767078657     0.778562512212      -0.377767078657     0.212979205468      0.250967476957      
9900000000.0        0.215197899466      0.252625842923      0.776168747437      -0.380733312193     0.776168747437      -0.380733312193     0.215197899466      0.252625842923      
10000000000.0       0.217426579386      0.2542617374        0.773763118712      -0.383677495172     0.773763118712      -0.383677495172     0.217426579386      0.2542617374        
