# Hz S RI R 50.00 
100000000.0         0.0226800366473     0.00135223353318    0.977317777786      -0.00221459221981   0.977317777786      -0.00221459221981   0.0226800366473     0.00135223353318    
200000000.0         0.0228350438966     0.00270336704967    0.977160835469      -0.00442808613511   0.977160835469      -0.00442808613511   0.0228350438966     0.00270336704967    
300000000.0         0.0229565110322     0.00405380355315    0.977036683681      -0.00664088656227   0.977036683681      -0.00664088656227   0.0229565110322     0.00405380355315    
400000000.0         0.0230637975674     0.00540366265061    0.976925962839      -0.0088531146084    0.976925962839      -0.0088531146084    0.0230637975674     0.00540366265061    
500000000.0         0.0231643759221     0.00675299801749    0.976821200457      -0.0110648252933    0.976821200457      -0.0110648252933    0.0231643759221     0.00675299801749    
600000000.0         0.0232620647747     0.00810183412812    0.976718577792      -0.0132760443347    0.976718577792      -0.0132760443347    0.0232620647747     0.00810183412812    
700000000.0         0.0233591241492     0.00945017944631    0.976615834753      -0.015486781367     0.976615834753      -0.015486781367     0.0233591241492     0.00945017944631    
800000000.0         0.0234570207526     0.0107980325421     0.976511504565      -0.0176970360742    0.976511504565      -0.0176970360742    0.0234570207526     0.0107980325421     
900000000.0         0.0235567690398     0.0121453853761     0.9764045727        -0.0199068014857    0.9764045727        -0.0199068014857    0.0235567690398     0.0121453853761     
1000000000.0        0.0236591042403     0.0134922252435     0.976294303854      -0.0221160659276    0.976294303854      -0.0221160659276    0.0236591042403     0.0134922252435     
1100000000.0        0.0237645786215     0.0148385360083     0.976180145682      -0.0243248142629    0.976180145682      -0.0243248142629    0.0237645786215     0.0148385360083     
1200000000.0        0.0238736188983     0.0161842989299     0.976061671386      -0.0265330287216    0.976061671386      -0.0265330287216    0.0238736188983     0.0161842989299     
1300000000.0        0.0239865623805     0.0175294932395     0.97593854357       -0.0287406894818    0.97593854357       -0.0287406894818    0.0239865623805     0.0175294932395     
1400000000.0        0.0241036807528     0.0188740965573     0.975810490461      -0.0309477750882    0.975810490461      -0.0309477750882    0.0241036807528     0.0188740965573     
1500000000.0        0.0242251962919     0.0202180852018     0.975677289687      -0.0331542627644    0.975677289687      -0.0331542627644    0.0242251962919     0.0202180852018     
1600000000.0        0.0243512932652     0.0215614344248     0.975538756884      -0.0353601286496    0.975538756884      -0.0353601286496    0.0243512932652     0.0215614344248     
1700000000.0        0.0244821261519     0.0229041185943     0.97539473747       -0.0375653479829    0.97539473747       -0.0375653479829    0.0244821261519     0.0229041185943     
1800000000.0        0.0246178257059     0.0242461113386     0.975245100587      -0.0397698952487    0.975245100587      -0.0397698952487    0.0246178257059     0.0242461113386     
1900000000.0        0.0247585035126     0.0255873856619     0.975089734539      -0.0419737442936    0.975089734539      -0.0419737442936    0.0247585035126     0.0255873856619     
2000000000.0        0.0249042554744     0.026927914038      0.97492854331       -0.0441768684212    0.97492854331       -0.0441768684212    0.0249042554744     0.026927914038      
2100000000.0        0.0250551645159     0.0282676684882     0.974761443858      -0.0463792404702    0.974761443858      -0.0463792404702    0.0250551645159     0.0282676684882     
2200000000.0        0.0252113027121     0.0296066206451     0.974588363986      -0.0485808328798    0.974588363986      -0.0485808328798    0.0252113027121     0.0296066206451     
2300000000.0        0.0253727329833     0.030944741807      0.974409240647      -0.0507816177441    0.974409240647      -0.0507816177441    0.0253727329833     0.030944741807      
2400000000.0        0.0255395104598     0.0322820029834     0.974224018581      -0.0529815668584    0.974224018581      -0.0529815668584    0.0255395104598     0.0322820029834     
2500000000.0        0.0257116835912     0.0336183749344     0.974032649205      -0.0551806517596    0.974032649205      -0.0551806517596    0.0257116835912     0.0336183749344     
2600000000.0        0.0258892950562     0.0349538282042     0.973835089702      -0.0573788437595    0.973835089702      -0.0573788437595    0.0258892950562     0.0349538282042     
2700000000.0        0.0260723825163     0.0362883331508     0.973631302268      -0.0595761139752    0.973631302268      -0.0595761139752    0.0260723825163     0.0362883331508     
2800000000.0        0.0262609792426     0.037621859971      0.973421253486      -0.0617724333546    0.973421253486      -0.0617724333546    0.0262609792426     0.037621859971      
2900000000.0        0.0264551146433     0.0389543787234     0.973204913797      -0.0639677726996    0.973204913797      -0.0639677726996    0.0264551146433     0.0389543787234     
3000000000.0        0.0266548147086     0.0402858593477     0.972982257058      -0.0661621026862    0.972982257058      -0.0661621026862    0.0266548147086     0.0402858593477     
3100000000.0        0.0268601023888     0.041616271683      0.972753260159      -0.0683553938822    0.972753260159      -0.0683553938822    0.0268601023889     0.041616271683      
3200000000.0        0.0270709979184     0.0429455854832     0.972517902704      -0.0705476167636    0.972517902704      -0.0705476167636    0.0270709979184     0.0429455854832     
3300000000.0        0.0272875190933     0.044273770431      0.972276166731      -0.0727387417288    0.972276166731      -0.0727387417288    0.0272875190933     0.044273770431      
3400000000.0        0.0275096815115     0.045600796151      0.972028036472      -0.0749287391119    0.972028036472      -0.0749287391119    0.0275096815115     0.045600796151      
3500000000.0        0.0277374987808     0.0469266322213     0.971773498144      -0.077117579194     0.971773498144      -0.077117579194     0.0277374987808     0.0469266322213     
3600000000.0        0.0279709827007     0.0482512481837     0.97151253977       -0.0793052322144    0.97151253977       -0.0793052322144    0.0279709827007     0.0482512481837     
3700000000.0        0.0282101434207     0.0495746135537     0.971245151019      -0.0814916683804    0.971245151019      -0.0814916683804    0.0282101434207     0.0495746135537     
3800000000.0        0.0284549895801     0.050896697829      0.970971323064      -0.083676857876     0.970971323064      -0.083676857876     0.0284549895801     0.050896697829      
3900000000.0        0.0287055284309     0.0522174704979     0.970691048465      -0.0858607708703    0.970691048465      -0.0858607708703    0.0287055284309     0.0522174704979     
4000000000.0        0.0289617659463     0.0535369010466     0.970404321053      -0.0880433775255    0.970404321053      -0.0880433775255    0.0289617659463     0.0535369010466     
4100000000.0        0.0292237069175     0.0548549589662     0.970111135841      -0.0902246480036    0.970111135841      -0.0902246480036    0.0292237069175     0.0548549589662     
4200000000.0        0.0294913550393     0.0561716137594     0.969811488931      -0.0924045524731    0.969811488931      -0.0924045524731    0.0294913550393     0.0561716137594     
4300000000.0        0.0297647129872     0.0574868349463     0.969505377442      -0.0945830611154    0.969505377442      -0.0945830611154    0.0297647129872     0.0574868349463     
4400000000.0        0.030043782486      0.0588005920698     0.969192799441      -0.0967601441301    0.969192799441      -0.0967601441301    0.030043782486      0.0588005920698     
4500000000.0        0.0303285643715     0.0601128547016     0.968873753877      -0.0989357717412    0.968873753877      -0.0989357717412    0.0303285643715     0.0601128547016     
4600000000.0        0.0306190586463     0.0614235924465     0.968548240531      -0.101109914201     0.968548240531      -0.101109914201     0.0306190586463     0.0614235924465     
4700000000.0        0.0309152645296     0.0627327749474     0.968216259963      -0.103282541797     0.968216259963      -0.103282541797     0.0309152645296     0.0627327749474     
4800000000.0        0.031217180503      0.0640403718898     0.967877813466      -0.105453624852     0.967877813466      -0.105453624852     0.031217180503      0.0640403718898     
4900000000.0        0.0315248043516     0.0653463530057     0.967532903026      -0.107623133736     0.967532903026      -0.107623133736     0.0315248043516     0.0653463530057     
5000000000.0        0.0318381332016     0.0666506880781     0.967181531284      -0.109791038862     0.967181531284      -0.109791038862     0.0318381332016     0.0666506880781     
5100000000.0        0.0321571635542     0.0679533469443     0.966823701503      -0.111957310694     0.966823701503      -0.111957310694     0.0321571635542     0.0679533469443     
5200000000.0        0.032481891317      0.0692542994997     0.966459417534      -0.114121919753     0.966459417534      -0.114121919753     0.032481891317      0.0692542994997     
5300000000.0        0.0328123118325     0.0705535157013     0.966088683792      -0.116284836616     0.966088683792      -0.116284836616     0.0328123118325     0.0705535157013     
5400000000.0        0.0331484199042     0.0718509655712     0.965711505225      -0.11844603192      0.965711505225      -0.11844603192      0.0331484199042     0.0718509655712     
5500000000.0        0.033490209821      0.0731466191993     0.965327887291      -0.120605476368     0.965327887291      -0.120605476368     0.033490209821      0.0731466191993     
5600000000.0        0.0338376753788     0.0744404467467     0.96493783594       -0.122763140731     0.96493783594       -0.122763140731     0.0338376753788     0.0744404467467     
5700000000.0        0.0341908099016     0.0757324184487     0.964541357589      -0.124918995851     0.964541357589      -0.124918995851     0.0341908099016     0.0757324184487     
5800000000.0        0.0345496062596     0.0770225046173     0.964138459103      -0.127073012641     0.964138459103      -0.127073012641     0.0345496062596     0.0770225046173     
5900000000.0        0.0349140568876     0.0783106756441     0.963729147782      -0.129225162093     0.963729147782      -0.129225162093     0.0349140568876     0.0783106756441     
6000000000.0        0.0352841538004     0.0795969020032     0.96331343134       -0.131375415277     0.96331343134       -0.131375415277     0.0352841538004     0.0795969020032     
6100000000.0        0.0356598886085     0.0808811542532     0.962891317892      -0.133523743344     0.962891317892      -0.133523743344     0.0356598886085     0.0808811542532     
6200000000.0        0.0360412525316     0.0821634030401     0.962462815941      -0.13567011753      0.962462815941      -0.13567011753      0.0360412525316     0.0821634030401     
6300000000.0        0.0364282364121     0.0834436190993     0.962027934362      -0.137814509157     0.962027934362      -0.137814509157     0.0364282364121     0.0834436190993     
6400000000.0        0.0368208307272     0.0847217732583     0.961586682392      -0.139956889636     0.961586682392      -0.139956889636     0.0368208307272     0.0847217732583     
6500000000.0        0.0372190256002     0.0859978364389     0.961139069619      -0.142097230469     0.961139069619      -0.142097230469     0.0372190256002     0.0859978364389     
6600000000.0        0.0376228108113     0.0872717796591     0.96068510597       -0.144235503253     0.96068510597       -0.144235503253     0.0376228108113     0.0872717796591     
6700000000.0        0.0380321758076     0.0885435740354     0.960224801701      -0.146371679678     0.960224801701      -0.146371679678     0.0380321758076     0.0885435740354     
6800000000.0        0.0384471097127     0.0898131907848     0.959758167387      -0.148505731533     0.959758167387      -0.148505731533     0.0384471097127     0.0898131907848     
6900000000.0        0.0388676013355     0.0910806012271     0.959285213916      -0.150637630708     0.959285213916      -0.150637630708     0.0388676013355     0.0910806012271     
7000000000.0        0.0392936391785     0.0923457767863     0.958805952477      -0.152767349193     0.958805952477      -0.152767349193     0.0392936391785     0.0923457767863     
7100000000.0        0.0397252114457     0.093608688993      0.958320394555      -0.154894859082     0.958320394555      -0.154894859082     0.0397252114457     0.093608688993      
7200000000.0        0.0401623060505     0.0948693094863     0.957828551922      -0.157020132575     0.957828551922      -0.157020132575     0.0401623060505     0.0948693094863     
7300000000.0        0.0406049106223     0.096127610015      0.957330436628      -0.159143141979     0.957330436628      -0.159143141979     0.0406049106223     0.096127610015      
7400000000.0        0.0410530125132     0.0973835624402     0.956826060999      -0.161263859712     0.956826060999      -0.161263859712     0.0410530125132     0.0973835624402     
7500000000.0        0.0415065988051     0.0986371387363     0.956315437628      -0.1633822583       0.956315437628      -0.1633822583       0.0415065988051     0.0986371387363     
7600000000.0        0.041965656315      0.0998883109934     0.955798579366      -0.165498310384     0.955798579366      -0.165498310384     0.041965656315      0.0998883109934     
7700000000.0        0.042430171601      0.101137051418      0.955275499323      -0.167611988719     0.955275499323      -0.167611988719     0.042430171601      0.101137051418      
7800000000.0        0.0429001309683     0.102383332337      0.954746210856      -0.169723266177     0.954746210856      -0.169723266177     0.0429001309683     0.102383332337      
7900000000.0        0.0433755204739     0.103627126194      0.954210727567      -0.171832115746     0.954210727567      -0.171832115746     0.0433755204739     0.103627126194      
8000000000.0        0.0438563259318     0.104868405558      0.953669063297      -0.173938510534     0.953669063297      -0.173938510534     0.0438563259318     0.104868405558      
8100000000.0        0.0443425329182     0.10610714312       0.953121232123      -0.176042423771     0.953121232123      -0.176042423771     0.0443425329182     0.10610714312       
8200000000.0        0.0448341267756     0.107343311694      0.952567248349      -0.178143828809     0.952567248349      -0.178143828809     0.0448341267756     0.107343311694      
8300000000.0        0.0453310926178     0.108576884224      0.952007126507      -0.180242699122     0.952007126507      -0.180242699122     0.0453310926178     0.108576884224      
8400000000.0        0.045833415334      0.109807833779      0.951440881349      -0.182339008311     0.951440881349      -0.182339008311     0.045833415334      0.109807833779      
8500000000.0        0.0463410795925     0.111036133557      0.950868527842      -0.184432730105     0.950868527842      -0.184432730105     0.0463410795925     0.111036133557      
8600000000.0        0.0468540698455     0.112261756888      0.950290081169      -0.186523838359     0.950290081169      -0.186523838359     0.0468540698455     0.112261756888      
8700000000.0        0.0473723703325     0.113484677233      0.94970555672       -0.188612307059     0.94970555672       -0.188612307059     0.0473723703325     0.113484677233      
8800000000.0        0.0478959650839     0.114704868186      0.949114970091      -0.190698110321     0.949114970091      -0.190698110321     0.0478959650839     0.114704868186      
8900000000.0        0.0484248379248     0.115922303475      0.94851833708       -0.192781222394     0.94851833708       -0.192781222394     0.0484248379248     0.115922303475      
9000000000.0        0.0489589724788     0.117136956966      0.947915673683      -0.194861617659     0.947915673683      -0.194861617659     0.0489589724788     0.117136956966      
9100000000.0        0.0494983521707     0.118348802659      0.94730699609       -0.196939270636     0.94730699609       -0.196939270636     0.0494983521707     0.118348802659      
9200000000.0        0.0500429602303     0.119557814694      0.946692320683      -0.199014155975     0.946692320683      -0.199014155975     0.0500429602303     0.119557814694      
9300000000.0        0.0505927796956     0.12076396735       0.946071664033      -0.201086248468     0.946071664033      -0.201086248468     0.0505927796956     0.12076396735       
9400000000.0        0.0511477934157     0.121967235047      0.945445042895      -0.203155523044     0.945445042895      -0.203155523044     0.0511477934157     0.121967235047      
9500000000.0        0.051707984054      0.123167592345      0.944812474208      -0.205221954771     0.944812474208      -0.205221954771     0.051707984054      0.123167592345      
9600000000.0        0.0522733340909     0.12436501395       0.944173975088      -0.207285518858     0.944173975088      -0.207285518858     0.0522733340909     0.12436501395       
9700000000.0        0.0528438258272     0.125559474709      0.943529562829      -0.209346190658     0.943529562829      -0.209346190658     0.0528438258272     0.125559474709      
9800000000.0        0.0534194413864     0.126750949616      0.942879254897      -0.211403945663     0.942879254897      -0.211403945663     0.0534194413864     0.126750949616      
9900000000.0        0.0540001627177     0.127939413809      0.94222306893       -0.213458759513     0.94222306893       -0.213458759513     0.0540001627177     0.127939413809      
10000000000.0       0.0545859715988     0.129124842575      0.941561022734      -0.21551060799      0.941561022734      -0.21551060799      0.0545859715988     0.129124842575      
