# Hz S RI R 50.00 
100000000.0         0.00125040774135    -0.000922062759693  0.998736176843      -0.00319678625089   0.998736176843      -0.00319678625089   0.00125040774135    -0.000922062759693  
200000000.0         0.00124802973945    -0.00184412344517   0.998709167242      -0.00639349930329   0.998709167242      -0.00639349930329   0.00124802973945    -0.00184412344517   
300000000.0         0.00123755959834    -0.002766135432     0.998673277761      -0.00959012216596   0.998673277761      -0.00959012216596   0.00123755959834    -0.002766135432     
400000000.0         0.00122008392289    -0.00368806023461   0.998627422265      -0.0127866247179    0.998627422265      -0.0127866247179    0.00122008392289    -0.00368806023461   
500000000.0         0.0011960209316     -0.00460986076084   0.998571183333      -0.0159829729396    0.998571183333      -0.0159829729396    0.0011960209316     -0.00460986076084   
600000000.0         0.00116558404231    -0.00553150034038   0.998504348706      -0.0191791307588    0.998504348706      -0.0191791307588    0.00116558404231    -0.00553150034038   
700000000.0         0.00112889963487    -0.00645294242527   0.998426793533      -0.022375060797     0.998426793533      -0.022375060797     0.00112889963487    -0.00645294242527   
800000000.0         0.00108605000253    -0.00737415047364   0.998338437441      -0.0255707247532    0.998338437441      -0.0255707247532    0.00108605000253    -0.00737415047364   
900000000.0         0.00103709246455    -0.00829508790014   0.998239225432      -0.028766083631     0.998239225432      -0.028766083631     0.00103709246455    -0.00829508790014   
1000000000.0        0.000982069048543   -0.00921571805445   0.998129118208      -0.0319610978867    0.998129118208      -0.0319610978867    0.000982069048543   -0.00921571805445   
1100000000.0        0.000921011870174   -0.0101360042129    0.998008086799      -0.03515572753      0.998008086799      -0.03515572753      0.000921011870174   -0.0101360042129    
1200000000.0        0.00085394633734    -0.0110559095766    0.997876109372      -0.0383499321985    0.997876109372      -0.0383499321985    0.00085394633734    -0.0110559095766    
1300000000.0        0.000780893165389   -0.0119753972729    0.997733169216      -0.0415436712137    0.997733169216      -0.0415436712137    0.000780893165389   -0.0119753972729    
1400000000.0        0.000701869701343   -0.0128944303588    0.997579253423      -0.0447369036241    0.997579253423      -0.0447369036241    0.000701869701343   -0.0128944303588    
1500000000.0        0.000616890826092   -0.0138129718252    0.997414351998      -0.0479295882402    0.997414351998      -0.0479295882402    0.000616890826092   -0.0138129718252    
1600000000.0        0.000525969587987   -0.0147309846011    0.997238457219      -0.051121683663     0.997238457219      -0.051121683663     0.000525969587987   -0.0147309846011    
1700000000.0        0.000429117659432   -0.0156484315591    0.997051563196      -0.0543131483077    0.997051563196      -0.0543131483077    0.000429117659432   -0.0156484315591    
1800000000.0        0.000326345673369   -0.0165652755193    0.996853665529      -0.0575039404238    0.996853665529      -0.0575039404238    0.000326345673369   -0.0165652755193    
1900000000.0        0.000217663476085   -0.0174814792549    0.996644761064      -0.0606940181119    0.996644761064      -0.0606940181119    0.000217663476085   -0.0174814792549    
2000000000.0        0.000103080320445   -0.0183970054963    0.996424847701      -0.0638833393395    0.996424847701      -0.0638833393395    0.000103080320445   -0.0183970054963    
2100000000.0        -1.7394984163e-05   -0.0193118169358    0.996193924246      -0.0670718619533    0.996193924246      -0.0670718619533    -1.73949841629e-05  -0.0193118169358    
2200000000.0        -0.000143753953879  -0.0202258762323    0.995951990297      -0.0702595436914    0.995951990297      -0.0702595436914    -0.000143753953879  -0.0202258762323    
2300000000.0        -0.000275988336465  -0.0211391460149    0.995699046155      -0.0734463421938    0.995699046155      -0.0734463421938    -0.000275988336465  -0.0211391460149    
2400000000.0        -0.000414090035702  -0.0220515888876    0.995435092744      -0.0766322150116    0.995435092744      -0.0766322150116    -0.000414090035702  -0.0220515888876    
2500000000.0        -0.000558051049937  -0.022963167433     0.995160131559      -0.0798171196158    0.995160131559      -0.0798171196158    -0.000558051049937  -0.022963167433     
2600000000.0        -0.000707863421644  -0.0238738442165    0.994874164611      -0.0830010134053    0.994874164611      -0.0830010134053    -0.000707863421644  -0.0238738442165    
2700000000.0        -0.000863519195711  -0.0247835817897    0.994577194394      -0.0861838537139    0.994577194394      -0.0861838537139    -0.000863519195711  -0.0247835817897    
2800000000.0        -0.00102501038467   -0.0256923426946    0.994269223844      -0.0893655978176    0.994269223844      -0.0893655978176    -0.00102501038467   -0.0256923426946    
2900000000.0        -0.0011923289395    -0.0266000894665    0.993950256317      -0.0925462029403    0.993950256317      -0.0925462029403    -0.0011923289395    -0.0266000894665    
3000000000.0        -0.00136546672496   -0.0275067846382    0.993620295566      -0.0957256262602    0.993620295566      -0.0957256262602    -0.00136546672496   -0.0275067846382    
3100000000.0        -0.00154441549868   -0.0284123907431    0.993279345716      -0.0989038249152    0.993279345716      -0.0989038249152    -0.00154441549868   -0.0284123907431    
3200000000.0        -0.0017291668932    -0.0293168703187    0.992927411251      -0.102080756008     0.992927411251      -0.102080756008     -0.0017291668932    -0.0293168703187    
3300000000.0        -0.00191971240066   -0.0302201859095    0.992564497003      -0.105256376612     0.992564497003      -0.105256376612     -0.00191971240066   -0.0302201859095    
3400000000.0        -0.00211604335951   -0.0311223000708    0.99219060813       -0.108430643774     0.99219060813       -0.108430643774     -0.00211604335951   -0.0311223000708    
3500000000.0        -0.00231815094306   -0.0320231753717    0.991805750117      -0.111603514521     0.991805750117      -0.111603514521     -0.00231815094305   -0.0320231753717    
3600000000.0        -0.00252602614946   -0.0329227743978    0.991409928756      -0.114774945864     0.991409928756      -0.114774945864     -0.00252602614946   -0.0329227743978    
3700000000.0        -0.00273965979306   -0.0338210597551    0.991003150147      -0.117944894801     0.991003150147      -0.117944894801     -0.00273965979306   -0.0338210597551    
3800000000.0        -0.00295904249675   -0.034717994072     0.990585420683      -0.121113318323     0.990585420683      -0.121113318323     -0.00295904249675   -0.034717994072     
3900000000.0        -0.00318416468531   -0.0356135400033    0.990156747052      -0.124280173416     0.990156747052      -0.124280173416     -0.00318416468531   -0.0356135400033    
4000000000.0        -0.00341501657953   -0.0365076602322    0.989717136223      -0.127445417065     0.989717136223      -0.127445417065     -0.00341501657953   -0.0365076602322    
4100000000.0        -0.00365158819101   -0.0374003174741    0.989266595448      -0.13060900626      0.989266595448      -0.13060900626      -0.00365158819101   -0.0374003174741    
4200000000.0        -0.00389386931763   -0.0382914744788    0.988805132254      -0.133770897996     0.988805132254      -0.133770897996     -0.00389386931763   -0.0382914744788    
4300000000.0        -0.00414184953953   -0.0391810940336    0.98833275444       -0.136931049279     0.98833275444       -0.136931049279     -0.00414184953953   -0.0391810940336    
4400000000.0        -0.00439551821549   -0.0400691389661    0.987849470075      -0.140089417129     0.987849470075      -0.140089417129     -0.00439551821549   -0.0400691389661    
4500000000.0        -0.00465486447982   -0.0409555721468    0.98735528749       -0.143245958581     0.98735528749       -0.143245958581     -0.00465486447982   -0.0409555721468    
4600000000.0        -0.00491987723953   -0.0418403564921    0.986850215282      -0.146400630693     0.986850215282      -0.146400630693     -0.00491987723953   -0.0418403564921    
4700000000.0        -0.00519054517191   -0.042723454967     0.986334262306      -0.149553390544     0.986334262306      -0.149553390544     -0.00519054517191   -0.042723454967     
4800000000.0        -0.00546685672231   -0.0436048305875    0.985807437676      -0.152704195239     0.985807437676      -0.152704195239     -0.00546685672231   -0.0436048305875    
4900000000.0        -0.00574880010221   -0.0444844464234    0.985269750761      -0.155853001914     0.985269750761      -0.155853001914     -0.00574880010221   -0.0444844464234    
5000000000.0        -0.00603636328758   -0.0453622656013    0.984721211182      -0.158999767736     0.984721211182      -0.158999767736     -0.00603636328758   -0.0453622656013    
5100000000.0        -0.00632953401735   -0.0462382513065    0.984161828813      -0.162144449907     0.984161828813      -0.162144449907     -0.00632953401735   -0.0462382513065    
5200000000.0        -0.00662829979212   -0.0471123667864    0.983591613776      -0.165287005668     0.983591613776      -0.165287005668     -0.00662829979212   -0.0471123667864    
5300000000.0        -0.00693264787306   -0.0479845753522    0.983010576444      -0.168427392299     0.983010576444      -0.168427392299     -0.00693264787306   -0.0479845753522    
5400000000.0        -0.00724256528092   -0.0488548403824    0.982418727434      -0.171565567125     0.982418727434      -0.171565567125     -0.00724256528092   -0.0488548403824    
5500000000.0        -0.00755803879522   -0.0497231253246    0.981816077609      -0.174701487516     0.981816077609      -0.174701487516     -0.00755803879522   -0.0497231253246    
5600000000.0        -0.00787905495354   -0.0505893936982    0.981202638074      -0.177835110892     0.981202638074      -0.177835110892     -0.00787905495354   -0.0505893936982    
5700000000.0        -0.00820560005095   -0.0514536090972    0.98057842018       -0.180966394723     0.98057842018       -0.180966394723     -0.00820560005095   -0.0514536090972    
5800000000.0        -0.00853766013955   -0.0523157351922    0.979943435514      -0.184095296534     0.979943435514      -0.184095296534     -0.00853766013955   -0.0523157351922    
5900000000.0        -0.00887522102811   -0.0531757357333    0.979297695907      -0.187221773907     0.979297695907      -0.187221773907     -0.00887522102811   -0.0531757357333    
6000000000.0        -0.00921826828177   -0.0540335745521    0.978641213427      -0.190345784482     0.978641213427      -0.190345784482     -0.00921826828177   -0.0540335745521    
6100000000.0        -0.0095667872219    -0.0548892155646    0.97797400038       -0.19346728596      0.97797400038       -0.19346728596      -0.0095667872219    -0.0548892155646    
6200000000.0        -0.00992076292598   -0.0557426227732    0.977296069305      -0.196586236109     0.977296069305      -0.196586236109     -0.00992076292598   -0.0557426227732    
6300000000.0        -0.0102801802276    -0.0565937602693    0.976607432982      -0.19970259276      0.976607432982      -0.19970259276      -0.0102801802276    -0.0565937602693    
6400000000.0        -0.0106450237163    -0.0574425922356    0.975908104419      -0.202816313815     0.975908104419      -0.202816313815     -0.0106450237163    -0.0574425922356    
6500000000.0        -0.0110152777382    -0.0582890829484    0.975198096862      -0.205927357246     0.975198096862      -0.205927357246     -0.0110152777382    -0.0582890829484    
6600000000.0        -0.0113909263957    -0.0591331967802    0.974477423785      -0.209035681099     0.974477423785      -0.209035681099     -0.0113909263957    -0.0591331967802    
6700000000.0        -0.0117719535477    -0.0599748982017    0.973746098896      -0.212141243497     0.973746098896      -0.212141243497     -0.0117719535477    -0.0599748982017    
6800000000.0        -0.0121583428102    -0.0608141517841    0.973004136129      -0.215244002639     0.973004136129      -0.215244002639     -0.0121583428102    -0.0608141517841    
6900000000.0        -0.0125500775567    -0.0616509222017    0.972251549651      -0.218343916805     0.972251549651      -0.218343916805     -0.0125500775567    -0.0616509222017    
7000000000.0        -0.012947140918     -0.0624851742341    0.971488353854      -0.22144094436      0.971488353854      -0.22144094436      -0.012947140918     -0.0624851742341    
7100000000.0        -0.0133495157835    -0.0633168727681    0.970714563356      -0.224535043749     0.970714563356      -0.224535043749     -0.0133495157835    -0.0633168727681    
7200000000.0        -0.0137571848008    -0.0641459828003    0.969930193003      -0.22762617351      0.969930193003      -0.22762617351      -0.0137571848008    -0.0641459828003    
7300000000.0        -0.0141701303772    -0.0649724694392    0.969135257865      -0.230714292265     0.969135257865      -0.230714292265     -0.0141701303772    -0.0649724694392    
7400000000.0        -0.0145883346793    -0.0657962979076    0.968329773232      -0.233799358729     0.968329773232      -0.233799358729     -0.0145883346793    -0.0657962979076    
7500000000.0        -0.0150117796344    -0.0666174335443    0.967513754622      -0.236881331713     0.967513754622      -0.236881331713     -0.0150117796344    -0.0666174335443    
7600000000.0        -0.0154404469308    -0.0674358418069    0.96668721777       -0.23996017012      0.96668721777       -0.23996017012      -0.0154404469308    -0.0674358418069    
7700000000.0        -0.0158743180183    -0.0682514882735    0.965850178633      -0.243035832952     0.965850178633      -0.243035832952     -0.0158743180183    -0.0682514882735    
7800000000.0        -0.0163133741097    -0.0690643386452    0.965002653386      -0.246108279311     0.965002653386      -0.246108279311     -0.0163133741097    -0.0690643386452    
7900000000.0        -0.0167575961805    -0.0698743587477    0.964144658424      -0.2491774684       0.964144658424      -0.2491774684       -0.0167575961805    -0.0698743587477    
8000000000.0        -0.0172069649707    -0.0706815145341    0.963276210358      -0.252243359527     0.963276210358      -0.252243359527     -0.0172069649707    -0.0706815145341    
8100000000.0        -0.0176614609848    -0.0714857720865    0.962397326013      -0.255305912104     0.962397326013      -0.255305912104     -0.0176614609848    -0.0714857720865    
8200000000.0        -0.0181210644935    -0.0722870976182    0.961508022433      -0.258365085651     0.961508022433      -0.258365085651     -0.0181210644935    -0.0722870976182    
8300000000.0        -0.0185857555338    -0.0730854574761    0.960608316871      -0.261420839798     0.960608316871      -0.261420839798     -0.0185857555338    -0.0730854574761    
8400000000.0        -0.0190555139104    -0.073880818142     0.959698226796      -0.264473134288     0.959698226796      -0.264473134288     -0.0190555139104    -0.073880818142     
8500000000.0        -0.0195303191966    -0.0746731462356    0.958777769886      -0.267521928975     0.958777769886      -0.267521928975     -0.0195303191966    -0.0746731462356    
8600000000.0        -0.0200101507352    -0.0754624085156    0.95784696403       -0.270567183829     0.95784696403       -0.270567183829     -0.0200101507352    -0.0754624085156    
8700000000.0        -0.0204949876394    -0.0762485718823    0.956905827325      -0.273608858938     0.956905827325      -0.273608858938     -0.0204949876394    -0.0762485718823    
8800000000.0        -0.0209848087942    -0.0770316033795    0.955954378079      -0.276646914508     0.955954378079      -0.276646914508     -0.0209848087942    -0.0770316033795    
8900000000.0        -0.0214795928571    -0.0778114701963    0.954992634802      -0.279681310867     0.954992634802      -0.279681310867     -0.0214795928571    -0.0778114701963    
9000000000.0        -0.0219793182593    -0.0785881396691    0.954020616212      -0.282712008465     0.954020616212      -0.282712008465     -0.0219793182593    -0.0785881396691    
9100000000.0        -0.0224839632068    -0.0793615792836    0.953038341231      -0.285738967876     0.953038341231      -0.285738967876     -0.0224839632068    -0.0793615792836    
9200000000.0        -0.0229935056818    -0.0801317566767    0.952045828984      -0.288762149801     0.952045828984      -0.288762149801     -0.0229935056818    -0.0801317566767    
9300000000.0        -0.0235079234434    -0.0808986396384    0.951043098795      -0.291781515069     0.951043098795      -0.291781515069     -0.0235079234434    -0.0808986396384    
9400000000.0        -0.0240271940291    -0.0816621961139    0.950030170193      -0.294797024639     0.950030170193      -0.294797024639     -0.0240271940291    -0.0816621961139    
9500000000.0        -0.0245512947559    -0.0824223942048    0.949007062901      -0.297808639599     0.949007062901      -0.297808639599     -0.0245512947559    -0.0824223942048    
9600000000.0        -0.0250802027215    -0.0831792021719    0.947973796843      -0.300816321173     0.947973796843      -0.300816321173     -0.0250802027215    -0.0831792021719    
9700000000.0        -0.0256138948057    -0.0839325884362    0.946930392139      -0.303820030718     0.946930392139      -0.303820030718     -0.0256138948057    -0.0839325884362    
9800000000.0        -0.0261523476715    -0.0846825215814    0.945876869102      -0.306819729729     0.945876869102      -0.306819729729     -0.0261523476715    -0.0846825215814    
9900000000.0        -0.0266955377665    -0.0854289703552    0.944813248242      -0.309815379838     0.944813248242      -0.309815379838     -0.0266955377665    -0.0854289703552    
10000000000.0       -0.027243441324     -0.0861719036712    0.943739550259      -0.312806942815     0.943739550259      -0.312806942815     -0.027243441324     -0.0861719036712    
