# Hz S RI R 50.00 
100000000.0         -0.00658131098785   -0.0803648744536    0.993397694741      -0.0804789873127    0.993397694741      -0.0804789873127    -0.00658131098785   -0.0803648744536    
200000000.0         -0.0256840522897    -0.157609183117     0.974294790228      -0.157837467527     0.974294790228      -0.157837467527     -0.0256840522897    -0.157609183117     
300000000.0         -0.0558775766001    -0.229035231802     0.944101125591      -0.229377775738     0.944101125591      -0.229377775738     -0.0558775766001    -0.229035231802     
400000000.0         -0.0950868451301    -0.292621920955     0.904891721545      -0.293078833697     0.904891721545      -0.293078833697     -0.0950868451301    -0.292621920955     
500000000.0         -0.140910503129     -0.347155285908     0.859067925888      -0.347726693525     0.859067925888      -0.347726693525     -0.140910503129     -0.347155285908     
600000000.0         -0.190937160646     -0.392205702984     0.809041125013      -0.392891745081     0.809041125013      -0.392891745081     -0.190937160646     -0.392205702984     
700000000.0         -0.242987061575     -0.427993894053     0.756991072909      -0.428794721201     0.756991072909      -0.428794721201     -0.242987061575     -0.427993894053     
800000000.0         -0.295254191273     -0.455204276214     0.704723782836      -0.456120047826     0.704723782836      -0.456120047826     -0.295254191273     -0.455204276214     
900000000.0         -0.346356323817     -0.474796660811     0.65362147974       -0.475827543347     0.65362147974       -0.475827543347     -0.346356323817     -0.474796660811     
1000000000.0        -0.395318035448     -0.487848185827     0.604659586662      -0.488994351251     0.604659586662      -0.488994351251     -0.395318035448     -0.487848185827     
1100000000.0        -0.441515126482     -0.495438073584     0.558462302729      -0.496699698034     0.558462302729      -0.496699698034     -0.441515126482     -0.495438073584     
1200000000.0        -0.484603852201     -0.498574274595     0.515373372219      -0.499951537226     0.515373372219      -0.499951537226     -0.484603852201     -0.498574274595     
1300000000.0        -0.524450495293     -0.498154195284     0.475526512083      -0.499647277265     0.475526512083      -0.499647277265     -0.524450495293     -0.498154195284     
1400000000.0        -0.561069610528     -0.494949829059     0.438907167248      -0.496558912713     0.438907167248      -0.496558912713     -0.561069610528     -0.494949829059     
1500000000.0        -0.594574096889     -0.489608517437     0.405402438474      -0.491333785489     0.405402438474      -0.491333785489     -0.594574096889     -0.489608517437     
1600000000.0        -0.625137148536     -0.482662558389     0.374839131378      -0.484504193328     0.374839131378      -0.484504193328     -0.625137148536     -0.482662558389     
1700000000.0        -0.652964607571     -0.474542958081     0.347011403662      -0.476501141616     0.347011403662      -0.476501141616     -0.652964607571     -0.474542958081     
1800000000.0        -0.678275716221     -0.465594349397     0.321700012926      -0.467669261991     0.321700012926      -0.467669261991     -0.678275716221     -0.465594349397     
1900000000.0        -0.701290288202     -0.456089365817     0.298685145297      -0.458281186304     0.298685145297      -0.458281186304     -0.701290288202     -0.456089365817     
2000000000.0        -0.72222058761      -0.446241607785     0.277754536539      -0.44855051305      0.277754536539      -0.44855051305      -0.72222058761      -0.446241607785     
2100000000.0        -0.74126654505      -0.436216866873     0.258708255917      -0.43864303159      0.258708255917      -0.43864303159      -0.74126654505      -0.436216866873     
2200000000.0        -0.758613267832     -0.426142577545     0.241361196005      -0.428686173973     0.241361196005      -0.428686173973     -0.758613267832     -0.426142577545     
2300000000.0        -0.774430078304     -0.416115625194     0.225544034345      -0.418776823011     0.225544034345      -0.418776823011     -0.774430078304     -0.416115625194     
2400000000.0        -0.78887053362      -0.406208708707     0.211103213683      -0.408987674892     0.211103213683      -0.408987674892     -0.78887053362      -0.406208708707     
2500000000.0        -0.802073045924     -0.39647547408      0.197900321779      -0.399372372828     0.197900321779      -0.399372372828     -0.802073045924     -0.39647547408      
2600000000.0        -0.814161843317     -0.386954626533     0.185811130447      -0.389969619204     0.185811130447      -0.389969619204     -0.814161843317     -0.386954626533     
2700000000.0        -0.825248098714     -0.37767320676      0.174724466687      -0.380806451848     0.174724466687      -0.380806451848     -0.825248098714     -0.37767320676      
2800000000.0        -0.835431114588     -0.368649190735     0.16454102795       -0.371900843869     0.16454102795       -0.371900843869     -0.835431114588     -0.368649190735     
2900000000.0        -0.844799493513     -0.359893546388     0.155172211586      -0.363263760349     0.155172211586      -0.363263760349     -0.844799493513     -0.359893546388     
3000000000.0        -0.853432252892     -0.351411856641     0.146539000126      -0.354900781395     0.146539000126      -0.354900781395     -0.853432252892     -0.351411856641     
3100000000.0        -0.861399861178     -0.343205597578     0.138570925048      -0.346813380327     0.138570925048      -0.346813380327     -0.861399861178     -0.343205597578     
3200000000.0        -0.868765185281     -0.335273143139     0.131205119379      -0.338999928379     0.131205119379      -0.338999928379     -0.868765185281     -0.335273143139     
3300000000.0        -0.875584346702     -0.327610553347     0.124385461558      -0.331456482946     0.124385461558      -0.331456482946     -0.875584346702     -0.327610553347     
3400000000.0        -0.881907488729     -0.320212191447     0.11806180824       -0.324177404717     0.11806180824       -0.324177404717     -0.881907488729     -0.320212191447     
3500000000.0        -0.887779459804     -0.313071205909     0.112189310924      -0.3171558397       0.112189310924      -0.3171558397       -0.887779459804     -0.313071205909     
3600000000.0        -0.893240419612     -0.3061799058       0.106727809874      -0.310384094587     0.106727809874      -0.310384094587     -0.893240419612     -0.3061799058       
3700000000.0        -0.898326374982     -0.299530052026     0.101641298208      -0.303853928008     0.101641298208      -0.303853928008     -0.898326374982     -0.299530052026     
3800000000.0        -0.903069652773     -0.293113082246     0.0968974490161     -0.297556775445     0.0968974490161     -0.297556775445     -0.903069652773     -0.293113082246     
3900000000.0        -0.907499316579     -0.286920283517     0.0924671986558     -0.291483921877     0.0924671986558     -0.291483921877     -0.907499316579     -0.286920283517     
4000000000.0        -0.911641533677     -0.28094292377      0.0883243798012     -0.285626633261     0.0883243798012     -0.285626633261     -0.911641533677     -0.28094292377      
4100000000.0        -0.915519898058     -0.275172350903     0.084445398416      -0.279976255623     0.084445398416      -0.279976255623     -0.915519898058     -0.275172350903     
4200000000.0        -0.919155714816     -0.269600066423     0.0808089493605     -0.274524288704     0.0808089493605     -0.274524288704     -0.919155714816     -0.269600066423     
4300000000.0        -0.922568250615     -0.264217779129     0.0773957659253     -0.269262439634     0.0773957659253     -0.269262439634     -0.922568250615     -0.264217779129     
4400000000.0        -0.925774954409     -0.259017443169     0.0741883991123     -0.264182660999     0.0741883991123     -0.264182660999     -0.925774954409     -0.259017443169     
4500000000.0        -0.928791652096     -0.253991283915     0.0711710229804     -0.259277176706     0.0711710229804     -0.259277176706     -0.928791652096     -0.253991283915     
4600000000.0        -0.931632718342     -0.24913181437      0.0683292628212     -0.254538498389     0.0683292628212     -0.254538498389     -0.931632718342     -0.24913181437      
4700000000.0        -0.934311228409     -0.244431844247     0.0656500433304     -0.249959434496     0.0656500433304     -0.249959434496     -0.934311228409     -0.244431844247     
4800000000.0        -0.936839092465     -0.239884483446     0.0631214542979     -0.245533093747     0.0631214542979     -0.245533093747     -0.936839092465     -0.239884483446     
4900000000.0        -0.939227174539     -0.235483141241     0.0607326316545     -0.241252884337     0.0607326316545     -0.241252884337     -0.939227174539     -0.235483141241     
5000000000.0        -0.941485398        -0.231221522271     0.0584736519878     -0.23711250991      0.0584736519878     -0.23711250991      -0.941485398        -0.231221522271     
5100000000.0        -0.943622839224     -0.227093620144     0.056335438883      -0.233105963167     0.056335438883      -0.233105963167     -0.943622839224     -0.227093620144     
5200000000.0        -0.945647810854     -0.223093709331     0.054309679654      -0.229227517761     0.054309679654      -0.229227517761     -0.945647810854     -0.223093709331     
5300000000.0        -0.94756793594      -0.219216335862     0.0523887512126     -0.225471718981     0.0523887512126     -0.225471718981     -0.94756793594      -0.219216335862     
5400000000.0        -0.949390214012     -0.215456307217     0.0505656539864     -0.22183337365      0.0505656539864     -0.22183337365      -0.949390214012     -0.215456307217     
5500000000.0        -0.951121080075     -0.211808681749     0.0488339529299     -0.218307539538     0.0488339529299     -0.218307539538     -0.951121080075     -0.211808681749     
5600000000.0        -0.952766457334     -0.208268757855     0.0471877247976     -0.214889514536     0.0471877247976     -0.214889514536     -0.952766457334     -0.208268757855     
5700000000.0        -0.954331804386     -0.204832063099     0.0456215109511     -0.211574825775     0.0456215109511     -0.211574825775     -0.954331804386     -0.204832063099     
5800000000.0        -0.955822157519     -0.201494343431     0.0441302750618     -0.208359218837     0.0441302750618     -0.208359218837     -0.955822157519     -0.201494343431     
5900000000.0        -0.95724216867      -0.198251552586     0.0427093651518     -0.20523864716      0.0427093651518     -0.20523864716      -0.95724216867      -0.198251552586     
6000000000.0        -0.958596139536     -0.195099841765     0.0413544794828     -0.202209261713     0.0413544794828     -0.202209261713     -0.958596139536     -0.195099841765     
6100000000.0        -0.959888052265     -0.19203554964      0.0400616358633     -0.199267400999     0.0400616358633     -0.199267400999     -0.959888052265     -0.19203554964      
6200000000.0        -0.961121597115     -0.189055192726     0.0388271439956     -0.196409581422     0.0388271439956     -0.196409581422     -0.961121597115     -0.189055192726     
6300000000.0        -0.962300197392     -0.18615545614      0.0376475805299     -0.193632488045     0.0376475805299     -0.193632488045     -0.962300197392     -0.18615545614      
6400000000.0        -0.963427031987     -0.183333184762     0.0365197665326     -0.190932965754     0.0365197665326     -0.190932965754     -0.963427031987     -0.183333184762     
6500000000.0        -0.964505055752     -0.180585374808     0.0354407471096     -0.188308010821     0.0354407471096     -0.188308010821     -0.964505055752     -0.180585374808     
6600000000.0        -0.965537017947     -0.177909165809     0.0344077729569     -0.185754762888     0.0344077729569     -0.185754762888     -0.965537017947     -0.177909165809     
6700000000.0        -0.966525478968     -0.175301832991     0.0334182836351     -0.183270497341     0.0334182836351     -0.183270497341     -0.966525478968     -0.175301832991     
6800000000.0        -0.967472825525     -0.172760780052     0.0324698923898     -0.180852618083     0.0324698923898     -0.180852618083     -0.967472825525     -0.172760780052     
6900000000.0        -0.968381284435     -0.170283532315     0.0315603723585     -0.17849865069      0.0315603723585     -0.17849865069      -0.968381284435     -0.170283532315     
7000000000.0        -0.969252935172     -0.16786773025      0.0306876440234     -0.176206235932     0.0306876440234     -0.176206235932     -0.969252935172     -0.16786773025      
7100000000.0        -0.970089721289     -0.165511123356     0.0298497637852     -0.173973123647     0.0298497637852     -0.173973123647     -0.970089721289     -0.165511123356     
7200000000.0        -0.970893460838     -0.16321156437      0.0290449135456     -0.171797166955     0.0290449135456     -0.171797166955     -0.970893460838     -0.16321156437      
7300000000.0        -0.971665855877     -0.160967003811     0.0282713911994     -0.169676316795     0.0282713911994     -0.169676316795     -0.971665855877     -0.160967003811     
7400000000.0        -0.972408501158     -0.158775484816     0.0275276019481     -0.167608616764     0.0275276019481     -0.167608616764     -0.972408501158     -0.158775484816     
7500000000.0        -0.973122892069     -0.156635138281     0.0268120503557     -0.165592198254     0.0268120503557     -0.165592198254     -0.973122892069     -0.156635138281     
7600000000.0        -0.97381043191      -0.154544178268     0.0261233330748     -0.163625275858     0.0261233330748     -0.163625275858     -0.97381043191      -0.154544178268     
7700000000.0        -0.974472438554     -0.152500897675     0.0254601321815     -0.161706143041     0.0254601321815     -0.161706143041     -0.974472438554     -0.152500897675     
7800000000.0        -0.975110150567     -0.150503664154     0.0248212090613     -0.159833168053     0.0248212090613     -0.159833168053     -0.975110150567     -0.150503664154     
7900000000.0        -0.975724732818     -0.148550916262     0.0242053987943     -0.15800479008      0.0242053987943     -0.15800479008      -0.975724732818     -0.148550916262     
8000000000.0        -0.976317281642     -0.146641159824     0.0236116049957     -0.156219515608     0.0236116049957     -0.156219515608     -0.976317281642     -0.146641159824     
8100000000.0        -0.976888829584     -0.14477296451      0.0230387950691     -0.154475914998     0.0230387950691     -0.154475914998     -0.976888829584     -0.14477296451      
8200000000.0        -0.977440349769     -0.142944960604     0.0224859958357     -0.15277261925      0.0224859958357     -0.15277261925      -0.977440349769     -0.142944960604     
8300000000.0        -0.977972759935     -0.141155835952     0.0219522895067     -0.151108316959     0.0219522895067     -0.151108316959     -0.977972759935     -0.141155835952     
8400000000.0        -0.978486926142     -0.139404333089     0.021436809968      -0.149481751429     0.021436809968      -0.149481751429     -0.978486926142     -0.139404333089     
8500000000.0        -0.978983666204     -0.137689246519     0.0209387393504     -0.147891717964     0.0209387393504     -0.147891717964     -0.978983666204     -0.137689246519     
8600000000.0        -0.979463752861     -0.136009420157     0.0204573048608     -0.1463370613       0.0204573048608     -0.1463370613       -0.979463752861     -0.136009420157     
8700000000.0        -0.979927916704     -0.134363744901     0.0199917758517     -0.144816673183     0.0199917758517     -0.144816673183     -0.979927916704     -0.134363744901     
8800000000.0        -0.980376848891     -0.132751156356     0.019541461109      -0.143329490085     0.019541461109      -0.143329490085     -0.980376848891     -0.132751156356     
8900000000.0        -0.980811203657     -0.131170632665     0.0191057063406     -0.141874491042     0.0191057063406     -0.141874491042     -0.980811203657     -0.131170632665     
9000000000.0        -0.981231600643     -0.129621192472     0.0186838918476     -0.140450695613     0.0186838918476     -0.140450695613     -0.981231600643     -0.129621192472     
9100000000.0        -0.981638627057     -0.128101892996     0.0182754303649     -0.139057161949     0.0182754303649     -0.139057161949     -0.981638627057     -0.128101892996     
9200000000.0        -0.982032839675     -0.126611828201     0.0178797650559     -0.13769298497      0.0178797650559     -0.13769298497      -0.982032839675     -0.126611828201     
9300000000.0        -0.982414766709     -0.125150127074     0.0174963676498     -0.136357294637     0.0174963676498     -0.136357294637     -0.982414766709     -0.125150127074     
9400000000.0        -0.982784909534     -0.123715951991     0.0171247367096     -0.13504925432      0.0171247367096     -0.13504925432      -0.982784909534     -0.123715951991     
9500000000.0        -0.983143744303     -0.122308497174     0.0167643960213     -0.133768059253     0.0167643960213     -0.133768059253     -0.983143744303     -0.122308497174     
9600000000.0        -0.983491723446     -0.120926987226     0.0164148930936     -0.132512935069     0.0164148930936     -0.132512935069     -0.983491723446     -0.120926987226     
9700000000.0        -0.983829277065     -0.119570675746     0.0160757977605     -0.131283136415     0.0160757977605     -0.131283136415     -0.983829277065     -0.119570675746     
9800000000.0        -0.98415681424      -0.118238844016     0.015746700878      -0.13007794564      0.015746700878      -0.13007794564      -0.98415681424      -0.118238844016     
9900000000.0        -0.984474724244     -0.11693079976      0.0154272131094     -0.128896671546     0.0154272131094     -0.128896671546     -0.984474724244     -0.11693079976      
10000000000.0       -0.984783377676     -0.115645875959     0.0151169637898     -0.127738648215     0.0151169637898     -0.127738648215     -0.984783377676     -0.115645875959     
