# Hz S RI R 50.00 
100000000.0         -2.90563034711e-06  -0.00266701344738   0.999982167023      -0.00270236101848   0.999982167023      -0.00270236101848   -2.90563034699e-06  -0.00266701344738   
200000000.0         -2.71371826301e-05  -0.0053338456436    0.999957831927      -0.00540454375154   0.999957831927      -0.00540454375154   -2.71371826301e-05  -0.0053338456436    
300000000.0         -6.57919365772e-05  -0.00800036182321   0.999919098151      -0.00810641496228   0.999919098151      -0.00810641496228   -6.57919365772e-05  -0.00800036182321   
400000000.0         -0.000118858852489  -0.0106664316186    0.999865963888      -0.0108078454581    0.999865963888      -0.0108078454581    -0.000118858852489  -0.0106664316186    
500000000.0         -0.000186329369792  -0.0133319269052    0.999798432774      -0.0135087081101    0.999798432774      -0.0135087081101    -0.000186329369793  -0.0133319269052    
600000000.0         -0.000268194689514  -0.0159967211071    0.99971651111       -0.0162088772198    0.99971651111       -0.0162088772198    -0.000268194689515  -0.0159967211071    
700000000.0         -0.000364445104054  -0.0186606888228    0.999620207132      -0.0189082281756    0.999620207132      -0.0189082281756    -0.000364445104054  -0.0186606888228    
800000000.0         -0.000475069762985  -0.0213237056186    0.999509530742      -0.0216066372651    0.999509530742      -0.0216066372651    -0.000475069762985  -0.0213237056186    
900000000.0         -0.000600056576568  -0.0239856478988    0.999384493379      -0.0243039815567    0.999384493379      -0.0243039815567    -0.000600056576568  -0.0239856478988    
1000000000.0        -0.00073939217415   -0.0266463928254    0.999245107943      -0.027000138829     0.999245107943      -0.027000138829     -0.00073939217415   -0.0266463928254    
1100000000.0        -0.000893061885931  -0.0293058182524    0.999091388753      -0.0296949875106    0.999091388753      -0.0296949875106    -0.000893061885931  -0.0293058182524    
1200000000.0        -0.00106104973692   -0.031963802691     0.998923351513      -0.0323884066504    0.998923351513      -0.0323884066504    -0.00106104973692   -0.031963802691     
1300000000.0        -0.00124333844675   -0.0346202252765    0.998741013292      -0.0350802758884    0.998741013292      -0.0350802758884    -0.00124333844675   -0.0346202252765    
1400000000.0        -0.00143990943376   -0.0372749657544    0.9985443925        -0.037770475445     0.9985443925        -0.037770475445     -0.00143990943376   -0.0372749657544    
1500000000.0        -0.00165074282064   -0.0399279044626    0.998333508876      -0.0404588861054    0.998333508876      -0.0404588861054    -0.00165074282064   -0.0399279044626    
1600000000.0        -0.00187581744158   -0.0425789223249    0.99810838347       -0.0431453892157    0.99810838347       -0.0431453892157    -0.00187581744158   -0.0425789223249    
1700000000.0        -0.00211511085034   -0.0452279008463    0.997869038632      -0.0458298666799    0.997869038632      -0.0458298666799    -0.00211511085034   -0.0452279008463    
1800000000.0        -0.00236859932905   -0.047874722113     0.997615497997      -0.0485122009615    0.997615497997      -0.0485122009615    -0.00236859932905   -0.047874722113     
1900000000.0        -0.00263625789676   -0.0505192687888    0.997347786478      -0.0511922750808    0.997347786478      -0.0511922750808    -0.00263625789676   -0.0505192687888    
2000000000.0        -0.00291806031923   -0.0531614241212    0.997065930247      -0.0538699726232    0.997065930247      -0.0538699726232    -0.00291806031923   -0.0531614241212    
2100000000.0        -0.00321397911834   -0.0558010719436    0.996769956732      -0.0565451777417    0.996769956732      -0.0565451777417    -0.00321397911834   -0.0558010719436    
2200000000.0        -0.00352398558169   -0.0584380966791    0.996459894597      -0.0592177751619    0.996459894597      -0.0592177751619    -0.00352398558169   -0.0584380966791    
2300000000.0        -0.00384804977287   -0.0610723833486    0.99613577374       -0.061887650191     0.99613577374       -0.061887650191     -0.00384804977287   -0.0610723833486    
2400000000.0        -0.00418614054132   -0.0637038175756    0.995797625275      -0.0645546887236    0.995797625275      -0.0645546887236    -0.00418614054132   -0.0637038175756    
2500000000.0        -0.00453822553256   -0.0663322855933    0.995445481525      -0.0672187772492    0.995445481525      -0.0672187772492    -0.00453822553256   -0.0663322855933    
2600000000.0        -0.00490427119868   -0.0689576742533    0.995079376009      -0.0698798028616    0.995079376009      -0.0698798028616    -0.00490427119868   -0.0689576742533    
2700000000.0        -0.00528424280871   -0.0715798710325    0.994699343433      -0.0725376532669    0.994699343433      -0.0725376532669    -0.00528424280871   -0.0715798710325    
2800000000.0        -0.00567810445935   -0.0741987640424    0.994305419678      -0.0751922167927    0.994305419678      -0.0751922167927    -0.00567810445935   -0.0741987640424    
2900000000.0        -0.00608581908547   -0.0768142420363    0.993897641786      -0.0778433823965    0.993897641786      -0.0778433823965    -0.00608581908547   -0.0768142420363    
3000000000.0        -0.00650734847141   -0.0794261944211    0.993476047956      -0.0804910396776    0.993476047956      -0.0804910396776    -0.00650734847141   -0.0794261944211    
3100000000.0        -0.00694265326127   -0.0820345112618    0.993040677526      -0.0831350788819    0.993040677526      -0.0831350788819    -0.00694265326127   -0.0820345112618    
3200000000.0        -0.00739169297071   -0.0846390832953    0.992591570963      -0.0857753909168    0.992591570963      -0.0857753909168    -0.00739169297071   -0.0846390832953    
3300000000.0        -0.00785442599756   -0.0872398019361    0.992128769856      -0.0884118673567    0.992128769856      -0.0884118673567    -0.00785442599756   -0.0872398019361    
3400000000.0        -0.00833080963349   -0.0898365592875    0.9916523169        -0.0910444004549    0.9916523169        -0.0910444004549    -0.00833080963349   -0.0898365592875    
3500000000.0        -0.00882080007517   -0.0924292481496    0.991162255885      -0.0936728831521    0.991162255885      -0.0936728831521    -0.00882080007517   -0.0924292481496    
3600000000.0        -0.00932435243601   -0.09501776203      0.990658631687      -0.0962972090869    0.990658631687      -0.0962972090869    -0.00932435243601   -0.09501776203      
3700000000.0        -0.00984142075769   -0.097601995152     0.990141490253      -0.0989172726052    0.990141490253      -0.0989172726052    -0.00984142075769   -0.097601995152     
3800000000.0        -0.0103719580218    -0.100181842464     0.989610878592      -0.101532968769     0.989610878592      -0.101532968769     -0.0103719580218    -0.100181842464     
3900000000.0        -0.0109159161619    -0.102757199649     0.989066844761      -0.104144193368     0.989066844761      -0.104144193368     -0.0109159161619    -0.102757199649     
4000000000.0        -0.0114732460753    -0.105327963134     0.988509437853      -0.106750842924     0.988509437853      -0.106750842924     -0.0114732460753    -0.105327963134     
4100000000.0        -0.012043897635     -0.107894030098     0.987938707988      -0.10935281471      0.987938707988      -0.10935281471      -0.012043897635     -0.107894030098     
4200000000.0        -0.0126278197023    -0.110455298481     0.987354706297      -0.111950006746     0.987354706297      -0.111950006746     -0.0126278197023    -0.110455298481     
4300000000.0        -0.0132249601384    -0.113011666996     0.986757484912      -0.114542317821     0.986757484912      -0.114542317821     -0.0132249601384    -0.113011666996     
4400000000.0        -0.0138352658172    -0.115563035133     0.98614709695       -0.117129647495     0.98614709695       -0.117129647495     -0.0138352658172    -0.115563035133     
4500000000.0        -0.0144586826377    -0.118109303171     0.985523596508      -0.119711896107     0.985523596508      -0.119711896107     -0.0144586826377    -0.118109303171     
4600000000.0        -0.0150951555363    -0.120650372185     0.984887038643      -0.12228896479      0.984887038643      -0.12228896479      -0.0150951555363    -0.120650372185     
4700000000.0        -0.0157446284996    -0.123186144055     0.984237479362      -0.124860755473     0.984237479362      -0.124860755473     -0.0157446284996    -0.123186144055     
4800000000.0        -0.0164070445769    -0.125716521475     0.98357497561       -0.127427170894     0.98357497561       -0.127427170894     -0.0164070445769    -0.125716521475     
4900000000.0        -0.0170823458934    -0.12824140796      0.982899585258      -0.129988114605     0.982899585258      -0.129988114605     -0.0170823458934    -0.12824140796      
5000000000.0        -0.0177704736626    -0.130760707854     0.982211367086      -0.132543490984     0.982211367086      -0.132543490984     -0.0177704736626    -0.130760707854     
5100000000.0        -0.0184713681994    -0.133274326339     0.981510380775      -0.13509320524      0.981510380775      -0.13509320524      -0.0184713681994    -0.133274326339     
5200000000.0        -0.0191849689331    -0.135782169442     0.980796686891      -0.137637163422     0.980796686891      -0.137637163422     -0.0191849689331    -0.135782169442     
5300000000.0        -0.0199112144208    -0.138284144042     0.980070346873      -0.140175272427     0.980070346873      -0.140175272427     -0.0199112144208    -0.138284144042     
5400000000.0        -0.0206500423602    -0.140780157878     0.979331423019      -0.142707440005     0.979331423019      -0.142707440005     -0.0206500423602    -0.140780157878     
5500000000.0        -0.0214013896028    -0.143270119558     0.978579978473      -0.145233574774     0.978579978473      -0.145233574774     -0.0214013896028    -0.143270119558     
5600000000.0        -0.0221651921675    -0.145753938562     0.977816077212      -0.147753586216     0.977816077212      -0.147753586216     -0.0221651921675    -0.145753938562     
5700000000.0        -0.0229413852538    -0.148231525252     0.977039784034      -0.150267384694     0.977039784034      -0.150267384694     -0.0229413852538    -0.148231525252     
5800000000.0        -0.0237299032552    -0.150702790878     0.976251164541      -0.152774881452     0.976251164541      -0.152774881452     -0.0237299032552    -0.150702790878     
5900000000.0        -0.0245306797725    -0.153167647586     0.975450285129      -0.155275988629     0.975450285129      -0.155275988629     -0.0245306797725    -0.153167647586     
6000000000.0        -0.025343647628     -0.155626008421     0.974637212972      -0.157770619256     0.974637212972      -0.157770619256     -0.025343647628     -0.155626008421     
6100000000.0        -0.026168738878     -0.158077787336     0.973812016011      -0.160258687271     0.973812016011      -0.160258687271     -0.026168738878     -0.158077787336     
6200000000.0        -0.0270058848277    -0.160522899196     0.972974762938      -0.16274010752      0.972974762938      -0.16274010752      -0.0270058848277    -0.160522899196     
6300000000.0        -0.0278550160435    -0.162961259787     0.972125523183      -0.165214795765     0.972125523183      -0.165214795765     -0.0278550160435    -0.162961259787     
6400000000.0        -0.028716062368     -0.165392785819     0.971264366901      -0.167682668691     0.971264366901      -0.167682668691     -0.028716062368     -0.165392785819     
6500000000.0        -0.0295889529327    -0.167817394931     0.970391364957      -0.170143643907     0.970391364957      -0.170143643907     -0.0295889529327    -0.167817394931     
6600000000.0        -0.0304736161728    -0.1702350057       0.969506588913      -0.172597639958     0.969506588913      -0.172597639958     -0.0304736161728    -0.1702350057       
6700000000.0        -0.0313699798399    -0.172645537639     0.968610111016      -0.175044576324     0.968610111016      -0.175044576324     -0.0313699798399    -0.172645537639     
6800000000.0        -0.0322779710166    -0.175048911212     0.967702004179      -0.177484373429     0.967702004179      -0.177484373429     -0.0322779710166    -0.175048911212     
6900000000.0        -0.0331975161302    -0.17744504783      0.966782341974      -0.179916952645     0.966782341974      -0.179916952645     -0.0331975161302    -0.17744504783      
7000000000.0        -0.0341285409668    -0.179833869859     0.965851198611      -0.182342236295     0.965851198611      -0.182342236295     -0.0341285409668    -0.179833869859     
7100000000.0        -0.0350709706844    -0.182215300625     0.96490864893       -0.184760147659     0.96490864893       -0.184760147659     -0.0350709706844    -0.182215300625     
7200000000.0        -0.0360247298279    -0.184589264417     0.963954768384      -0.187170610979     0.963954768384      -0.187170610979     -0.0360247298279    -0.184589264417     
7300000000.0        -0.0369897423422    -0.18695568649      0.962989633026      -0.189573551462     0.962989633026      -0.189573551462     -0.0369897423422    -0.18695568649      
7400000000.0        -0.0379659315868    -0.189314493073     0.962013319494      -0.191968895281     0.962013319494      -0.191968895281     -0.0379659315868    -0.189314493073     
7500000000.0        -0.038953220349     -0.191665611366     0.961025904999      -0.194356569586     0.961025904999      -0.194356569586     -0.038953220349     -0.191665611366     
7600000000.0        -0.0399515308587    -0.19400896955      0.960027467308      -0.1967365025       0.960027467308      -0.1967365025       -0.0399515308587    -0.19400896955      
7700000000.0        -0.0409607848015    -0.196344496786     0.959018084735      -0.199108623127     0.959018084735      -0.199108623127     -0.0409607848015    -0.196344496786     
7800000000.0        -0.0419809033335    -0.198672123218     0.95799783612       -0.201472861552     0.95799783612       -0.201472861552     -0.0419809033335    -0.198672123218     
7900000000.0        -0.0430118070943    -0.200991779979     0.956966800822      -0.203829148846     0.956966800822      -0.203829148846     -0.0430118070943    -0.200991779979     
8000000000.0        -0.0440534162221    -0.203303399191     0.955925058701      -0.206177417069     0.955925058701      -0.206177417069     -0.0440534162221    -0.203303399191     
8100000000.0        -0.0451056503663    -0.205606913968     0.954872690106      -0.20851759927      0.954872690106      -0.20851759927      -0.0451056503663    -0.205606913968     
8200000000.0        -0.0461684287025    -0.207902258417     0.95380977586       -0.210849629491     0.95380977586       -0.210849629491     -0.0461684287025    -0.207902258417     
8300000000.0        -0.0472416699457    -0.210189367645     0.952736397245      -0.213173442771     0.952736397245      -0.213173442771     -0.0472416699457    -0.210189367645     
8400000000.0        -0.0483252923646    -0.212468177753     0.95165263599       -0.215488975144     0.95165263599       -0.215488975144     -0.0483252923646    -0.212468177753     
8500000000.0        -0.0494192137951    -0.214738625844     0.95055857426       -0.217796163642     0.95055857426       -0.217796163642     -0.0494192137951    -0.214738625844     
8600000000.0        -0.0505233516542    -0.217000650023     0.949454294634      -0.2200949463       0.949454294634      -0.2200949463       -0.0505233516542    -0.217000650023     
8700000000.0        -0.0516376229538    -0.219254189397     0.948339880099      -0.222385262152     0.948339880099      -0.222385262152     -0.0516376229538    -0.219254189397     
8800000000.0        -0.0527619443146    -0.221499184075     0.947215414032      -0.224667051235     0.947215414032      -0.224667051235     -0.0527619443146    -0.221499184075     
8900000000.0        -0.0538962319795    -0.223735575173     0.94608098019       -0.226940254591     0.94608098019       -0.226940254591     -0.0538962319795    -0.223735575173     
9000000000.0        -0.0550404018275    -0.225963304812     0.944936662692      -0.229204814266     0.944936662692      -0.229204814266     -0.0550404018275    -0.225963304812     
9100000000.0        -0.0561943693871    -0.228182316118     0.943782546007      -0.23146067331      0.943782546007      -0.23146067331      -0.0561943693871    -0.228182316118     
9200000000.0        -0.05735804985      -0.230392553224     0.942618714942      -0.233707775779     0.942618714942      -0.233707775779     -0.05735804985      -0.230392553224     
9300000000.0        -0.0585313580847    -0.23259396127      0.941445254627      -0.235946066736     0.941445254627      -0.235946066736     -0.0585313580847    -0.23259396127      
9400000000.0        -0.0597142086497    -0.234786486401     0.940262250503      -0.238175492248     0.940262250503      -0.238175492248     -0.0597142086497    -0.234786486401     
9500000000.0        -0.0609065158072    -0.236970075769     0.939069788306      -0.240395999388     0.939069788306      -0.240395999388     -0.0609065158072    -0.236970075769     
9600000000.0        -0.0621081935362    -0.239144677533     0.937867954054      -0.242607536235     0.937867954054      -0.242607536235     -0.0621081935362    -0.239144677533     
9700000000.0        -0.0633191555461    -0.241310240855     0.936656834038      -0.244810051873     0.936656834038      -0.244810051873     -0.0633191555461    -0.241310240855     
9800000000.0        -0.0645393152895    -0.243466715903     0.935436514803      -0.247003496388     0.935436514803      -0.247003496388     -0.0645393152895    -0.243466715903     
9900000000.0        -0.0657685859759    -0.245614053851     0.934207083138      -0.249187820872     0.934207083138      -0.249187820872     -0.0657685859759    -0.245614053851     
10000000000.0       -0.0670068805841    -0.247752206871     0.932968626064      -0.251362977417     0.932968626064      -0.251362977417     -0.0670068805841    -0.247752206871     
