# Hz S RI R 50.00 
100000000.0         0.00278892047121    0.000344524829315   0.997204967374      -0.00272807664759   0.997204967374      -0.00272807664759   0.00278892047121    0.000344524829315   
200000000.0         0.00280920389646    0.000688926002652   0.997173884989      -0.00545602958982   0.997173884989      -0.00545602958982   0.00280920389646    0.000688926002652   
300000000.0         0.00282646994837    0.00103323644419    0.997140132917      -0.00818389166823   0.997140132917      -0.00818389166823   0.00282646994837    0.00103323644419    
400000000.0         0.00284313415169    0.00137745977985    0.997101295325      -0.0109116638083    0.997101295325      -0.0109116638083    0.00284313415169    0.00137745977985    
500000000.0         0.00286012633601    0.00172159300374    0.99705644203       -0.0136393389873    0.99705644203       -0.0136393389873    0.00286012633601    0.00172159300374    
600000000.0         0.00287792036899    0.00206563024772    0.997005098773      -0.0163669064608    0.997005098773      -0.0163669064608    0.00287792036899    0.00206563024772    
700000000.0         0.00289679588014    0.00240956411781    0.996946985495      -0.0190943533311    0.996946985495      -0.0190943533311    0.00289679588015    0.00240956411781    
800000000.0         0.00291693376511    0.0027533863062     0.996881920839      -0.0218216652988    0.996881920839      -0.0218216652988    0.00291693376511    0.0027533863062     
900000000.0         0.00293845870133    0.00309708791559    0.996809779636      -0.0245488270783    0.996809779636      -0.0245488270783    0.00293845870133    0.00309708791559    
1000000000.0        0.00296146069456    0.0034406596485     0.996730471365      -0.0272758226517    0.996730471365      -0.0272758226517    0.00296146069456    0.0034406596485     
1100000000.0        0.00298600705401    0.00378409192592    0.996643928173      -0.0300026354344    0.996643928173      -0.0300026354344    0.00298600705401    0.00378409192592    
1200000000.0        0.00301214952669    0.00412737496547    0.99655009775       -0.0327292483895    0.99655009775       -0.0327292483895    0.00301214952669    0.00412737496547    
1300000000.0        0.00303992878517    0.0044704988353     0.99644893884       -0.0354556441103    0.99644893884       -0.0354556441103    0.00303992878517    0.0044704988353     
1400000000.0        0.00306937737676    0.00481345349226    0.996340418292      -0.0381818048807    0.996340418292      -0.0381818048807    0.00306937737676    0.00481345349226    
1500000000.0        0.00310052173286    0.00515622880989    0.996224509055      -0.0409077127221    0.996224509055      -0.0409077127221    0.00310052173286    0.00515622880989    
1600000000.0        0.00313338357985    0.00549881459935    0.996101188767      -0.0436333494302    0.996101188767      -0.0436333494302    0.00313338357985    0.00549881459935    
1700000000.0        0.00316798095573    0.00584120062529    0.995970438738      -0.0463586966031    0.995970438738      -0.0463586966031    0.00316798095573    0.00584120062529    
1800000000.0        0.00320432895904    0.00618337661827    0.995832243207      -0.0490837356657    0.995832243207      -0.0490837356657    0.00320432895904    0.00618337661827    
1900000000.0        0.00324244031134    0.00652533228444    0.995686588777      -0.0518084478886    0.995686588777      -0.0518084478886    0.00324244031134    0.00652533228444    
2000000000.0        0.00328232578694    0.00686705731335    0.995533463985      -0.0545328144044    0.995533463985      -0.0545328144044    0.00328232578694    0.00686705731335    
2100000000.0        0.00332399454613    0.00720854138415    0.995372858975      -0.0572568162213    0.995372858975      -0.0572568162213    0.00332399454613    0.00720854138415    
2200000000.0        0.00336745439717    0.00754977417075    0.995204765231      -0.0599804342345    0.995204765231      -0.0599804342345    0.00336745439717    0.00754977417075    
2300000000.0        0.00341271200467    0.00789074534597    0.995029175373      -0.0627036492364    0.995029175373      -0.0627036492364    0.00341271200467    0.00789074534597    
2400000000.0        0.00345977305723    0.00823144458506    0.994846082992      -0.0654264419253    0.994846082992      -0.0654264419253    0.00345977305723    0.00823144458506    
2500000000.0        0.00350864240367    0.00857186156858    0.994655482509      -0.0681487929126    0.994655482509      -0.0681487929126    0.00350864240367    0.00857186156858    
2600000000.0        0.00355932416458    0.00891198598489    0.994457369067      -0.0708706827299    0.994457369067      -0.0708706827299    0.00355932416458    0.00891198598489    
2700000000.0        0.00361182182466    0.00925180753223    0.994251738443      -0.0735920918347    0.994251738443      -0.0735920918347    0.00361182182466    0.00925180753223    
2800000000.0        0.00366613830954    0.00959131592046    0.994038586964      -0.0763130006157    0.994038586964      -0.0763130006157    0.00366613830954    0.00959131592046    
2900000000.0        0.00372227605026    0.00993050087264    0.993817911452      -0.0790333893972    0.993817911452      -0.0790333893972    0.00372227605026    0.00993050087264    
3000000000.0        0.00378023703771    0.0102693521263     0.993589709163      -0.0817532384439    0.993589709163      -0.0817532384439    0.00378023703771    0.0102693521263     
3100000000.0        0.00384002286881    0.0106078594348     0.993353977745      -0.0844725279644    0.993353977745      -0.0844725279644    0.00384002286881    0.0106078594348     
3200000000.0        0.00390163478607    0.0109460125678     0.993110715199      -0.0871912381147    0.993110715199      -0.0871912381147    0.00390163478607    0.0109460125678     
3300000000.0        0.00396507371146    0.0112838013129     0.992859919844      -0.0899093490016    0.992859919844      -0.0899093490016    0.00396507371146    0.0112838013129     
3400000000.0        0.0040303402757     0.0116212154757     0.99260159029       -0.0926268406851    0.99260159029       -0.0926268406851    0.0040303402757     0.0116212154757     
3500000000.0        0.00409743484361    0.011958244881      0.992335725412      -0.095343693182     0.992335725412      -0.095343693182     0.00409743484361    0.011958244881      
3600000000.0        0.00416635753625    0.0122948793732     0.99206232433       -0.0980598864674    0.99206232433       -0.0980598864674    0.00416635753625    0.0122948793732     
3700000000.0        0.00423710825024    0.0126311088169     0.991781386388      -0.100775400477     0.991781386388      -0.100775400477     0.00423710825025    0.0126311088169     
3800000000.0        0.00430968667471    0.0129669230972     0.991492911138      -0.103490215112     0.991492911138      -0.103490215112     0.00430968667471    0.0129669230972     
3900000000.0        0.00438409230623    0.0133023121206     0.991196898327      -0.106204310235     0.991196898327      -0.106204310235     0.00438409230623    0.0133023121206     
4000000000.0        0.00446032446209    0.013637265815      0.990893347883      -0.108917665679     0.990893347883      -0.108917665679     0.00446032446209    0.013637265815      
4100000000.0        0.00453838229199    0.0139717741301     0.990582259905      -0.111630261243     0.990582259905      -0.111630261243     0.00453838229199    0.0139717741301     
4200000000.0        0.00461826478848    0.0143058270382     0.990263634651      -0.114342076699     0.990263634651      -0.114342076699     0.00461826478848    0.0143058270382     
4300000000.0        0.0046999707963     0.0146394145338     0.989937472529      -0.117053091789     0.989937472529      -0.117053091789     0.0046999707963     0.0146394145338     
4400000000.0        0.0047834990207     0.0149725266345     0.989603774092      -0.119763286229     0.989603774092      -0.119763286229     0.0047834990207     0.0149725266345     
4500000000.0        0.00486884803496    0.0153051533811     0.98926254003       -0.122472639711     0.98926254003       -0.122472639711     0.00486884803496    0.0153051533811     
4600000000.0        0.00495601628712    0.0156372848375     0.988913771158      -0.1251811319       0.988913771158      -0.1251811319       0.00495601628712    0.0156372848375     
4700000000.0        0.00504500210608    0.0159689110916     0.988557468421      -0.127888742441     0.988557468421      -0.127888742441     0.00504500210608    0.0159689110916     
4800000000.0        0.00513580370711    0.016300022255      0.988193632879      -0.130595450957     0.988193632879      -0.130595450957     0.00513580370711    0.016300022255      
4900000000.0        0.00522841919684    0.0166306084633     0.987822265708      -0.133301237049     0.987822265708      -0.133301237049     0.00522841919683    0.0166306084633     
5000000000.0        0.00532284657781    0.0169606598766     0.987443368191      -0.1360060803       0.987443368191      -0.1360060803       0.00532284657781    0.0169606598766     
5100000000.0        0.00541908375263    0.0172901666793     0.987056941722      -0.138709960276     0.987056941722      -0.138709960276     0.00541908375263    0.0172901666793     
5200000000.0        0.00551712852773    0.0176191190807     0.986662987795      -0.141412856521     0.986662987795      -0.141412856521     0.00551712852773    0.0176191190807     
5300000000.0        0.00561697861685    0.0179475073146     0.986261508002      -0.144114748568     0.986261508002      -0.144114748568     0.00561697861685    0.0179475073146     
5400000000.0        0.0057186316442     0.0182753216402     0.985852504036      -0.146815615931     0.985852504036      -0.146815615931     0.0057186316442     0.0182753216402     
5500000000.0        0.00582208514738    0.0186025523417     0.985435977681      -0.14951543811      0.985435977681      -0.14951543811      0.00582208514738    0.0186025523417     
5600000000.0        0.00592733658005    0.0189291897287     0.985011930814      -0.152214194592     0.985011930814      -0.152214194592     0.00592733658005    0.0189291897287     
5700000000.0        0.00603438331445    0.0192552241362     0.984580365401      -0.15491186485      0.984580365401      -0.15491186485      0.00603438331445    0.0192552241362     
5800000000.0        0.00614322264365    0.0195806459252     0.984141283496      -0.157608428345     0.984141283496      -0.157608428345     0.00614322264365    0.0195806459252     
5900000000.0        0.00625385178366    0.0199054454821     0.98369468724       -0.160303864527     0.98369468724       -0.160303864527     0.00625385178366    0.0199054454821     
6000000000.0        0.00636626787546    0.0202296132195     0.983240578857      -0.162998152834     0.983240578857      -0.162998152834     0.00636626787546    0.0202296132195     
6100000000.0        0.00648046798675    0.0205531395763     0.982778960652      -0.165691272695     0.982778960652      -0.165691272695     0.00648046798675    0.0205531395763     
6200000000.0        0.00659644911368    0.0208760150172     0.982309835015      -0.16838320353      0.982309835015      -0.16838320353      0.00659644911368    0.0208760150172     
6300000000.0        0.00671420818247    0.0211982300337     0.981833204412      -0.171073924747     0.981833204412      -0.171073924747     0.00671420818247    0.0211982300337     
6400000000.0        0.00683374205083    0.0215197751437     0.981349071391      -0.17376341575      0.981349071391      -0.17376341575      0.00683374205083    0.0215197751437     
6500000000.0        0.00695504750938    0.0218406408917     0.980857438575      -0.176451655933     0.980857438575      -0.176451655933     0.00695504750938    0.0218406408917     
6600000000.0        0.00707812128292    0.0221608178492     0.980358308665      -0.179138624684     0.980358308665      -0.179138624684     0.00707812128292    0.0221608178492     
6700000000.0        0.0072029600317     0.0224802966144     0.979851684437      -0.181824301384     0.979851684437      -0.181824301384     0.0072029600317     0.0224802966144     
6800000000.0        0.00732956035248    0.0227990678129     0.979337568742      -0.184508665408     0.979337568742      -0.184508665408     0.00732956035248    0.0227990678129     
6900000000.0        0.0074579187797     0.0231171220972     0.978815964503      -0.187191696128     0.978815964503      -0.187191696128     0.0074579187797     0.0231171220972     
7000000000.0        0.00758803178641    0.0234344501473     0.978286874719      -0.189873372909     0.978286874719      -0.189873372909     0.00758803178641    0.0234344501473     
7100000000.0        0.00771989578528    0.0237510426708     0.97775030246       -0.192553675112     0.97775030246       -0.192553675112     0.00771989578528    0.0237510426708     
7200000000.0        0.00785350712947    0.0240668904027     0.977206250866      -0.195232582095     0.977206250866      -0.195232582095     0.00785350712947    0.0240668904027     
7300000000.0        0.00798886211353    0.0243819841058     0.976654723151      -0.197910073213     0.976654723151      -0.197910073213     0.00798886211353    0.0243819841058     
7400000000.0        0.00812595697417    0.0246963145708     0.976095722598      -0.200586127819     0.976095722598      -0.200586127819     0.00812595697417    0.0246963145708     
7500000000.0        0.00826478789104    0.0250098726165     0.975529252559      -0.203260725262     0.975529252559      -0.203260725262     0.00826478789104    0.0250098726165     
7600000000.0        0.00840535098749    0.0253226490896     0.974955316456      -0.20593384489      0.974955316456      -0.20593384489      0.00840535098749    0.0253226490896     
7700000000.0        0.00854764233123    0.0256346348653     0.974373917781      -0.208605466052     0.974373917781      -0.208605466052     0.00854764233123    0.0256346348653     
7800000000.0        0.00869165793503    0.025945820847      0.973785060094      -0.211275568094     0.973785060094      -0.211275568094     0.00869165793503    0.025945820847      
7900000000.0        0.00883739375732    0.0262561979667     0.973188747021      -0.213944130361     0.973188747021      -0.213944130361     0.00883739375732    0.0262561979667     
8000000000.0        0.00898484570283    0.0265657571851     0.972584982258      -0.216611132201     0.972584982258      -0.216611132201     0.00898484570283    0.0265657571851     
8100000000.0        0.00913400962314    0.0268744894915     0.971973769568      -0.21927655296      0.971973769568      -0.21927655296      0.00913400962314    0.0268744894915     
8200000000.0        0.00928488131727    0.0271823859043     0.97135511278       -0.221940371987     0.97135511278       -0.221940371987     0.00928488131727    0.0271823859043     
8300000000.0        0.00943745653218    0.0274894374707     0.97072901579       -0.22460256863      0.97072901579       -0.22460256863      0.00943745653218    0.0274894374707     
8400000000.0        0.00959173096331    0.0277956352672     0.97009548256       -0.227263122242     0.97009548256       -0.227263122242     0.00959173096331    0.0277956352672     
8500000000.0        0.00974770025507    0.0281009703997     0.969454517117      -0.229922012176     0.969454517117      -0.229922012176     0.00974770025507    0.0281009703997     
8600000000.0        0.00990536000129    0.0284054340033     0.968806123556      -0.232579217789     0.968806123556      -0.232579217789     0.00990536000129    0.0284054340033     
8700000000.0        0.0100647057457     0.0287090172426     0.968150306036      -0.235234718439     0.968150306036      -0.235234718439     0.0100647057457     0.0287090172426     
8800000000.0        0.0102257329824     0.0290117113121     0.967487068781      -0.23788849349      0.967487068781      -0.23788849349      0.0102257329824     0.0290117113121     
8900000000.0        0.0103884371562     0.029313507436      0.96681641608       -0.240540522308     0.96681641608       -0.240540522308     0.0103884371562     0.029313507436      
9000000000.0        0.0105528136632     0.0296143968682     0.966138352286      -0.243190784264     0.966138352286      -0.243190784264     0.0105528136632     0.0296143968682     
9100000000.0        0.0107188578509     0.0299143708929     0.965452881818      -0.245839258734     0.965452881818      -0.245839258734     0.0107188578509     0.0299143708929     
9200000000.0        0.010886565019      0.0302134208244     0.964760009158      -0.248485925098     0.964760009158      -0.248485925098     0.010886565019      0.0302134208244     
9300000000.0        0.0110559304193     0.0305115380073     0.964059738852      -0.251130762742     0.964059738852      -0.251130762742     0.0110559304193     0.0305115380073     
9400000000.0        0.0112269492565     0.0308087138166     0.963352075511      -0.253773751057     0.963352075511      -0.253773751057     0.0112269492565     0.0308087138166     
9500000000.0        0.0113996166883     0.0311049396579     0.962637023808      -0.256414869441     0.962637023808      -0.256414869441     0.0113996166883     0.0311049396579     
9600000000.0        0.0115739278258     0.0314002069674     0.961914588481      -0.259054097298     0.961914588481      -0.259054097298     0.0115739278258     0.0314002069674     
9700000000.0        0.011749877734      0.0316945072122     0.961184774329      -0.261691414037     0.961184774329      -0.261691414037     0.011749877734      0.0316945072122     
9800000000.0        0.0119274614316     0.0319878318902     0.960447586216      -0.264326799077     0.960447586216      -0.264326799077     0.0119274614316     0.0319878318902     
9900000000.0        0.0121066738922     0.0322801725305     0.95970302907       -0.266960231842     0.95970302907       -0.266960231842     0.0121066738922     0.0322801725305     
10000000000.0       0.0122875100439     0.0325715206934     0.958951107878      -0.269591691766     0.958951107878      -0.269591691766     0.0122875100439     0.0325715206934     
