# Hz S RI R 50.00 
100000000.0         0.00109139032473    -0.00167624313405   0.998872170994      -0.00584099633906   0.998872170994      -0.00584099633906   0.00109139032473    -0.00167624313405   
200000000.0         0.00106587739478    -0.00335234147718   0.998805714306      -0.0116817537078    0.998805714306      -0.0116817537078    0.00106587739478    -0.00335234147718   
300000000.0         0.00101886219076    -0.00502807575107   0.99870423092       -0.017522095602     0.99870423092       -0.017522095602     0.00101886219076    -0.00502807575107   
400000000.0         0.000951303702344   -0.00670323213039   0.998566767115      -0.0233618106529    0.998566767115      -0.0233618106529    0.000951303702344   -0.00670323213039   
500000000.0         0.000863575009428   -0.00837759506047   0.998392958897      -0.0292006742348    0.998392958897      -0.0292006742348    0.000863575009429   -0.00837759506047   
600000000.0         0.000755871254302   -0.0100509470189    0.998182624336      -0.0350384538299    0.998182624336      -0.0350384538299    0.000755871254301   -0.0100509470189    
700000000.0         0.000628313310987   -0.0117230687316    0.997935660131      -0.0408749114681    0.997935660131      -0.0408749114681    0.000628313310987   -0.0117230687316    
800000000.0         0.000480985624731   -0.0133937394219    0.997652003934      -0.0467098051015    0.997652003934      -0.0467098051015    0.000480985624731   -0.0133937394219    
900000000.0         0.000313953071414   -0.0150627370325    0.997331617641      -0.0525428894802    0.997331617641      -0.0525428894802    0.000313953071414   -0.0150627370325    
1000000000.0        0.000127269514897   -0.016729838416     0.996974478944      -0.0583739167595    0.996974478944      -0.0583739167595    0.000127269514897   -0.016729838416     
1100000000.0        -7.90174257854e-05  -0.0183948194989    0.996580576662      -0.0642026369455    0.996580576662      -0.0642026369455    -7.90174257855e-05  -0.0183948194989    
1200000000.0        -0.000304863527184  -0.0200574554238    0.996149907983      -0.0700287982387    0.996149907983      -0.0700287982387    -0.000304863527184  -0.0200574554238    
1300000000.0        -0.000550226161764  -0.0217175206761    0.995682476728      -0.0758521473084    0.995682476728      -0.0758521473084    -0.000550226161765  -0.0217175206761    
1400000000.0        -0.000815063109249  -0.0233747891971    0.995178292235      -0.0816724295186    0.995178292235      -0.0816724295186    -0.000815063109249  -0.0233747891971    
1500000000.0        -0.00109933174203   -0.0250290344872    0.994637368595      -0.087489389118     0.994637368595      -0.087489389118     -0.00109933174203   -0.0250290344872    
1600000000.0        -0.00140298844939   -0.0266800297009    0.994059724128      -0.0933027694047    0.994059724128      -0.0933027694047    -0.00140298844939   -0.0266800297009    
1700000000.0        -0.00172598821971   -0.0283275477354    0.993445381004      -0.0991123128703    0.993445381004      -0.0991123128703    -0.00172598821971   -0.0283275477354    
1800000000.0        -0.00206828433048   -0.0299713613139    0.992794364979      -0.104917761328     0.992794364979      -0.104917761328     -0.00206828433048   -0.0299713613139    
1900000000.0        -0.00242982811382   -0.0316112430636    0.992106705184      -0.110718856028     0.992106705184      -0.110718856028     -0.00242982811382   -0.0316112430636    
2000000000.0        -0.0028105687763    -0.0332469655917    0.99138243398       -0.116515337766     0.99138243398       -0.116515337766     -0.0028105687763    -0.0332469655917    
2100000000.0        -0.00321045325846   -0.0348783015564    0.990621586837      -0.122306946977     0.990621586837      -0.122306946977     -0.00321045325846   -0.0348783015564    
2200000000.0        -0.00362942612421   -0.0365050237367    0.989824202249      -0.128093423829     0.989824202249      -0.128093423829     -0.00362942612422   -0.0365050237367    
2300000000.0        -0.00406742947285   -0.0381269050992    0.988990321655      -0.133874508307     0.988990321655      -0.133874508307     -0.00406742947285   -0.0381269050992    
2400000000.0        -0.00452440286865   -0.039743718863     0.98811998939       -0.139649940293     0.98811998939       -0.139649940293     -0.00452440286865   -0.039743718863     
2500000000.0        -0.00500028328437   -0.0413552385626    0.987213252633      -0.145419459646     0.987213252633      -0.145419459646     -0.00500028328437   -0.0413552385626    
2600000000.0        -0.00549500505576   -0.0429612381104    0.986270161371      -0.151182806266     0.986270161371      -0.151182806266     -0.00549500505576   -0.0429612381104    
2700000000.0        -0.00600849984505   -0.044561491856     0.985290768364      -0.156939720176     0.985290768364      -0.156939720176     -0.00600849984505   -0.044561491856     
2800000000.0        -0.00654069661188   -0.0461557746459    0.984275129121      -0.162689941577     0.984275129121      -0.162689941577     -0.00654069661188   -0.0461557746459    
2900000000.0        -0.00709152159024   -0.0477438618811    0.983223301872      -0.16843321092      0.983223301872      -0.16843321092      -0.00709152159024   -0.0477438618811    
3000000000.0        -0.00766089827078   -0.049325529574     0.982135347547      -0.174169268966     0.982135347547      -0.174169268966     -0.00766089827078   -0.049325529574     
3100000000.0        -0.00824874738732   -0.0509005544043    0.981011329756      -0.179897856846     0.981011329756      -0.179897856846     -0.00824874738732   -0.0509005544043    
3200000000.0        -0.0088549869074    -0.0524687137742    0.979851314771      -0.185618716119     0.979851314771      -0.185618716119     -0.0088549869074    -0.0524687137742    
3300000000.0        -0.00947953202599   -0.054029785862     0.978655371508      -0.191331588833     0.978655371508      -0.191331588833     -0.00947953202599   -0.054029785862     
3400000000.0        -0.0101222951622    -0.0555835496761    0.977423571506      -0.197036217575     0.977423571506      -0.197036217575     -0.0101222951622    -0.0555835496761    
3500000000.0        -0.0107831859588    -0.057129785107     0.976155988917      -0.202732345529     0.976155988917      -0.202732345529     -0.0107831859588    -0.057129785107     
3600000000.0        -0.0114621112834    -0.0586682729796    0.974852700483      -0.208419716528     0.974852700483      -0.208419716528     -0.0114621112834    -0.0586682729796    
3700000000.0        -0.012158975233     -0.0601987951039    0.973513785523      -0.214098075107     0.973513785523      -0.214098075107     -0.012158975233     -0.0601987951039    
3800000000.0        -0.0128736791392    -0.0617211343258    0.972139325914      -0.219767166549     0.972139325914      -0.219767166549     -0.0128736791392    -0.0617211343258    
3900000000.0        -0.0136061215757    -0.0632350745767    0.970729406076      -0.225426736942     0.970729406076      -0.225426736942     -0.0136061215757    -0.0632350745767    
4000000000.0        -0.014356198368     -0.0647404009224    0.969284112953      -0.23107653322      0.969284112953      -0.23107653322      -0.014356198368     -0.0647404009224    
4100000000.0        -0.0151238026037    -0.066236899612     0.967803535993      -0.236716303216     0.967803535993      -0.236716303216     -0.0151238026037    -0.066236899612     
4200000000.0        -0.015908824645     -0.0677243581252    0.966287767135      -0.242345795706     0.966287767135      -0.242345795706     -0.015908824645     -0.0677243581252    
4300000000.0        -0.0167111521418    -0.0692025652198    0.964736900784      -0.247964760455     0.964736900784      -0.247964760455     -0.0167111521418    -0.0692025652198    
4400000000.0        -0.0175306700471    -0.0706713109779    0.963151033798      -0.253572948262     0.963151033798      -0.253572948262     -0.0175306700471    -0.0706713109779    
4500000000.0        -0.0183672606325    -0.0721303868521    0.961530265461      -0.259170111006     0.961530265461      -0.259170111006     -0.0183672606325    -0.0721303868521    
4600000000.0        -0.0192208035059    -0.0735795857105    0.959874697468      -0.264756001684     0.959874697468      -0.264756001684     -0.0192208035059    -0.0735795857105    
4700000000.0        -0.0200911756294    -0.0750187018814    0.9581844339        -0.270330374459     0.9581844339        -0.270330374459     -0.0200911756294    -0.0750187018814    
4800000000.0        -0.0209782513389    -0.0764475311972    0.956459581206      -0.275892984697     0.956459581206      -0.275892984697     -0.0209782513389    -0.0764475311972    
4900000000.0        -0.0218819023642    -0.0778658710376    0.954700248177      -0.281443589011     0.954700248177      -0.281443589011     -0.0218819023642    -0.0778658710376    
5000000000.0        -0.0228019978507    -0.0792735203726    0.952906545924      -0.286981945296     0.952906545924      -0.286981945296     -0.0228019978507    -0.0792735203726    
5100000000.0        -0.0237384043813    -0.0806702798042    0.951078587856      -0.292507812775     0.951078587856      -0.292507812775     -0.0237384043813    -0.0806702798042    
5200000000.0        -0.0246909859998    -0.0820559516079    0.949216489653      -0.298020952031     0.949216489653      -0.298020952031     -0.0246909859998    -0.0820559516079    
5300000000.0        -0.0256596042349    -0.0834303397732    0.947320369244      -0.303521125048     0.947320369244      -0.303521125048     -0.0256596042349    -0.0834303397732    
5400000000.0        -0.026644118125     -0.084793250044     0.945390346779      -0.309008095244     0.945390346779      -0.309008095244     -0.026644118125     -0.084793250044     
5500000000.0        -0.0276443842436    -0.0861444899578    0.943426544603      -0.314481627511     0.943426544603      -0.314481627511     -0.0276443842436    -0.0861444899578    
5600000000.0        -0.0286602567263    -0.0874838688841    0.941429087234      -0.319941488248     0.941429087234      -0.319941488248     -0.0286602567263    -0.0874838688841    
5700000000.0        -0.0296915872976    -0.088811198063     0.939398101328      -0.325387445395     0.939398101328      -0.325387445395     -0.0296915872976    -0.088811198063     
5800000000.0        -0.0307382252988    -0.0901262906419    0.937333715656      -0.330819268467     0.937333715656      -0.330819268467     -0.0307382252988    -0.0901262906419    
5900000000.0        -0.0318000177168    -0.0914289617128    0.935236061077      -0.336236728585     0.935236061077      -0.336236728585     -0.0318000177168    -0.0914289617128    
6000000000.0        -0.0328768092132    -0.0927190283474    0.933105270505      -0.341639598512     0.933105270505      -0.341639598512     -0.0328768092132    -0.0927190283474    
6100000000.0        -0.0339684421543    -0.0939963096334    0.930941478883      -0.347027652678     0.930941478883      -0.347027652678     -0.0339684421543    -0.0939963096334    
6200000000.0        -0.0350747566418    -0.095260626708     0.928744823149      -0.352400667217     0.928744823149      -0.352400667217     -0.0350747566418    -0.095260626708     
6300000000.0        -0.0361955905437    -0.0965118027924    0.926515442212      -0.357758419992     0.926515442212      -0.357758419992     -0.0361955905437    -0.0965118027924    
6400000000.0        -0.0373307795263    -0.0977496632247    0.924253476915      -0.363100690623     0.924253476915      -0.363100690623     -0.0373307795263    -0.0977496632247    
6500000000.0        -0.0384801570864    -0.0989740354921    0.921959070005      -0.368427260519     0.921959070005      -0.368427260519     -0.0384801570864    -0.0989740354921    
6600000000.0        -0.0396435545842    -0.100184749263     0.919632366105      -0.373737912903     0.919632366105      -0.373737912903     -0.0396435545842    -0.100184749263     
6700000000.0        -0.0408208012767    -0.101381636417     0.917273511677      -0.379032432836     0.917273511677      -0.379032432836     -0.0408208012767    -0.101381636417     
6800000000.0        -0.0420117243513    -0.102564531078     0.914882654991      -0.384310607248     0.914882654991      -0.384310607248     -0.0420117243513    -0.102564531078     
6900000000.0        -0.0432161489609    -0.103733269637     0.912459946094      -0.389572224955     0.912459946094      -0.389572224955     -0.0432161489609    -0.103733269637     
7000000000.0        -0.0444338982579    -0.10488769079      0.910005536773      -0.394817076692     0.910005536773      -0.394817076692     -0.0444338982579    -0.10488769079      
7100000000.0        -0.0456647934299    -0.106027635559     0.907519580525      -0.400044955127     0.907519580525      -0.400044955127     -0.0456647934299    -0.106027635559     
7200000000.0        -0.0469086537355    -0.107152947321     0.905002232518      -0.405255654892     0.905002232518      -0.405255654892     -0.0469086537355    -0.107152947321     
7300000000.0        -0.04816529654      -0.108263471835     0.902453649563      -0.410448972597     0.902453649563      -0.410448972597     -0.04816529654      -0.108263471835     
7400000000.0        -0.0494345373523    -0.109359057269     0.899873990071      -0.415624706855     0.899873990071      -0.415624706855     -0.0494345373523    -0.109359057269     
7500000000.0        -0.0507161898616    -0.110439554222     0.897263414028      -0.4207826583       0.897263414028      -0.4207826583       -0.0507161898616    -0.110439554222     
7600000000.0        -0.0520100659745    -0.11150481575      0.894622082949      -0.425922629608     0.894622082949      -0.425922629608     -0.0520100659745    -0.11150481575      
7700000000.0        -0.0533159758525    -0.112554697391     0.891950159852      -0.431044425513     0.891950159852      -0.431044425513     -0.0533159758525    -0.112554697391     
7800000000.0        -0.0546337279501    -0.113589057183     0.889247809214      -0.436147852825     0.889247809214      -0.436147852825     -0.0546337279501    -0.113589057183     
7900000000.0        -0.0559631290528    -0.114607755692     0.886515196941      -0.441232720449     0.886515196941      -0.441232720449     -0.0559631290528    -0.114607755692     
8000000000.0        -0.0573039843154    -0.115610656027     0.883752490328      -0.446298839398     0.883752490328      -0.446298839398     -0.0573039843154    -0.115610656027     
8100000000.0        -0.0586560973008    -0.116597623865     0.880959858026      -0.451346022807     0.880959858026      -0.451346022807     -0.0586560973008    -0.116597623865     
8200000000.0        -0.0600192700187    -0.117568527469     0.87813747          -0.456374085952     0.87813747          -0.456374085952     -0.0600192700187    -0.117568527469     
8300000000.0        -0.0613933029652    -0.118523237706     0.875285497498      -0.461382846259     0.875285497498      -0.461382846259     -0.0613933029652    -0.118523237706     
8400000000.0        -0.0627779951614    -0.119461628068     0.872404113011      -0.466372123317     0.872404113011      -0.466372123317     -0.0627779951614    -0.119461628068     
8500000000.0        -0.0641731441935    -0.120383574686     0.869493490235      -0.471341738895     0.869493490235      -0.471341738895     -0.0641731441935    -0.120383574686     
8600000000.0        -0.0655785462523    -0.121288956348     0.866553804036      -0.476291516944     0.866553804036      -0.476291516944     -0.0655785462523    -0.121288956348     
8700000000.0        -0.0669939961731    -0.122177654514     0.863585230414      -0.481221283615     0.863585230414      -0.481221283615     -0.0669939961731    -0.122177654514     
8800000000.0        -0.0684192874754    -0.123049553334     0.86058794646       -0.486130867265     0.86058794646       -0.486130867265     -0.0684192874754    -0.123049553334     
8900000000.0        -0.0698542124032    -0.123904539659     0.857562130325      -0.491020098467     0.857562130325      -0.491020098467     -0.0698542124032    -0.123904539659     
9000000000.0        -0.0712985619653    -0.124742503056     0.854507961178      -0.495888810014     0.854507961178      -0.495888810014     -0.0712985619653    -0.124742503056     
9100000000.0        -0.0727521259754    -0.125563335822     0.851425619173      -0.500736836933     0.851425619173      -0.500736836933     -0.0727521259754    -0.125563335822     
9200000000.0        -0.0742146930924    -0.126366932992     0.848315285406      -0.505564016485     0.848315285406      -0.505564016485     -0.0742146930924    -0.126366932992     
9300000000.0        -0.0756860508609    -0.127153192356     0.845177141882      -0.510370188174     0.845177141882      -0.510370188174     -0.0756860508609    -0.127153192356     
9400000000.0        -0.0771659857518    -0.127922014466     0.842011371478      -0.515155193749     0.842011371478      -0.515155193749     -0.0771659857518    -0.127922014466     
9500000000.0        -0.0786542832025    -0.128673302646     0.838818157899      -0.519918877211     0.838818157899      -0.519918877211     -0.0786542832025    -0.128673302646     
9600000000.0        -0.0801507276574    -0.129406963004     0.835597685651      -0.524661084816     0.835597685651      -0.524661084816     -0.0801507276574    -0.129406963004     
9700000000.0        -0.0816551026087    -0.130122904435     0.832350139995      -0.529381665072     0.832350139995      -0.529381665072     -0.0816551026087    -0.130122904435     
9800000000.0        -0.0831671906362    -0.130821038636     0.829075706913      -0.534080468751     0.829075706913      -0.534080468751     -0.0831671906362    -0.130821038636     
9900000000.0        -0.0846867734485    -0.131501280106     0.825774573074      -0.538757348878     0.825774573074      -0.538757348878     -0.0846867734485    -0.131501280106     
10000000000.0       -0.0862136319228    -0.132163546158     0.822446925791      -0.543412160741     0.822446925791      -0.543412160741     -0.0862136319228    -0.132163546158     
