# Hz S RI R 50.00 
100000000.0         0.0113805339287     0.00252087710303    0.988616466071      -0.00379536525121   0.988616466071      -0.00379536525121   0.0113805339287     0.00252087710303    
200000000.0         0.0114836569954     0.0050406307839     0.988509712296      -0.00758962274373   0.988509712296      -0.00758962274373   0.0114836569954     0.0050406307839     
300000000.0         0.0115861671632     0.00755946877675    0.988401940503      -0.011382990819     0.988401940503      -0.011382990819     0.0115861671632     0.00755946877675    
400000000.0         0.0116978453517     0.01007734734       0.988283369536      -0.0151754343778    0.988283369536      -0.0151754343778    0.0116978453517     0.01007734734       
500000000.0         0.0118224553771     0.012594164265      0.988150235307      -0.0189668588583    0.988150235307      -0.0189668588583    0.0118224553771     0.012594164265      
600000000.0         0.0119619120507     0.0151097915317     0.988000622698      -0.0227571432328    0.988000622698      -0.0227571432328    0.0119619120507     0.0151097915317     
700000000.0         0.0121173410695     0.0176240870614     0.987833405673      -0.026546151935     0.987833405673      -0.026546151935     0.0121173410695     0.0176240870614     
800000000.0         0.0122894659364     0.0201369001845     0.987647860352      -0.0303337404317    0.987647860352      -0.0303337404317    0.0122894659364     0.0201369001845     
900000000.0         0.0124787802735     0.0226480745901     0.987443492706      -0.0341197582423    0.987443492706      -0.0341197582423    0.0124787802735     0.0226480745901     
1000000000.0        0.0126856351803     0.0251574500842     0.987219951194      -0.0379040507445    0.987219951194      -0.0379040507445    0.0126856351803     0.0251574500842     
1100000000.0        0.0129102878053     0.0276648637151     0.986976978196      -0.0416864603369    0.986976978196      -0.0416864603369    0.0129102878053     0.0276648637151     
1200000000.0        0.0131529302928     0.0301701505371     0.986714381063      -0.0454668272292    0.986714381063      -0.0454668272292    0.0131529302928     0.0301701505371     
1300000000.0        0.0134137079999     0.032673144151      0.986432013904      -0.0492449900051    0.986432013904      -0.0492449900051    0.0134137079999     0.032673144151      
1400000000.0        0.0136927314731     0.035173677102      0.986129765608      -0.0530207860375    0.986129765608      -0.0530207860375    0.0136927314731     0.035173677102      
1500000000.0        0.0139900846128     0.0376715811822     0.985807551682      -0.0567940518051    0.985807551682      -0.0567940518051    0.0139900846128     0.0376715811822     
1600000000.0        0.0143058304093     0.0401666876667     0.985465308513      -0.0605646231411    0.985465308513      -0.0605646231411    0.0143058304093     0.0401666876667     
1700000000.0        0.0146400150803     0.0426588275026     0.985102989233      -0.0643323354323    0.985102989233      -0.0643323354323    0.0146400150803     0.0426588275026     
1800000000.0        0.0149926711204     0.0451478314637     0.984720560669      -0.0680970237821    0.984720560669      -0.0680970237821    0.0149926711204     0.0451478314637     
1900000000.0        0.0153638195954     0.0476335302796     0.984318001048      -0.0718585231476    0.984318001048      -0.0718585231476    0.0153638195954     0.0476335302796     
2000000000.0        0.0157534718976     0.0501157547451     0.983895298247      -0.0756166684558    0.983895298247      -0.0756166684558    0.0157534718976     0.0501157547451     
2100000000.0        0.0161616311092     0.0525943358151     0.983452448422      -0.0793712947036    0.983452448422      -0.0793712947036    0.0161616311092     0.0525943358151     
2200000000.0        0.0165882930768     0.0550691046869     0.982989454941      -0.0831222370464    0.982989454941      -0.0831222370464    0.0165882930768     0.0550691046869     
2300000000.0        0.0170334472696     0.0575398928741     0.982506327524      -0.0868693308756    0.982506327524      -0.0868693308756    0.0170334472696     0.0575398928741     
2400000000.0        0.0174970774709     0.0600065322722     0.982003081548      -0.0906124118889    0.982003081548      -0.0906124118889    0.0174970774709     0.0600065322722     
2500000000.0        0.0179791623433     0.0624688552182     0.981479737489      -0.0943513161536    0.981479737489      -0.0943513161536    0.0179791623433     0.0624688552182     
2600000000.0        0.0184796758941     0.0649266945458     0.980936320452      -0.0980858801652    0.980936320452      -0.0980858801652    0.0184796758941     0.0649266945458     
2700000000.0        0.0189985878627     0.0673798836351     0.980372859783      -0.1018159409       0.980372859783      -0.1018159409       0.0189985878627     0.0673798836351     
2800000000.0        0.0195358640457     0.0698282564603     0.97978938875       -0.105541335867     0.97978938875       -0.105541335867     0.0195358640457     0.0698282564603     
2900000000.0        0.0200914665715     0.0722716476329     0.979185944262      -0.109261903151     0.979185944262      -0.109261903151     0.0200914665715     0.0722716476329     
3000000000.0        0.0206653541356     0.0747098924435     0.978562566639      -0.112977481459     0.978562566639      -0.112977481459     0.0206653541356     0.0747098924435     
3100000000.0        0.0212574822018     0.0771428269007     0.977919299407      -0.116687910161     0.977919299407      -0.116687910161     0.0212574822018     0.0771428269007     
3200000000.0        0.0218678031774     0.0795702877681     0.977256189126      -0.120393029329     0.977256189126      -0.120393029329     0.0218678031774     0.0795702877681     
3300000000.0        0.0224962665654     0.0819921125998     0.976573285238      -0.124092679774     0.976573285238      -0.124092679774     0.0224962665654     0.0819921125998     
3400000000.0        0.0231428190987     0.0844081397744     0.975870639931      -0.127786703082     0.975870639931      -0.127786703082     0.0231428190987     0.0844081397744     
3500000000.0        0.0238074048584     0.0868182085274     0.975148308021      -0.131474941648     0.975148308021      -0.131474941648     0.0238074048584     0.0868182085274     
3600000000.0        0.0244899653795     0.0892221589825     0.974406346849      -0.13515723871      0.974406346849      -0.13515723871      0.0244899653795     0.0892221589825     
3700000000.0        0.0251904397459     0.0916198321815     0.973644816184      -0.138833438379     0.973644816184      -0.138833438379     0.0251904397459     0.0916198321815     
3800000000.0        0.0259087646752     0.0940110701141     0.972863778139      -0.14250338567      0.972863778139      -0.14250338567      0.0259087646752     0.0940110701141     
3900000000.0        0.0266448745969     0.0963957157452     0.972063297091      -0.146166926531     0.972063297091      -0.146166926531     0.0266448745969     0.0963957157452     
4000000000.0        0.0273987017232     0.0987736130428     0.971243439617      -0.149823907875     0.971243439617      -0.149823907875     0.0273987017232     0.0987736130428     
4100000000.0        0.0281701761139     0.101144607004      0.97040427442       -0.153474177601     0.97040427442       -0.153474177601     0.0281701761139     0.101144607004      
4200000000.0        0.028959225737      0.103508543682      0.969545872276      -0.157117584627     0.969545872276      -0.157117584627     0.028959225737      0.103508543682      
4300000000.0        0.0297657765246     0.105865270208      0.968668305972      -0.160753978914     0.968668305972      -0.160753978914     0.0297657765246     0.105865270208      
4400000000.0        0.0305897524255     0.10821463482       0.967771650262      -0.164383211489     0.967771650262      -0.164383211489     0.0305897524255     0.10821463482       
4500000000.0        0.0314310754544     0.110556486881      0.966855981809      -0.168005134473     0.966855981809      -0.168005134473     0.0314310754544     0.110556486881      
4600000000.0        0.032289665738      0.112890676907      0.965921379143      -0.171619601102     0.965921379143      -0.171619601102     0.032289665738      0.112890676907      
4700000000.0        0.0331654415601     0.115217056585      0.964967922618      -0.175226465753     0.964967922618      -0.175226465753     0.0331654415601     0.115217056585      
4800000000.0        0.0340583194026     0.117535478799      0.963995694368      -0.178825583963     0.963995694368      -0.178825583963     0.0340583194026     0.117535478799      
4900000000.0        0.0349682139865     0.119845797647      0.963004778266      -0.182416812454     0.963004778266      -0.182416812454     0.0349682139865     0.119845797647      
5000000000.0        0.0358950383105     0.122147868464      0.961995259889      -0.186000009153     0.961995259889      -0.186000009153     0.0358950383105     0.122147868464      
5100000000.0        0.0368387036879     0.124441547841      0.960967226477      -0.189575033211     0.960967226477      -0.189575033211     0.0368387036879     0.124441547841      
5200000000.0        0.0377991197832     0.126726693645      0.9599207669        -0.193141745027     0.9599207669        -0.193141745027     0.0377991197832     0.126726693645      
5300000000.0        0.0387761946467     0.129003165037      0.95885597162       -0.196700006265     0.95885597162       -0.196700006265     0.0387761946467     0.129003165037      
5400000000.0        0.039769834749      0.131270822492      0.957772932659      -0.200249679872     0.957772932659      -0.200249679872     0.039769834749      0.131270822492      
5500000000.0        0.040779945014      0.133529527814      0.956671743568      -0.203790630099     0.956671743568      -0.203790630099     0.040779945014      0.133529527814      
5600000000.0        0.0418064288515     0.135779144157      0.95555249939       -0.207322722517     0.95555249939       -0.207322722517     0.0418064288515     0.135779144157      
5700000000.0        0.0428491881891     0.138019536038      0.95441529663       -0.210845824036     0.95441529663       -0.210845824036     0.0428491881891     0.138019536038      
5800000000.0        0.0439081235035     0.140250569357      0.953260233224      -0.21435980292      0.953260233224      -0.21435980292      0.0439081235035     0.140250569357      
5900000000.0        0.0449831338517     0.142472111408      0.952087408511      -0.217864528804     0.952087408511      -0.217864528804     0.0449831338517     0.142472111408      
6000000000.0        0.0460741169006     0.144684030901      0.950896923196      -0.22135987271      0.950896923196      -0.22135987271      0.0460741169006     0.144684030901      
6100000000.0        0.0471809689577     0.14688619797       0.949688879327      -0.224845707063     0.949688879327      -0.224845707063     0.0471809689577     0.14688619797       
6200000000.0        0.0483035850003     0.149078484191      0.948463380261      -0.228321905704     0.948463380261      -0.228321905704     0.0483035850003     0.149078484191      
6300000000.0        0.0494418587053     0.151260762595      0.947220530638      -0.231788343905     0.947220530638      -0.231788343905     0.0494418587053     0.151260762595      
6400000000.0        0.0505956824775     0.153432907682      0.945960436349      -0.235244898385     0.945960436349      -0.235244898385     0.0505956824775     0.153432907682      
6500000000.0        0.0517649474789     0.155594795432      0.944683204509      -0.238691447317     0.944683204509      -0.238691447317     0.0517649474789     0.155594795432      
6600000000.0        0.0529495436571     0.157746303319      0.943388943429      -0.24212787035      0.943388943429      -0.24212787035      0.0529495436571     0.157746303319      
6700000000.0        0.0541493597734     0.159887310323      0.942077762585      -0.245554048613     0.942077762585      -0.245554048613     0.0541493597734     0.159887310323      
6800000000.0        0.0553642834315     0.16201769694       0.940749772595      -0.248969864731     0.940749772595      -0.248969864731     0.0553642834315     0.16201769694       
6900000000.0        0.0565942011046     0.164137345195      0.939405085184      -0.252375202835     0.939405085184      -0.252375202835     0.0565942011046     0.164137345195      
7000000000.0        0.0578389981638     0.166246138649      0.938043813165      -0.255769948573     0.938043813165      -0.255769948573     0.0578389981638     0.166246138649      
7100000000.0        0.0590985589057     0.168343962414      0.936666070404      -0.259153989121     0.936666070404      -0.259153989121     0.0590985589057     0.168343962414      
7200000000.0        0.0603727665796     0.170430703156      0.935271971795      -0.262527213193     0.935271971795      -0.262527213193     0.0603727665796     0.170430703156      
7300000000.0        0.0616615034149     0.172506249112      0.933861633233      -0.265889511048     0.933861633233      -0.265889511048     0.0616615034149     0.172506249112      
7400000000.0        0.0629646506485     0.174570490092      0.93243517159       -0.269240774502     0.93243517159       -0.269240774502     0.0629646506485     0.174570490092      
7500000000.0        0.0642820885517     0.17662331749       0.930992704682      -0.272580896935     0.930992704682      -0.272580896935     0.0642820885517     0.17662331749       
7600000000.0        0.0656136964572     0.17866462429       0.929534351244      -0.275909773298     0.929534351244      -0.275909773298     0.0656136964572     0.17866462429       
7700000000.0        0.0669593527863     0.180694305077      0.928060230907      -0.279227300123     0.928060230907      -0.279227300123     0.0669593527863     0.180694305077      
7800000000.0        0.068318935075      0.182712256039      0.926570464166      -0.282533375528     0.926570464166      -0.282533375528     0.068318935075      0.182712256039      
7900000000.0        0.0696923200009     0.184718374977      0.925065172358      -0.285827899225     0.925065172358      -0.285827899225     0.0696923200009     0.184718374977      
8000000000.0        0.0710793834102     0.18671256131       0.923544477632      -0.289110772524     0.923544477632      -0.289110772524     0.0710793834102     0.18671256131       
8100000000.0        0.0724800003431     0.188694716077      0.922008502924      -0.292381898343     0.922008502924      -0.292381898343     0.0724800003431     0.188694716077      
8200000000.0        0.073894045061      0.190664741949      0.920457371931      -0.295641181207     0.920457371931      -0.295641181207     0.073894045061      0.190664741949      
8300000000.0        0.0753213910722     0.192622543227      0.918891209084      -0.298888527258     0.918891209084      -0.298888527258     0.0753213910722     0.192622543227      
8400000000.0        0.0767619111579     0.19456802585       0.917310139525      -0.30212384426      0.917310139525      -0.30212384426      0.0767619111579     0.19456802585       
8500000000.0        0.0782154773984     0.196501097395      0.915714289076      -0.305347041596     0.915714289076      -0.305347041596     0.0782154773984     0.196501097395      
8600000000.0        0.0796819611988     0.198421667087      0.914103784217      -0.30855803028      0.914103784217      -0.30855803028      0.0796819611988     0.198421667087      
8700000000.0        0.0811612333144     0.200329645794      0.91247875206       -0.311756722955     0.91247875206       -0.311756722955     0.0811612333144     0.200329645794      
8800000000.0        0.0826531638768     0.202224946036      0.910839320322      -0.314943033896     0.910839320322      -0.314943033896     0.0826531638768     0.202224946036      
8900000000.0        0.0841576224187     0.204107481981      0.9091856173        -0.318116879016     0.9091856173        -0.318116879016     0.0841576224187     0.204107481981      
9000000000.0        0.0856744778997     0.205977169453      0.907517771847      -0.321278175863     0.907517771847      -0.321278175863     0.0856744778997     0.205977169453      
9100000000.0        0.0872035987311     0.207833925927      0.905835913346      -0.324426843623     0.905835913346      -0.324426843623     0.0872035987311     0.207833925927      
9200000000.0        0.0887448528013     0.209677670537      0.904140171685      -0.327562803123     0.904140171685      -0.327562803123     0.0887448528013     0.209677670537      
9300000000.0        0.0902981075        0.211508324069      0.902430677231      -0.330685976831     0.902430677231      -0.330685976831     0.0902981075        0.211508324069      
9400000000.0        0.0918632297436     0.213325808966      0.900707560809      -0.333796288853     0.900707560809      -0.333796288853     0.0918632297436     0.213325808966      
9500000000.0        0.0934400859995     0.215130049324      0.898970953672      -0.336893664938     0.898970953672      -0.336893664938     0.0934400859995     0.215130049324      
9600000000.0        0.0950285423103     0.216920970897      0.897220987481      -0.339978032472     0.897220987481      -0.339978032472     0.0950285423103     0.216920970897      
9700000000.0        0.0966284643184     0.21869850109       0.89545779428       -0.343049320482     0.89545779428       -0.343049320482     0.0966284643184     0.21869850109       
9800000000.0        0.0982397172897     0.220462568959      0.89368150647       -0.346107459631     0.89368150647       -0.346107459631     0.0982397172897     0.220462568959      
9900000000.0        0.0998621661379     0.222213105213      0.891892256787      -0.34915238222      0.891892256787      -0.34915238222      0.0998621661379     0.222213105213      
10000000000.0       0.101495675448      0.223950042206      0.890090178278      -0.352184022181     0.890090178278      -0.352184022181     0.101495675448      0.223950042206      
