# Hz S RI R 50.00 
100000000.0         0.00334616735262    0.000579041619368   0.996651999916      -0.00123434289522   0.996651999916      -0.00123434289522   0.00334616735262    0.000579041619368   
200000000.0         0.00337017207184    0.00115799976099    0.996626732547      -0.00246860565447   0.996626732547      -0.00246860565447   0.00337017207184    0.00115799976099    
300000000.0         0.00338969042705    0.00173690321146    0.996605521605      -0.00370281918828   0.996605521605      -0.00370281918828   0.00338969042705    0.00173690321146    
400000000.0         0.00340762499064    0.00231575954851    0.996585464492      -0.00493699271065   0.996585464492      -0.00493699271065   0.00340762499064    0.00231575954851    
500000000.0         0.00342509456202    0.00289457141695    0.996565442383      -0.00617113025843   0.996565442383      -0.00617113025843   0.00342509456202    0.00289457141695    
600000000.0         0.00344267017194    0.00347333927843    0.996544884218      -0.00740523352599   0.996544884218      -0.00740523352599   0.00344267017194    0.00347333927843    
700000000.0         0.00346068938884    0.00405206239883    0.996523452397      -0.00863930289641   0.996523452397      -0.00863930289641   0.00346068938884    0.00405206239883    
800000000.0         0.00347937106348    0.00463073930629    0.996500928034      -0.00987333792527   0.996500928034      -0.00987333792527   0.00347937106348    0.00463073930629    
900000000.0         0.00349886643303    0.00520936803712    0.996477159854      -0.0111073376035    0.996477159854      -0.0111073376035    0.00349886643303    0.00520936803712    
1000000000.0        0.00351928503157    0.00578794628109    0.996452038283      -0.012341300515     0.996452038283      -0.012341300515     0.00351928503157    0.00578794628109    
1100000000.0        0.00354070909703    0.00636647147393    0.996425481041      -0.0135752249376    0.996425481041      -0.0135752249376    0.00354070909703    0.00636647147393    
1200000000.0        0.00356320215807    0.00694494085897    0.996397424556      -0.0148091089119    0.996397424556      -0.0148091089119    0.00356320215807    0.00694494085897    
1300000000.0        0.00358681443784    0.00752335153025    0.996367818557      -0.0160429502891    0.996367818557      -0.0160429502891    0.00358681443784    0.00752335153025    
1400000000.0        0.00361158640672    0.0081017004636     0.996336622525      -0.0172767467668    0.996336622525      -0.0172767467668    0.00361158640672    0.0081017004636     
1500000000.0        0.00363755120375    0.00867998453965    0.99630380327       -0.0185104959154    0.99630380327       -0.0185104959154    0.00363755120375    0.00867998453965    
1600000000.0        0.00366473633774    0.00925820056131    0.996269333231      -0.0197441951983    0.996269333231      -0.0197441951983    0.00366473633774    0.00925820056131    
1700000000.0        0.00369316491339    0.00983634526729    0.996233189248      -0.0209778419879    0.996233189248      -0.0209778419879    0.00369316491339    0.00983634526729    
1800000000.0        0.00372285653495    0.0104144153428     0.99619535166       -0.0222114335787    0.99619535166       -0.0222114335787    0.00372285653495    0.0104144153428     
1900000000.0        0.00375382798516    0.010992407428      0.996155803626      -0.0234449671971    0.996155803626      -0.0234449671971    0.00375382798516    0.010992407428      
2000000000.0        0.00378609374406    0.0115703181249     0.996114530606      -0.0246784400103    0.996114530606      -0.0246784400103    0.00378609374406    0.0115703181249     
2100000000.0        0.00381966639156    0.0121481440031     0.996071519958      -0.025911849133     0.996071519958      -0.025911849133     0.00381966639156    0.0121481440031     
2200000000.0        0.00385455692392    0.0127258816044     0.996026760623      -0.0271451916336    0.996026760623      -0.0271451916336    0.00385455692392    0.0127258816044     
2300000000.0        0.00389077500562    0.0133035274464     0.995980242869      -0.0283784645388    0.995980242869      -0.0283784645388    0.00389077500562    0.0133035274464     
2400000000.0        0.00392832917201    0.0138810780266     0.995931958096      -0.0296116648383    0.995931958096      -0.0296116648383    0.00392832917201    0.0138810780266     
2500000000.0        0.00396722699394    0.0144585298242     0.995881898663      -0.0308447894882    0.995881898663      -0.0308447894882    0.00396722699394    0.0144585298242     
2600000000.0        0.00400747521282    0.0150358793031     0.99583005776       -0.0320778354141    0.99583005776       -0.0320778354141    0.00400747521282    0.0150358793031     
2700000000.0        0.00404907985215    0.015613122914      0.995776429291      -0.0333107995141    0.995776429291      -0.0333107995141    0.00404907985215    0.015613122914      
2800000000.0        0.0040920463105     0.0161902570958     0.995721007785      -0.0345436786611    0.995721007785      -0.0345436786611    0.0040920463105     0.0161902570958     
2900000000.0        0.0041363794395     0.0167672782773     0.995663788315      -0.035776469705     0.995663788315      -0.035776469705     0.0041363794395     0.0167672782773     
3000000000.0        0.00418208360965    0.0173441828786     0.995604766436      -0.0370091694746    0.995604766436      -0.0370091694746    0.00418208360965    0.0173441828786     
3100000000.0        0.00422916276624    0.0179209673124     0.995543938126      -0.0382417747792    0.995543938126      -0.0382417747792    0.00422916276624    0.0179209673124     
3200000000.0        0.0042776204771     0.0184976279847     0.995481299736      -0.0394742824103    0.995481299736      -0.0394742824103    0.0042776204771     0.0184976279847     
3300000000.0        0.00432745997359    0.0190741612962     0.995416847958      -0.0407066891427    0.995416847958      -0.0407066891427    0.00432745997359    0.0190741612962     
3400000000.0        0.00437868418598    0.0196505636426     0.995350579778      -0.041938991736     0.995350579778      -0.041938991736     0.00437868418598    0.0196505636426     
3500000000.0        0.00443129577412    0.0202268314159     0.995282492455      -0.0431711869356    0.995282492455      -0.0431711869356    0.00443129577412    0.0202268314159     
3600000000.0        0.00448529715408    0.0208029610043     0.995212583488      -0.0444032714738    0.995212583488      -0.0444032714738    0.00448529715408    0.0208029610043     
3700000000.0        0.00454069052152    0.0213789487938     0.995140850598      -0.0456352420703    0.995140850598      -0.0456352420703    0.00454069052152    0.0213789487938     
3800000000.0        0.00459747787209    0.0219547911679     0.995067291703      -0.0468670954338    0.995067291703      -0.0468670954338    0.00459747787209    0.0219547911679     
3900000000.0        0.00465566101949    0.0225304845082     0.994991904901      -0.048098828262     0.994991904901      -0.048098828262     0.00465566101949    0.0225304845082     
4000000000.0        0.00471524161136    0.0231060251955     0.994914688456      -0.049330437243     0.994914688456      -0.049330437243     0.00471524161136    0.0231060251955     
4100000000.0        0.00477622114335    0.0236814096092     0.994835640783      -0.0505619190554    0.994835640783      -0.0505619190554    0.00477622114335    0.0236814096092     
4200000000.0        0.00483860097172    0.0242566341284     0.994754760435      -0.0517932703691    0.994754760435      -0.0517932703691    0.00483860097172    0.0242566341284     
4300000000.0        0.00490238232444    0.0248316951321     0.994672046092      -0.0530244878461    0.994672046092      -0.0530244878461    0.00490238232444    0.0248316951321     
4400000000.0        0.00496756631123    0.0254065889992     0.994587496552      -0.0542555681407    0.994587496552      -0.0542555681407    0.00496756631123    0.0254065889992     
4500000000.0        0.0050341539325     0.0259813121091     0.994501110719      -0.0554865079001    0.994501110719      -0.0554865079001    0.0050341539325     0.0259813121091     
4600000000.0        0.0051021460874     0.0265558608418     0.9944128876        -0.0567173037647    0.9944128876        -0.0567173037647    0.0051021460874     0.0265558608418     
4700000000.0        0.00517154358104    0.0271302315781     0.994322826294      -0.057947952369     0.994322826294      -0.057947952369     0.00517154358104    0.0271302315781     
4800000000.0        0.00524234713107    0.0277044207        0.994230925985      -0.0591784503415    0.994230925985      -0.0591784503415    0.00524234713107    0.0277044207        
4900000000.0        0.00531455737358    0.0282784245907     0.99413718594       -0.0604087943052    0.99413718594       -0.0604087943052    0.00531455737358    0.0282784245907     
5000000000.0        0.00538817486846    0.0288522396349     0.994041605499      -0.0616389808781    0.994041605499      -0.0616389808781    0.00538817486846    0.0288522396349     
5100000000.0        0.0054632001043     0.029425862219      0.993944184074      -0.0628690066734    0.993944184074      -0.0628690066734    0.0054632001043     0.029425862219      
5200000000.0        0.00553963350281    0.0299992887312     0.993844921141      -0.0640988682998    0.993844921141      -0.0640988682998    0.00553963350281    0.0299992887312     
5300000000.0        0.00561747542287    0.0305725155615     0.993743816241      -0.0653285623618    0.993743816241      -0.0653285623618    0.00561747542287    0.0305725155615     
5400000000.0        0.00569672616423    0.0311455391022     0.99364086897       -0.06655808546      0.99364086897       -0.06655808546      0.00569672616423    0.0311455391022     
5500000000.0        0.0057773859709     0.0317183557477     0.99353607898       -0.0677874341916    0.99353607898       -0.0677874341916    0.0057773859709     0.0317183557477     
5600000000.0        0.00585945503422    0.0322909618947     0.993429445976      -0.0690166051501    0.993429445976      -0.0690166051501    0.00585945503422    0.0322909618947     
5700000000.0        0.00594293349577    0.0328633539426     0.993320969709      -0.0702455949261    0.993320969709      -0.0702455949261    0.00594293349577    0.0328633539426     
5800000000.0        0.00602782144992    0.0334355282932     0.99321064998       -0.071474400107     0.99321064998       -0.071474400107     0.00602782144992    0.0334355282932     
5900000000.0        0.00611411894629    0.0340074813509     0.993098486632      -0.0727030172778    0.993098486632      -0.0727030172778    0.00611411894629    0.0340074813509     
6000000000.0        0.00620182599195    0.0345792095229     0.992984479548      -0.0739314430208    0.992984479548      -0.0739314430208    0.00620182599195    0.0345792095229     
6100000000.0        0.00629094255349    0.0351507092195     0.992868628653      -0.075159673916     0.992868628653      -0.075159673916     0.00629094255349    0.0351507092195     
6200000000.0        0.00638146855889    0.0357219768536     0.99275093391       -0.0763877065414    0.99275093391       -0.0763877065414    0.00638146855889    0.0357219768536     
6300000000.0        0.00647340389932    0.0362930088414     0.992631395316      -0.0776155374729    0.992631395316      -0.0776155374729    0.00647340389932    0.0362930088414     
6400000000.0        0.00656674843072    0.0368638016019     0.992510012905      -0.0788431632848    0.992510012905      -0.0788431632848    0.00656674843072    0.0368638016019     
6500000000.0        0.00666150197538    0.0374343515576     0.992386786741      -0.0800705805495    0.992386786741      -0.0800705805495    0.00666150197538    0.0374343515576     
6600000000.0        0.00675766432326    0.038004655134      0.992261716921      -0.0812977858383    0.992261716921      -0.0812977858383    0.00675766432326    0.038004655134      
6700000000.0        0.0068552352334     0.0385747087601     0.992134803573      -0.0825247757209    0.992134803573      -0.0825247757209    0.0068552352334     0.0385747087601     
6800000000.0        0.00695421443504    0.039144508868      0.992006046853      -0.083751546766     0.992006046853      -0.083751546766     0.00695421443504    0.039144508868      
6900000000.0        0.00705460162883    0.0397140518936     0.991875446945      -0.0849780955412    0.991875446945      -0.0849780955412    0.00705460162883    0.0397140518936     
7000000000.0        0.00715639648784    0.0402833342758     0.99174300406       -0.0862044186132    0.99174300406       -0.0862044186132    0.00715639648784    0.0402833342758     
7100000000.0        0.00725959865861    0.0408523524576     0.991608718434      -0.0874305125481    0.991608718434      -0.0874305125481    0.00725959865861    0.0408523524576     
7200000000.0        0.00736420776199    0.0414211028851     0.991472590329      -0.0886563739112    0.991472590329      -0.0886563739112    0.00736420776199    0.0414211028851     
7300000000.0        0.00747022339412    0.0419895820083     0.991334620031      -0.0898819992673    0.991334620031      -0.0898819992673    0.00747022339412    0.0419895820083     
7400000000.0        0.00757764512713    0.0425577862808     0.991194807849      -0.0911073851808    0.991194807849      -0.0911073851808    0.00757764512713    0.0425577862808     
7500000000.0        0.00768647251       0.0431257121601     0.991053154114      -0.0923325282159    0.991053154114      -0.0923325282159    0.00768647251       0.0431257121601     
7600000000.0        0.00779670506921    0.0436933561072     0.990909659179      -0.0935574249366    0.990909659179      -0.0935574249366    0.00779670506921    0.0436933561072     
7700000000.0        0.00790834230945    0.0442607145872     0.990764323419      -0.0947820719067    0.990764323419      -0.0947820719067    0.00790834230945    0.0442607145872     
7800000000.0        0.00802138371423    0.0448277840689     0.990617147228      -0.0960064656902    0.990617147228      -0.0960064656902    0.00802138371423    0.0448277840689     
7900000000.0        0.00813582874652    0.0453945610249     0.990468131022      -0.0972306028512    0.990468131022      -0.0972306028512    0.00813582874652    0.0453945610249     
8000000000.0        0.00825167684923    0.0459610419321     0.990317275235      -0.0984544799539    0.990317275235      -0.0984544799539    0.00825167684923    0.0459610419321     
8100000000.0        0.00836892744585    0.0465272232711     0.99016458032       -0.0996780935629    0.99016458032       -0.0996780935629    0.00836892744585    0.0465272232711     
8200000000.0        0.00848757994085    0.0470931015266     0.990010046748      -0.100901440243     0.990010046748      -0.100901440243     0.00848757994085    0.0470931015266     
8300000000.0        0.00860763372021    0.0476586731872     0.989853675008      -0.10212451656      0.989853675008      -0.10212451656      0.00860763372021    0.0476586731872     
8400000000.0        0.00872908815187    0.0482239347458     0.989695465607      -0.103347319081     0.989695465607      -0.103347319081     0.00872908815187    0.0482239347458     
8500000000.0        0.0088519425861     0.0487888826995     0.989535419069      -0.104569844371     0.989535419069      -0.104569844371     0.0088519425861     0.0487888826995     
8600000000.0        0.00897619635595    0.0493535135491     0.989373535935      -0.105792088998     0.989373535935      -0.105792088998     0.00897619635595    0.0493535135491     
8700000000.0        0.00910184877764    0.0499178238002     0.98920981676       -0.10701404953      0.98920981676       -0.10701404953      0.00910184877764    0.0499178238002     
8800000000.0        0.00922889915086    0.050481809962      0.989044262118      -0.108235722538     0.989044262118      -0.108235722538     0.00922889915086    0.050481809962      
8900000000.0        0.00935734675915    0.0510454685484     0.988876872597      -0.109457104591     0.988876872597      -0.109457104591     0.00935734675915    0.0510454685484     
9000000000.0        0.00948719087024    0.0516087960773     0.9887076488        -0.11067819226      0.9887076488        -0.11067819226      0.00948719087024    0.0516087960773     
9100000000.0        0.00961843073633    0.0521717890711     0.988536591346      -0.111898982118     0.988536591346      -0.111898982118     0.00961843073633    0.0521717890711     
9200000000.0        0.00975106559438    0.0527344440564     0.988363700867      -0.113119470738     0.988363700867      -0.113119470738     0.00975106559438    0.0527344440564     
9300000000.0        0.0098850946664     0.0532967575642     0.988188978012      -0.114339654695     0.988188978012      -0.114339654695     0.0098850946664     0.0532967575642     
9400000000.0        0.0100205171597     0.0538587261299     0.988012423442      -0.115559530566     0.988012423442      -0.115559530566     0.0100205171597     0.0538587261299     
9500000000.0        0.0101573322673     0.0544203462932     0.987834037832      -0.116779094929     0.987834037832      -0.116779094929     0.0101573322673     0.0544203462932     
9600000000.0        0.0102955391677     0.0549816145983     0.987653821872      -0.117998344361     0.987653821872      -0.117998344361     0.0102955391677     0.0549816145983     
9700000000.0        0.0104351370258     0.0555425275941     0.987471776265      -0.119217275445     0.987471776265      -0.119217275445     0.0104351370258     0.0555425275941     
9800000000.0        0.0105761249925     0.0561030818335     0.987287901726      -0.120435884761     0.987287901726      -0.120435884761     0.0105761249925     0.0561030818335     
9900000000.0        0.0107185022054     0.0566632738743     0.987102198984      -0.121654168894     0.987102198984      -0.121654168894     0.0107185022054     0.0566632738743     
10000000000.0       0.0108622677886     0.0572231002787     0.986914668782      -0.12287212443      0.986914668782      -0.12287212443      0.0108622677886     0.0572231002787     
