# Hz S RI R 50.00 
100000000.0         0.000160912088957   -0.00076159861864   0.999833617657      -0.00141653357455   0.999833617657      -0.00141653357455   0.000160912088957   -0.00076159861864   
200000000.0         0.000157729252513   -0.00152321749688   0.999827585356      -0.00283309732067   0.999827585356      -0.00283309732067   0.000157729252513   -0.00152321749688   
300000000.0         0.0001521027434     -0.0022848645089    0.999819251194      -0.00424970687151   0.999819251194      -0.00424970687151   0.0001521027434     -0.0022848645089    
400000000.0         0.000144173519196   -0.00304654421988   0.999808473379      -0.00566637234212   0.999808473379      -0.00566637234212   0.000144173519196   -0.00304654421988   
500000000.0         0.000133995425232   -0.00380825939637   0.999795197092      -0.00708310115021   0.999795197092      -0.00708310115021   0.000133995425232   -0.00380825939637   
600000000.0         0.000121595579012   -0.00457001158964   0.999779394125      -0.00849989895429   0.999779394125      -0.00849989895429   0.000121595579012   -0.00457001158964   
700000000.0         0.000106989708433   -0.00533180144418   0.999761047568      -0.00991677012787   0.999761047568      -0.00991677012787   0.000106989708433   -0.00533180144418   
800000000.0         9.01877472661e-05   -0.0060936288846    0.999740146223      -0.0113337180407    0.999740146223      -0.0113337180407    9.01877472661e-05   -0.0060936288846    
900000000.0         7.11963264011e-05   -0.00685549324109   0.99971668213       -0.0127507452441    0.99971668213       -0.0127507452441    7.11963264011e-05   -0.00685549324109   
1000000000.0        5.00200372764e-05   -0.00761739333857   0.999690649311      -0.0141678536012    0.999690649311      -0.0141678536012    5.00200372764e-05   -0.00761739333857   
1100000000.0        2.66621348481e-05   -0.00837932756312   0.999662043075      -0.015585044383     0.999662043075      -0.015585044383     2.66621348481e-05   -0.00837932756312   
1200000000.0        1.12495725824e-06   -0.00914129391343   0.999630859608      -0.0170023183421    0.999630859608      -0.0170023183421    1.12495725846e-06   -0.00914129391343   
1300000000.0        -2.65898094833e-05  -0.00990329004135   0.999597095715      -0.0184196757704    0.999597095715      -0.0184196757704    -2.65898094834e-05  -0.00990329004135   
1400000000.0        -5.64809569108e-05  -0.0106653132851    0.999560748652      -0.019837116546     0.999560748652      -0.019837116546     -5.64809569108e-05  -0.0106653132851    
1500000000.0        -8.85476345859e-05  -0.011427360697     0.99952181601       -0.0212546401721    0.99952181601       -0.0212546401721    -8.85476345858e-05  -0.011427360697     
1600000000.0        -0.00012278926567   -0.012189429066     0.999480295636      -0.0226722458086    0.999480295636      -0.0226722458086    -0.00012278926567   -0.012189429066     
1700000000.0        -0.000159205485674  -0.012951514938     0.999436185581      -0.0240899323001    0.999436185581      -0.0240899323001    -0.000159205485674  -0.012951514938     
1800000000.0        -0.000197796096929  -0.0137136146326    0.999389484051      -0.0255076981992    0.999389484051      -0.0255076981992    -0.000197796096929  -0.0137136146326    
1900000000.0        -0.000238561034048  -0.014475724258     0.999340189384      -0.0269255417868    0.999340189384      -0.0269255417868    -0.000238561034048  -0.014475724258     
2000000000.0        -0.000281500337236  -0.0152378397242    0.999288300023      -0.0283434610902    0.999288300023      -0.0283434610902    -0.000281500337236  -0.0152378397242    
2100000000.0        -0.000326614131315  -0.0159999567546    0.999233814499      -0.0297614538989    0.999233814499      -0.0297614538989    -0.000326614131315  -0.0159999567546    
2200000000.0        -0.000373902608976  -0.0167620708965    0.999176731419      -0.0311795177787    0.999176731419      -0.0311795177787    -0.000373902608976  -0.0167620708965    
2300000000.0        -0.000423366017241  -0.0175241775305    0.999117049454      -0.0325976500843    0.999117049454      -0.0325976500843    -0.00042336601724   -0.0175241775305    
2400000000.0        -0.000475004646362  -0.0182862718788    0.999054767333      -0.0340158479708    0.999054767333      -0.0340158479708    -0.000475004646362  -0.0182862718788    
2500000000.0        -0.000528818820616  -0.0190483490134    0.998989883833      -0.0354341084041    0.998989883833      -0.0354341084041    -0.000528818820616  -0.0190483490134    
2600000000.0        -0.0005848088906    -0.0198104038627    0.998922397779      -0.03685242817      0.998922397779      -0.03685242817      -0.0005848088906    -0.0198104038627    
2700000000.0        -0.00064297522669   -0.0205724312187    0.998852308036      -0.0382708038835    0.998852308036      -0.0382708038835    -0.00064297522669   -0.0205724312187    
2800000000.0        -0.000703318213469  -0.0213344257423    0.998779613506      -0.0396892319962    0.998779613506      -0.0396892319962    -0.000703318213469  -0.0213344257423    
2900000000.0        -0.000765838244907  -0.0220963819695    0.998704313129      -0.0411077088037    0.998704313129      -0.0411077088037    -0.000765838244907  -0.0220963819695    
3000000000.0        -0.000830535720186  -0.0228582943163    0.998626405877      -0.0425262304526    0.998626405877      -0.0425262304526    -0.000830535720186  -0.0228582943163    
3100000000.0        -0.000897411040034  -0.0236201570836    0.998545890755      -0.043944792947     0.998545890755      -0.043944792947     -0.000897411040034  -0.0236201570836    
3200000000.0        -0.000966464603496  -0.024381964462     0.998462766798      -0.0453633921537    0.998462766798      -0.0453633921537    -0.000966464603496  -0.024381964462     
3300000000.0        -0.00103769680506   -0.0251437105359    0.998377033073      -0.0467820238087    0.998377033073      -0.0467820238087    -0.00103769680506   -0.0251437105359    
3400000000.0        -0.00111110803211   -0.0259053892875    0.998288688674      -0.0482006835215    0.998288688674      -0.0482006835215    -0.00111110803211   -0.0259053892875    
3500000000.0        -0.0011866986626    -0.0266669946007    0.998197732725      -0.0496193667805    0.998197732725      -0.0496193667805    -0.0011866986626    -0.0266669946007    
3600000000.0        -0.001264469063     -0.0274285202646    0.998104164379      -0.0510380689575    0.998104164379      -0.0510380689575    -0.001264469063     -0.0274285202646    
3700000000.0        -0.00134441958639   -0.0281899599772    0.998007982816      -0.0524567853117    0.998007982816      -0.0524567853117    -0.00134441958639   -0.0281899599772    
3800000000.0        -0.00142655057075   -0.0289513073481    0.997909187244      -0.0538755109943    0.997909187244      -0.0538755109943    -0.00142655057075   -0.0289513073481    
3900000000.0        -0.00151086233739   -0.0297125559022    0.997807776901      -0.0552942410522    0.997807776901      -0.0552942410522    -0.00151086233739   -0.0297125559022    
4000000000.0        -0.00159735518947   -0.0304736990823    0.997703751051      -0.0567129704315    0.997703751051      -0.0567129704315    -0.00159735518947   -0.0304736990823    
4100000000.0        -0.0016860294107    -0.031234730252     0.997597108987      -0.0581316939811    0.997597108987      -0.0581316939811    -0.0016860294107    -0.031234730252     
4200000000.0        -0.0017768852641    -0.0319956426983    0.997487850029      -0.0595504064565    0.997487850029      -0.0595504064565    -0.0017768852641    -0.0319956426983    
4300000000.0        -0.00186992299081   -0.0327564296341    0.997375973528      -0.0609691025222    0.997375973528      -0.0609691025222    -0.00186992299081   -0.0327564296341    
4400000000.0        -0.00196514280908   -0.0335170842012    0.99726147886       -0.0623877767555    0.99726147886       -0.0623877767555    -0.00196514280908   -0.0335170842012    
4500000000.0        -0.00206254491322   -0.0342775994719    0.997144365433      -0.0638064236488    0.997144365433      -0.0638064236488    -0.00206254491322   -0.0342775994719    
4600000000.0        -0.00216212947269   -0.0350379684519    0.997024632682      -0.065225037613     0.997024632682      -0.065225037613     -0.00216212947269   -0.0350379684519    
4700000000.0        -0.00226389663122   -0.0357981840819    0.996902280073      -0.0666436129797    0.996902280073      -0.0666436129797    -0.00226389663122   -0.0357981840819    
4800000000.0        -0.00236784650598   -0.0365582392403    0.996777307098      -0.0680621440041    0.996777307098      -0.0680621440041    -0.00236784650598   -0.0365582392403    
4900000000.0        -0.00247397918682   -0.0373181267451    0.996649713284      -0.0694806248673    0.996649713284      -0.0694806248673    -0.00247397918682   -0.0373181267451    
5000000000.0        -0.00258229473551   -0.0380778393555    0.996519498182      -0.0708990496787    0.996519498182      -0.0708990496787    -0.00258229473551   -0.0380778393555    
5100000000.0        -0.00269279318508   -0.0388373697741    0.996386661379      -0.0723174124786    0.996386661379      -0.0723174124786    -0.00269279318508   -0.0388373697741    
5200000000.0        -0.00280547453912   -0.0395967106488    0.996251202489      -0.0737357072399    0.996251202489      -0.0737357072399    -0.00280547453912   -0.0395967106488    
5300000000.0        -0.00292033877123   -0.0403558545742    0.996113121158      -0.0751539278708    0.996113121158      -0.0751539278708    -0.00292033877123   -0.0403558545742    
5400000000.0        -0.00303738582437   -0.0411147940938    0.995972417063      -0.0765720682163    0.995972417063      -0.0765720682163    -0.00303738582437   -0.0411147940938    
5500000000.0        -0.00315661561032   -0.0418735217015    0.995829089912      -0.0779901220609    0.995829089912      -0.0779901220609    -0.00315661561032   -0.0418735217015    
5600000000.0        -0.00327802800917   -0.0426320298429    0.995683139445      -0.0794080831297    0.995683139445      -0.0794080831297    -0.00327802800917   -0.0426320298429    
5700000000.0        -0.0034016228688    -0.0433903109173    0.995534565434      -0.0808259450911    0.995534565434      -0.0808259450911    -0.0034016228688    -0.0433903109173    
5800000000.0        -0.00352740000441   -0.044148357279     0.995383367684      -0.0822437015582    0.995383367684      -0.0822437015582    -0.00352740000441   -0.044148357279     
5900000000.0        -0.00365535919804   -0.0449061612389    0.995229546031      -0.0836613460903    0.995229546031      -0.0836613460903    -0.00365535919804   -0.0449061612389    
6000000000.0        -0.00378550019816   -0.0456637150658    0.995073100344      -0.0850788721952    0.995073100344      -0.0850788721952    -0.00378550019816   -0.0456637150658    
6100000000.0        -0.00391782271925   -0.0464210109879    0.994914030527      -0.0864962733306    0.994914030527      -0.0864962733306    -0.00391782271925   -0.0464210109879    
6200000000.0        -0.00405232644142   -0.0471780411941    0.994752336513      -0.0879135429056    0.994752336513      -0.0879135429056    -0.00405232644142   -0.0471780411941    
6300000000.0        -0.00418901101      -0.0479347978353    0.994588018274      -0.0893306742823    0.994588018274      -0.0893306742823    -0.00418901101      -0.0479347978353    
6400000000.0        -0.00432787603521   -0.0486912730261    0.994421075811      -0.0907476607776    0.994421075811      -0.0907476607776    -0.00432787603521   -0.0486912730261    
6500000000.0        -0.0044689210918    -0.0494474588453    0.994251509161      -0.0921644956642    0.994251509161      -0.0921644956642    -0.0044689210918    -0.0494474588453    
6600000000.0        -0.00461214571875   -0.0502033473377    0.994079318395      -0.0935811721724    0.994079318395      -0.0935811721724    -0.00461214571875   -0.0502033473377    
6700000000.0        -0.00475754941892   -0.0509589305153    0.993904503618      -0.0949976834917    0.993904503618      -0.0949976834917    -0.00475754941892   -0.0509589305153    
6800000000.0        -0.0049051316588    -0.0517142003582    0.993727064969      -0.0964140227716    0.993727064969      -0.0964140227716    -0.0049051316588    -0.0517142003582    
6900000000.0        -0.00505489186817   -0.0524691488159    0.993547002624      -0.0978301831232    0.993547002624      -0.0978301831232    -0.00505489186817   -0.0524691488159    
7000000000.0        -0.0052068294399    -0.0532237678083    0.993364316792      -0.0992461576207    0.993364316792      -0.0992461576207    -0.0052068294399    -0.0532237678083    
7100000000.0        -0.00536094372962   -0.0539780492269    0.993179007717      -0.100661939302     0.993179007717      -0.100661939302     -0.00536094372962   -0.0539780492269    
7200000000.0        -0.00551723405554   -0.0547319849361    0.992991075678      -0.102077521172     0.992991075678      -0.102077521172     -0.00551723405554   -0.0547319849361    
7300000000.0        -0.00567569969816   -0.0554855667736    0.992800520993      -0.1034928962       0.992800520993      -0.1034928962       -0.00567569969816   -0.0554855667736    
7400000000.0        -0.0058363399001    -0.0562387865522    0.99260734401       -0.104908057325     0.99260734401       -0.104908057325     -0.0058363399001    -0.0562387865522    
7500000000.0        -0.00599915386586   -0.05699163606      0.992411545118      -0.106322997454     0.992411545118      -0.106322997454     -0.00599915386586   -0.05699163606      
7600000000.0        -0.00616414076161   -0.0577441070622    0.992213124739      -0.107737709464     0.992213124739      -0.107737709464     -0.00616414076161   -0.0577441070622    
7700000000.0        -0.00633129971502   -0.0584961913014    0.992012083331      -0.109152186204     0.992012083331      -0.109152186204     -0.00633129971502   -0.0584961913014    
7800000000.0        -0.00650062981509   -0.0592478804989    0.991808421391      -0.110566420495     0.991808421391      -0.110566420495     -0.00650062981509   -0.0592478804989    
7900000000.0        -0.00667213011194   -0.0599991663555    0.991602139448      -0.11198040513      0.991602139448      -0.11198040513      -0.00667213011194   -0.0599991663555    
8000000000.0        -0.00684579961668   -0.0607500405524    0.991393238072      -0.11339413288      0.991393238072      -0.11339413288      -0.00684579961668   -0.0607500405524    
8100000000.0        -0.00702163730124   -0.0615004947521    0.991181717866      -0.114807596487     0.991181717866      -0.114807596487     -0.00702163730124   -0.0615004947521    
8200000000.0        -0.00719964209824   -0.0622505205991    0.990967579472      -0.116220788671     0.990967579472      -0.116220788671     -0.00719964209824   -0.0622505205991    
8300000000.0        -0.00737981290083   -0.0630001097213    0.990750823569      -0.117633702132     0.990750823569      -0.117633702132     -0.00737981290083   -0.0630001097213    
8400000000.0        -0.0075621485626    -0.06374925373      0.99053145087       -0.119046329544     0.99053145087       -0.119046329544     -0.0075621485626    -0.06374925373      
8500000000.0        -0.0077466478974    -0.0644979442216    0.990309462129      -0.120458663564     0.990309462129      -0.120458663564     -0.0077466478974    -0.0644979442216    
8600000000.0        -0.00793330967931   -0.0652461727775    0.990084858133      -0.121870696826     0.990084858133      -0.121870696826     -0.00793330967931   -0.0652461727775    
8700000000.0        -0.00812213264245   -0.0659939309658    0.98985763971       -0.123282421946     0.98985763971       -0.123282421946     -0.00812213264245   -0.0659939309658    
8800000000.0        -0.00831311548092   -0.0667412103414    0.989627807724      -0.124693831524     0.989627807724      -0.124693831524     -0.00831311548092   -0.0667412103414    
8900000000.0        -0.00850625684873   -0.0674880024469    0.989395363075      -0.12610491814      0.989395363075      -0.12610491814      -0.00850625684873   -0.0674880024469    
9000000000.0        -0.00870155535966   -0.0682342988136    0.989160306701      -0.127515674359     0.989160306701      -0.127515674359     -0.00870155535966   -0.0682342988136    
9100000000.0        -0.00889900958723   -0.068980090962     0.988922639579      -0.128926092731     0.988922639579      -0.128926092731     -0.00889900958723   -0.068980090962     
9200000000.0        -0.00909861806462   -0.0697253704026    0.988682362721      -0.130336165789     0.988682362721      -0.130336165789     -0.00909861806462   -0.0697253704026    
9300000000.0        -0.00930037928457   -0.0704701286366    0.988439477179      -0.131745886053     0.988439477179      -0.131745886053     -0.00930037928457   -0.0704701286366    
9400000000.0        -0.00950429169936   -0.0712143571565    0.988193984042      -0.133155246032     0.988193984042      -0.133155246032     -0.00950429169936   -0.0712143571565    
9500000000.0        -0.00971035372074   -0.071958047447     0.987945884436      -0.13456423822      0.987945884436      -0.13456423822      -0.00971035372074   -0.071958047447     
9600000000.0        -0.00991856371989   -0.0727011909855    0.987695179524      -0.1359728551       0.987695179524      -0.1359728551       -0.00991856371989   -0.0727011909855    
9700000000.0        -0.0101289200274    -0.0734437792427    0.987441870509      -0.137381089144     0.987441870509      -0.137381089144     -0.0101289200274    -0.0734437792427    
9800000000.0        -0.010341420933     -0.0741858036835    0.987185958629      -0.138788932814     0.987185958629      -0.138788932814     -0.010341420933     -0.0741858036835    
9900000000.0        -0.0105560646861    -0.0749272557673    0.986927445162      -0.140196378563     0.986927445162      -0.140196378563     -0.0105560646861    -0.0749272557673    
10000000000.0       -0.0107728494951    -0.0756681269491    0.986666331424      -0.141603418834     0.986666331424      -0.141603418834     -0.0107728494951    -0.0756681269491    
