# Hz S RI R 50.00 
100000000.0         0.00104418758579    -0.000578870707833  0.998948829088      -0.00205017465853   0.998948829088      -0.00205017465853   0.00104418758579    -0.000578870707833  
200000000.0         0.00104637913639    -0.00115775410361   0.998933739795      -0.00410032604528   0.998933739795      -0.00410032604528   0.00104637913639    -0.00115775410361   
300000000.0         0.00104435932406    -0.00173663644662   0.99891594731       -0.00615045853569   0.99891594731       -0.00615045853569   0.00104435932406    -0.00173663644662   
400000000.0         0.00103903481768    -0.00231550830876   0.998894544824      -0.00820056929045   0.998894544824      -0.00820056929045   0.00103903481768    -0.00231550830876   
500000000.0         0.00103075439019    -0.00289436097534   0.998869183434      -0.0102506533022    0.998869183434      -0.0102506533022    0.00103075439019    -0.00289436097534   
600000000.0         0.00101969571761    -0.00347318593392   0.998839685353      -0.0123007044141    0.998839685353      -0.0123007044141    0.00101969571761    -0.00347318593392   
700000000.0         0.00100596365226    -0.00405197471874   0.998805945644      -0.0143507157334    0.998805945644      -0.0143507157334    0.00100596365226    -0.00405197471874   
800000000.0         0.000989626070786   -0.00463071885143   0.998767896376      -0.0164006798453    0.998767896376      -0.0164006798453    0.000989626070786   -0.00463071885143   
900000000.0         0.000970729827583   -0.00520940981615   0.998725490675      -0.0184505889395    0.998725490675      -0.0184505889395    0.000970729827583   -0.00520940981615   
1000000000.0        0.00094930883747    -0.00578803904902   0.998678694646      -0.020500434892     0.998678694646      -0.020500434892     0.00094930883747    -0.00578803904902   
1100000000.0        0.000925388566736   -0.00636659793428   0.998627482885      -0.0225502093219    0.998627482885      -0.0225502093219    0.000925388566736   -0.00636659793428   
1200000000.0        0.000898988708119   -0.00694507780335   0.998571835804      -0.0245999036319    0.998571835804      -0.0245999036319    0.000898988708119   -0.00694507780335   
1300000000.0        0.000870124863097   -0.00752346993578   0.998511737954      -0.0266495090397    0.998511737954      -0.0266495090397    0.000870124863097   -0.00752346993578   
1400000000.0        0.000838809647297   -0.00810176556075   0.998447176922      -0.0286990166012    0.998447176922      -0.0286990166012    0.000838809647297   -0.00810176556075   
1500000000.0        0.000805053443493   -0.00867995585913   0.998378142577      -0.0307484172302    0.998378142577      -0.0307484172302    0.000805053443492   -0.00867995585913   
1600000000.0        0.000768864930333   -0.00925803196543   0.998304626545      -0.032797701713     0.998304626545      -0.032797701713     0.000768864930333   -0.00925803196543   
1700000000.0        0.000730251463294   -0.00983598496993   0.99822662183       -0.0348468607214    0.99822662183       -0.0348468607214    0.000730251463293   -0.00983598496993   
1800000000.0        0.000689219355321   -0.0104138059208    0.998144122531      -0.0368958848235    0.998144122531      -0.0368958848235    0.000689219355321   -0.0104138059208    
1900000000.0        0.000645774087636   -0.010991485826     0.99805712364       -0.0389447644922    0.99805712364       -0.0389447644922    0.000645774087636   -0.010991485826     
2000000000.0        0.000599920470793   -0.0115690156551    0.997965620875      -0.040993490113     0.997965620875      -0.040993490113     0.000599920470793   -0.0115690156551    
2100000000.0        0.000551662769623   -0.0121463863413    0.997869610559      -0.0430420519911    0.997869610559      -0.0430420519911    0.000551662769623   -0.0121463863413    
2200000000.0        0.000501004801458   -0.0127235887826    0.997769089525      -0.0450904403566    0.997769089525      -0.0450904403566    0.000501004801458   -0.0127235887826    
2300000000.0        0.000447950014322   -0.0133006138441    0.997664055034      -0.0471386453701    0.997664055034      -0.0471386453701    0.000447950014322   -0.0133006138441    
2400000000.0        0.00039250154984    -0.0138774523586    0.997554504719      -0.049186657127     0.997554504719      -0.049186657127     0.00039250154984    -0.0138774523586    
2500000000.0        0.000334662294365   -0.014454095129     0.997440436527      -0.0512344656617    0.997440436527      -0.0512344656617    0.000334662294365   -0.014454095129     
2600000000.0        0.000274434920924   -0.0150305329286    0.997321848688      -0.0532820609511    0.997321848688      -0.0532820609511    0.000274434920923   -0.0150305329286    
2700000000.0        0.000211821923906   -0.0156067565032    0.997198739673      -0.0553294329181    0.997198739673      -0.0553294329181    0.000211821923906   -0.0156067565032    
2800000000.0        0.00014682564798    -0.0161827565718    0.997071108167      -0.0573765714343    0.997071108167      -0.0573765714343    0.00014682564798    -0.0161827565718    
2900000000.0        7.94483123603e-05   -0.0167585238279    0.996938953051      -0.0594234663232    0.996938953051      -0.0594234663232    7.94483123603e-05   -0.0167585238279    
3000000000.0        9.69203132817e-06   -0.0173340489406    0.996802273375      -0.0614701073623    0.996802273375      -0.0614701073623    9.69203132817e-06   -0.0173340489406    
3100000000.0        -6.2441168333e-05   -0.0179093225554    0.996661068347      -0.0635164842856    0.996661068347      -0.0635164842856    -6.24411683331e-05  -0.0179093225554    
3200000000.0        -0.000136949332418  -0.0184843352955    0.996515337314      -0.0655625867856    0.996515337314      -0.0655625867856    -0.000136949332418  -0.0184843352955    
3300000000.0        -0.00021383056648   -0.0190590777625    0.996365079755      -0.0676084045157    0.996365079755      -0.0676084045157    -0.000213830566479  -0.0190590777625    
3400000000.0        -0.000293083024744  -0.0196335405374    0.996210295265      -0.0696539270912    0.996210295265      -0.0696539270912    -0.000293083024744  -0.0196335405374    
3500000000.0        -0.000374704900492  -0.0202077141814    0.99605098355       -0.0716991440921    0.99605098355       -0.0716991440921    -0.000374704900491  -0.0202077141814    
3600000000.0        -0.000458694417669  -0.0207815892367    0.995887144418      -0.0737440450637    0.995887144418      -0.0737440450637    -0.000458694417669  -0.0207815892367    
3700000000.0        -0.000545049823538  -0.0213551562273    0.995718777771      -0.0757886195189    0.995718777771      -0.0757886195189    -0.000545049823538  -0.0213551562273    
3800000000.0        -0.000633769382219  -0.0219284056601    0.995545883602      -0.0778328569392    0.995545883602      -0.0778328569392    -0.000633769382219  -0.0219284056601    
3900000000.0        -0.000724851368985  -0.022501328025     0.995368461987      -0.079876746776     0.995368461987      -0.079876746776     -0.000724851368985  -0.022501328025     
4000000000.0        -0.000818294065218  -0.0230739137962    0.99518651308       -0.0819202784523    0.99518651308       -0.0819202784523    -0.000818294065218  -0.0230739137962    
4100000000.0        -0.000914095753917  -0.0236461534324    0.995000037112      -0.0839634413634    0.995000037112      -0.0839634413634    -0.000914095753917  -0.0236461534324    
4200000000.0        -0.0010122547157    -0.0242180373781    0.994809034385      -0.0860062248783    0.994809034385      -0.0860062248783    -0.0010122547157    -0.0242180373781    
4300000000.0        -0.00111276922522   -0.0247895560635    0.99461350527       -0.0880486183408    0.99461350527       -0.0880486183408    -0.00111276922522   -0.0247895560635    
4400000000.0        -0.00121563754796   -0.0253606999058    0.994413450205      -0.0900906110707    0.994413450205      -0.0900906110707    -0.00121563754796   -0.0253606999058    
4500000000.0        -0.00132085793736   -0.0259314593093    0.994208869688      -0.0921321923642    0.994208869688      -0.0921321923642    -0.00132085793736   -0.0259314593093    
4600000000.0        -0.0014284286322    -0.0265018246665    0.993999764283      -0.0941733514957    0.993999764283      -0.0941733514957    -0.0014284286322    -0.0265018246665    
4700000000.0        -0.00153834785423   -0.0270717863583    0.993786134608      -0.0962140777179    0.993786134608      -0.0962140777179    -0.00153834785423   -0.0270717863583    
4800000000.0        -0.00165061380607   -0.0276413347546    0.993567981343      -0.0982543602633    0.993567981343      -0.0982543602633    -0.00165061380607   -0.0276413347546    
4900000000.0        -0.00176522466928   -0.028210460215     0.99334530522       -0.100294188345     0.99334530522       -0.100294188345     -0.00176522466928   -0.028210460215     
5000000000.0        -0.00188217860254   -0.0287791530896    0.993118107029      -0.102333551156     0.993118107029      -0.102333551156     -0.00188217860254   -0.0287791530896    
5100000000.0        -0.00200147374011   -0.0293474037188    0.992886387611      -0.104372437874     0.992886387611      -0.104372437874     -0.00200147374011   -0.0293474037188    
5200000000.0        -0.00212310819033   -0.0299152024346    0.992650147858      -0.106410837656     0.992650147858      -0.106410837656     -0.00212310819033   -0.0299152024346    
5300000000.0        -0.00224708003426   -0.0304825395607    0.992409388716      -0.108448739646     0.992409388716      -0.108448739646     -0.00224708003426   -0.0304825395607    
5400000000.0        -0.00237338732446   -0.031049405413     0.992164111178      -0.110486132969     0.992164111178      -0.110486132969     -0.00237338732446   -0.031049405413     
5500000000.0        -0.00250202808387   -0.0316157903004    0.991914316289      -0.112523006738     0.991914316289      -0.112523006738     -0.00250202808387   -0.0316157903004    
5600000000.0        -0.00263300030474   -0.032181684525     0.99166000514       -0.114559350049     0.99166000514       -0.114559350049     -0.00263300030474   -0.032181684525     
5700000000.0        -0.00276630194768   -0.0327470783826    0.99140117887       -0.116595151985     0.99140117887       -0.116595151985     -0.00276630194768   -0.0327470783826    
5800000000.0        -0.00290193094077   -0.0333119621634    0.991137838666      -0.118630401616     0.991137838666      -0.118630401616     -0.00290193094077   -0.0333119621634    
5900000000.0        -0.00303988517875   -0.0338763261522    0.990869985761      -0.120665088001     0.990869985761      -0.120665088001     -0.00303988517875   -0.0338763261522    
6000000000.0        -0.00318016252223   -0.0344401606291    0.990597621434      -0.122699200184     0.990597621434      -0.122699200184     -0.00318016252223   -0.0344401606291    
6100000000.0        -0.00332276079699   -0.0350034558696    0.99032074701       -0.1247327272       0.99032074701       -0.1247327272       -0.00332276079699   -0.0350034558696    
6200000000.0        -0.00346767779337   -0.0355662021456    0.990039363857      -0.126765658073     0.990039363857      -0.126765658073     -0.00346767779337   -0.0355662021456    
6300000000.0        -0.0036149112656    -0.0361283897252    0.98975347339       -0.128797981815     0.98975347339       -0.128797981815     -0.0036149112656    -0.0361283897252    
6400000000.0        -0.00376445893128   -0.0366900088738    0.989463077067      -0.130829687431     0.989463077067      -0.130829687431     -0.00376445893128   -0.0366900088738    
6500000000.0        -0.00391631847083   -0.037251049854     0.98916817639       -0.132860763915     0.98916817639       -0.132860763915     -0.00391631847083   -0.037251049854     
6600000000.0        -0.004070487527     -0.0378115029262    0.988868772904      -0.134891200253     0.988868772904      -0.134891200253     -0.004070487527     -0.0378115029262    
6700000000.0        -0.00422696370442   -0.0383713583491    0.9885648682        -0.136920985424     0.9885648682        -0.136920985424     -0.00422696370442   -0.0383713583491    
6800000000.0        -0.00438574456919   -0.0389306063801    0.988256463908      -0.138950108396     0.988256463908      -0.138950108396     -0.00438574456919   -0.0389306063801    
6900000000.0        -0.00454682764845   -0.0394892372757    0.987943561704      -0.140978558134     0.987943561704      -0.140978558134     -0.00454682764845   -0.0394892372757    
7000000000.0        -0.00471021043002   -0.0400472412917    0.987626163305      -0.143006323594     0.987626163305      -0.143006323594     -0.00471021043002   -0.0400472412917    
7100000000.0        -0.00487589036207   -0.0406046086839    0.987304270471      -0.145033393727     0.987304270471      -0.145033393727     -0.00487589036207   -0.0406046086839    
7200000000.0        -0.00504386485275   -0.0411613297086    0.986977885004      -0.147059757478     0.986977885004      -0.147059757478     -0.00504386485275   -0.0411613297086    
7300000000.0        -0.00521413126995   -0.0417173946223    0.986647008748      -0.149085403786     0.986647008748      -0.149085403786     -0.00521413126995   -0.0417173946223    
7400000000.0        -0.00538668694096   -0.0422727936831    0.986311643589      -0.151110321586     0.986311643589      -0.151110321586     -0.00538668694096   -0.0422727936831    
7500000000.0        -0.00556152915223   -0.0428275171503    0.985971791454      -0.15313449981      0.985971791454      -0.15313449981      -0.00556152915223   -0.0428275171503    
7600000000.0        -0.00573865514914   -0.0433815552849    0.985627454312      -0.155157927383     0.985627454312      -0.155157927383     -0.00573865514914   -0.0433815552849    
7700000000.0        -0.00591806213572   -0.0439348983506    0.985278634173      -0.15718059323      0.985278634173      -0.15718059323      -0.00591806213572   -0.0439348983506    
7800000000.0        -0.00609974727445   -0.0444875366133    0.984925333091      -0.159202486271     0.984925333091      -0.159202486271     -0.00609974727445   -0.0444875366133    
7900000000.0        -0.00628370768611   -0.0450394603421    0.984567553157      -0.161223595423     0.984567553157      -0.161223595423     -0.00628370768611   -0.0450394603421    
8000000000.0        -0.00646994044949   -0.0455906598093    0.984205296505      -0.163243909603     0.984205296505      -0.163243909603     -0.00646994044949   -0.0455906598093    
8100000000.0        -0.00665844260131   -0.0461411252912    0.983838565311      -0.165263417725     0.983838565311      -0.165263417725     -0.00665844260131   -0.0461411252912    
8200000000.0        -0.00684921113599   -0.0466908470681    0.983467361789      -0.167282108701     0.983467361789      -0.167282108701     -0.00684921113599   -0.0466908470681    
8300000000.0        -0.00704224300553   -0.0472398154246    0.983091688198      -0.169299971444     0.983091688198      -0.169299971444     -0.00704224300553   -0.0472398154246    
8400000000.0        -0.00723753511936   -0.0477880206504    0.982711546833      -0.171316994863     0.982711546833      -0.171316994863     -0.00723753511936   -0.0477880206504    
8500000000.0        -0.00743508434419   -0.0483354530402    0.982326940033      -0.173333167871     0.982326940033      -0.173333167871     -0.00743508434419   -0.0483354530402    
8600000000.0        -0.00763488750391   -0.0488821028944    0.981937870177      -0.175348479379     0.981937870177      -0.175348479379     -0.00763488750391   -0.0488821028944    
8700000000.0        -0.00783694137945   -0.0494279605193    0.981544339682      -0.177362918299     0.981544339682      -0.177362918299     -0.00783694137945   -0.0494279605193    
8800000000.0        -0.00804124270872   -0.0499730162273    0.981146351007      -0.179376473544     0.981146351007      -0.179376473544     -0.00804124270872   -0.0499730162273    
8900000000.0        -0.00824778818644   -0.0505172603377    0.980743906654      -0.181389134028     0.980743906654      -0.181389134028     -0.00824778818644   -0.0505172603377    
9000000000.0        -0.00845657446412   -0.0510606831765    0.980337009159      -0.183400888667     0.980337009159      -0.183400888667     -0.00845657446412   -0.0510606831765    
9100000000.0        -0.00866759814995   -0.0516032750772    0.979925661105      -0.185411726379     0.979925661105      -0.185411726379     -0.00866759814995   -0.0516032750772    
9200000000.0        -0.00888085580871   -0.0521450263808    0.979509865109      -0.187421636085     0.979509865109      -0.187421636085     -0.00888085580871   -0.0521450263808    
9300000000.0        -0.00909634396171   -0.0526859274365    0.979089623833      -0.18943060671      0.979089623833      -0.18943060671      -0.00909634396171   -0.0526859274365    
9400000000.0        -0.00931405908678   -0.0532259686017    0.978664939975      -0.191438627178     0.978664939975      -0.191438627178     -0.00931405908678   -0.0532259686017    
9500000000.0        -0.00953399761811   -0.0537651402424    0.978235816276      -0.193445686421     0.978235816276      -0.193445686421     -0.00953399761811   -0.0537651402424    
9600000000.0        -0.00975615594629   -0.054303432734     0.977802255514      -0.195451773372     0.977802255514      -0.195451773372     -0.00975615594629   -0.0543034327339    
9700000000.0        -0.00998053041826   -0.0548408364607    0.977364260509      -0.19745687697      0.977364260509      -0.19745687697      -0.00998053041826   -0.0548408364607    
9800000000.0        -0.0102071173372    -0.0553773418169    0.976921834119      -0.199460986158     0.976921834119      -0.199460986158     -0.0102071173372    -0.0553773418169    
9900000000.0        -0.0104359129626    -0.0559129392066    0.976474979243      -0.201464089883     0.976474979243      -0.201464089883     -0.0104359129626    -0.0559129392066    
10000000000.0       -0.0106669135101    -0.0564476190445    0.976023698819      -0.203466177099     0.976023698819      -0.203466177099     -0.0106669135101    -0.0564476190445    
