# Hz S RI R 50.00 
100000000.0         2.67508313412e-06   -0.00350323186265   0.999963157359      -0.00371481658425   0.999963157359      -0.00371481658425   2.67508313412e-06   -0.00350323186265   
200000000.0         -3.97950940497e-05  -0.00700649583075   0.999920351711      -0.00742970221646   0.999920351711      -0.00742970221646   -3.97950940497e-05  -0.00700649583075   
300000000.0         -0.000108336945538  -0.0105096916076    0.999851497955      -0.0111445754952    0.999851497955      -0.0111445754952    -0.000108336945538  -0.0105096916076    
400000000.0         -0.000202939145469  -0.0140126713938    0.999756573338      -0.0148593029811    0.999756573338      -0.0148593029811    -0.000202939145469  -0.0140126713938    
500000000.0         -0.000323599875621  -0.017515261843     0.999635566569      -0.0185737233511    0.999635566569      -0.0185737233511    -0.000323599875621  -0.017515261843     
600000000.0         -0.00047031895461   -0.0210172719606    0.999488471134      -0.0222876560684    0.999488471134      -0.0222876560684    -0.00047031895461   -0.0210172719606    
700000000.0         -0.000643095552577  -0.0245184972526    0.999315283892      -0.0260009059282    0.999315283892      -0.0260009059282    -0.000643095552577  -0.0245184972526    
800000000.0         -0.000841927169058  -0.0280187222972    0.999116004746      -0.0297132658676    0.999116004746      -0.0297132658676    -0.000841927169058  -0.0280187222972    
900000000.0         -0.00106680904404   -0.0315177225176    0.998890636644      -0.033424518898     0.998890636644      -0.033424518898     -0.00106680904404   -0.0315177225176    
1000000000.0        -0.00131773375985   -0.0350152654905    0.998639185665      -0.0371344395273    0.998639185665      -0.0371344395273    -0.00131773375985   -0.0350152654905    
1100000000.0        -0.0015946909434    -0.0385111119649    0.998361661157      -0.0408427948642    0.998361661157      -0.0408427948642    -0.0015946909434    -0.0385111119649    
1200000000.0        -0.00189766702919   -0.0420050166905    0.99805807587       -0.0445493455127    0.99805807587       -0.0445493455127    -0.00189766702919   -0.0420050166905    
1300000000.0        -0.00222664506304   -0.0454967291108    0.997728446095      -0.0482538463189    0.997728446095      -0.0482538463189    -0.00222664506304   -0.0454967291108    
1400000000.0        -0.0025816045357    -0.0489859939596    0.997372791781      -0.0519560470113    0.997372791781      -0.0519560470113    -0.0025816045357    -0.0489859939596    
1500000000.0        -0.00296252123949   -0.0524725517834    0.996991136661      -0.0556556927599    0.996991136661      -0.0556556927599    -0.00296252123949   -0.0524725517834    
1600000000.0        -0.00336936714416   -0.0559561394096    0.996583508348      -0.0593525246767    0.996583508348      -0.0593525246767    -0.00336936714416   -0.0559561394096    
1700000000.0        -0.00380211028849   -0.0594364903676    0.996149938435      -0.0630462802632    0.996149938435      -0.0630462802632    -0.00380211028849   -0.0594364903676    
1800000000.0        -0.00426071468619   -0.0629133352767    0.995690462577      -0.0667366938232    0.995690462577      -0.0667366938232    -0.00426071468619   -0.0629133352767    
1900000000.0        -0.00474514024391   -0.0663864022021    0.995205120566      -0.0704234968393    0.995205120566      -0.0704234968393    -0.00474514024391   -0.0663864022021    
2000000000.0        -0.00525534269073   -0.0698554169876    0.994693956393      -0.0741064183254    0.994693956393      -0.0741064183254    -0.00525534269073   -0.0698554169876    
2100000000.0        -0.00579127351769   -0.0733201035665    0.99415701831       -0.0777851851542    0.99415701831       -0.0777851851542    -0.00579127351769   -0.0733201035665    
2200000000.0        -0.00635287992683   -0.0767801842541    0.993594358871      -0.0814595223657    0.993594358871      -0.0814595223657    -0.00635287992683   -0.0767801842541    
2300000000.0        -0.00694010478893   -0.0802353800245    0.993006034976      -0.0851291534579    0.993006034976      -0.0851291534579    -0.00694010478893   -0.0802353800245    
2400000000.0        -0.00755288660938   -0.083685410773     0.992392107902      -0.0887938006622    0.992392107902      -0.0887938006622    -0.00755288660938   -0.083685410773     
2500000000.0        -0.00819115950181   -0.0871299955655    0.991752643326      -0.0924531852053    0.991752643326      -0.0924531852053    -0.00819115950181   -0.0871299955655    
2600000000.0        -0.00885485316861   -0.0905688528765    0.991087711344      -0.0961070275579    0.991087711344      -0.0961070275579    -0.00885485316861   -0.0905688528765    
2700000000.0        -0.00954389288855   -0.0940017008168    0.990397386483      -0.0997550476722    0.990397386483      -0.0997550476722    -0.00954389288855   -0.0940017008168    
2800000000.0        -0.0102581995104    -0.0974282573502    0.989681747707      -0.10339696521      0.989681747707      -0.10339696521      -0.0102581995104    -0.0974282573502    
2900000000.0        -0.0109976894529    -0.100848240503     0.988940878412      -0.107032499757     0.988940878412      -0.107032499757     -0.0109976894529    -0.100848240503     
3000000000.0        -0.0117622747101    -0.104261368564     0.988174866427      -0.110661371037     0.988174866427      -0.110661371037     -0.0117622747101    -0.104261368564     
3100000000.0        -0.0125518628624    -0.107667360274     0.987383803996      -0.114283299106     0.987383803996      -0.114283299106     -0.0125518628624    -0.107667360274     
3200000000.0        -0.0133663570924    -0.111065935015     0.986567787765      -0.117898004546     0.986567787765      -0.117898004546     -0.0133663570924    -0.111065935015     
3300000000.0        -0.0142056562058    -0.114456812983     0.985726918759      -0.121505208648     0.985726918759      -0.121505208648     -0.0142056562058    -0.114456812983     
3400000000.0        -0.0150696546568    -0.11783971536      0.98486130236       -0.125104633593     0.98486130236       -0.125104633593     -0.0150696546568    -0.11783971536      
3500000000.0        -0.0159582425779    -0.121214364479     0.983971048272      -0.128696002616     0.983971048272      -0.128696002616     -0.0159582425779    -0.121214364479     
3600000000.0        -0.0168713058136    -0.12458048398      0.983056270489      -0.132279040175     0.983056270489      -0.132279040175     -0.0168713058136    -0.12458048398      
3700000000.0        -0.0178087259581    -0.127937798964     0.982117087258      -0.135853472102     0.982117087258      -0.135853472102     -0.0178087259581    -0.127937798964     
3800000000.0        -0.0187703803971    -0.131286036135     0.981153621036      -0.13941902576      0.981153621036      -0.13941902576      -0.0187703803971    -0.131286036135     
3900000000.0        -0.0197561423525    -0.134624923945     0.980165998447      -0.142975430184     0.980165998447      -0.142975430184     -0.0197561423525    -0.134624923945     
4000000000.0        -0.0207658809304    -0.137954192724     0.97915435023       -0.146522416223     0.97915435023       -0.146522416223     -0.0207658809304    -0.137954192724     
4100000000.0        -0.021799461173     -0.141273574815     0.978118811192      -0.150059716669     0.978118811192      -0.150059716669     -0.021799461173     -0.141273574815     
4200000000.0        -0.0228567441123    -0.144582804692     0.977059520148      -0.153587066393     0.977059520148      -0.153587066393     -0.0228567441123    -0.144582804692     
4300000000.0        -0.0239375868278    -0.147881619087     0.975976619871      -0.157104202463     0.975976619871      -0.157104202463     -0.0239375868278    -0.147881619087     
4400000000.0        -0.0250418425055    -0.151169757099     0.974870257025      -0.160610864261     0.974870257025      -0.160610864261     -0.0250418425055    -0.151169757099     
4500000000.0        -0.0261693605006    -0.154446960306     0.973740582108      -0.164106793603     0.973740582108      -0.164106793603     -0.0261693605006    -0.154446960306     
4600000000.0        -0.0273199864017    -0.157712972871     0.972587749385      -0.167591734842     0.972587749385      -0.167591734842     -0.0273199864017    -0.157712972871     
4700000000.0        -0.0284935620975    -0.160967541643     0.971411916822      -0.171065434974     0.971411916822      -0.171065434974     -0.0284935620975    -0.160967541643     
4800000000.0        -0.0296899258452    -0.164210416253     0.970213246018      -0.174527643738     0.970213246018      -0.174527643738     -0.0296899258452    -0.164210416253     
4900000000.0        -0.0309089123415    -0.167441349208     0.968991902131      -0.177978113709     0.968991902131      -0.177978113709     -0.0309089123415    -0.167441349208     
5000000000.0        -0.0321503527944    -0.170660095978     0.967748053811      -0.181416600393     0.967748053811      -0.181416600393     -0.0321503527944    -0.170660095978     
5100000000.0        -0.0334140749975    -0.17386641508      0.966481873123      -0.18484286231      0.966481873123      -0.18484286231      -0.0334140749975    -0.17386641508      
5200000000.0        -0.0346999034049    -0.177060068161     0.965193535472      -0.188256661079     0.965193535472      -0.188256661079     -0.0346999034049    -0.177060068161     
5300000000.0        -0.0360076592088    -0.18024082007      0.963883219524      -0.191657761494     0.963883219524      -0.191657761494     -0.0360076592088    -0.18024082007      
5400000000.0        -0.0373371604169    -0.183408438936     0.962551107132      -0.195045931603     0.962551107132      -0.195045931603     -0.0373371604169    -0.183408438936     
5500000000.0        -0.038688221932     -0.186562696233     0.961197383255      -0.198420942774     0.961197383255      -0.198420942774     -0.038688221932     -0.186562696233     
5600000000.0        -0.0400606556323    -0.18970336685      0.959822235876      -0.201782569767     0.959822235876      -0.201782569767     -0.0400606556323    -0.18970336685      
5700000000.0        -0.0414542704526    -0.192830229145     0.958425855921      -0.205130590793     0.958425855921      -0.205130590793     -0.0414542704526    -0.192830229145     
5800000000.0        -0.0428688724665    -0.195943065013     0.957008437181      -0.208464787578     0.957008437181      -0.208464787578     -0.0428688724665    -0.195943065013     
5900000000.0        -0.0443042649696    -0.199041659935     0.955570176223      -0.211784945419     0.955570176223      -0.211784945419     -0.0443042649696    -0.199041659935     
6000000000.0        -0.0457602485625    -0.20212580303      0.954111272309      -0.215090853232     0.954111272309      -0.215090853232     -0.0457602485625    -0.20212580303      
6100000000.0        -0.0472366212355    -0.205195287107     0.952631927315      -0.218382303611     0.952631927315      -0.218382303611     -0.0472366212355    -0.205195287107     
6200000000.0        -0.0487331784532    -0.208249908707     0.951132345641      -0.221659092867     0.951132345641      -0.221659092867     -0.0487331784532    -0.208249908707     
6300000000.0        -0.0502497132392    -0.211289468145     0.949612734128      -0.224921021074     0.949612734128      -0.224921021074     -0.0502497132392    -0.211289468145     
6400000000.0        -0.0517860162622    -0.214313769554     0.948073301973      -0.228167892111     0.948073301973      -0.228167892111     -0.0517860162622    -0.214313769554     
6500000000.0        -0.053341875921     -0.217322620916     0.946514260644      -0.231399513695     0.946514260644      -0.231399513695     -0.053341875921     -0.217322620916     
6600000000.0        -0.0549170784306    -0.220315834096     0.944935823792      -0.23461569742      0.944935823792      -0.23461569742      -0.0549170784306    -0.220315834096     
6700000000.0        -0.0565114079085    -0.223293224875     0.943338207168      -0.237816258786     0.943338207168      -0.237816258786     -0.0565114079085    -0.223293224875     
6800000000.0        -0.05812464646      -0.226254612976     0.941721628533      -0.241001017228     0.941721628533      -0.241001017228     -0.05812464646      -0.226254612976     
6900000000.0        -0.0597565742647    -0.229199822089     0.940086307576      -0.24416979614      0.940086307576      -0.24416979614      -0.0597565742647    -0.229199822089     
7000000000.0        -0.0614069696623    -0.232128679894     0.938432465826      -0.247322422903     0.938432465826      -0.247322422903     -0.0614069696623    -0.232128679894     
7100000000.0        -0.0630756092377    -0.23504101808      0.936760326565      -0.250458728899     0.936760326565      -0.250458728899     -0.0630756092377    -0.23504101808      
7200000000.0        -0.0647622679074    -0.237936672361     0.935070114747      -0.253578549533     0.935070114747      -0.253578549533     -0.0647622679074    -0.237936672361     
7300000000.0        -0.0664667190039    -0.240815482493     0.933362056909      -0.256681724246     0.933362056909      -0.256681724246     -0.0664667190039    -0.240815482493     
7400000000.0        -0.0681887343606    -0.243677292287     0.931636381087      -0.259768096533     0.931636381087      -0.259768096533     -0.0681887343606    -0.243677292287     
7500000000.0        -0.0699280843968    -0.246521949613     0.929893316731      -0.262837513944     0.929893316731      -0.262837513944     -0.0699280843968    -0.246521949613     
7600000000.0        -0.0716845382009    -0.249349306415     0.928133094623      -0.265889828101     0.928133094623      -0.265889828101     -0.0716845382009    -0.249349306415     
7700000000.0        -0.0734578636144    -0.25215921871      0.926355946793      -0.268924894699     0.926355946793      -0.268924894699     -0.0734578636144    -0.25215921871      
7800000000.0        -0.0752478273145    -0.254951546597     0.924562106434      -0.271942573511     0.924562106434      -0.271942573511     -0.0752478273145    -0.254951546597     
7900000000.0        -0.0770541948967    -0.257726154251     0.922751807822      -0.274942728389     0.922751807822      -0.274942728389     -0.0770541948967    -0.257726154251     
8000000000.0        -0.0788767309562    -0.260482909929     0.920925286233      -0.277925227264     0.920925286233      -0.277925227264     -0.0788767309562    -0.260482909929     
8100000000.0        -0.080715199169     -0.263221685961     0.919082777862      -0.28088994214      0.919082777862      -0.28088994214      -0.080715199169     -0.263221685961     
8200000000.0        -0.0825693623722    -0.265942358749     0.917224519744      -0.283836749094     0.917224519744      -0.283836749094     -0.0825693623722    -0.265942358749     
8300000000.0        -0.0844389826432    -0.268644808756     0.915350749674      -0.286765528266     0.915350749674      -0.286765528266     -0.0844389826432    -0.268644808756     
8400000000.0        -0.0863238213789    -0.2713289205       0.913461706128      -0.289676163851     0.913461706128      -0.289676163851     -0.0863238213789    -0.2713289205       
8500000000.0        -0.088223639373     -0.273994582543     0.911557628183      -0.292568544089     0.911557628183      -0.292568544089     -0.088223639373     -0.273994582543     
8600000000.0        -0.0901381968932    -0.276641687476     0.909638755446      -0.29544256125      0.909638755446      -0.29544256125      -0.0901381968932    -0.276641687476     
8700000000.0        -0.0920672537573    -0.279270131907     0.90770532797       -0.298298111624     0.90770532797       -0.298298111624     -0.0920672537573    -0.279270131907     
8800000000.0        -0.0940105694081    -0.281879816444     0.905757586187      -0.301135095502     0.905757586187      -0.301135095502     -0.0940105694081    -0.281879816444     
8900000000.0        -0.0959679029878    -0.284470645677     0.903795770827      -0.303953417162     0.903795770827      -0.303953417162     -0.0959679029878    -0.284470645677     
9000000000.0        -0.0979390134109    -0.28704252816      0.901820122849      -0.306752984844     0.901820122849      -0.306752984844     -0.0979390134109    -0.28704252816      
9100000000.0        -0.0999236594363    -0.289595376389     0.899830883368      -0.309533710736     0.899830883368      -0.309533710736     -0.0999236594363    -0.289595376389     
9200000000.0        -0.101921599739     -0.292129106781     0.897828293583      -0.312295510948     0.897828293583      -0.312295510948     -0.101921599739     -0.292129106781     
9300000000.0        -0.103932592978     -0.294643639649     0.895812594707      -0.315038305489     0.895812594707      -0.315038305489     -0.103932592978     -0.294643639649     
9400000000.0        -0.105956397869     -0.297138899178     0.8937840279        -0.317762018244     0.8937840279        -0.317762018244     -0.105956397869     -0.297138899178     
9500000000.0        -0.107992773249     -0.299614813398     0.891742834199      -0.320466576944     0.891742834199      -0.320466576944     -0.107992773249     -0.299614813398     
9600000000.0        -0.110041478142     -0.302071314156     0.889689254453      -0.323151913144     0.889689254453      -0.323151913144     -0.110041478142     -0.302071314156     
9700000000.0        -0.11210227183      -0.30450833709      0.887623529255      -0.325817962189     0.887623529255      -0.325817962189     -0.11210227183      -0.30450833709      
9800000000.0        -0.114174913911     -0.306925821595     0.885545898882      -0.328464663185     0.885545898882      -0.328464663185     -0.114174913911     -0.306925821595     
9900000000.0        -0.116259164365     -0.309323710793     0.883456603227      -0.331091958973     0.883456603227      -0.331091958973     -0.116259164365     -0.309323710793     
10000000000.0       -0.118354783617     -0.311701951503     0.88135588174       -0.333699796089     0.88135588174       -0.333699796089     -0.118354783617     -0.311701951503     
