# Hz S RI R 50.00 
100000000.0         0.000238111390608   -0.000525031957366  0.999757494593      -0.00129299883823   0.999757494593      -0.00129299883823   0.000238111390608   -0.000525031957366  
200000000.0         0.000236821061087   -0.0010500759897    0.999752085215      -0.00258601479978   0.999752085215      -0.00258601479978   0.000236821061087   -0.0010500759897    
300000000.0         0.000233752823482   -0.00157513575642   0.999745147727      -0.00387905859221   0.999745147727      -0.00387905859221   0.000233752823482   -0.00157513575642   
400000000.0         0.00022911419467    -0.00210021356165   0.999736474192      -0.00517213712482   0.999736474192      -0.00517213712482   0.00022911419467    -0.00210021356165   
500000000.0         0.000222984778063   -0.00262531083877   0.999725984514      -0.00646525556468   0.999725984514      -0.00646525556468   0.000222984778063   -0.00262531083877   
600000000.0         0.00021540495353    -0.00315042841113   0.99971363776       -0.00775841796816   0.99971363776       -0.00775841796816   0.00021540495353    -0.00315042841113   
700000000.0         0.000206398402797   -0.00367556663872   0.999699409646      -0.00905162759115   0.999699409646      -0.00905162759115   0.000206398402797   -0.00367556663872   
800000000.0         0.000195980324359   -0.00420072551062   0.999683284326      -0.0103448870711    0.999683284326      -0.0103448870711    0.000195980324359   -0.00420072551062   
900000000.0         0.000184161088775   -0.00472590470786   0.999665250745      -0.0116381985454    0.999665250745      -0.0116381985454    0.000184161088775   -0.00472590470786   
1000000000.0        0.000170948090624   -0.00525110364827   0.999645300791      -0.0129315637333    0.999645300791      -0.0129315637333    0.000170948090624   -0.00525110364827   
1100000000.0        0.000156346777678   -0.00577632152089   0.99962342827       -0.0142249839969    0.99962342827       -0.0142249839969    0.000156346777678   -0.00577632152089   
1200000000.0        0.000140361264105   -0.0063015573123    0.999599628296      -0.0155184603869    0.999599628296      -0.0155184603869    0.000140361264105   -0.0063015573123    
1300000000.0        0.000122994716317   -0.00682680982755   0.99957389691       -0.0168119936788    0.99957389691       -0.0168119936788    0.000122994716318   -0.00682680982755   
1400000000.0        0.000104249606715   -0.00735207770734   0.999546230827      -0.0181055844016    0.999546230827      -0.0181055844016    0.000104249606714   -0.00735207770734   
1500000000.0        8.41278867134e-05   -0.00787735944235   0.999516627266      -0.019399232862     0.999516627266      -0.019399232862     8.41278867134e-05   -0.00787735944235   
1600000000.0        6.26311084191e-05   -0.00840265338529   0.999485083832      -0.0206929391637    0.999485083832      -0.0206929391637    6.26311084191e-05   -0.00840265338529   
1700000000.0        3.97605124307e-05   -0.00892795776096   0.99945159843       -0.0219867032244    0.99945159843       -0.0219867032244    3.97605124307e-05   -0.00892795776096   
1800000000.0        1.55170926848e-05   -0.00945327067533   0.999416169202      -0.0232805247903    0.999416169202      -0.0232805247903    1.5517092685e-05    -0.00945327067533   
1900000000.0        -1.00983547398e-05  -0.00997859012314   0.999378794478      -0.0245744034479    0.999378794478      -0.0245744034479    -1.00983547394e-05  -0.00997859012314   
2000000000.0        -3.70851941917e-05  -0.0105039139947    0.999339472745      -0.0258683386354    0.999339472745      -0.0258683386354    -3.70851941921e-05  -0.0105039139947    
2100000000.0        -6.54429213415e-05  -0.0110292400821    0.999298202614      -0.0271623296519    0.999298202614      -0.0271623296519    -6.54429213415e-05  -0.0110292400821    
2200000000.0        -9.51711401739e-05  -0.0115545660845    0.999254982804      -0.0284563756659    0.999254982804      -0.0284563756659    -9.51711401738e-05  -0.0115545660845    
2300000000.0        -0.000126269544612  -0.0120798896128    0.999209812121      -0.029750475723     0.999209812121      -0.029750475723     -0.000126269544612  -0.0120798896128    
2400000000.0        -0.00015873790365   -0.0126052081946    0.999162689447      -0.0310446287523    0.999162689447      -0.0310446287523    -0.00015873790365   -0.0126052081946    
2500000000.0        -0.000192576049196  -0.0131305192775    0.999113613726      -0.0323388335729    0.999113613726      -0.0323388335729    -0.000192576049196  -0.0131305192775    
2600000000.0        -0.000227783866037  -0.0136558202333    0.999062583959      -0.0336330888994    0.999062583959      -0.0336330888994    -0.000227783866037  -0.0136558202333    
2700000000.0        -0.000264361283477  -0.0141811083612    0.999009599197      -0.0349273933468    0.999009599197      -0.0349273933468    -0.000264361283477  -0.0141811083612    
2800000000.0        -0.000302308268324  -0.0147063808909    0.998954658529      -0.0362217454352    0.998954658529      -0.0362217454352    -0.000302308268324  -0.0147063808909    
2900000000.0        -0.000341624818934  -0.0152316349853    0.998897761086      -0.0375161435942    0.998897761086      -0.0375161435942    -0.000341624818934  -0.0152316349853    
3000000000.0        -0.000382310960148  -0.0157568677434    0.998838906028      -0.0388105861667    0.998838906028      -0.0388105861667    -0.000382310960148  -0.0157568677434    
3100000000.0        -0.000424366738935  -0.0162820762028    0.99877809255       -0.0401050714128    0.99877809255       -0.0401050714128    -0.000424366738935  -0.0162820762028    
3200000000.0        -0.000467792220631  -0.0168072573419    0.998715319869      -0.0413995975127    0.998715319869      -0.0413995975127    -0.000467792220631  -0.0168072573419    
3300000000.0        -0.000512587485661  -0.017332408082     0.998650587232      -0.0426941625706    0.998650587232      -0.0426941625706    -0.000512587485662  -0.017332408082     
3400000000.0        -0.000558752626683  -0.0178575252895    0.998583893905      -0.0439887646169    0.998583893905      -0.0439887646169    -0.000558752626683  -0.0178575252895    
3500000000.0        -0.000606287746065  -0.0183826057778    0.998515239177      -0.0452834016115    0.998515239177      -0.0452834016115    -0.000606287746065  -0.0183826057778    
3600000000.0        -0.000655192953663  -0.0189076463092    0.998444622356      -0.046578071446     0.998444622356      -0.046578071446     -0.000655192953663  -0.0189076463092    
3700000000.0        -0.000705468364844  -0.0194326435963    0.99837204277       -0.0478727719467    0.99837204277       -0.0478727719467    -0.000705468364844  -0.0194326435963    
3800000000.0        -0.000757114098723  -0.0199575943041    0.998297499764      -0.0491675008763    0.998297499764      -0.0491675008763    -0.000757114098723  -0.0199575943041    
3900000000.0        -0.000810130276581  -0.020482495051     0.998220992699      -0.0504622559364    0.998220992699      -0.0504622559364    -0.000810130276581  -0.020482495051     
4000000000.0        -0.000864517020442  -0.0210073424108    0.998142520953      -0.0517570347697    0.998142520953      -0.0517570347697    -0.000864517020441  -0.0210073424108    
4100000000.0        -0.000920274451783  -0.0215321329138    0.998062083919      -0.0530518349614    0.998062083919      -0.0530518349614    -0.000920274451783  -0.0215321329138    
4200000000.0        -0.000977402690378  -0.0220568630481    0.997979681006      -0.0543466540418    0.997979681006      -0.0543466540418    -0.000977402690378  -0.0220568630481    
4300000000.0        -0.00103590185323   -0.0225815292613    0.997895311635      -0.0556414894876    0.997895311635      -0.0556414894876    -0.00103590185323   -0.0225815292613    
4400000000.0        -0.00109577205359   -0.0231061279611    0.997808975243      -0.0569363387235    0.997808975243      -0.0569363387235    -0.00109577205359   -0.0231061279611    
4500000000.0        -0.00115701340008   -0.0236306555168    0.997720671281      -0.0582311991242    0.997720671281      -0.0582311991242    -0.00115701340008   -0.0236306555168    
4600000000.0        -0.0012196259959    -0.0241551082606    0.997630399213      -0.0595260680157    0.997630399213      -0.0595260680157    -0.0012196259959    -0.0241551082606    
4700000000.0        -0.00128360993801   -0.0246794824885    0.997538158516      -0.0608209426768    0.997538158516      -0.0608209426768    -0.00128360993801   -0.0246794824885    
4800000000.0        -0.0013489653165    -0.0252037744611    0.997443948682      -0.0621158203403    0.997443948682      -0.0621158203403    -0.0013489653165    -0.0252037744611    
4900000000.0        -0.0014156922139    -0.025727980405     0.997347769214      -0.0634106981948    0.997347769214      -0.0634106981948    -0.0014156922139    -0.025727980405     
5000000000.0        -0.00148379070461   -0.0262520965137    0.997249619629      -0.0647055733857    0.997249619629      -0.0647055733857    -0.00148379070461   -0.0262520965137    
5100000000.0        -0.00155326085432   -0.0267761189482    0.997149499456      -0.0660004430164    0.997149499456      -0.0660004430164    -0.00155326085432   -0.0267761189482    
5200000000.0        -0.00162410271951   -0.0273000438383    0.997047408239      -0.0672953041496    0.997047408239      -0.0672953041496    -0.00162410271951   -0.0273000438383    
5300000000.0        -0.00169631634692   -0.0278238672832    0.996943345533      -0.0685901538086    0.996943345533      -0.0685901538086    -0.00169631634692   -0.0278238672832    
5400000000.0        -0.00176990177314   -0.0283475853525    0.996837310907      -0.069884988978     0.996837310907      -0.069884988978     -0.00176990177314   -0.0283475853525    
5500000000.0        -0.00184485902418   -0.0288711940871    0.99672930394       -0.0711798066052    0.99672930394       -0.0711798066052    -0.00184485902418   -0.0288711940871    
5600000000.0        -0.001921188115     -0.0293946894995    0.996619324229      -0.0724746036012    0.996619324229      -0.0724746036012    -0.001921188115     -0.0293946894995    
5700000000.0        -0.00199888904923   -0.0299180675753    0.996507371378      -0.0737693768415    0.996507371378      -0.0737693768415    -0.00199888904923   -0.0299180675753    
5800000000.0        -0.00207796181872   -0.0304413242732    0.996393445009      -0.0750641231675    0.996393445009      -0.0750641231675    -0.00207796181872   -0.0304413242732    
5900000000.0        -0.00215840640326   -0.0309644555262    0.996277544753      -0.0763588393868    0.996277544753      -0.0763588393868    -0.00215840640326   -0.0309644555262    
6000000000.0        -0.00224022277022   -0.0314874572424    0.996159670257      -0.0776535222748    0.996159670257      -0.0776535222748    -0.00224022277022   -0.0314874572424    
6100000000.0        -0.00232341087428   -0.032010325305     0.996039821179      -0.078948168575     0.996039821179      -0.078948168575     -0.00232341087428   -0.032010325305     
6200000000.0        -0.00240797065712   -0.0325330555737    0.995917997192      -0.080242775        0.995917997192      -0.080242775        -0.00240797065712   -0.0325330555737    
6300000000.0        -0.00249390204713   -0.033055643885     0.995794197978      -0.0815373382327    0.995794197978      -0.0815373382327    -0.00249390204713   -0.033055643885     
6400000000.0        -0.0025812049592    -0.0335780860529    0.995668423238      -0.0828318549263    0.995668423238      -0.0828318549263    -0.0025812049592    -0.0335780860529    
6500000000.0        -0.00266987929442   -0.0341003778693    0.995540672682      -0.0841263217061    0.995540672682      -0.0841263217061    -0.00266987929442   -0.0341003778693    
6600000000.0        -0.00275992493987   -0.034622515105     0.995410946036      -0.0854207351693    0.995410946036      -0.0854207351693    -0.00275992493987   -0.034622515105     
6700000000.0        -0.00285134176838   -0.03514449351      0.995279243036      -0.0867150918864    0.995279243036      -0.0867150918864    -0.00285134176838   -0.03514449351      
6800000000.0        -0.00294412963835   -0.0356663088139    0.995145563435      -0.0880093884014    0.995145563435      -0.0880093884014    -0.00294412963835   -0.0356663088139    
6900000000.0        -0.00303828839347   -0.0361879567269    0.995009906998      -0.0893036212331    0.995009906998      -0.0893036212331    -0.00303828839347   -0.0361879567269    
7000000000.0        -0.00313381786261   -0.0367094329401    0.994872273504      -0.090597786875     0.994872273504      -0.090597786875     -0.00313381786261   -0.0367094329401    
7100000000.0        -0.0032307178596    -0.0372307331259    0.994732662745      -0.0918918817967    0.994732662745      -0.0918918817967    -0.0032307178596    -0.0372307331259    
7200000000.0        -0.00332898818299   -0.0377518529386    0.994591074527      -0.093185902444     0.994591074527      -0.093185902444     -0.00332898818299   -0.0377518529386    
7300000000.0        -0.003428628616     -0.0382727880153    0.99444750867       -0.0944798452399    0.99444750867       -0.0944798452399    -0.003428628616     -0.0382727880153    
7400000000.0        -0.00352963892624   -0.0387935339755    0.994301965009      -0.095773706585     0.994301965009      -0.095773706585     -0.00352963892624   -0.0387935339755    
7500000000.0        -0.00363201886562   -0.0393140864225    0.994154443392      -0.0970674828581    0.994154443392      -0.0970674828581    -0.00363201886562   -0.0393140864225    
7600000000.0        -0.00373576817016   -0.0398344409434    0.994004943679      -0.0983611704168    0.994004943679      -0.0983611704168    -0.00373576817016   -0.0398344409434    
7700000000.0        -0.00384088655988   -0.0403545931095    0.993853465749      -0.0996547655981    0.993853465749      -0.0996547655981    -0.00384088655988   -0.0403545931095    
7800000000.0        -0.00394737373865   -0.040874538477     0.99370000949       -0.100948264719     0.99370000949       -0.100948264719     -0.00394737373865   -0.040874538477     
7900000000.0        -0.00405522939403   -0.0413942725873    0.993544574807      -0.102241664077     0.993544574807      -0.102241664077     -0.00405522939403   -0.0413942725873    
8000000000.0        -0.00416445319718   -0.0419137909674    0.99338716162       -0.10353495995      0.99338716162       -0.10353495995      -0.00416445319718   -0.0419137909674    
8100000000.0        -0.00427504480271   -0.0424330891305    0.993227769861      -0.104828148598     0.993227769861      -0.104828148598     -0.00427504480271   -0.0424330891305    
8200000000.0        -0.00438700384858   -0.0429521625762    0.993066399479      -0.106121226263     0.993066399479      -0.106121226263     -0.00438700384858   -0.0429521625762    
8300000000.0        -0.00450032995597   -0.043471006791     0.992903050436      -0.10741418917      0.992903050436      -0.10741418917      -0.00450032995597   -0.043471006791     
8400000000.0        -0.00461502272919   -0.0439896172488    0.992737722708      -0.108707033525     0.992737722708      -0.108707033525     -0.00461502272919   -0.0439896172488    
8500000000.0        -0.00473108175558   -0.0445079894109    0.992570416288      -0.109999755521     0.992570416288      -0.109999755521     -0.00473108175558   -0.0445079894109    
8600000000.0        -0.00484850660537   -0.0450261187271    0.992401131181      -0.11129235133      0.992401131181      -0.11129235133      -0.00484850660537   -0.0450261187271    
8700000000.0        -0.00496729683164   -0.0455440006351    0.992229867408      -0.112584817113     0.992229867408      -0.112584817113     -0.00496729683164   -0.0455440006351    
8800000000.0        -0.00508745197016   -0.046061630562     0.992056625006      -0.113877149014     0.992056625006      -0.113877149014     -0.00508745197016   -0.046061630562     
8900000000.0        -0.00520897153939   -0.0465790039236    0.991881404024      -0.115169343161     0.991881404024      -0.115169343161     -0.00520897153939   -0.0465790039236    
9000000000.0        -0.00533185504032   -0.0470961161255    0.991704204529      -0.116461395669     0.991704204529      -0.116461395669     -0.00533185504032   -0.0470961161255    
9100000000.0        -0.00545610195642   -0.0476129625631    0.991525026602      -0.117753302639     0.991525026602      -0.117753302639     -0.00545610195642   -0.0476129625631    
9200000000.0        -0.00558171175356   -0.0481295386218    0.991343870337      -0.119045060159     0.991343870337      -0.119045060159     -0.00558171175356   -0.0481295386218    
9300000000.0        -0.00570868387994   -0.0486458396781    0.991160735845      -0.120336664303     0.991160735845      -0.120336664303     -0.00570868387994   -0.0486458396781    
9400000000.0        -0.005837017766     -0.0491618610987    0.990975623253      -0.121628111132     0.990975623253      -0.121628111132     -0.005837017766     -0.0491618610987    
9500000000.0        -0.00596671282438   -0.0496775982421    0.990788532702      -0.122919396696     0.990788532702      -0.122919396696     -0.00596671282438   -0.0496775982421    
9600000000.0        -0.00609776844983   -0.0501930464581    0.990599464346      -0.124210517031     0.990599464346      -0.124210517031     -0.00609776844983   -0.0501930464581    
9700000000.0        -0.00623018401918   -0.0507082010881    0.990408418359      -0.125501468163     0.990408418359      -0.125501468163     -0.00623018401918   -0.0507082010881    
9800000000.0        -0.00636395889121   -0.0512230574662    0.990215394926      -0.126792246107     0.990215394926      -0.126792246107     -0.00636395889121   -0.0512230574662    
9900000000.0        -0.0064990924067    -0.0517376109185    0.990020394251      -0.128082846866     0.990020394251      -0.128082846866     -0.0064990924067    -0.0517376109185    
10000000000.0       -0.00663558388826   -0.0522518567641    0.989823416549      -0.129373266434     0.989823416549      -0.129373266434     -0.00663558388826   -0.0522518567641    
