# Hz S RI R 50.00 
100000000.0         0.0332789260368     0.00443322454595    0.966716206347      -0.00642794563122   0.966716206347      -0.00642794563122   0.0332789260368     0.00443322454595    
200000000.0         0.0335795555415     0.00886070077276    0.966407683892      -0.012850166574     0.966407683892      -0.012850166574     0.0335795555415     0.00886070077276    
300000000.0         0.0338818982796     0.0132833996123     0.966093421915      -0.0192676550611    0.966093421915      -0.0192676550611    0.0338818982796     0.0132833996123     
400000000.0         0.0342139046955     0.0177010290497     0.96574546899       -0.0256801380039    0.96574546899       -0.0256801380039    0.0342139046955     0.0177010290497     
500000000.0         0.0345862871125     0.0221130054443     0.965353111698      -0.0320870494904    0.965353111698      -0.0320870494904    0.0345862871125     0.0221130054443     
600000000.0         0.0350044511248     0.0265186178113     0.964910943216      -0.0384876954801    0.964910943216      -0.0384876954801    0.0350044511248     0.0265186178113     
700000000.0         0.0354715297866     0.0309170870736     0.964415829111      -0.0448813132664    0.964415829111      -0.0448813132664    0.0354715297866     0.0309170870736     
800000000.0         0.0359894913086     0.0353075937717     0.963865799647      -0.0512670993131    0.963865799647      -0.0512670993131    0.0359894913086     0.0353075937717     
900000000.0         0.0365596323982     0.0396892931526     0.963259556433      -0.0576442244264    0.963259556433      -0.0576442244264    0.0365596323982     0.0396892931526     
1000000000.0        0.037182828409      0.0440613242889     0.962596222278      -0.0640118429326    0.962596222278      -0.0640118429326    0.037182828409      0.0440613242889     
1100000000.0        0.0378596724685     0.0484228160368     0.961875202062      -0.0703690986793    0.961875202062      -0.0703690986793    0.0378596724685     0.0484228160368     
1200000000.0        0.0385905584477     0.0527728911772     0.961096099763      -0.0767151292094    0.961096099763      -0.0767151292094    0.0385905584477     0.0527728911772     
1300000000.0        0.0393757332285     0.0571106694433     0.960258666192      -0.0830490688151    0.960258666192      -0.0830490688151    0.0393757332285     0.0571106694433     
1400000000.0        0.0402153311285     0.0614352698324     0.959362764567      -0.0893700508701    0.959362764567      -0.0893700508701    0.0402153311285     0.0614352698324     
1500000000.0        0.0411093974273     0.0657458124348     0.958408346988      -0.0956772096759    0.958408346988      -0.0956772096759    0.0411093974273     0.0657458124348     
1600000000.0        0.0420579049612     0.0700414199283     0.957395437841      -0.101969681971     0.957395437841      -0.101969681971     0.0420579049612     0.0700414199283     
1700000000.0        0.0430607661524     0.0743212188315     0.956324121772      -0.108246608196     0.956324121772      -0.108246608196     0.0430607661524     0.0743212188315     
1800000000.0        0.0441178419449     0.0785843405793     0.955194534747      -0.114507133579     0.955194534747      -0.114507133579     0.0441178419449     0.0785843405793     
1900000000.0        0.0452289485886     0.0828299224633     0.954006857271      -0.120750409085     0.954006857271      -0.120750409085     0.0452289485886     0.0828299224633     
2000000000.0        0.0463938628942     0.0870571084679     0.952761309133      -0.126975592262     0.952761309133      -0.126975592262     0.0463938628942     0.0870571084679     
2100000000.0        0.0476123263823     0.0912650500231     0.951458145257      -0.133181847996     0.951458145257      -0.133181847996     0.0476123263823     0.0912650500231     
2200000000.0        0.0488840486155     0.0954529066899     0.95009765237       -0.139368349209     0.95009765237       -0.139368349209     0.0488840486155     0.0954529066899     
2300000000.0        0.0502087099216     0.0996198467905     0.948680146279      -0.145534277488     0.948680146279      -0.145534277488     0.0502087099216     0.0996198467905     
2400000000.0        0.0515859636549     0.10376504799       0.94720596961       -0.151678823676     0.94720596961       -0.151678823676     0.0515859636549     0.10376504799       
2500000000.0        0.0530154381029     0.107887697841      0.9456754899        -0.157801188418     0.9456754899        -0.157801188418     0.0530154381029     0.107887697841      
2600000000.0        0.054496738119      0.111986994286      0.94408909797       -0.163900582671     0.94408909797       -0.163900582671     0.054496738119      0.111986994286      
2700000000.0        0.0560294465404     0.116062146137      0.942447206498      -0.169976228183     0.942447206498      -0.169976228183     0.0560294465404     0.116062146137      
2800000000.0        0.0576131254367     0.120112373519      0.940750248778      -0.176027357943     0.940750248778      -0.176027357943     0.0576131254367     0.120112373519      
2900000000.0        0.0592473172235     0.124136908291      0.938998677606      -0.182053216605     0.938998677606      -0.182053216605     0.0592473172235     0.124136908291      
3000000000.0        0.0609315456685     0.128134994445      0.93719296427       -0.188053060885     0.93719296427       -0.188053060885     0.0609315456685     0.128134994445      
3100000000.0        0.06266531681       0.132105888475      0.935333597633      -0.19402615994      0.935333597633      -0.19402615994      0.06266531681       0.132105888475      
3200000000.0        0.0644481198056     0.136048859732      0.933421083287      -0.199971795718     0.933421083287      -0.199971795718     0.0644481198056     0.136048859732      
3300000000.0        0.0662794277217     0.139963190755      0.931455942761      -0.205889263299     0.931455942761      -0.205889263299     0.0662794277217     0.139963190755      
3400000000.0        0.0681586982773     0.14384817758       0.929438712776      -0.211777871198     0.929438712776      -0.211777871198     0.0681586982773     0.14384817758       
3500000000.0        0.0700853745467     0.147703130039      0.927369944548      -0.217636941671     0.927369944548      -0.217636941671     0.0700853745467     0.147703130039      
3600000000.0        0.0720588856315     0.151527372028      0.925250203107      -0.223465810983     0.925250203107      -0.223465810983     0.0720588856315     0.151527372028      
3700000000.0        0.0740786473035     0.155320241767      0.923080066665      -0.22926382967      0.923080066665      -0.22926382967      0.0740786473035     0.155320241767      
3800000000.0        0.0761440626252     0.159081092037      0.920860125983      -0.235030362779     0.920860125983      -0.235030362779     0.0761440626252     0.159081092037      
3900000000.0        0.0782545225513     0.162809290404      0.918590983782      -0.240764790089     0.918590983782      -0.240764790089     0.0782545225513     0.162809290404      
4000000000.0        0.0804094065121     0.16650421942       0.916273254149      -0.24646650632      0.916273254149      -0.24646650632      0.0804094065121     0.16650421942       
4100000000.0        0.082608082983      0.170165276817      0.913907561973      -0.252134921321     0.913907561973      -0.252134921321     0.082608082983      0.170165276817      
4200000000.0        0.0848499100416     0.173791875675      0.911494542389      -0.257769460245     0.911494542389      -0.257769460245     0.0848499100416     0.173791875675      
4300000000.0        0.0871342359122     0.177383444578      0.909034840228      -0.263369563704     0.909034840228      -0.263369563704     0.0871342359122     0.177383444578      
4400000000.0        0.0894603995014     0.180939427757      0.906529109485      -0.268934687912     0.906529109485      -0.268934687912     0.0894603995014     0.180939427757      
4500000000.0        0.0918277309239     0.184459285215      0.903978012793      -0.274464304811     0.903978012793      -0.274464304811     0.0918277309239     0.184459285215      
4600000000.0        0.0942355520194     0.187942492833      0.901382220902      -0.279957902182     0.901382220902      -0.279957902182     0.0942355520194     0.187942492833      
4700000000.0        0.0966831768623     0.19138854247       0.898742412177      -0.28541498374      0.898742412177      -0.28541498374      0.0966831768623     0.19138854247       
4800000000.0        0.0991699122635     0.194796942039      0.896059272087      -0.290835069215     0.896059272087      -0.290835069215     0.0991699122635     0.194796942039      
4900000000.0        0.101695058264      0.198167215576      0.893333492717      -0.296217694421     0.893333492717      -0.296217694421     0.101695058264      0.198167215576      
5000000000.0        0.104257908625      0.20149890329       0.890565772277      -0.301562411305     0.890565772277      -0.301562411305     0.104257908625      0.20149890329       
5100000000.0        0.106857751304      0.204791561599      0.88775681462       -0.306868787984     0.88775681462       -0.306868787984     0.106857751304      0.204791561599      
5200000000.0        0.109493868932      0.208044763157      0.884907328773      -0.312136408778     0.884907328773      -0.312136408778     0.109493868932      0.208044763157      
5300000000.0        0.112165539282      0.211258096864      0.882018028464      -0.31736487421      0.882018028464      -0.31736487421      0.112165539282      0.211258096864      
5400000000.0        0.114872035723      0.21443116786       0.879089631666      -0.322553801012     0.879089631666      -0.322553801012     0.114872035723      0.21443116786       
5500000000.0        0.117612627681      0.217563597516      0.876122860137      -0.327702822108     0.876122860137      -0.327702822108     0.117612627681      0.217563597516      
5600000000.0        0.12038658108       0.2206550234        0.873118438983      -0.332811586587     0.873118438983      -0.332811586587     0.12038658108       0.2206550234        
5700000000.0        0.123193158783      0.22370509924       0.870077096207      -0.337879759662     0.870077096207      -0.337879759662     0.123193158783      0.22370509924       
5800000000.0        0.126031621026      0.226713494872      0.866999562286      -0.34290702262      0.866999562286      -0.34290702262      0.126031621026      0.226713494872      
5900000000.0        0.128901225841      0.229679896178      0.863886569737      -0.34789307276      0.863886569737      -0.34789307276      0.128901225841      0.229679896178      
6000000000.0        0.131801229473      0.232604005007      0.860738852706      -0.352837623316     0.860738852706      -0.352837623316     0.131801229473      0.232604005007      
6100000000.0        0.134730886795      0.235485539095      0.857557146553      -0.357740403374     0.857557146553      -0.357740403374     0.134730886795      0.235485539095      
6200000000.0        0.137689451704      0.238324231963      0.854342187451      -0.362601157776     0.854342187451      -0.362601157776     0.137689451704      0.238324231963      
6300000000.0        0.14067617752       0.241119832815      0.85109471199       -0.367419647015     0.85109471199       -0.367419647015     0.14067617752       0.241119832815      
6400000000.0        0.143690317374      0.243872106423      0.84781545679       -0.372195647115     0.84781545679       -0.372195647115     0.143690317374      0.243872106423      
6500000000.0        0.14673112458       0.246580832994      0.84450515812       -0.376928949511     0.84450515812       -0.376928949511     0.14673112458       0.246580832994      
6600000000.0        0.149797853015      0.249245808043      0.84116455153       -0.38161936091      0.84116455153       -0.38161936091      0.149797853015      0.249245808043      
6700000000.0        0.152889757472      0.251866842246      0.837794371487      -0.38626670315      0.837794371487      -0.38626670315      0.152889757472      0.251866842246      
6800000000.0        0.15600609402       0.254443761286      0.834395351019      -0.390870813049     0.834395351019      -0.390870813049     0.15600609402       0.254443761286      
6900000000.0        0.159146120347      0.256976405695      0.830968221373      -0.39543154224      0.830968221373      -0.39543154224      0.159146120347      0.256976405695      
7000000000.0        0.162309096098      0.259464630687      0.827513711674      -0.399948757009     0.827513711674      -0.399948757009     0.162309096098      0.259464630687      
7100000000.0        0.165494283198      0.261908305978      0.824032548598      -0.404422338115     0.824032548598      -0.404422338115     0.165494283198      0.261908305978      
7200000000.0        0.168700946179      0.264307315607      0.820525456052      -0.408852180611     0.820525456052      -0.408852180611     0.168700946179      0.264307315607      
7300000000.0        0.171928352483      0.266661557749      0.816993154867      -0.413238193655     0.816993154867      -0.413238193655     0.171928352483      0.266661557749      
7400000000.0        0.175175772765      0.268970944512      0.81343636249       -0.417580300309     0.81343636249       -0.417580300309     0.175175772765      0.268970944512      
7500000000.0        0.178442481188      0.271235401744      0.809855792696      -0.421878437347     0.809855792696      -0.421878437347     0.178442481188      0.271235401744      
7600000000.0        0.181727755702      0.273454868818      0.806252155303      -0.426132555038     0.806252155303      -0.426132555038     0.181727755702      0.273454868818      
7700000000.0        0.185030878321      0.275629298426      0.802626155895      -0.430342616943     0.802626155895      -0.430342616943     0.185030878321      0.275629298426      
7800000000.0        0.188351135385      0.277758656358      0.798978495562      -0.434508599691     0.798978495562      -0.434508599691     0.188351135385      0.277758656358      
7900000000.0        0.19168781782       0.279842921282      0.795309870637      -0.438630492759     0.795309870637      -0.438630492759     0.19168781782       0.279842921282      
8000000000.0        0.195040221379      0.281882084516      0.791620972455      -0.442708298248     0.791620972455      -0.442708298248     0.195040221379      0.281882084516      
8100000000.0        0.198407646884      0.2838761498        0.787912487108      -0.446742030651     0.787912487108      -0.446742030651     0.198407646884      0.2838761498        
8200000000.0        0.201789400452      0.28582513306       0.784185095224      -0.450731716619     0.784185095224      -0.450731716619     0.201789400452      0.28582513306       
8300000000.0        0.205184793715      0.287729062174      0.780439471738      -0.454677394725     0.780439471738      -0.454677394725     0.205184793715      0.287729062174      
8400000000.0        0.208593144031      0.289587976728      0.776676285689      -0.458579115226     0.776676285689      -0.458579115226     0.208593144031      0.289587976728      
8500000000.0        0.212013774684      0.291401927779      0.772896200014      -0.462436939816     0.772896200014      -0.462436939816     0.212013774684      0.291401927779      
8600000000.0        0.215446015077      0.293170977605      0.769099871352      -0.466250941386     0.769099871352      -0.466250941386     0.215446015077      0.293170977605      
8700000000.0        0.218889200917      0.294895199461      0.765287949867      -0.470021203773     0.765287949867      -0.470021203773     0.218889200917      0.294895199461      
8800000000.0        0.222342674386      0.296574677331      0.761461079064      -0.473747821515     0.761461079064      -0.473747821515     0.222342674386      0.296574677331      
8900000000.0        0.225805784311      0.298209505674      0.75761989563       -0.477430899598     0.75761989563       -0.477430899598     0.225805784311      0.298209505674      
9000000000.0        0.229277886319      0.299799789179      0.75376502927       -0.481070553207     0.75376502927       -0.481070553207     0.229277886319      0.299799789179      
9100000000.0        0.232758342989      0.301345642507      0.749897102558      -0.484666907472     0.749897102558      -0.484666907472     0.232758342989      0.301345642507      
9200000000.0        0.236246523987      0.302847190041      0.746016730799      -0.488220097217     0.746016730799      -0.488220097217     0.236246523987      0.302847190041      
9300000000.0        0.239741806206      0.304304565634      0.742124521892      -0.491730266704     0.742124521892      -0.491730266704     0.239741806206      0.304304565634      
9400000000.0        0.243243573881      0.305717912354      0.738221076206      -0.495197569383     0.738221076206      -0.495197569383     0.243243573881      0.305717912354      
9500000000.0        0.246751218714      0.30708738223       0.734306986465      -0.498622167637     0.734306986465      -0.498622167637     0.246751218714      0.30708738223       
9600000000.0        0.250264139976      0.308413136001      0.730382837635      -0.502004232529     0.730382837635      -0.502004232529     0.250264139976      0.308413136001      
9700000000.0        0.253781744609      0.309695342863      0.726449206827      -0.505343943549     0.726449206827      -0.505343943549     0.253781744609      0.309695342863      
9800000000.0        0.257303447321      0.31093418022       0.7225066632        -0.508641488365     0.7225066632        -0.508641488365     0.257303447321      0.31093418022       
9900000000.0        0.260828670666      0.312129833428      0.718555767877      -0.511897062568     0.718555767877      -0.511897062568     0.260828670666      0.312129833428      
10000000000.0       0.264356845129      0.31328249555       0.714597073866      -0.515110869427     0.714597073866      -0.515110869427     0.264356845129      0.31328249555       
