# Hz S RI R 50.00 
100000000.0         0.00142704020552    0.000636614264752   0.99857048287       -0.0016617529643    0.99857048287       -0.0016617529643    0.00142704020552    0.000636614264752   
200000000.0         0.00143926597882    0.00127317844566    0.998555728712      -0.00332346673629   0.998555728712      -0.00332346673629   0.00143926597882    0.00127317844566    
300000000.0         0.00145109736518    0.00190970258137    0.998540317404      -0.00498515771827   0.998540317404      -0.00498515771827   0.00145109736518    0.00190970258137    
400000000.0         0.001463771298      0.00254618532243    0.998523011917      -0.00664682934794   0.998523011917      -0.00664682934794   0.001463771298      0.00254618532243    
500000000.0         0.00147776391779    0.00318262270233    0.998503335999      -0.00830848164594   0.998503335999      -0.00830848164594   0.00147776391779    0.00318262270233    
600000000.0         0.00149331790638    0.00381900961363    0.998481046841      -0.00997011296633   0.998481046841      -0.00997011296633   0.00149331790638    0.00381900961363    
700000000.0         0.00151057650774    0.00445534033646    0.998456001055      -0.0116317206648    0.998456001055      -0.0116317206648    0.00151057650774    0.00445534033646    
800000000.0         0.0015296324294     0.00509160878243    0.998428105781      -0.0132933014267    0.998428105781      -0.0132933014267    0.0015296324294     0.00509160878243    
900000000.0         0.00155054961032    0.00572780862489    0.998397296913      -0.0149548514532    0.998397296913      -0.0149548514532    0.00155054961032    0.00572780862489    
1000000000.0        0.0015733742518     0.00636393337565    0.998363528071      -0.0166163665766    0.998363528071      -0.0166163665766    0.0015733742518     0.00636393337565    
1100000000.0        0.00159814094775    0.00699997643332    0.998326764474      -0.0182778423382    0.998326764474      -0.0182778423382    0.00159814094775    0.00699997643332    
1200000000.0        0.00162487633665    0.00763593111532    0.998286979284      -0.0199392740424    0.998286979284      -0.0199392740424    0.00162487633665    0.00763593111532    
1300000000.0        0.00165360139845    0.0082717906801     0.998244151315      -0.0216006567964    0.998244151315      -0.0216006567964    0.00165360139845    0.0082717906801     
1400000000.0        0.00168433296396    0.00890754834295    0.998198263517      -0.0232619855401    0.998198263517      -0.0232619855401    0.00168433296396    0.00890754834295    
1500000000.0        0.00171708474303    0.00954319728765    0.998149301958      -0.02492325507      0.998149301958      -0.02492325507      0.00171708474303    0.00954319728765    
1600000000.0        0.00175186804646    0.0101787306751     0.998097255092      -0.0265844600566    0.998097255092      -0.0265844600566    0.00175186804646    0.0101787306751     
1700000000.0        0.00178869230616    0.0108141416502     0.998042113246      -0.0282455950606    0.998042113246      -0.0282455950606    0.00178869230616    0.0108141416502     
1800000000.0        0.00182756545818    0.0114494233465     0.997983868236      -0.0299066545442    0.997983868236      -0.0299066545442    0.00182756545818    0.0114494233465     
1900000000.0        0.00186849423046    0.0120845688909     0.997922513078      -0.0315676328816    0.997922513078      -0.0315676328816    0.00186849423046    0.0120845688909     
2000000000.0        0.00191148436251    0.0127195714063     0.997858041771      -0.033228524368     0.997858041771      -0.033228524368     0.00191148436251    0.0127195714063     
2100000000.0        0.00195654077584    0.0133544240147     0.997790449124      -0.0348893232263    0.997790449124      -0.0348893232263    0.00195654077584    0.0133544240147     
2200000000.0        0.00200366770784    0.0139891198387     0.997719730623      -0.0365500236142    0.997719730623      -0.0365500236142    0.00200366770784    0.0139891198387     
2300000000.0        0.00205286881832    0.014623652004      0.997645882329      -0.0382106196289    0.997645882329      -0.0382106196289    0.00205286881832    0.014623652004      
2400000000.0        0.00210414727513    0.0152580136398     0.997568900785      -0.0398711053127    0.997568900785      -0.0398711053127    0.00210414727513    0.0152580136398     
2500000000.0        0.00215750582374    0.0158921978811     0.997488782953      -0.0415314746566    0.997488782953      -0.0415314746566    0.00215750582374    0.0158921978811     
2600000000.0        0.00221294684423    0.0165261978686     0.997405526156      -0.0431917216043    0.997405526156      -0.0431917216043    0.00221294684423    0.0165261978686     
2700000000.0        0.00227047239845    0.0171600067502     0.997319128027      -0.044851840056     0.997319128027      -0.044851840056     0.00227047239845    0.0171600067502     
2800000000.0        0.00233008426916    0.0177936176815     0.997229586476      -0.0465118238705    0.997229586476      -0.0465118238705    0.00233008426916    0.0177936176815     
2900000000.0        0.002391783993      0.0184270238263     0.997136899651      -0.0481716668689    0.997136899651      -0.0481716668689    0.002391783993      0.0184270238263     
3000000000.0        0.00245557288817    0.0190602183569     0.997041065918      -0.0498313628364    0.997041065918      -0.0498313628364    0.00245557288817    0.0190602183569     
3100000000.0        0.00252145207807    0.0196931944549     0.99694208383       -0.0514909055247    0.99694208383       -0.0514909055247    0.00252145207807    0.0196931944549     
3200000000.0        0.00258942251136    0.0203259453113     0.996839952111      -0.0531502886544    0.996839952111      -0.0531502886544    0.00258942251136    0.0203259453113     
3300000000.0        0.00265948497926    0.0209584641268     0.996734669639      -0.0548095059164    0.996734669639      -0.0548095059164    0.00265948497926    0.0209584641268     
3400000000.0        0.00273164013045    0.0215907441119     0.996626235429      -0.0564685509738    0.996626235429      -0.0564685509738    0.00273164013045    0.0215907441119     
3500000000.0        0.00280588848397    0.0222227784874     0.996514648624      -0.0581274174636    0.996514648624      -0.0581274174636    0.00280588848397    0.0222227784874     
3600000000.0        0.00288223044045    0.0228545604844     0.99639990848       -0.059786098998     0.99639990848       -0.059786098998     0.00288223044045    0.0228545604844     
3700000000.0        0.00296066629197    0.0234860833443     0.996282014358      -0.0614445891661    0.996282014358      -0.0614445891661    0.00296066629197    0.0234860833443     
3800000000.0        0.0030411962306     0.0241173403193     0.996160965715      -0.0631028815346    0.996160965715      -0.0631028815346    0.0030411962306     0.0241173403193     
3900000000.0        0.00312382035604    0.0247483246721     0.996036762097      -0.0647609696498    0.996036762097      -0.0647609696498    0.00312382035604    0.0247483246721     
4000000000.0        0.0032085386823     0.0253790296761     0.995909403135      -0.0664188470377    0.995909403135      -0.0664188470377    0.0032085386823     0.0253790296761     
4100000000.0        0.00329535114365    0.0260094486157     0.995778888533      -0.068076507206     0.995778888533      -0.068076507206     0.00329535114365    0.0260094486157     
4200000000.0        0.00338425759988    0.026639574786      0.995645218067      -0.0697339436445    0.995645218067      -0.0697339436445    0.00338425759988    0.026639574786      
4300000000.0        0.00347525784103    0.0272694014929     0.995508391582      -0.0713911498262    0.995508391582      -0.0713911498262    0.00347525784103    0.0272694014929     
4400000000.0        0.0035683515916     0.0278989220535     0.995368408983      -0.0730481192081    0.995368408983      -0.0730481192081    0.0035683515916     0.0278989220535     
4500000000.0        0.00366353851431    0.0285281297957     0.995225270235      -0.0747048452322    0.995225270235      -0.0747048452322    0.00366353851431    0.0285281297957     
4600000000.0        0.00376081821351    0.0291570180583     0.99507897536       -0.076361321326     0.99507897536       -0.076361321326     0.00376081821351    0.0291570180583     
4700000000.0        0.00386019023825    0.0297855801912     0.994929524429      -0.0780175409035    0.994929524429      -0.0780175409035    0.00386019023825    0.0297855801912     
4800000000.0        0.00396165408504    0.0304138095553     0.994776917568      -0.0796734973657    0.994776917568      -0.0796734973657    0.00396165408504    0.0304138095553     
4900000000.0        0.00406520920032    0.0310416995223     0.994621154945      -0.0813291841013    0.994621154945      -0.0813291841013    0.00406520920032    0.0310416995223     
5000000000.0        0.00417085498281    0.031669243475      0.994462236778      -0.0829845944875    0.994462236778      -0.0829845944875    0.00417085498281    0.031669243475      
5100000000.0        0.00427859078552    0.0322964348073     0.994300163327      -0.0846397218903    0.994300163327      -0.0846397218903    0.00427859078552    0.0322964348073     
5200000000.0        0.00438841591762    0.0329232669239     0.994134934892      -0.0862945596652    0.994134934892      -0.0862945596652    0.00438841591762    0.0329232669239     
5300000000.0        0.00450032964623    0.0335497332405     0.993966551815      -0.087949101158     0.993966551815      -0.087949101158     0.00450032964623    0.0335497332405     
5400000000.0        0.00461433119795    0.0341758271837     0.993795014475      -0.089603339705     0.993795014475      -0.089603339705     0.00461433119795    0.0341758271837     
5500000000.0        0.00473041976029    0.0348015421912     0.993620323289      -0.0912572686333    0.993620323289      -0.0912572686333    0.00473041976029    0.0348015421912     
5600000000.0        0.00484859448303    0.0354268717114     0.993442478709      -0.0929108812621    0.993442478709      -0.0929108812621    0.00484859448303    0.0354268717114     
5700000000.0        0.00496885447944    0.0360518092038     0.993261481222      -0.0945641709022    0.993261481222      -0.0945641709022    0.00496885447944    0.0360518092038     
5800000000.0        0.00509119882737    0.0366763481387     0.993077331349      -0.0962171308571    0.993077331349      -0.0962171308571    0.00509119882737    0.0366763481387     
5900000000.0        0.00521562657033    0.0373004819971     0.992890029644      -0.097869754423     0.992890029644      -0.097869754423     0.00521562657033    0.0373004819971     
6000000000.0        0.00534213671841    0.0379242042713     0.99269957669       -0.0995220348896    0.99269957669       -0.0995220348896    0.00534213671841    0.0379242042713     
6100000000.0        0.00547072824921    0.0385475084639     0.992505973104      -0.10117396554      0.992505973104      -0.10117396554      0.00547072824921    0.0385475084639     
6200000000.0        0.00560140010864    0.0391703880888     0.992309219533      -0.102825539652     0.992309219533      -0.102825539652     0.00560140010864    0.0391703880888     
6300000000.0        0.00573415121166    0.0397928366703     0.99210931665       -0.104476750497     0.99210931665       -0.104476750497     0.00573415121166    0.0397928366703     
6400000000.0        0.00586898044307    0.0404148477437     0.991906265161      -0.106127591342     0.991906265161      -0.106127591342     0.00586898044307    0.0404148477437     
6500000000.0        0.00600588665808    0.0410364148552     0.991700065797      -0.107778055448     0.991700065797      -0.107778055448     0.00600588665808    0.0410364148552     
6600000000.0        0.00614486868302    0.0416575315614     0.991490719319      -0.109428136073     0.991490719319      -0.109428136073     0.00614486868302    0.0416575315614     
6700000000.0        0.00628592531582    0.0422781914298     0.991278226512      -0.111077826469     0.991278226512      -0.111077826469     0.00628592531582    0.0422781914298     
6800000000.0        0.00642905532665    0.0428983880388     0.991062588192      -0.112727119886     0.991062588192      -0.112727119886     0.00642905532665    0.0428983880388     
6900000000.0        0.00657425745835    0.0435181149773     0.990843805196      -0.114376009568     0.990843805196      -0.114376009568     0.00657425745835    0.0435181149773     
7000000000.0        0.00672153042696    0.0441373658448     0.990621878391      -0.116024488758     0.990621878391      -0.116024488758     0.00672153042696    0.0441373658448     
7100000000.0        0.00687087292213    0.0447561342517     0.990396808666      -0.117672550694     0.990396808666      -0.117672550694     0.00687087292213    0.0447561342517     
7200000000.0        0.00702228360755    0.045374413819      0.990168596937      -0.119320188613     0.990168596937      -0.119320188613     0.00702228360755    0.045374413819      
7300000000.0        0.00717576112135    0.0459921981783     0.989937244143      -0.120967395748     0.989937244143      -0.120967395748     0.00717576112135    0.0459921981783     
7400000000.0        0.00733130407647    0.0466094809718     0.98970275125       -0.122614165331     0.98970275125       -0.122614165331     0.00733130407647    0.0466094809718     
7500000000.0        0.00748891106101    0.0472262558525     0.989465119244      -0.12426049059      0.989465119244      -0.12426049059      0.00748891106101    0.0472262558525     
7600000000.0        0.00764858063858    0.0478425164837     0.989224349137      -0.125906364753     0.989224349137      -0.125906364753     0.00764858063858    0.0478425164837     
7700000000.0        0.00781031134857    0.0484582565396     0.988980441965      -0.127551781046     0.988980441965      -0.127551781046     0.00781031134857    0.0484582565396     
7800000000.0        0.0079741017065     0.0490734697049     0.988733398785      -0.129196732693     0.988733398785      -0.129196732693     0.0079741017065     0.0490734697049     
7900000000.0        0.00813995020426    0.0496881496749     0.988483220677      -0.130841212918     0.988483220677      -0.130841212918     0.00813995020426    0.0496881496749     
8000000000.0        0.00830785531041    0.0503022901553     0.988229908746      -0.132485214943     0.988229908746      -0.132485214943     0.00830785531041    0.0503022901553     
8100000000.0        0.00847781547041    0.0509158848626     0.987973464117      -0.13412873199      0.987973464117      -0.13412873199      0.00847781547041    0.0509158848626     
8200000000.0        0.00864982910687    0.0515289275237     0.987713887938      -0.13577175728      0.987713887938      -0.13577175728      0.00864982910687    0.0515289275237     
8300000000.0        0.0088238946198     0.0521414118763     0.987451181379      -0.137414284034     0.987451181379      -0.137414284034     0.0088238946198     0.0521414118763     
8400000000.0        0.0090000103868     0.0527533316682     0.987185345632      -0.139056305473     0.987185345632      -0.139056305473     0.0090000103868     0.0527533316682     
8500000000.0        0.00917817476328    0.0533646806582     0.986916381909      -0.140697814818     0.986916381909      -0.140697814818     0.00917817476328    0.0533646806582     
8600000000.0        0.00935838608268    0.0539754526154     0.986644291447      -0.142338805289     0.986644291447      -0.142338805289     0.00935838608268    0.0539754526154     
8700000000.0        0.00954064265662    0.0545856413195     0.9863690755        -0.14397927011      0.9863690755        -0.14397927011      0.00954064265662    0.0545856413195     
8800000000.0        0.00972494277513    0.0551952405606     0.986090735346      -0.145619202501     0.986090735346      -0.145619202501     0.00972494277513    0.0551952405606     
8900000000.0        0.00991128470679    0.0558042441395     0.985809272284      -0.147258595686     0.985809272284      -0.147258595686     0.00991128470679    0.0558042441395     
9000000000.0        0.0100996666989     0.0564126458674     0.985524687632      -0.148897442889     0.985524687632      -0.148897442889     0.0100996666989     0.0564126458674     
9100000000.0        0.0102900869777     0.0570204395662     0.98523698273       -0.150535737336     0.98523698273       -0.150535737336     0.0102900869777     0.0570204395662     
9200000000.0        0.0104825437485     0.0576276190681     0.984946158938      -0.152173472252     0.984946158938      -0.152173472252     0.0104825437485     0.0576276190681     
9300000000.0        0.0106770351957     0.0582341782159     0.984652217638      -0.153810640865     0.984652217638      -0.153810640865     0.0106770351957     0.0582341782159     
9400000000.0        0.0108735594831     0.058840110863      0.984355160231      -0.155447236406     0.984355160231      -0.155447236406     0.0108735594831     0.058840110863      
9500000000.0        0.011072114754      0.0594454108733     0.984054988137      -0.157083252105     0.984054988137      -0.157083252105     0.011072114754      0.0594454108733     
9600000000.0        0.0112726991314     0.0600500721211     0.983751702799      -0.158718681195     0.983751702799      -0.158718681195     0.0112726991314     0.0600500721211     
9700000000.0        0.0114753107178     0.0606540884914     0.983445305678      -0.160353516911     0.983445305678      -0.160353516911     0.0114753107178     0.0606540884914     
9800000000.0        0.0116799475959     0.0612574538795     0.983135798255      -0.161987752492     0.983135798255      -0.161987752492     0.0116799475959     0.0612574538795     
9900000000.0        0.0118866078281     0.0618601621915     0.982823182033      -0.163621381176     0.982823182033      -0.163621381176     0.0118866078281     0.0618601621915     
10000000000.0       0.012095289457      0.0624622073439     0.982507458532      -0.165254396206     0.982507458532      -0.165254396206     0.012095289457      0.0624622073439     
