# Hz S RI R 50.00 
100000000.0         0.0005140773544     -0.00027537974991   0.999482110052      -0.00132658790547   0.999482110052      -0.00132658790547   0.0005140773544     -0.00027537974991   
200000000.0         0.000515676955128   -0.000550769982586  0.999475131019      -0.00265317889815   0.999475131019      -0.00265317889815   0.000515676955128   -0.000550769982586  
300000000.0         0.000515641184337   -0.000826169757306  0.999467220364      -0.00397978104783   0.999467220364      -0.00397978104783   0.000515641184337   -0.000826169757306  
400000000.0         0.000514416519221   -0.00110157909942   0.999457931409      -0.00530639871554   0.999457931409      -0.00530639871554   0.000514416519221   -0.00110157909942   
500000000.0         0.00051217461201    -0.00137699800279   0.999447092266      -0.00663303491102   0.999447092266      -0.00663303491102   0.00051217461201    -0.00137699800279   
600000000.0         0.000509002831431   -0.00165242634459   0.999434615305      -0.00795969185534   0.999434615305      -0.00795969185534   0.000509002831431   -0.00165242634459   
700000000.0         0.000504952667977   -0.00192786387935   0.999420448745      -0.00928637123088   0.999420448745      -0.00928637123088   0.000504952667977   -0.00192786387935   
800000000.0         0.000500057389268   -0.00220331024726   0.999404559011      -0.0106130743189    0.999404559011      -0.0106130743189    0.000500057389268   -0.00220331024726   
900000000.0         0.000494339896535   -0.00247876498461   0.999386922871      -0.0119398020849    0.999386922871      -0.0119398020849    0.000494339896535   -0.00247876498461   
1000000000.0        0.000487816704647   -0.00275422753406   0.999367523464      -0.0132665552368    0.999367523464      -0.0132665552368    0.000487816704647   -0.00275422753406   
1100000000.0        0.000480500153437   -0.00302969725304   0.999346348091      -0.0145933342658    0.999346348091      -0.0145933342658    0.000480500153437   -0.00302969725304   
1200000000.0        0.000472399724672   -0.00330517342149   0.999323386894      -0.0159201394769    0.999323386894      -0.0159201394769    0.000472399724672   -0.00330517342149   
1300000000.0        0.000463522870274   -0.00358065524817   0.999298632037      -0.0172469710131    0.999298632037      -0.0172469710131    0.000463522870274   -0.00358065524817   
1400000000.0        0.000453875556466   -0.00385614187619   0.999272077155      -0.0185738288733    0.999272077155      -0.0185738288733    0.000453875556466   -0.00385614187619   
1500000000.0        0.000443462634458   -0.00413163238783   0.99924371699       -0.0199007129282    0.99924371699       -0.0199007129282    0.000443462634459   -0.00413163238783   
1600000000.0        0.000432288100699   -0.00440712580867   0.999213547131      -0.0212276229319    0.999213547131      -0.0212276229319    0.0004322881007     -0.00440712580867   
1700000000.0        0.000420355284389   -0.00468262111128   0.999181563827      -0.022554558533     0.999181563827      -0.022554558533     0.000420355284389   -0.00468262111128   
1800000000.0        0.000407666985622   -0.00495811721835   0.999147763847      -0.0238815192829    0.999147763847      -0.0238815192829    0.000407666985622   -0.00495811721835   
1900000000.0        0.000394225579146   -0.00523361300563   0.999112144381      -0.0252085046434    0.999112144381      -0.0252085046434    0.000394225579146   -0.00523361300563   
2000000000.0        0.000380033093649   -0.00550910730443   0.999074702961      -0.0265355139934    0.999074702961      -0.0265355139934    0.000380033093649   -0.00550910730443   
2100000000.0        0.00036509127326    -0.00578459890398   0.999035437398      -0.0278625466345    0.999035437398      -0.0278625466345    0.00036509127326    -0.00578459890398   
2200000000.0        0.000349401625911   -0.00606008655346   0.998994345736      -0.0291896017958    0.998994345736      -0.0291896017958    0.000349401625911   -0.00606008655346   
2300000000.0        0.000332965461835   -0.00633556896386   0.998951426213      -0.0305166786386    0.998951426213      -0.0305166786386    0.000332965461835   -0.00633556896386   
2400000000.0        0.000315783924541   -0.00661104480979   0.998906677232      -0.0318437762602    0.998906677232      -0.0318437762602    0.00031578392454    -0.00661104480978   
2500000000.0        0.000297858015999   -0.00688651273095   0.998860097336      -0.0331708936977    0.998860097336      -0.0331708936977    0.000297858015999   -0.00688651273095   
2600000000.0        0.000279188617308   -0.00716197133365   0.998811685187      -0.0344980299305    0.998811685187      -0.0344980299305    0.000279188617308   -0.00716197133365   
2700000000.0        0.000259776505781   -0.00743741919214   0.998761439551      -0.0358251838843    0.998761439551      -0.0358251838843    0.000259776505781   -0.00743741919214   
2800000000.0        0.0002396223692     -0.00771285484982   0.998709359281      -0.0371523544326    0.998709359281      -0.0371523544326    0.0002396223692     -0.00771285484982   
2900000000.0        0.000218726817788   -0.00798827682038   0.998655443312      -0.0384795403998    0.998655443312      -0.0384795403998    0.000218726817788   -0.00798827682038   
3000000000.0        0.000197090394325   -0.00826368358892   0.998599690643      -0.0398067405634    0.998599690643      -0.0398067405634    0.000197090394325   -0.00826368358892   
3100000000.0        0.000174713582755   -0.00853907361294   0.998542100334      -0.0411339536557    0.998542100334      -0.0411339536557    0.000174713582755   -0.00853907361294   
3200000000.0        0.00015159681555    -0.00881444532324   0.998482671501      -0.0424611783659    0.998482671501      -0.0424611783659    0.00015159681555    -0.00881444532324   
3300000000.0        0.000127740480051   -0.00908979712484   0.998421403302      -0.0437884133417    0.998421403302      -0.0437884133417    0.000127740480051   -0.00908979712484   
3400000000.0        0.00010314492394    -0.00936512739781   0.998358294943      -0.0451156571911    0.998358294943      -0.0451156571911    0.000103144923939   -0.00936512739781   
3500000000.0        7.78104599999e-05   -0.00964043449802   0.998293345662      -0.046442908484     0.998293345662      -0.046442908484     7.78104599999e-05   -0.00964043449802   
3600000000.0        5.17373702766e-05   -0.00991571675789   0.998226554735      -0.047770165753     0.998226554735      -0.047770165753     5.17373702766e-05   -0.00991571675789   
3700000000.0        2.492590971e-05     -0.0101909724872    0.998157921466      -0.0490974274955    0.998157921466      -0.0490974274955    2.49259097103e-05   -0.0101909724872    
3800000000.0        -2.62369065263e-06  -0.0104661999734    0.998087445188      -0.0504246921745    0.998087445188      -0.0504246921745    -2.6236906524e-06   -0.0104661999734    
3900000000.0        -3.09112208312e-05  -0.0107413974829    0.998015125259      -0.0517519582198    0.998015125259      -0.0517519582198    -3.09112208312e-05  -0.0107413974829    
4000000000.0        -5.99364893981e-05  -0.011016563261     0.997940961061      -0.053079224029     0.997940961061      -0.053079224029     -5.99364893982e-05  -0.011016563261     
4100000000.0        -8.9699321245e-05   -0.0112916955326    0.997864951994      -0.054406487969     0.997864951994      -0.054406487969     -8.9699321245e-05   -0.0112916955326    
4200000000.0        -0.000120199555587  -0.0115667925033    0.997787097481      -0.0557337483764    0.997787097481      -0.0557337483764    -0.000120199555587  -0.0115667925033    
4300000000.0        -0.000151437044176  -0.0118418523592    0.99770739696       -0.0570610035586    0.99770739696       -0.0570610035586    -0.000151437044176  -0.0118418523592    
4400000000.0        -0.000183411649697  -0.0121168732679    0.997625849888      -0.058388251795     0.997625849888      -0.058388251795     -0.000183411649697  -0.0121168732679    
4500000000.0        -0.000216123244319  -0.0123918533785    0.997542455737      -0.0597154913374    0.997542455737      -0.0597154913374    -0.000216123244319  -0.0123918533785    
4600000000.0        -0.000249571708388  -0.0126667908226    0.99745721399       -0.0610427204109    0.99745721399       -0.0610427204109    -0.000249571708387  -0.0126667908226    
4700000000.0        -0.000283756929242  -0.0129416837146    0.997370124149      -0.062369937215     0.997370124149      -0.062369937215     -0.000283756929242  -0.0129416837146    
4800000000.0        -0.000318678800138  -0.0132165301517    0.997281185723      -0.0636971399238    0.997281185723      -0.0636971399238    -0.000318678800138  -0.0132165301517    
4900000000.0        -0.00035433721927   -0.013491328215     0.997190398238      -0.0650243266869    0.997190398238      -0.0650243266869    -0.00035433721927   -0.013491328215     
5000000000.0        -0.000390732088871  -0.0137660759692    0.997097761227      -0.0663514956303    0.997097761227      -0.0663514956303    -0.000390732088871  -0.0137660759692    
5100000000.0        -0.000427863314403  -0.0140407714636    0.997003274235      -0.0676786448566    0.997003274235      -0.0676786448566    -0.000427863314403  -0.0140407714636    
5200000000.0        -0.000465730803798  -0.0143154127321    0.996906936819      -0.0690057724459    0.996906936819      -0.0690057724459    -0.000465730803798  -0.0143154127321    
5300000000.0        -0.000504334466774  -0.0145899977935    0.996808748543      -0.0703328764563    0.996808748543      -0.0703328764563    -0.000504334466774  -0.0145899977935    
5400000000.0        -0.000543674214195  -0.0148645246522    0.996708708982      -0.0716599549245    0.996708708982      -0.0716599549245    -0.000543674214195  -0.0148645246522    
5500000000.0        -0.000583749957489  -0.0151389912982    0.996606817717      -0.0729870058661    0.996606817717      -0.0729870058661    -0.000583749957489  -0.0151389912982    
5600000000.0        -0.000624561608104  -0.0154133957078    0.996503074342      -0.0743140272764    0.996503074342      -0.0743140272764    -0.000624561608104  -0.0154133957078    
5700000000.0        -0.000666109077007  -0.0156877358433    0.996397478455      -0.0756410171308    0.996397478455      -0.0756410171308    -0.000666109077007  -0.0156877358433    
5800000000.0        -0.000708392274216  -0.0159620096541    0.996290029663      -0.0769679733853    0.996290029663      -0.0769679733853    -0.000708392274216  -0.0159620096541    
5900000000.0        -0.000751411108372  -0.0162362150762    0.996180727583      -0.0782948939766    0.996180727583      -0.0782948939766    -0.000751411108371  -0.0162362150762    
6000000000.0        -0.000795165486326  -0.016510350033     0.996069571836      -0.0796217768233    0.996069571836      -0.0796217768233    -0.000795165486326  -0.016510350033     
6100000000.0        -0.000839655312776  -0.0167844124356    0.995956562052      -0.0809486198256    0.995956562052      -0.0809486198256    -0.000839655312776  -0.0167844124356    
6200000000.0        -0.000884880489906  -0.0170584001828    0.995841697868      -0.0822754208661    0.995841697868      -0.0822754208661    -0.000884880489906  -0.0170584001828    
6300000000.0        -0.000930840917058  -0.0173323111614    0.995724978927      -0.0836021778099    0.995724978927      -0.0836021778099    -0.000930840917058  -0.0173323111614    
6400000000.0        -0.000977536490432  -0.0176061432467    0.995606404881      -0.0849288885055    0.995606404881      -0.0849288885055    -0.000977536490432  -0.0176061432467    
6500000000.0        -0.00102496710278   -0.0178798943027    0.995485975385      -0.0862555507847    0.995485975385      -0.0862555507847    -0.00102496710278   -0.0178798943027    
6600000000.0        -0.00107313264317   -0.0181535621818    0.995363690103      -0.087582162463     0.995363690103      -0.087582162463     -0.00107313264317   -0.0181535621818    
6700000000.0        -0.00112203299667   -0.0184271447261    0.995239548705      -0.0889087213401    0.995239548705      -0.0889087213401    -0.00112203299667   -0.0184271447261    
6800000000.0        -0.00117166804418   -0.0187006397666    0.995113550868      -0.0902352252004    0.995113550868      -0.0902352252004    -0.00117166804418   -0.0187006397666    
6900000000.0        -0.00122203766214   -0.0189740451239    0.994985696273      -0.091561671813     0.994985696273      -0.091561671813     -0.00122203766214   -0.0189740451239    
7000000000.0        -0.00127314172236   -0.0192473586086    0.994855984609      -0.0928880589321    0.994855984609      -0.0928880589321    -0.00127314172236   -0.0192473586086    
7100000000.0        -0.0013249800918    -0.0195205780211    0.99472441557       -0.0942143842974    0.99472441557       -0.0942143842974    -0.0013249800918    -0.0195205780211    
7200000000.0        -0.00137755263238   -0.0197937011522    0.994590988857      -0.0955406456344    0.994590988857      -0.0955406456344    -0.00137755263238   -0.0197937011522    
7300000000.0        -0.00143085920078   -0.0200667257829    0.994455704176      -0.0968668406548    0.994455704176      -0.0968668406548    -0.00143085920078   -0.0200667257829    
7400000000.0        -0.00148489964831   -0.0203396496849    0.99431856124       -0.0981929670564    0.99431856124       -0.0981929670564    -0.00148489964831   -0.0203396496849    
7500000000.0        -0.00153967382072   -0.0206124706209    0.994179559767      -0.0995190225237    0.994179559767      -0.0995190225237    -0.00153967382072   -0.0206124706209    
7600000000.0        -0.00159518155801   -0.0208851863445    0.994038699482      -0.100845004728     0.994038699482      -0.100845004728     -0.00159518155801   -0.0208851863445    
7700000000.0        -0.00165142269437   -0.0211577946006    0.993895980113      -0.102170911329     0.993895980113      -0.102170911329     -0.00165142269437   -0.0211577946006    
7800000000.0        -0.00170839705796   -0.0214302931252    0.993751401397      -0.103496739971     0.993751401397      -0.103496739971     -0.00170839705796   -0.0214302931252    
7900000000.0        -0.00176610447079   -0.0217026796465    0.993604963075      -0.104822488289     0.993604963075      -0.104822488289     -0.00176610447079   -0.0217026796465    
8000000000.0        -0.00182454474862   -0.0219749518839    0.993456664895      -0.106148153904     0.993456664895      -0.106148153904     -0.00182454474862   -0.0219749518839    
8100000000.0        -0.00188371770083   -0.0222471075491    0.99330650661       -0.107473734427     0.99330650661       -0.107473734427     -0.00188371770083   -0.0222471075491    
8200000000.0        -0.00194362313027   -0.0225191443458    0.993154487978      -0.108799227455     0.993154487978      -0.108799227455     -0.00194362313027   -0.0225191443458    
8300000000.0        -0.0020042608332    -0.0227910599701    0.993000608764      -0.110124630575     0.993000608764      -0.110124630575     -0.0020042608332    -0.0227910599701    
8400000000.0        -0.00206563059914   -0.0230628521105    0.992844868739      -0.111449941363     0.992844868739      -0.111449941363     -0.00206563059914   -0.0230628521105    
8500000000.0        -0.00212773221078   -0.0233345184482    0.992687267677      -0.112775157384     0.992687267677      -0.112775157384     -0.00212773221078   -0.0233345184482    
8600000000.0        -0.0021905654439    -0.0236060566572    0.992527805362      -0.114100276192     0.992527805362      -0.114100276192     -0.0021905654439    -0.0236060566572    
8700000000.0        -0.00225413006726   -0.0238774644044    0.992366481579      -0.115425295331     0.992366481579      -0.115425295331     -0.00225413006726   -0.0238774644044    
8800000000.0        -0.00231842584251   -0.02414873935      0.992203296124      -0.116750212333     0.992203296124      -0.116750212333     -0.00231842584251   -0.02414873935      
8900000000.0        -0.00238345252409   -0.0244198791474    0.992038248793      -0.118075024722     0.992038248793      -0.118075024722     -0.00238345252409   -0.0244198791474    
9000000000.0        -0.00244920985918   -0.0246908814432    0.991871339393      -0.119399730011     0.991871339393      -0.119399730011     -0.00244920985918   -0.0246908814432    
9100000000.0        -0.0025156975876    -0.024961743878     0.991702567733      -0.120724325705     0.991702567733      -0.120724325705     -0.0025156975876    -0.024961743878     
9200000000.0        -0.00258291544174   -0.0252324640859    0.99153193363       -0.122048809296     0.99153193363       -0.122048809296     -0.00258291544174   -0.0252324640859    
9300000000.0        -0.00265086314646   -0.0255030396949    0.991359436905      -0.123373178269     0.991359436905      -0.123373178269     -0.00265086314646   -0.0255030396949    
9400000000.0        -0.00271954041908   -0.025773468327     0.991185077386      -0.124697430101     0.991185077386      -0.124697430101     -0.00271954041908   -0.025773468327     
9500000000.0        -0.00278894696924   -0.0260437475985    0.991008854907      -0.126021562257     0.991008854907      -0.126021562257     -0.00278894696924   -0.0260437475985    
9600000000.0        -0.00285908249887   -0.0263138751199    0.990830769307      -0.127345572196     0.990830769307      -0.127345572196     -0.00285908249887   -0.0263138751199    
9700000000.0        -0.00292994670215   -0.0265838484962    0.990650820431      -0.128669457367     0.990650820431      -0.128669457367     -0.00292994670215   -0.0265838484962    
9800000000.0        -0.0030015392654    -0.0268536653268    0.990469008129      -0.129993215209     0.990469008129      -0.129993215209     -0.0030015392654    -0.0268536653268    
9900000000.0        -0.00307385986705   -0.0271233232061    0.99028533226       -0.131316843157     0.99028533226       -0.131316843157     -0.00307385986705   -0.0271233232061    
10000000000.0       -0.00314690817758   -0.0273928197232    0.990099792685      -0.132640338633     0.990099792685      -0.132640338633     -0.00314690817758   -0.0273928197232    
