# Hz S RI R 50.00 
100000000.0         0.010892150526      0.00108423353995    0.989090098422      -0.00599096004167   0.989090098422      -0.00599096004167   0.010892150526      0.00108423353995    
200000000.0         0.0109815526491     0.00216729219845    0.988959779498      -0.0119806317986    0.988959779498      -0.0119806317986    0.0109815526491     0.00216729219845    
300000000.0         0.011065203629      0.00324941919929    0.988811044763      -0.0179691794125    0.988811044763      -0.0179691794125    0.011065203629      0.00324941919929    
400000000.0         0.0111524581378     0.00433058963977    0.988634538517      -0.0239564960847    0.988634538517      -0.0239564960847    0.0111524581378     0.00433058963977    
500000000.0         0.0112469123851     0.00541071676262    0.988426663561      -0.0299424117409    0.988426663561      -0.0299424117409    0.0112469123851     0.00541071676262    
600000000.0         0.0113503937342     0.00648968666499    0.988185591538      -0.0359267282255    0.988185591538      -0.0359267282255    0.0113503937342     0.00648968666499    
700000000.0         0.0114639748758     0.00756737073627    0.987910248744      -0.0419092319836    0.987910248744      -0.0419092319836    0.0114639748758     0.00756737073627    
800000000.0         0.0115883439457     0.0086436314199     0.987599946007      -0.0478896999677    0.987599946007      -0.0478896999677    0.0115883439457     0.0086436314199     
900000000.0         0.0117239693056     0.00971832530871    0.987254213902      -0.0538679028254    0.987254213902      -0.0538679028254    0.0117239693056     0.00971832530871    
1000000000.0        0.0118711830585     0.0107913049814     0.986872719236      -0.0598436068009    0.986872719236      -0.0598436068009    0.0118711830585     0.0107913049814     
1100000000.0        0.0120302274685     0.0118624201739     0.986455218628      -0.0658165749516    0.986455218628      -0.0658165749516    0.0120302274685     0.0118624201739     
1200000000.0        0.0122012826183     0.0129315185695     0.986001530857      -0.0717865679722    0.986001530857      -0.0717865679722    0.0122012826183     0.0129315185695     
1300000000.0        0.0123844838087     0.0139984463564     0.98551151946       -0.0777533447784    0.98551151946       -0.0777533447784    0.0123844838087     0.0139984463564     
1400000000.0        0.0125799329944     0.0150630486362     0.984985081299      -0.0837166629344    0.984985081299      -0.0837166629344    0.0125799329944     0.0150630486362     
1500000000.0        0.0127877065769     0.0161251697325     0.984422138775      -0.0896762789775    0.984422138775      -0.0896762789775    0.0127877065769     0.0161251697325     
1600000000.0        0.0130078608787     0.0171846534313     0.983822634348      -0.09563194867      0.983822634348      -0.09563194867      0.0130078608787     0.0171846534313     
1700000000.0        0.0132404360883     0.0182413431723     0.983186526603      -0.1015834272       0.983186526603      -0.1015834272       0.0132404360883     0.0182413431723     
1800000000.0        0.0134854591695     0.0192950822049     0.982513787337      -0.107530469346     0.982513787337      -0.107530469346     0.0134854591695     0.0192950822049     
1900000000.0        0.0137429460471     0.020345713718      0.981804399377      -0.113472829609     0.981804399377      -0.113472829609     0.0137429460471     0.020345713718      
2000000000.0        0.0140129032789     0.0213930809495     0.981058354915      -0.119410262331     0.981058354915      -0.119410262331     0.0140129032789     0.0213930809495     
2100000000.0        0.0142953293539     0.022437027281      0.980275654204      -0.125342521791     0.980275654204      -0.125342521791     0.0142953293539     0.022437027281      
2200000000.0        0.0145902157154     0.0234773963199     0.979456304545      -0.131269362289     0.979456304545      -0.131269362289     0.0145902157154     0.0234773963199     
2300000000.0        0.0148975475757     0.0245140319727     0.97860031947       -0.137190538221     0.97860031947       -0.137190538221     0.0148975475757     0.0245140319727     
2400000000.0        0.0152173045742     0.0255467785102     0.977707718088      -0.143105804147     0.977707718088      -0.143105804147     0.0152173045742     0.0255467785102     
2500000000.0        0.0155494613136     0.0265754806269     0.976778524553      -0.149014914849     0.976778524553      -0.149014914849     0.0155494613136     0.0265754806269     
2600000000.0        0.0158939878013     0.0275999834949     0.975812767622      -0.154917625388     0.975812767622      -0.154917625388     0.0158939878013     0.0275999834949     
2700000000.0        0.0162508498162     0.0286201328143     0.974810480291      -0.160813691149     0.974810480291      -0.160813691149     0.0162508498162     0.0286201328143     
2800000000.0        0.0166200092164     0.0296357748595     0.973771699492      -0.166702867894     0.973771699492      -0.166702867894     0.0166200092164     0.0296357748595     
2900000000.0        0.0170014241988     0.030646756523      0.972696465836      -0.172584911797     0.972696465836      -0.172584911797     0.0170014241988     0.030646756523      
3000000000.0        0.0173950495207     0.0316529253565     0.971584823389      -0.17845957949      0.971584823389      -0.17845957949      0.0173950495207     0.0316529253565     
3100000000.0        0.0178008366897     0.0326541296096     0.970436819492      -0.184326628097     0.970436819492      -0.184326628097     0.0178008366897     0.0326541296096     
3200000000.0        0.018218734128      0.0336502182673     0.969252504592      -0.190185815271     0.969252504592      -0.190185815271     0.018218734128      0.0336502182673     
3300000000.0        0.0186486873153     0.0346410410853     0.968031932109      -0.196036899229     0.968031932109      -0.196036899229     0.0186486873153     0.0346410410853     
3400000000.0        0.0190906389143     0.0356264486243     0.966775158307      -0.201879638782     0.966775158307      -0.201879638782     0.0190906389143     0.0356264486243     
3500000000.0        0.0195445288813     0.0366062922824     0.965482242186      -0.207713793366     0.965482242186      -0.207713793366     0.0195445288813     0.0366062922824     
3600000000.0        0.0200102945646     0.0375804243275     0.964153245394      -0.213539123072     0.964153245394      -0.213539123072     0.0200102945646     0.0375804243275     
3700000000.0        0.0204878707924     0.0385486979274     0.962788232131      -0.219355388677     0.962788232131      -0.219355388677     0.0204878707924     0.0385486979274     
3800000000.0        0.0209771899518     0.0395109671797     0.961387269081      -0.225162351665     0.961387269081      -0.225162351665     0.0209771899518     0.0395109671797     
3900000000.0        0.0214781820606     0.0404670871413     0.959950425339      -0.230959774262     0.959950425339      -0.230959774262     0.0214781820606     0.0404670871413     
4000000000.0        0.0219907748328     0.0414169138557     0.958477772348      -0.236747419453     0.958477772348      -0.236747419453     0.0219907748328     0.0414169138557     
4100000000.0        0.022514893738      0.0423603043813     0.956969383845      -0.242525051014     0.956969383845      -0.242525051014     0.022514893738      0.0423603043813     
4200000000.0        0.0230504620569     0.0432971168179     0.955425335806      -0.248292433533     0.955425335806      -0.248292433533     0.0230504620569     0.0432971168179     
4300000000.0        0.0235974009324     0.0442272103326     0.953845706397      -0.254049332431     0.953845706397      -0.254049332431     0.0235974009324     0.0442272103326     
4400000000.0        0.0241556294172     0.0451504451861     0.952230575934      -0.259795513991     0.952230575934      -0.259795513991     0.0241556294172     0.0451504451861     
4500000000.0        0.0247250645189     0.0460666827572     0.950580026835      -0.265530745374     0.950580026835      -0.265530745374     0.0247250645189     0.0460666827572     
4600000000.0        0.0253056212414     0.0469757855677     0.948894143583      -0.271254794646     0.948894143583      -0.271254794646     0.0253056212414     0.0469757855677     
4700000000.0        0.0258972126256     0.0478776173062     0.947173012693      -0.276967430794     0.947173012693      -0.276967430794     0.0258972126256     0.0478776173062     
4800000000.0        0.0264997497868     0.0487720428519     0.94541672267       -0.28266842375      0.94541672267       -0.28266842375      0.0264997497868     0.0487720428519     
4900000000.0        0.0271131419511     0.0496589282977     0.943625363982      -0.288357544413     0.943625363982      -0.288357544413     0.0271131419511     0.0496589282977     
5000000000.0        0.0277372964901     0.0505381409724     0.941799029024      -0.294034564661     0.941799029024      -0.294034564661     0.0277372964901     0.0505381409724     
5100000000.0        0.0283721189543     0.0514095494636     0.939937812091      -0.299699257381     0.939937812091      -0.299699257381     0.0283721189543     0.0514095494636     
5200000000.0        0.0290175131058     0.052273023639      0.938041809346      -0.305351396476     0.938041809346      -0.305351396476     0.0290175131058     0.052273023639      
5300000000.0        0.0296733809493     0.0531284346679     0.936111118794      -0.310990756895     0.936111118794      -0.310990756895     0.0296733809493     0.0531284346679     
5400000000.0        0.0303396227625     0.0539756550422     0.934145840251      -0.316617114641     0.934145840251      -0.316617114641     0.0303396227625     0.0539756550422     
5500000000.0        0.0310161371265     0.0548145585969     0.932146075325      -0.322230246794     0.932146075325      -0.322230246794     0.0310161371265     0.0548145585969     
5600000000.0        0.0317028209542     0.0556450205301     0.930111927381      -0.327829931526     0.930111927381      -0.327829931526     0.0317028209542     0.0556450205301     
5700000000.0        0.0323995695191     0.0564669174233     0.928043501521      -0.333415948121     0.928043501521      -0.333415948121     0.0323995695191     0.0564669174233     
5800000000.0        0.0331062764838     0.0572801272598     0.925940904561      -0.338988076986     0.925940904561      -0.338988076986     0.0331062764838     0.0572801272598     
5900000000.0        0.0338228339267     0.0580845294448     0.923804245002      -0.344546099669     0.923804245002      -0.344546099669     0.0338228339267     0.0580845294448     
6000000000.0        0.0345491323701     0.0588800048231     0.921633633007      -0.350089798877     0.921633633007      -0.350089798877     0.0345491323701     0.0588800048231     
6100000000.0        0.0352850608069     0.0596664356977     0.919429180383      -0.355618958487     0.919429180383      -0.355618958487     0.0352850608069     0.0596664356977     
6200000000.0        0.0360305067268     0.0604437058477     0.917191000551      -0.361133363565     0.917191000551      -0.361133363565     0.0360305067268     0.0604437058477     
6300000000.0        0.0367853561434     0.0612117005455     0.914919208526      -0.366632800377     0.914919208526      -0.366632800377     0.0367853561434     0.0612117005455     
6400000000.0        0.0375494936199     0.0619703065743     0.912613920896      -0.372117056403     0.912613920896      -0.372117056403     0.0375494936199     0.0619703065743     
6500000000.0        0.0383228022952     0.0627194122444     0.910275255796      -0.377585920353     0.910275255796      -0.377585920353     0.0383228022952     0.0627194122444     
6600000000.0        0.0391051639102     0.0634589074096     0.907903332891      -0.383039182179     0.907903332891      -0.383039182179     0.0391051639102     0.0634589074096     
6700000000.0        0.0398964588327     0.0641886834835     0.905498273348      -0.388476633087     0.905498273348      -0.388476633087     0.0398964588327     0.0641886834835     
6800000000.0        0.0406965660839     0.0649086334548     0.903060199818      -0.393898065551     0.903060199818      -0.393898065551     0.0406965660839     0.0649086334548     
6900000000.0        0.0415053633634     0.0656186519025     0.900589236415      -0.399303273324     0.900589236415      -0.399303273324     0.0415053633634     0.0656186519025     
7000000000.0        0.0423227270748     0.0663186350113     0.89808550869       -0.40469205145      0.89808550869       -0.40469205145      0.0423227270748     0.0663186350113     
7100000000.0        0.0431485323512     0.0670084805852     0.895549143616      -0.410064196276     0.895549143616      -0.410064196276     0.0431485323512     0.0670084805852     
7200000000.0        0.0439826530803     0.0676880880624     0.892980269559      -0.415419505463     0.892980269559      -0.415419505463     0.0439826530803     0.0676880880624     
7300000000.0        0.04482496193       0.0683573585289     0.890379016264      -0.420757777997     0.890379016264      -0.420757777997     0.04482496193       0.0683573585289     
7400000000.0        0.0456753303734     0.0690161947317     0.88774551483       -0.426078814197     0.88774551483       -0.426078814197     0.0456753303734     0.0690161947317     
7500000000.0        0.0465336287142     0.0696645010919     0.885079897687      -0.431382415729     0.885079897687      -0.431382415729     0.0465336287142     0.0696645010919     
7600000000.0        0.0473997261119     0.0703021837177     0.882382298581      -0.436668385613     0.882382298581      -0.436668385613     0.0473997261119     0.0703021837177     
7700000000.0        0.0482734906069     0.0709291504162     0.879652852547      -0.441936528231     0.879652852547      -0.441936528231     0.0482734906069     0.0709291504162     
7800000000.0        0.0491547891459     0.0715453107058     0.876891695892      -0.44718664934      0.876891695892      -0.44718664934      0.0491547891459     0.0715453107058     
7900000000.0        0.0500434876067     0.0721505758274     0.874098966171      -0.452418556078     0.874098966171      -0.452418556078     0.0500434876067     0.0721505758274     
8000000000.0        0.0509394508238     0.0727448587561     0.871274802169      -0.457632056973     0.871274802169      -0.457632056973     0.0509394508238     0.0727448587561     
8100000000.0        0.0518425426133     0.0733280742116     0.868419343879      -0.462826961949     0.868419343879      -0.462826961949     0.0518425426133     0.0733280742116     
8200000000.0        0.0527526257984     0.0739001386689     0.865532732482      -0.468003082338     0.865532732482      -0.468003082338     0.0527526257984     0.0739001386689     
8300000000.0        0.0536695622338     0.0744609703688     0.862615110324      -0.473160230882     0.862615110324      -0.473160230882     0.0536695622338     0.0744609703688     
8400000000.0        0.054593212832      0.0750104893269     0.859666620898      -0.478298221744     0.859666620898      -0.478298221744     0.054593212832      0.0750104893269     
8500000000.0        0.0555234375873     0.0755486173437     0.856687408823      -0.483416870513     0.856687408823      -0.483416870513     0.0555234375873     0.0755486173437     
8600000000.0        0.0564600956018     0.0760752780134     0.853677619823      -0.48851599421      0.853677619823      -0.48851599421      0.0564600956018     0.0760752780134     
8700000000.0        0.0574030451102     0.0765903967328     0.850637400707      -0.493595411293     0.850637400707      -0.493595411293     0.0574030451102     0.0765903967328     
8800000000.0        0.058352143505      0.0770939007093     0.847566899347      -0.498654941666     0.847566899347      -0.498654941666     0.058352143505      0.0770939007093     
8900000000.0        0.0593072473614     0.0775857189693     0.844466264659      -0.503694406681     0.844466264659      -0.503694406681     0.0593072473614     0.0775857189693     
9000000000.0        0.0602682124631     0.0780657823658     0.841335646585      -0.508713629143     0.841335646585      -0.508713629143     0.0602682124631     0.0780657823658     
9100000000.0        0.0612348938265     0.0785340235853     0.838175196068      -0.513712433317     0.838175196068      -0.513712433317     0.0612348938265     0.0785340235853     
9200000000.0        0.0622071457267     0.0789903771552     0.834985065036      -0.518690644931     0.834985065036      -0.518690644931     0.0622071457267     0.0789903771552     
9300000000.0        0.063184821722      0.0794347794503     0.831765406379      -0.523648091178     0.831765406379      -0.523648091178     0.063184821722      0.0794347794503     
9400000000.0        0.064167774679      0.079867168699      0.828516373931      -0.528584600723     0.828516373931      -0.528584600723     0.064167774679      0.079867168699      
9500000000.0        0.0651558567981     0.0802874849892     0.82523812245       -0.533500003704     0.82523812245       -0.533500003704     0.0651558567981     0.0802874849892     
9600000000.0        0.066148919638      0.0806956702737     0.821930807597      -0.538394131736     0.821930807597      -0.538394131736     0.066148919638      0.0806956702737     
9700000000.0        0.067146814141      0.0810916683758     0.818594585916      -0.543266817912     0.818594585916      -0.543266817912     0.067146814141      0.0810916683758     
9800000000.0        0.068149390658      0.081475424994      0.815229614816      -0.548117896809     0.815229614816      -0.548117896809     0.068149390658      0.081475424994      
9900000000.0        0.0691564989731     0.0818468877064     0.811836052552      -0.552947204486     0.811836052552      -0.552947204486     0.0691564989731     0.0818468877064     
10000000000.0       0.0701679883288     0.0822060059751     0.808414058202      -0.557754578488     0.808414058202      -0.557754578488     0.0701679883288     0.0822060059751     
