# Hz S RI R 50.00 
100000000.0         0.0321406339562     0.00115971173447    0.967857325854      -0.00194009807749   0.967857325854      -0.00194009807749   0.0321406339562     0.00115971173447    
200000000.0         0.0323518901496     0.00231808837502    0.967644413633      -0.00387886140454   0.967644413633      -0.00387886140454   0.0323518901496     0.00231808837502    
300000000.0         0.032511944636      0.00347564652302    0.967482087195      -0.00581680749323   0.967482087195      -0.00581680749323   0.032511944636      0.00347564652302    
400000000.0         0.0326480091406     0.0046325529949     0.96734313475       -0.00775410393055   0.96734313475       -0.00775410393055   0.0326480091406     0.0046325529949     
500000000.0         0.0327705936917     0.0057888931603     0.967217046214      -0.00969083678709   0.967217046214      -0.00969083678709   0.0327705936917     0.0057888931603     
600000000.0         0.0328850730074     0.00694471628641    0.967098446816      -0.011627055986     0.967098446816      -0.011627055986     0.0328850730074     0.00694471628641    
700000000.0         0.0329946304818     0.00810005182748    0.966984153113      -0.0135627916051    0.966984153113      -0.0135627916051    0.0329946304818     0.00810005182748    
800000000.0         0.0331013338864     0.0092549169807     0.966872097283      -0.0154980614402    0.966872097283      -0.0154980614402    0.0331013338864     0.0092549169807     
900000000.0         0.0332066148615     0.0104093207443     0.966760847638      -0.017432875068     0.966760847638      -0.017432875068     0.0332066148615     0.0104093207443     
1000000000.0        0.033311512225      0.0115632663199     0.966649365307      -0.0193672362521    0.966649365307      -0.0193672362521    0.033311512225      0.0115632663199     
1100000000.0        0.0334168073715     0.012716752638      0.966536868847      -0.0213011444705    0.966536868847      -0.0213011444705    0.0334168073715     0.012716752638      
1200000000.0        0.0335231050382     0.013869775379      0.966422753467      -0.0232345959395    0.966422753467      -0.0232345959395    0.0335231050382     0.013869775379      
1300000000.0        0.0336308841731     0.0150223276867     0.966306540165      -0.0251675843274    0.966306540165      -0.0251675843274    0.0336308841731     0.0150223276867     
1400000000.0        0.0337405314059     0.0161744006824     0.966187842257      -0.027100101271     0.966187842257      -0.027100101271     0.0337405314059     0.0161744006824     
1500000000.0        0.0338523638799     0.0173259838473     0.966066342541      -0.0290321367583    0.966066342541      -0.0290321367583    0.0338523638799     0.0173259838473     
1600000000.0        0.0339666453036     0.0184770653128     0.96594177725       -0.0309636794199    0.96594177725       -0.0309636794199    0.0339666453036     0.0184770653128     
1700000000.0        0.0340835975319     0.019627632086      0.965813924468      -0.0328947167548    0.965813924468      -0.0328947167548    0.0340835975319     0.019627632086      
1800000000.0        0.0342034091062     0.0207776702267     0.96568259559       -0.0348252353085    0.96568259559       -0.0348252353085    0.0342034091062     0.0207776702267     
1900000000.0        0.0343262416782     0.0219271649902     0.965547628899      -0.036755220816     0.965547628899      -0.036755220816     0.0343262416782     0.0219271649902     
2000000000.0        0.0344522349213     0.0230761009423     0.965408884655      -0.0386846583173    0.965408884655      -0.0386846583173    0.0344522349213     0.0230761009423     
2100000000.0        0.0345815103456     0.0242244620546     0.965266241278      -0.0406135322529    0.965266241278      -0.0406135322529    0.0345815103456     0.0242244620546     
2200000000.0        0.0347141742987     0.0253722317825     0.965119592348      -0.0425418265428    0.965119592348      -0.0425418265428    0.0347141742987     0.0253722317825     
2300000000.0        0.0348503203572     0.0265193931321     0.964968844216      -0.0444695246524    0.964968844216      -0.0444695246524    0.0348503203572     0.0265193931321     
2400000000.0        0.0349900312513     0.027665928715      0.964813914075      -0.046396609649     0.964813914075      -0.046396609649     0.0349900312513     0.027665928715      
2500000000.0        0.0351333804301     0.0288118207965     0.964654728397      -0.0483230642494    0.964654728397      -0.0483230642494    0.0351333804301     0.0288118207965     
2600000000.0        0.035280433347      0.0299570513359     0.964491221648      -0.0502488708607    0.964491221648      -0.0502488708607    0.035280433347      0.0299570513359     
2700000000.0        0.0354312485221     0.0311016020223     0.964323335226      -0.0521740116159    0.964323335226      -0.0521740116159    0.0354312485221     0.0311016020223     
2800000000.0        0.0355858784283     0.0322454543047     0.964151016571      -0.0540984684047    0.964151016571      -0.0540984684047    0.0355858784283     0.0322454543047     
2900000000.0        0.0357443702357     0.033388589419      0.963974218426      -0.0560222229005    0.963974218426      -0.0560222229005    0.0357443702357     0.033388589419      
3000000000.0        0.03590676644       0.0345309884118     0.963792898207      -0.0579452565842    0.963792898207      -0.0579452565842    0.03590676644       0.0345309884118     
3100000000.0        0.0360731053971     0.0356726321607     0.963607017463      -0.0598675507647    0.963607017463      -0.0598675507647    0.0360731053971     0.0356726321607     
3200000000.0        0.0362434217798     0.0368135013936     0.963416541429      -0.0617890865983    0.963416541429      -0.0617890865983    0.0362434217798     0.0368135013936     
3300000000.0        0.0364177469708     0.0379535767042     0.963221438623      -0.0637098451044    0.963221438623      -0.0637098451044    0.0364177469708     0.0379535767042     
3400000000.0        0.0365961094014     0.0390928385677     0.963021680517      -0.0656298071813    0.963021680517      -0.0656298071813    0.0365961094014     0.0390928385677     
3500000000.0        0.036778534846      0.0402312673536     0.962817241233      -0.0675489536189    0.962817241233      -0.0675489536189    0.036778534846      0.0402312673536     
3600000000.0        0.0369650466782     0.0413688433377     0.962608097294      -0.0694672651111    0.962608097294      -0.0694672651111    0.0369650466782     0.0413688433377     
3700000000.0        0.0371556660953     0.0425055467131     0.962394227396      -0.0713847222666    0.962394227396      -0.0713847222666    0.0371556660953     0.0425055467131     
3800000000.0        0.0373504123147     0.0436413576001     0.962175612213      -0.0733013056192    0.962175612213      -0.0733013056192    0.0373504123147     0.0436413576001     
3900000000.0        0.037549302748      0.0447762560552     0.961952234223      -0.0752169956364    0.961952234223      -0.0752169956364    0.037549302748      0.0447762560552     
4000000000.0        0.0377523531543     0.0459102220792     0.961724077552      -0.0771317727281    0.961724077552      -0.0771317727281    0.0377523531543     0.0459102220792     
4100000000.0        0.0379595777762     0.0470432356251     0.961491127843      -0.079045617254     0.961491127843      -0.079045617254     0.0379595777762     0.0470432356251     
4200000000.0        0.0381709894612     0.0481752766046     0.961253372129      -0.0809585095308    0.961253372129      -0.0809585095308    0.0381709894612     0.0481752766046     
4300000000.0        0.0383865997699     0.0493063248949     0.961010798729      -0.0828704298387    0.961010798729      -0.0828704298387    0.0383865997699     0.0493063248949     
4400000000.0        0.0386064190726     0.0504363603447     0.96076339715       -0.0847813584272    0.96076339715       -0.0847813584272    0.0386064190726     0.0504363603447     
4500000000.0        0.0388304566367     0.0515653627793     0.960511158         -0.0866912755207    0.960511158         -0.0866912755207    0.0388304566367     0.0515653627793     
4600000000.0        0.0390587207045     0.0526933120061     0.960254072907      -0.0886001613241    0.960254072907      -0.0886001613241    0.0390587207045     0.0526933120061     
4700000000.0        0.0392912185636     0.0538201878194     0.959992134455      -0.0905079960269    0.959992134455      -0.0905079960269    0.0392912185636     0.0538201878194     
4800000000.0        0.0395279566114     0.0549459700047     0.959725336114      -0.0924147598086    0.959725336114      -0.0924147598086    0.0395279566114     0.0549459700047     
4900000000.0        0.039768940412      0.056070638343      0.959453672184      -0.0943204328421    0.959453672184      -0.0943204328421    0.039768940412      0.056070638343      
5000000000.0        0.0400141747494     0.0571941726145     0.959177137745      -0.0962249952982    0.959177137745      -0.0962249952982    0.0400141747494     0.0571941726145     
5100000000.0        0.040263663675      0.0583165526028     0.958895728605      -0.0981284273492    0.958895728605      -0.0981284273492    0.040263663675      0.0583165526028     
5200000000.0        0.040517410551      0.0594377580978     0.95860944126       -0.100030709172     0.95860944126       -0.100030709172     0.040517410551      0.0594377580978     
5300000000.0        0.0407754180903     0.0605577688995     0.958318272853      -0.101931820953     0.958318272853      -0.101931820953     0.0407754180903     0.0605577688995     
5400000000.0        0.0410376883931     0.0616765648208     0.958022221137      -0.103831742888     0.958022221137      -0.103831742888     0.0410376883931     0.0616765648208     
5500000000.0        0.0413042229801     0.0627941256906     0.957721284442      -0.10573045519      0.957721284442      -0.10573045519      0.0413042229801     0.0627941256906     
5600000000.0        0.0415750228231     0.0639104313563     0.957415461646      -0.107627938087     0.957415461646      -0.107627938087     0.0415750228231     0.0639104313563     
5700000000.0        0.0418500883734     0.065025461687      0.957104752142      -0.109524171827     0.957104752142      -0.109524171827     0.0418500883734     0.065025461687      
5800000000.0        0.0421294195878     0.0661391965756     0.956789155818      -0.111419136683     0.956789155818      -0.111419136683     0.0421294195878     0.0661391965756     
5900000000.0        0.0424130159524     0.0672516159414     0.95646867303       -0.11331281295      0.95646867303       -0.11331281295      0.0424130159524     0.0672516159414     
6000000000.0        0.0427008765051     0.0683626997323     0.956143304578      -0.115205180952     0.956143304578      -0.115205180952     0.0427008765051     0.0683626997323     
6100000000.0        0.0429929998558     0.0694724279272     0.955813051689      -0.117096221042     0.955813051689      -0.117096221042     0.0429929998558     0.0694724279272     
6200000000.0        0.0432893842059     0.0705807805379     0.955477915997      -0.118985913604     0.955477915997      -0.118985913604     0.0432893842059     0.0705807805379     
6300000000.0        0.0435900273656     0.0716877376113     0.955137899523      -0.120874239058     0.955137899523      -0.120874239058     0.0435900273656     0.0716877376113     
6400000000.0        0.0438949267704     0.0727932792312     0.954793004662      -0.122761177858     0.954793004662      -0.122761177858     0.0438949267704     0.0727932792312     
6500000000.0        0.0442040794968     0.0738973855202     0.954443234163      -0.124646710495     0.954443234163      -0.124646710495     0.0442040794968     0.0738973855202     
6600000000.0        0.044517482276      0.0750000366418     0.954088591122      -0.1265308175       0.954088591122      -0.1265308175       0.044517482276      0.0750000366418     
6700000000.0        0.0448351315078     0.0761012128015     0.95372907896       -0.128413479447     0.95372907896       -0.128413479447     0.0448351315078     0.0761012128015     
6800000000.0        0.0451570232726     0.0772008942493     0.953364701418      -0.13029467695      0.953364701418      -0.13029467695      0.0451570232726     0.0772008942493     
6900000000.0        0.0454831533436     0.0782990612805     0.95299546254       -0.13217439067      0.95299546254       -0.13217439067      0.0454831533436     0.0782990612805     
7000000000.0        0.045813517197      0.079395694238      0.952621366666      -0.134052601311     0.952621366666      -0.134052601311     0.045813517197      0.079395694238      
7100000000.0        0.0461481100231     0.0804907735133     0.952242418419      -0.135929289628     0.952242418419      -0.135929289628     0.0461481100231     0.0804907735133     
7200000000.0        0.0464869267352     0.0815842795479     0.951858622696      -0.137804436424     0.951858622696      -0.137804436424     0.0464869267352     0.0815842795479     
7300000000.0        0.0468299619793     0.0826761928355     0.951469984659      -0.13967802255      0.951469984659      -0.13967802255      0.0468299619793     0.0826761928355     
7400000000.0        0.0471772101421     0.0837664939223     0.951076509729      -0.141550028913     0.951076509729      -0.141550028913     0.0471772101421     0.0837664939223     
7500000000.0        0.0475286653596     0.0848551634091     0.950678203573      -0.143420436471     0.950678203573      -0.143420436471     0.0475286653596     0.0848551634091     
7600000000.0        0.047884321524      0.0859421819525     0.9502750721        -0.145289226236     0.9502750721        -0.145289226236     0.047884321524      0.0859421819525     
7700000000.0        0.0482441722915     0.0870275302658     0.949867121454      -0.147156379278     0.949867121454      -0.147156379278     0.0482441722915     0.0870275302658     
7800000000.0        0.048608211089      0.0881111891206     0.949454358003      -0.149021876722     0.949454358003      -0.149021876722     0.048608211089      0.0881111891206     
7900000000.0        0.0489764311201     0.0891931393478     0.94903678834       -0.150885699752     0.94903678834       -0.150885699752     0.0489764311201     0.0891931393478     
8000000000.0        0.0493488253718     0.0902733618388     0.948614419269      -0.152747829613     0.948614419269      -0.152747829613     0.0493488253718     0.0902733618388     
8100000000.0        0.0497253866197     0.0913518375467     0.948187257805      -0.154608247608     0.948187257805      -0.154608247608     0.0497253866197     0.0913518375467     
8200000000.0        0.050106107434      0.0924285474874     0.947755311164      -0.156466935103     0.947755311164      -0.156466935103     0.050106107434      0.0924285474874     
8300000000.0        0.0504909801844     0.0935034727407     0.947318586762      -0.158323873528     0.947318586762      -0.158323873528     0.0504909801844     0.0935034727407     
8400000000.0        0.0508799970452     0.094576594451      0.946877092208      -0.160179044375     0.946877092208      -0.160179044375     0.0508799970452     0.094576594451      
8500000000.0        0.0512731500002     0.095647893829      0.946430835299      -0.162032429202     0.946430835299      -0.162032429202     0.0512731500002     0.095647893829      
8600000000.0        0.0516704308468     0.0967173521521     0.945979824014      -0.163884009633     0.945979824014      -0.163884009633     0.0516704308468     0.0967173521521     
8700000000.0        0.0520718312006     0.0977849507657     0.945524066515      -0.165733767358     0.945524066515      -0.165733767358     0.0520718312006     0.0977849507657     
8800000000.0        0.0524773424997     0.098850671084      0.945063571137      -0.167581684136     0.945063571137      -0.167581684136     0.0524773424997     0.098850671084      
8900000000.0        0.0528869560083     0.0999144945911     0.944598346386      -0.169427741794     0.944598346386      -0.169427741794     0.0528869560083     0.0999144945911     
9000000000.0        0.0533006628207     0.100976402842      0.944128400937      -0.171271922229     0.944128400937      -0.171271922229     0.0533006628207     0.100976402842      
9100000000.0        0.0537184538648     0.102036377462      0.943653743629      -0.17311420741      0.943653743629      -0.17311420741      0.0537184538648     0.102036377462      
9200000000.0        0.0541403199057     0.103094400152      0.943174383462      -0.174954579375     0.943174383462      -0.174954579375     0.0541403199057     0.103094400152      
9300000000.0        0.054566251549      0.104150452683      0.94269032959       -0.176793020237     0.94269032959       -0.176793020237     0.054566251549      0.104150452683      
9400000000.0        0.054996239244      0.105204516901      0.942201591324      -0.17862951218      0.942201591324      -0.17862951218      0.054996239244      0.105204516901      
9500000000.0        0.0554302732867     0.106256574729      0.941708178127      -0.180464037465     0.941708178127      -0.180464037465     0.0554302732867     0.106256574729      
9600000000.0        0.0558683438231     0.107306608163      0.941210099605      -0.182296578424     0.941210099605      -0.182296578424     0.0558683438231     0.107306608163      
9700000000.0        0.0563104408516     0.108354599278      0.940707365515      -0.184127117469     0.940707365515      -0.184127117469     0.0563104408516     0.108354599278      
9800000000.0        0.0567565542261     0.109400530225      0.940199985751      -0.185955637086     0.940199985751      -0.185955637086     0.0567565542261     0.109400530225      
9900000000.0        0.0572066736587     0.110444383234      0.93968797035       -0.187782119838     0.93968797035       -0.187782119838     0.0572066736587     0.110444383234      
10000000000.0       0.0576607887221     0.111486140613      0.939171329485      -0.189606548368     0.939171329485      -0.189606548368     0.0576607887221     0.111486140613      
