# Hz S RI R 50.00 
100000000.0         0.000471374753046   -0.000326622173562  0.999523389325      -0.0017781723608    0.999523389325      -0.0017781723608    0.000471374753046   -0.000326622173562  
200000000.0         0.000471800329962   -0.000653269341927  0.999514296585      -0.00355637538677   0.999514296585      -0.00355637538677   0.000471800329962   -0.000653269341927  
300000000.0         0.000470233927154   -0.00097994585563   0.999502763901      -0.00533463204452   0.999502763901      -0.00533463204452   0.000470233927154   -0.00097994585563   
400000000.0         0.00046708515105    -0.00130665542998   0.999488380781      -0.00711295689034   0.999488380781      -0.00711295689034   0.00046708515105    -0.00130665542998   
500000000.0         0.000462511265744   -0.00163340075762   0.999470988919      -0.00889136087939   0.999470988919      -0.00889136087939   0.000462511265744   -0.00163340075762   
600000000.0         0.000456592129211   -0.00196018371415   0.999450507285      -0.0106698527218    0.999450507285      -0.0106698527218    0.000456592129211   -0.00196018371415   
700000000.0         0.000449374636536   -0.0022870055126    0.999426887698      -0.0124484395287    0.999426887698      -0.0124484395287    0.000449374636536   -0.0022870055126    
800000000.0         0.000440888932404   -0.00261386681309   0.999400098631      -0.0142271271843    0.999400098631      -0.0142271271843    0.000440888932404   -0.00261386681309   
900000000.0         0.000431155627022   -0.00294076780231   0.999370118007      -0.016005920586     0.999370118007      -0.016005920586     0.000431155627022   -0.00294076780231   
1000000000.0        0.000420189452952   -0.00326770825368   0.999336929551      -0.0177848238099    0.999336929551      -0.0177848238099    0.000420189452952   -0.00326770825368   
1100000000.0        0.000408001297837   -0.00359468757423   0.999300520766      -0.019563840232     0.999300520766      -0.019563840232     0.000408001297837   -0.00359468757423   
1200000000.0        0.000394599415844   -0.00392170484173   0.999260881735      -0.0213429726199    0.999260881735      -0.0213429726199    0.000394599415844   -0.00392170484173   
1300000000.0        0.000379990190179   -0.00424875883518   0.999218004354      -0.0231222232042    0.999218004354      -0.0231222232042    0.000379990190179   -0.00424875883518   
1400000000.0        0.000364178634643   -0.00457584806016   0.999171881849      -0.0249015937368    0.999171881849      -0.0249015937368    0.000364178634643   -0.00457584806016   
1500000000.0        0.000347168735768   -0.00490297077017   0.99912250843       -0.0266810855371    0.99912250843       -0.0266810855371    0.000347168735768   -0.00490297077017   
1600000000.0        0.000328963693452   -0.00523012498493   0.99906987906       -0.0284606995316    0.99906987906       -0.0284606995316    0.000328963693451   -0.00523012498493   
1700000000.0        0.000309566094688   -0.00555730850622   0.999013989287      -0.030240436287     0.999013989287      -0.030240436287     0.000309566094688   -0.00555730850622   
1800000000.0        0.000288978041877   -0.00588451893193   0.998954835115      -0.0320202960384    0.998954835115      -0.0320202960384    0.000288978041877   -0.00588451893193   
1900000000.0        0.000267201249467   -0.00621175366809   0.998892412917      -0.0338002787139    0.998892412917      -0.0338002787139    0.000267201249467   -0.00621175366809   
2000000000.0        0.00024423711805    -0.00653900994004   0.998826719361      -0.0355803839559    0.998826719361      -0.0355803839559    0.00024423711805    -0.00653900994004   
2100000000.0        0.000220086792058   -0.00686628480217   0.998757751357      -0.0373606111396    0.998757751357      -0.0373606111396    0.000220086792058   -0.00686628480217   
2200000000.0        0.000194751205326   -0.00719357514679   0.998685506016      -0.0391409593905    0.998685506016      -0.0391409593905    0.000194751205326   -0.00719357514679   
2300000000.0        0.000168231117531   -0.00752087771222   0.998609980614      -0.0409214275982    0.998609980614      -0.0409214275982    0.000168231117531   -0.00752087771222   
2400000000.0        0.000140527143682   -0.00784818909021   0.998531172568      -0.0427020144309    0.998531172568      -0.0427020144309    0.000140527143682   -0.00784818909021   
2500000000.0        0.000111639778231   -0.00817550573263   0.998449079413      -0.0444827183467    0.998449079413      -0.0444827183467    0.000111639778231   -0.00817550573263   
2600000000.0        8.15694149854e-05   -0.00850282395779   0.998363698785      -0.0462635376048    0.998363698785      -0.0462635376048    8.15694149858e-05   -0.00850282395779   
2700000000.0        5.03163637047e-05   -0.00883013995617   0.998275028408      -0.0480444702759    0.998275028408      -0.0480444702759    5.03163637045e-05   -0.00883013995617   
2800000000.0        1.78808640368e-05   -0.00915744979584   0.998183066082      -0.0498255142508    0.998183066082      -0.0498255142508    1.78808640368e-05   -0.00915744979584   
2900000000.0        -1.57369026711e-05  -0.00948474942746   0.998087809671      -0.0516066672493    0.998087809671      -0.0516066672493    -1.57369026708e-05  -0.00948474942746   
3000000000.0        -5.05368033011e-05  -0.00981203468896   0.9979892571        -0.0533879268276    0.9979892571        -0.0533879268276    -5.05368033011e-05  -0.00981203468896   
3100000000.0        -8.65187443129e-05  -0.0101393013099    0.997887406344      -0.0551692903861    0.997887406344      -0.0551692903861    -8.65187443129e-05  -0.0101393013099    
3200000000.0        -0.000123682664269  -0.0104665449157    0.997782255425      -0.0569507551755    0.997782255425      -0.0569507551755    -0.000123682664269  -0.0104665449157    
3300000000.0        -0.000162028527329  -0.0107937610316    0.997673802406      -0.0587323183034    0.997673802406      -0.0587323183034    -0.000162028527329  -0.0107937610316    
3400000000.0        -0.000201556317562  -0.0111209450858    0.997562045387      -0.0605139767399    0.997562045387      -0.0605139767399    -0.000201556317562  -0.0111209450858    
3500000000.0        -0.000242266033947  -0.011448092414     0.997446982504      -0.0622957273232    0.997446982504      -0.0622957273232    -0.000242266033947  -0.011448092414     
3600000000.0        -0.000284157685956  -0.0117751982616    0.997328611925      -0.0640775667649    0.997328611925      -0.0640775667649    -0.000284157685956  -0.0117751982616    
3700000000.0        -0.000327231289622  -0.0121022577875    0.997206931844      -0.0658594916546    0.997206931844      -0.0658594916546    -0.000327231289622  -0.0121022577875    
3800000000.0        -0.000371486864048  -0.012429266067     0.997081940485      -0.0676414984641    0.997081940485      -0.0676414984641    -0.000371486864048  -0.012429266067     
3900000000.0        -0.000416924428265  -0.0127562180946    0.996953636098      -0.0694235835525    0.996953636098      -0.0694235835525    -0.000416924428265  -0.0127562180946    
4000000000.0        -0.000463543998411  -0.0130831087865    0.996822016957      -0.0712057431696    0.996822016957      -0.0712057431696    -0.000463543998411  -0.0130831087865    
4100000000.0        -0.000511345585189  -0.0134099329836    0.996687081358      -0.0729879734599    0.996687081358      -0.0729879734599    -0.000511345585188  -0.0134099329836    
4200000000.0        -0.000560329191551  -0.0137366854539    0.996548827619      -0.0747702704664    0.996548827619      -0.0747702704664    -0.000560329191551  -0.0137366854539    
4300000000.0        -0.000610494810606  -0.0140633608947    0.996407254081      -0.0765526301338    0.996407254081      -0.0765526301338    -0.000610494810606  -0.0140633608947    
4400000000.0        -0.000661842423701  -0.0143899539349    0.996262359105      -0.078335048312     0.996262359105      -0.078335048312     -0.000661842423701  -0.0143899539349    
4500000000.0        -0.000714371998669  -0.0147164591377    0.99611414107       -0.0801175207591    0.99611414107       -0.0801175207591    -0.000714371998669  -0.0147164591377    
4600000000.0        -0.00076808348822   -0.015042871002     0.995962598378      -0.0819000431445    0.995962598378      -0.0819000431445    -0.00076808348822   -0.015042871002     
4700000000.0        -0.000822976828459  -0.015369183965     0.995807729447      -0.0836826110517    0.995807729447      -0.0836826110517    -0.000822976828459  -0.015369183965     
4800000000.0        -0.000879051937523  -0.0156953924039    0.995649532715      -0.0854652199809    0.995649532715      -0.0854652199809    -0.000879051937523  -0.0156953924039    
4900000000.0        -0.000936308714313  -0.0160214906379    0.995488006639      -0.0872478653519    0.995488006639      -0.0872478653519    -0.000936308714313  -0.0160214906379    
5000000000.0        -0.000994747037324  -0.0163474729302    0.995323149694      -0.0890305425064    0.995323149694      -0.0890305425064    -0.000994747037324  -0.0163474729302    
5100000000.0        -0.00105436676355   -0.0166733334892    0.995154960372      -0.0908132467102    0.995154960372      -0.0908132467102    -0.00105436676355   -0.0166733334892    
5200000000.0        -0.00111516772748   -0.016999066471     0.994983437185      -0.0925959731562    0.994983437185      -0.0925959731562    -0.00111516772748   -0.016999066471     
5300000000.0        -0.00117714974015   -0.0173246659806    0.994808578663      -0.0943787169657    0.994808578663      -0.0943787169657    -0.00117714974015   -0.0173246659806    
5400000000.0        -0.00124031258824   -0.0176501260734    0.994630383351      -0.0961614731913    0.994630383351      -0.0961614731913    -0.00124031258824   -0.0176501260734    
5500000000.0        -0.00130465603327   -0.0179754407572    0.994448849815      -0.0979442368182    0.994448849815      -0.0979442368182    -0.00130465603327   -0.0179754407572    
5600000000.0        -0.0013701798108    -0.0183006039934    0.994263976639      -0.0997270027671    0.994263976639      -0.0997270027671    -0.0013701798108    -0.0183006039934    
5700000000.0        -0.00143688362972   -0.0186256096984    0.994075762422      -0.101509765895     0.994075762422      -0.101509765895     -0.00143688362972   -0.0186256096984    
5800000000.0        -0.00150476717157   -0.0189504517453    0.993884205784      -0.103292520999     0.993884205784      -0.103292520999     -0.00150476717157   -0.0189504517453    
5900000000.0        -0.00157383008984   -0.0192751239652    0.993689305363      -0.105075262814     0.993689305363      -0.105075262814     -0.00157383008984   -0.0192751239652    
6000000000.0        -0.00164407200943   -0.0195996201483    0.993491059812      -0.106857986019     0.993491059812      -0.106857986019     -0.00164407200943   -0.0195996201483    
6100000000.0        -0.00171549252604   -0.0199239340456    0.993289467807      -0.108640685238     0.993289467807      -0.108640685238     -0.00171549252604   -0.0199239340456    
6200000000.0        -0.00178809120562   -0.0202480593698    0.993084528038      -0.110423355037     0.993084528038      -0.110423355037     -0.00178809120562   -0.0202480593698    
6300000000.0        -0.00186186758385   -0.0205719897969    0.992876239215      -0.112205989932     0.992876239215      -0.112205989932     -0.00186186758385   -0.0205719897969    
6400000000.0        -0.00193682116568   -0.020895718967     0.992664600068      -0.113988584386     0.992664600068      -0.113988584386     -0.00193682116568   -0.020895718967     
6500000000.0        -0.00201295142487   -0.021219240486     0.992449609344      -0.115771132813     0.992449609344      -0.115771132813     -0.00201295142487   -0.021219240486     
6600000000.0        -0.0020902578035    -0.0215425479261    0.992231265809      -0.117553629576     0.992231265809      -0.117553629576     -0.0020902578035    -0.0215425479261    
6700000000.0        -0.0021687397116    -0.0218656348276    0.992009568248      -0.119336068993     0.992009568248      -0.119336068993     -0.0021687397116    -0.0218656348276    
6800000000.0        -0.00224839652676   -0.0221884946994    0.991784515464      -0.121118445335     0.991784515464      -0.121118445335     -0.00224839652676   -0.0221884946994    
6900000000.0        -0.00232922759372   -0.0225111210204    0.991556106282      -0.122900752827     0.991556106282      -0.122900752827     -0.00232922759372   -0.0225111210204    
7000000000.0        -0.00241123222403   -0.0228335072406    0.991324339542      -0.124682985654     0.991324339542      -0.124682985654     -0.00241123222403   -0.0228335072406    
7100000000.0        -0.00249440969573   -0.0231556467817    0.991089214107      -0.126465137954     0.991089214107      -0.126465137954     -0.00249440969573   -0.0231556467817    
7200000000.0        -0.00257875925297   -0.0234775330385    0.990850728858      -0.128247203828     0.990850728858      -0.128247203828     -0.00257875925297   -0.0234775330385    
7300000000.0        -0.00266428010578   -0.0237991593798    0.990608882694      -0.130029177334     0.990608882694      -0.130029177334     -0.00266428010578   -0.0237991593798    
7400000000.0        -0.00275097142971   -0.0241205191492    0.990363674537      -0.131811052492     0.990363674537      -0.131811052492     -0.00275097142971   -0.0241205191492    
7500000000.0        -0.0028388323656    -0.0244416056662    0.990115103327      -0.133592823285     0.990115103327      -0.133592823285     -0.0028388323656    -0.0244416056662    
7600000000.0        -0.00292786201926   -0.0247624122267    0.989863168022      -0.135374483657     0.989863168022      -0.135374483657     -0.00292786201926   -0.0247624122267    
7700000000.0        -0.00301805946129   -0.0250829321047    0.989607867604      -0.137156027519     0.989607867604      -0.137156027519     -0.00301805946129   -0.0250829321047    
7800000000.0        -0.00310942372675   -0.0254031585522    0.989349201073      -0.138937448745     0.989349201073      -0.138937448745     -0.00310942372675   -0.0254031585522    
7900000000.0        -0.00320195381503   -0.0257230848008    0.989087167448      -0.140718741175     0.989087167448      -0.140718741175     -0.00320195381503   -0.0257230848008    
8000000000.0        -0.00329564868953   -0.0260427040621    0.98882176577       -0.142499898618     0.98882176577       -0.142499898618     -0.00329564868953   -0.0260427040621    
8100000000.0        -0.00339050727753   -0.0263620095288    0.9885529951        -0.144280914849     0.9885529951        -0.144280914849     -0.00339050727753   -0.0263620095288    
8200000000.0        -0.00348652846997   -0.0266809943751    0.98828085452       -0.146061783612     0.98828085452       -0.146061783612     -0.00348652846997   -0.0266809943751    
8300000000.0        -0.00358371112122   -0.0269996517581    0.988005343133      -0.147842498622     0.988005343133      -0.147842498622     -0.00358371112122   -0.0269996517581    
8400000000.0        -0.00368205404896   -0.027317974818     0.987726460061      -0.149623053563     0.987726460061      -0.149623053563     -0.00368205404896   -0.027317974818     
8500000000.0        -0.00378155603397   -0.0276359566791    0.987444204448      -0.151403442091     0.987444204448      -0.151403442091     -0.00378155603397   -0.0276359566791    
8600000000.0        -0.00388221581999   -0.0279535904505    0.987158575458      -0.153183657834     0.987158575458      -0.153183657834     -0.00388221581999   -0.0279535904505    
8700000000.0        -0.00398403211354   -0.0282708692268    0.986869572278      -0.154963694393     0.986869572278      -0.154963694393     -0.00398403211354   -0.0282708692268    
8800000000.0        -0.00408700358382   -0.0285877860889    0.986577194114      -0.156743545343     0.986577194114      -0.156743545343     -0.00408700358382   -0.0285877860889    
8900000000.0        -0.0041911288625    -0.0289043341047    0.986281440195      -0.158523204233     0.986281440195      -0.158523204233     -0.0041911288625    -0.0289043341047    
9000000000.0        -0.00429640654365   -0.0292205063296    0.985982309768      -0.160302664587     0.985982309768      -0.160302664587     -0.00429640654365   -0.0292205063296    
9100000000.0        -0.00440283518358   -0.0295362958073    0.985679802106      -0.162081919905     0.985679802106      -0.162081919905     -0.00440283518358   -0.0295362958073    
9200000000.0        -0.00451041330075   -0.0298516955707    0.9853739165        -0.163860963664     0.9853739165        -0.163860963664     -0.00451041330075   -0.0298516955707    
9300000000.0        -0.00461913937563   -0.0301666986421    0.985064652262      -0.165639789317     0.985064652262      -0.165639789317     -0.00461913937563   -0.0301666986421    
9400000000.0        -0.00472901185061   -0.0304812980341    0.984752008729      -0.167418390296     0.984752008729      -0.167418390296     -0.00472901185061   -0.0304812980341    
9500000000.0        -0.0048400291299    -0.0307954867501    0.984435985256      -0.169196760012     0.984435985256      -0.169196760012     -0.0048400291299    -0.0307954867501    
9600000000.0        -0.00495218957942   -0.0311092577852    0.984116581222      -0.170974891852     0.984116581222      -0.170974891852     -0.00495218957942   -0.0311092577852    
9700000000.0        -0.00506549152674   -0.0314226041266    0.983793796027      -0.172752779187     0.983793796027      -0.172752779187     -0.00506549152674   -0.0314226041266    
9800000000.0        -0.00517993326097   -0.031735518754     0.983467629091      -0.174530415366     0.983467629091      -0.174530415366     -0.00517993326097   -0.031735518754     
9900000000.0        -0.0052955130327    -0.0320479946407    0.983138079858      -0.176307793719     0.983138079858      -0.176307793719     -0.0052955130327    -0.0320479946407    
10000000000.0       -0.00541222905395   -0.0323600247537    0.982805147794      -0.178084907558     0.982805147794      -0.178084907558     -0.00541222905395   -0.0323600247537    
