# Hz S RI R 50.00 
100000000.0         -0.0147072527948    -0.119879398929     0.985264067216      -0.119993225394     0.985264067216      -0.119993225394     -0.0147072527948    -0.119879398929     
200000000.0         -0.0561514046128    -0.229628257374     0.943819699469      -0.229855947209     0.943819699469      -0.229855947209     -0.0561514046128    -0.229628257374     
300000000.0         -0.117898797992     -0.321834929942     0.882072126177      -0.322176539234     0.882072126177      -0.322176539234     -0.117898797992     -0.321834929942     
400000000.0         -0.191848882121     -0.393038548171     0.808121873492      -0.393494147514     0.808121873492      -0.393494147514     -0.191848882121     -0.393038548171     
500000000.0         -0.270428370173     -0.443403677356     0.729542218776      -0.443973349265     0.729542218776      -0.443973349265     -0.270428370173     -0.443403677356     
600000000.0         -0.347875222129     -0.475458505361     0.652095197226      -0.476142342432     0.652095197226      -0.476142342432     -0.347875222129     -0.475458505361     
700000000.0         -0.420526059616     -0.492746061489     0.579444184365      -0.493544164962     0.579444184365      -0.493544164962     -0.420526059616     -0.492746061489     
800000000.0         -0.486493768658     -0.498860645013     0.513476292313      -0.499773123574     0.513476292313      -0.499773123574     -0.486493768658     -0.498860645013     
900000000.0         -0.54514307936      -0.496941706335     0.454826789679      -0.4979686751       0.454826789679      -0.4979686751       -0.54514307936      -0.496941706335     
1000000000.0        -0.596605376416     -0.489503172948     0.403364290824      -0.490644752577     0.403364290824      -0.490644752577     -0.596605376416     -0.489503172948     
1100000000.0        -0.641418874806     -0.478449212738     0.358550580052      -0.479705528656     0.358550580052      -0.479705528656     -0.641418874806     -0.478449212738     
1200000000.0        -0.680294970521     -0.465168350096     0.319674260809      -0.466539531805     0.319674260809      -0.466539531805     -0.680294970521     -0.465168350096     
1300000000.0        -0.713981235352     -0.45064515693      0.285987760849      -0.452131337397     0.285987760849      -0.452131337397     -0.713981235352     -0.45064515693      
1400000000.0        -0.743188942937     -0.43556192613      0.256779806159      -0.437163241239     0.256779806159      -0.437163241239     -0.743188942937     -0.43556192613      
1500000000.0        -0.768559997164     -0.420381257248     0.231408492535      -0.422097845317     0.231408492535      -0.422097845317     -0.768559997164     -0.420381257248     
1600000000.0        -0.790656235806     -0.405409169155     0.209311981936      -0.407241170503     0.209311981936      -0.407241170503     -0.790656235806     -0.405409169155     
1700000000.0        -0.809960505855     -0.390841635178     0.190007427132      -0.392789191741     0.190007427132      -0.392789191741     -0.809960505855     -0.390841635178     
1800000000.0        -0.826883291673     -0.376798148601     0.173084343557      -0.378861403593     0.173084343557      -0.378861403593     -0.826883291673     -0.376798148601     
1900000000.0        -0.841771435044     -0.363345599159     0.158195889243      -0.365524696772     0.158195889243      -0.365524696772     -0.841771435044     -0.363345599159     
2000000000.0        -0.854917130895     -0.350515104432     0.145049869097      -0.352810189572     0.145049869097      -0.352810189572     -0.854917130895     -0.350515104432     
2100000000.0        -0.866566323529     -0.338313801114     0.133400338664      -0.340725019174     0.133400338664      -0.340725019174     -0.866566323529     -0.338313801114     
2200000000.0        -0.876926145995     -0.326733065611     0.12304016476       -0.329260562266     0.12304016476       -0.329260562266     -0.876926145995     -0.326733065611     
2300000000.0        -0.88617131707      -0.315754219546     0.113794628481      -0.318398140585     0.113794628481      -0.318398140585     -0.88617131707      -0.315754219546     
2400000000.0        -0.894449543512     -0.305352469637     0.10551602295       -0.308112960817     0.10551602295       -0.308112960817     -0.894449543512     -0.305352469637     
2500000000.0        -0.901886032476     -0.295499610491     0.0980791409017     -0.298376817406     0.0980791409017     -0.298376817406     -0.901886032476     -0.295499610491     
2600000000.0        -0.908587236323     -0.286165861761     0.0913775298734     -0.289159929749     0.0913775298734     -0.289159929749     -0.908587236323     -0.286165861761     
2700000000.0        -0.914643949497     -0.27732110038      0.0853203953227     -0.280432174428     0.0853203953227     -0.280432174428     -0.914643949497     -0.27732110038      
2800000000.0        -0.920133865789     -0.268935670739     0.0798300433658     -0.272163895422     0.0798300433658     -0.272163895422     -0.920133865789     -0.268935670739     
2900000000.0        -0.925123689845     -0.260980901223     0.0748397692693     -0.264326420651     0.0748397692693     -0.264326420651     -0.925123689845     -0.260980901223     
3000000000.0        -0.929670882215     -0.253429417265     0.0702921123987     -0.25689237504      0.0702921123987     -0.25689237504      -0.929670882215     -0.253429417265     
3100000000.0        -0.933825103884     -0.246255314303     0.066137411688      -0.249835853498     0.066137411688      -0.249835853498     -0.933825103884     -0.246255314303     
3200000000.0        -0.937629414567     -0.239434235197     0.0623326073449     -0.243132498336     0.0623326073449     -0.243132498336     -0.937629414567     -0.239434235197     
3300000000.0        -0.941121269193     -0.232943383405     0.0588402443638     -0.236759512461     0.0588402443638     -0.236759512461     -0.941121269193     -0.232943383405     
3400000000.0        -0.944333348818     -0.226761493886     0.0556276416178     -0.230695630283     0.0556276416178     -0.230695630283     -0.944333348818     -0.226761493886     
3500000000.0        -0.947294255449     -0.220868777102     0.0526661970275     -0.224921061725     0.0526661970275     -0.224921061725     -0.947294255449     -0.220868777102     
3600000000.0        -0.950029094813     -0.215246846808     0.0499308047981     -0.219417420022     0.0499308047981     -0.219417420022     -0.950029094813     -0.215246846808     
3700000000.0        -0.9525599666       -0.209878639048     0.0473993651713     -0.214167640721     0.0473993651713     -0.214167640721     -0.9525599666       -0.209878639048     
3800000000.0        -0.954906378142     -0.204748327404     0.0450523707495     -0.209155896936     0.0450523707495     -0.209155896936     -0.954906378142     -0.204748327404     
3900000000.0        -0.957085594536     -0.199841237924     0.0428725563703     -0.204367514279     0.0428725563703     -0.204367514279     -0.957085594536     -0.199841237924     
4000000000.0        -0.959112935879     -0.195143765953     0.0408446018749     -0.199788887698     0.0408446018749     -0.199788887698     -0.959112935879     -0.195143765953     
4100000000.0        -0.961002030342     -0.190643296318     0.0389548790266     -0.195407401662     0.0389548790266     -0.195407401662     -0.961002030342     -0.190643296318     
4200000000.0        -0.962765030301     -0.186328127679     0.0371912353903     -0.191211354517     0.0371912353903     -0.191211354517     -0.962765030301     -0.186328127679     
4300000000.0        -0.964412797417     -0.182187401534     0.0355428092424     -0.187189887494     0.0355428092424     -0.187189887494     -0.964412797417     -0.182187401534     
4400000000.0        -0.965955061601     -0.178211036027     0.0339998706103     -0.183332918513     0.0339998706103     -0.183332918513     -0.965955061601     -0.178211036027     
4500000000.0        -0.967400557913     -0.174389664559     0.0325536843756     -0.179631080805     0.0325536843756     -0.179631080805     -0.967400557913     -0.174389664559     
4600000000.0        -0.968757144767     -0.170714579084     0.0311963920625     -0.176075666201     0.0311963920625     -0.176075666201     -0.968757144767     -0.170714579084     
4700000000.0        -0.970031906282     -0.167177677867     0.0299209094933     -0.172658572896     0.0299209094933     -0.172658572896     -0.970031906282     -0.167177677867     
4800000000.0        -0.971231241112     -0.163771417477     0.0287208379543     -0.169372257439     0.0287208379543     -0.169372257439     -0.971231241112     -0.163771417477     
4900000000.0        -0.972360939745     -0.160488768716     0.0275903868981     -0.166209690665     0.0275903868981     -0.166209690665     -0.972360939745     -0.160488768716     
5000000000.0        -0.973426251925     -0.157323176226     0.0265243065209     -0.163164317303     0.0265243065209     -0.163164317303     -0.973426251925     -0.157323176226     
5100000000.0        -0.9744319456       -0.154268521488     0.0255178288151     -0.16023001897      0.0255178288151     -0.16023001897      -0.9744319456       -0.154268521488     
5200000000.0        -0.975382358579     -0.151319088936     0.0245666159138     -0.157401080292     0.0245666159138     -0.157401080292     -0.975382358579     -0.151319088936     
5300000000.0        -0.976281443892     -0.148469534939     0.0236667147254     -0.154672157878     0.0236667147254     -0.154672157878     -0.976281443892     -0.148469534939     
5400000000.0        -0.977132809724     -0.145714859405     0.0228145170052     -0.152038251933     0.0228145170052     -0.152038251933     -0.977132809724     -0.145714859405     
5500000000.0        -0.97793975463      -0.14305037978      0.0220067241391     -0.149494680247     0.0220067241391     -0.149494680247     -0.97793975463      -0.14305037978      
5600000000.0        -0.978705298655     -0.140471707239     0.0212403160203     -0.147037054389     0.0212403160203     -0.147037054389     -0.978705298655     -0.140471707239     
5700000000.0        -0.9794322109       -0.137974724862     0.0205125234882     -0.144661257888     0.0205125234882     -0.144661257888     -0.9794322109       -0.137974724862     
5800000000.0        -0.98012303397      -0.135555567643     0.0198208038747     -0.14236342623      0.0198208038747     -0.14236342623      -0.98012303397      -0.135555567643     
5900000000.0        -0.980780105718     -0.133210604143     0.0191628192673     -0.140139928522     0.0191628192673     -0.140139928522     -0.980780105718     -0.133210604143     
6000000000.0        -0.981405578594     -0.130936419663     0.0185364171517     -0.137987350655     0.0185364171517     -0.137987350655     -0.981405578594     -0.130936419663     
6100000000.0        -0.982001436921     -0.128729800784     0.0179396131429     -0.13590247985      0.0179396131429     -0.13590247985      -0.982001436921     -0.128729800784     
6200000000.0        -0.982569512323     -0.12658772117      0.0173705755528     -0.133882290453     0.0173705755528     -0.133882290453     -0.982569512323     -0.12658772117      
6300000000.0        -0.983111497543     -0.124507328504     0.0168276115758     -0.13192393088      0.0168276115758     -0.13192393088      -0.983111497543     -0.124507328504     
6400000000.0        -0.983628958824     -0.122485932475     0.0163091549031     -0.130024711591     0.0163091549031     -0.130024711591     -0.983628958824     -0.122485932475     
6500000000.0        -0.984123347036     -0.120520993708     0.0158137545994     -0.12818209403      0.0158137545994     -0.12818209403      -0.984123347036     -0.120520993708     
6600000000.0        -0.984596007678     -0.118610113569     0.0153400650992     -0.126393680423     0.0153400650992     -0.126393680423     -0.984596007678     -0.118610113569     
6700000000.0        -0.985048189893     -0.116751024753     0.0148868371946     -0.124657204367     0.0148868371946     -0.124657204367     -0.985048189893     -0.116751024753     
6800000000.0        -0.985481054591     -0.114941582609     0.0144529099061     -0.122970522152     0.0144529099061     -0.122970522152     -0.985481054591     -0.114941582609     
6900000000.0        -0.985895681798     -0.113179757113     0.0140372031389     -0.121331604738     0.0140372031389     -0.121331604738     -0.985895681798     -0.113179757113     
7000000000.0        -0.986293077301     -0.111463625458     0.0136387110391     -0.11973853034      0.0136387110391     -0.11973853034      -0.986293077301     -0.111463625458     
7100000000.0        -0.986674178659     -0.109791365194     0.0132564959753     -0.118189477566     0.0132564959753     -0.118189477566     -0.986674178659     -0.109791365194     
7200000000.0        -0.987039860671     -0.108161247874     0.0128896830795     -0.116682719069     0.0128896830795     -0.116682719069     -0.987039860671     -0.108161247874     
7300000000.0        -0.987390940325     -0.106571633173     0.0125374552894     -0.115216615655     0.0125374552894     -0.115216615655     -0.987390940325     -0.106571633173     
7400000000.0        -0.987728181317     -0.105020963428     0.0121990488391     -0.113789610833     0.0121990488391     -0.113789610833     -0.987728181317     -0.105020963428     
7500000000.0        -0.988052298146     -0.103507758574     0.011873749154      -0.11240022574      0.011873749154      -0.11240022574      -0.988052298146     -0.103507758574     
7600000000.0        -0.988363959863     -0.10203061144      0.0115608871087     -0.111047054447     0.0115608871087     -0.111047054447     -0.988363959863     -0.10203061144      
7700000000.0        -0.988663793485     -0.100588183378     0.0112598356111     -0.109728759578     0.0112598356111     -0.109728759578     -0.988663793485     -0.100588183378     
7800000000.0        -0.988952387114     -0.0991792001964    0.0109700064818     -0.108444068246     0.0109700064818     -0.108444068246     -0.988952387114     -0.0991792001964    
7900000000.0        -0.989230292794     -0.0978024483761    0.0106908475998     -0.107191768269     0.0106908475998     -0.107191768269     -0.989230292794     -0.0978024483761    
8000000000.0        -0.989498029123     -0.0964567715433    0.0104218402885     -0.105970704644     0.0104218402885     -0.105970704644     -0.989498029123     -0.0964567715433    
8100000000.0        -0.989756083649     -0.0951410671846    0.0101624969191     -0.104779776256     0.0101624969191     -0.104779776256     -0.989756083649     -0.0951410671846    
8200000000.0        -0.990004915071     -0.0938542835816    0.00991235871248    -0.103617932818     0.00991235871248    -0.103617932818     -0.990004915071     -0.0938542835816    
8300000000.0        -0.990244955256     -0.0925954169492    0.00967099371881    -0.102484172004     0.00967099371881    -0.102484172004     -0.990244955256     -0.0925954169492    
8400000000.0        -0.990476611099     -0.0913635087637    0.00943799496082    -0.101377536779     0.00943799496082    -0.101377536779     -0.990476611099     -0.0913635087637    
8500000000.0        -0.990700266229     -0.0901576432638    0.00921297872438    -0.100297112901     0.00921297872438    -0.100297112901     -0.990700266229     -0.0901576432638    
8600000000.0        -0.990916282587     -0.0889769451148    0.00899558298394    -0.0992420265795    0.00899558298394    -0.0992420265795    -0.990916282587     -0.0889769451148    
8700000000.0        -0.991125001874     -0.0878205772211    0.0087854659505     -0.0982114422921    0.0087854659505     -0.0982114422921    -0.991125001874     -0.0878205772211    
8800000000.0        -0.991326746897     -0.0866877386783    0.00858230473153    -0.0972045607346    0.00858230473153    -0.0972045607346    -0.991326746897     -0.0866877386783    
8900000000.0        -0.991521822798     -0.0855776628538    0.00838579409307    -0.0962206169011    0.00838579409307    -0.0962206169011    -0.991521822798     -0.0855776628538    
9000000000.0        -0.991710518209     -0.0844896155868    0.00819564531521    -0.0952588782836    0.00819564531521    -0.0952588782836    -0.991710518209     -0.0844896155868    
9100000000.0        -0.991893106303     -0.0834228934996    0.00801158513292    -0.0943186431829    0.00801158513292    -0.0943186431829    -0.991893106303     -0.0834228934996    
9200000000.0        -0.992069845777     -0.0823768224116    0.00783335475531    -0.0933992391223    0.00783335475531    -0.0933992391223    -0.992069845777     -0.0823768224116    
9300000000.0        -0.992240981764     -0.08135075585      0.0076607089564     -0.0925000213576    0.0076607089564     -0.0925000213576    -0.992240981764     -0.08135075585      
9400000000.0        -0.992406746672     -0.0803440736493    0.00749341523182    -0.0916203714768    0.00749341523182    -0.0916203714768    -0.992406746672     -0.0803440736493    
9500000000.0        -0.992567360971     -0.0793561806343    0.00733125301595    -0.0907596960823    0.00733125301595    -0.0907596960823    -0.992567360971     -0.0793561806343    
9600000000.0        -0.992723033917     -0.0783865053811    0.00717401295449    -0.0899174255516    0.00717401295449    -0.0899174255516    -0.992723033917     -0.0783865053811    
9700000000.0        -0.992873964229     -0.0774344990493    0.00702149622822    -0.0890930128695    0.00702149622822    -0.0890930128695    -0.992873964229     -0.0774344990493    
9800000000.0        -0.99302034072      -0.0764996342831    0.00687351392376    -0.0882859325287    0.00687351392376    -0.0882859325287    -0.99302034072      -0.0764996342831    
9900000000.0        -0.993162342882     -0.0755814041747    0.00672988644766    -0.0874956794928    0.00672988644766    -0.0874956794928    -0.993162342882     -0.0755814041747    
10000000000.0       -0.99330014143      -0.0746793212866    0.00659044298047    -0.0867217682188    0.00659044298047    -0.0867217682188    -0.99330014143      -0.0746793212866    
