# Hz S RI R 50.00 
100000000.0         0.00760603263252    0.00310017835772    0.992387551181      -0.00558380426898   0.992387551181      -0.00558380426898   0.00760603263252    0.00310017835772    
200000000.0         0.00770748065181    0.00619904778808    0.992274502209      -0.0111663461457    0.992274502209      -0.0111663461457    0.00770748065181    0.00619904778808    
300000000.0         0.0078305172602     0.00929651481231    0.992133678833      -0.0167475637224    0.992133678833      -0.0167475637224    0.0078305172602     0.00929651481231    
400000000.0         0.00798166866714    0.0123922551694     0.991958553492      -0.022327157795     0.991958553492      -0.022327157795     0.00798166866714    0.0123922551694     
500000000.0         0.00816342972832    0.0154858912191     0.991746629688      -0.0279047724489    0.991746629688      -0.0279047724489    0.00816342972832    0.0154858912191     
600000000.0         0.00837705354654    0.0185770220721     0.991496652393      -0.0334800263139    0.991496652393      -0.0334800263139    0.00837705354654    0.0185770220721     
700000000.0         0.00862326051633    0.0216652345037     0.991207899018      -0.0390525240538    0.991207899018      -0.0390525240538    0.00862326051633    0.0216652345037     
800000000.0         0.00890249705728    0.024750108085      0.990879920691      -0.0446218618441    0.990879920691      -0.0446218618441    0.00890249705728    0.024750108085      
900000000.0         0.00921505079566    0.0278312179976     0.99051242708       -0.0501876304167    0.99051242708       -0.0501876304167    0.00921505079566    0.0278312179976     
1000000000.0        0.00956110894088    0.0309081367487     0.990105228027      -0.0557494169373    0.990105228027      -0.0557494169373    0.00956110894088    0.0309081367487     
1100000000.0        0.00994079073689    0.033980435306      0.989658201101      -0.0613068062606    0.989658201101      -0.0613068062606    0.00994079073689    0.033980435306      
1200000000.0        0.010354166804      0.0370476838961     0.989171272265      -0.0668593818215    0.989171272265      -0.0668593818215    0.010354166804      0.0370476838961     
1300000000.0        0.0108012713156     0.0401094525985     0.988644403702      -0.072406726302     0.988644403702      -0.072406726302     0.0108012713156     0.0401094525985     
1400000000.0        0.0112821100108     0.0431653118069     0.988077585805      -0.0779484221518    0.988077585805      -0.0779484221518    0.0112821100108     0.0431653118069     
1500000000.0        0.0117966656662     0.0462148326023     0.987470831716      -0.0834840520099    0.987470831716      -0.0834840520099    0.0117966656662     0.0462148326023     
1600000000.0        0.0123449019491     0.0492575870633     0.986824173469      -0.0890131990564    0.986824173469      -0.0890131990564    0.0123449019491     0.0492575870633     
1700000000.0        0.0129267662077     0.0522931485331     0.986137659209      -0.0945354473134    0.986137659209      -0.0945354473134    0.0129267662077     0.0522931485331     
1800000000.0        0.0135421915388     0.0553210918535     0.985411351125      -0.10005038191      0.985411351125      -0.10005038191      0.0135421915388     0.0553210918535     
1900000000.0        0.0141910983543     0.0583409935742     0.984645323889      -0.105557589315     0.984645323889      -0.105557589315     0.0141910983543     0.0583409935742     
2000000000.0        0.0148733955908     0.0613524321433     0.983839663444      -0.111056657554     0.983839663444      -0.111056657554     0.0148733955908     0.0613524321433     
2100000000.0        0.015588981662      0.0643549880831     0.98299446606       -0.116547176401     0.98299446606       -0.116547176401     0.015588981662      0.0643549880831     
2200000000.0        0.0163377452197     0.0673482441529     0.982109837573      -0.122028737561     0.982109837573      -0.122028737561     0.0163377452197     0.0673482441529     
2300000000.0        0.0171195657737     0.0703317855035     0.981185892766      -0.127500934843     0.981185892766      -0.127500934843     0.0171195657737     0.0703317855035     
2400000000.0        0.0179343142036     0.0733051998216     0.980222754864      -0.132963364311     0.980222754864      -0.132963364311     0.0179343142036     0.0733051998216     
2500000000.0        0.0187818531879     0.0762680774692     0.9792205551        -0.138415624446     0.9792205551        -0.138415624446     0.0187818531879     0.0762680774692     
2600000000.0        0.0196620375697     0.0792200116148     0.978179432358      -0.14385731628      0.978179432358      -0.14385731628      0.0196620375697     0.0792200116148     
2700000000.0        0.0205747146721     0.0821605983612     0.977099532855      -0.14928804354      0.977099532855      -0.14928804354      0.0205747146721     0.0821605983612     
2800000000.0        0.0215197245743     0.0850894368672     0.975981009868      -0.15470741278      0.975981009868      -0.15470741278      0.0215197245743     0.0850894368672     
2900000000.0        0.022496900357      0.0880061294657     0.974824023492      -0.160115033501     0.974824023492      -0.160115033501     0.022496900357      0.0880061294657     
3000000000.0        0.0235060683219     0.0909102817772     0.973628740417      -0.165510518283     0.973628740417      -0.165510518283     0.0235060683219     0.0909102817772     
3100000000.0        0.0245470481921     0.0938015028203     0.972395333735      -0.170893482893     0.972395333735      -0.170893482893     0.0245470481921     0.0938015028203     
3200000000.0        0.0256196532961     0.0966794051181     0.971123982754      -0.176263546406     0.971123982754      -0.176263546406     0.0256196532961     0.0966794051181     
3300000000.0        0.0267236907386     0.0995436048016     0.969814872828      -0.181620331311     0.969814872828      -0.181620331311     0.0267236907386     0.0995436048016     
3400000000.0        0.0278589615607     0.10239372171       0.968468195201      -0.186963463617     0.968468195201      -0.186963463617     0.0278589615607     0.10239372171       
3500000000.0        0.0290252608918     0.105229379486      0.967084146851      -0.192292572958     0.967084146851      -0.192292572958     0.0290252608918     0.105229379486      
3600000000.0        0.0302223780939     0.108050205675      0.965662930354      -0.19760729269      0.965662930354      -0.19760729269      0.0302223780939     0.108050205675      
3700000000.0        0.0314500969005     0.110855831809      0.964204753739      -0.202907259988     0.964204753739      -0.202907259988     0.0314500969005     0.110855831809      
3800000000.0        0.0327081955511     0.1136458935        0.962709830359      -0.208192115941     0.962709830359      -0.208192115941     0.0327081955511     0.1136458935        
3900000000.0        0.033996446921      0.116420030525      0.96117837876       -0.213461505637     0.96117837876       -0.213461505637     0.033996446921      0.116420030525      
4000000000.0        0.0353146186485     0.119177886906      0.959610622557      -0.218715078253     0.959610622557      -0.218715078253     0.0353146186485     0.119177886906      
4100000000.0        0.0366624732598     0.121919110993      0.958006790305      -0.223952487139     0.958006790305      -0.223952487139     0.0366624732598     0.121919110993      
4200000000.0        0.038039768291      0.12464335554       0.956367115385      -0.229173389897     0.956367115385      -0.229173389897     0.038039768291      0.12464335554       
4300000000.0        0.0394462564093     0.127350277777      0.954691835876      -0.234377448459     0.954691835876      -0.234377448459     0.0394462564093     0.127350277777      
4400000000.0        0.040881685532      0.130039539488      0.952981194443      -0.239564329163     0.952981194443      -0.239564329163     0.040881685532      0.130039539488      
4500000000.0        0.0423457989447     0.132710807073      0.951235438212      -0.244733702824     0.951235438212      -0.244733702824     0.0423457989447     0.132710807073      
4600000000.0        0.0438383354189     0.135363751619      0.949454818664      -0.249885244806     0.949454818664      -0.249885244806     0.0438383354189     0.135363751619      
4700000000.0        0.0453590293283     0.137998048963      0.947639591507      -0.255018635084     0.947639591507      -0.255018635084     0.0453590293283     0.137998048963      
4800000000.0        0.0469076107648     0.140613379753      0.945790016569      -0.260133558309     0.945790016569      -0.260133558309     0.0469076107648     0.140613379753      
4900000000.0        0.0484838056539     0.143209429502      0.943906357679      -0.265229703871     0.943906357679      -0.265229703871     0.0484838056539     0.143209429502      
5000000000.0        0.0500873358697     0.145785888654      0.941988882557      -0.270306765956     0.941988882557      -0.270306765956     0.0500873358697     0.145785888654      
5100000000.0        0.0517179193499     0.148342452625      0.940037862691      -0.275364443597     0.940037862691      -0.275364443597     0.0517179193499     0.148342452625      
5200000000.0        0.0533752702096     0.150878821863      0.938053573234      -0.280402440734     0.938053573234      -0.280402440734     0.0533752702096     0.150878821863      
5300000000.0        0.0550590988559     0.153394701891      0.936036292879      -0.285420466257     0.936036292879      -0.285420466257     0.0550590988559     0.153394701891      
5400000000.0        0.0567691121016     0.155889803354      0.933986303757      -0.290418234059     0.933986303757      -0.290418234059     0.0567691121016     0.155889803354      
5500000000.0        0.0585050132786     0.158363842059      0.931903891313      -0.295395463073     0.931903891313      -0.295395463073     0.0585050132786     0.158363842059      
5600000000.0        0.0602665023519     0.160816539021      0.9297893442        -0.30035187732      0.9297893442        -0.30035187732      0.0602665023519     0.160816539021      
5700000000.0        0.0620532760323     0.163247620493      0.927642954163      -0.305287205946     0.927642954163      -0.305287205946     0.0620532760323     0.163247620493      
5800000000.0        0.0638650278892     0.165656818006      0.925465015927      -0.310201183256     0.925465015927      -0.310201183256     0.0638650278892     0.165656818006      
5900000000.0        0.065701448464      0.168043868401      0.923255827083      -0.315093548752     0.923255827083      -0.315093548752     0.065701448464      0.168043868401      
6000000000.0        0.0675622253816     0.170408513856      0.921015687981      -0.319964047158     0.921015687981      -0.319964047158     0.0675622253816     0.170408513856      
6100000000.0        0.069447043463      0.172750501914      0.918744901609      -0.324812428456     0.918744901609      -0.324812428456     0.069447043463      0.172750501914      
6200000000.0        0.0713555848371     0.175069585512      0.916443773491      -0.329638447905     0.916443773491      -0.329638447905     0.0713555848371     0.175069585512      
6300000000.0        0.0732875290517     0.177365522996      0.914112611569      -0.334441866067     0.914112611569      -0.334441866067     0.0732875290517     0.177365522996      
6400000000.0        0.0752425531848     0.179638078147      0.911751726095      -0.33922244883      0.911751726095      -0.33922244883      0.0752425531848     0.179638078147      
6500000000.0        0.0772203319548     0.181887020196      0.90936142952       -0.343979967422     0.90936142952       -0.343979967422     0.0772203319548     0.181887020196      
6600000000.0        0.0792205378308     0.184112123838      0.906942036383      -0.34871419843      0.906942036383      -0.34871419843      0.0792205378308     0.184112123838      
6700000000.0        0.0812428411421     0.186313169246      0.904493863205      -0.35342492381      0.904493863205      -0.35342492381      0.0812428411421     0.186313169246      
6800000000.0        0.0832869101869     0.18848994208       0.902017228374      -0.358111930904     0.902017228374      -0.358111930904     0.0832869101869     0.18848994208       
6900000000.0        0.085352411341      0.190642233497      0.899512452042      -0.362775012441     0.899512452042      -0.362775012441     0.085352411341      0.190642233497      
7000000000.0        0.0874390091655     0.192769840154      0.896979856015      -0.367413966549     0.896979856015      -0.367413966549     0.0874390091655     0.192769840154      
7100000000.0        0.0895463665133     0.194872564211      0.894419763645      -0.372028596754     0.894419763645      -0.372028596754     0.0895463665133     0.194872564211      
7200000000.0        0.0916741446364     0.196950213335      0.891832499727      -0.376618711987     0.891832499727      -0.376618711987     0.0916741446364     0.196950213335      
7300000000.0        0.0938220032907     0.199002600695      0.889218390389      -0.381184126577     0.889218390389      -0.381184126577     0.0938220032907     0.199002600695      
7400000000.0        0.0959896008409     0.201029544962      0.886577762989      -0.385724660254     0.886577762989      -0.385724660254     0.0959896008409     0.201029544962      
7500000000.0        0.0981765943647     0.203030870302      0.883910946011      -0.39024013814      0.883910946011      -0.39024013814      0.0981765943647     0.203030870302      
7600000000.0        0.100382639756      0.205006406365      0.881218268963      -0.394730390742     0.881218268963      -0.394730390742     0.100382639756      0.205006406365      
7700000000.0        0.102607391826      0.206955988282      0.878500062272      -0.399195253943     0.878500062272      -0.399195253943     0.102607391826      0.206955988282      
7800000000.0        0.104850504405      0.208879456646      0.875756657186      -0.403634568992     0.875756657186      -0.403634568992     0.104850504405      0.208879456646      
7900000000.0        0.107111630445      0.210776657504      0.872988385668      -0.408048182488     0.872988385668      -0.408048182488     0.107111630445      0.210776657504      
8000000000.0        0.109390422113      0.212647442337      0.870195580304      -0.412435946365     0.870195580304      -0.412435946365     0.109390422113      0.212647442337      
8100000000.0        0.111686530895      0.214491668045      0.867378574199      -0.416797717875     0.867378574199      -0.416797717875     0.111686530895      0.214491668045      
8200000000.0        0.113999607691      0.216309196923      0.864537700881      -0.421133359568     0.864537700881      -0.421133359568     0.113999607691      0.216309196923      
8300000000.0        0.116329302909      0.218099896646      0.861673294208      -0.425442739271     0.861673294208      -0.425442739271     0.116329302909      0.218099896646      
8400000000.0        0.118675266563      0.219863640241      0.858785688267      -0.429725730064     0.858785688267      -0.429725730064     0.118675266563      0.219863640241      
8500000000.0        0.121037148362      0.221600306061      0.855875217286      -0.433982210256     0.855875217286      -0.433982210256     0.121037148362      0.221600306061      
8600000000.0        0.123414597808      0.223309777763      0.85294221554       -0.438212063357     0.85294221554       -0.438212063357     0.123414597808      0.223309777763      
8700000000.0        0.125807264284      0.224991944274      0.849987017255      -0.442415178049     0.849987017255      -0.442415178049     0.125807264284      0.224991944274      
8800000000.0        0.128214797141      0.226646699766      0.847009956524      -0.446591448159     0.847009956524      -0.446591448159     0.128214797141      0.226646699766      
8900000000.0        0.130636845791      0.228273943618      0.844011367215      -0.450740772623     0.844011367215      -0.450740772623     0.130636845791      0.228273943618      
9000000000.0        0.133073059795      0.229873580389      0.840991582885      -0.454863055454     0.840991582885      -0.454863055454     0.133073059795      0.229873580389      
9100000000.0        0.135523088941      0.231445519779      0.837950936693      -0.45895820571      0.837950936693      -0.45895820571      0.135523088941      0.231445519779      
9200000000.0        0.137986583339      0.232989676595      0.834889761313      -0.463026137452     0.834889761313      -0.463026137452     0.137986583339      0.232989676595      
9300000000.0        0.140463193494      0.234505970711      0.831808388856      -0.467066769711     0.831808388856      -0.467066769711     0.140463193494      0.234505970711      
9400000000.0        0.142952570396      0.235994327029      0.828707150782      -0.471080026446     0.828707150782      -0.471080026446     0.142952570396      0.235994327029      
9500000000.0        0.145454365593      0.237454675443      0.825586377823      -0.475065836504     0.825586377823      -0.475065836504     0.145454365593      0.237454675443      
9600000000.0        0.147968231276      0.23888695079       0.822446399906      -0.479024133578     0.822446399906      -0.479024133578     0.147968231276      0.23888695079       
9700000000.0        0.150493820351      0.240291092813      0.819287546067      -0.482954856163     0.819287546067      -0.482954856163     0.150493820351      0.240291092813      
9800000000.0        0.153030786518      0.241667046115      0.816110144384      -0.486857947513     0.816110144384      -0.486857947513     0.153030786518      0.241667046115      
9900000000.0        0.155578784344      0.24301476011       0.812914521898      -0.490733355596     0.812914521898      -0.490733355596     0.155578784344      0.24301476011       
10000000000.0       0.158137469337      0.244334188983      0.809701004538      -0.494581033042     0.809701004538      -0.494581033042     0.158137469337      0.244334188983      
