# Hz S RI R 50.00 
100000000.0         0.0281849528364     0.00133259481945    0.971813660775      -0.00168360699094   0.971813660775      -0.00168360699094   0.0281849528364     0.00133259481945    
200000000.0         0.0283716744486     0.00266405600967    0.97162642835       -0.00336608376446   0.97162642835       -0.00336608376446   0.0283716744486     0.00266405600967    
300000000.0         0.028513761221      0.00399482467382    0.97148370632       -0.00504787336111   0.97148370632       -0.00504787336111   0.028513761221      0.00399482467382    
400000000.0         0.0286351829002     0.00532504330338    0.971361524919      -0.00672911979859   0.971361524919      -0.00672911979859   0.0286351829002     0.00532504330338    
500000000.0         0.0287452000071     0.0066547846982     0.971250623606      -0.00840989719603   0.971250623606      -0.00840989719603   0.0287452000071     0.0066547846982     
600000000.0         0.0288485496354     0.00798409071297    0.971146265268      -0.010090248592     0.971146265268      -0.010090248592     0.0288485496354     0.00798409071297    
700000000.0         0.0289480383552     0.00931298619398    0.971045643317      -0.0117701999177    0.971045643317      -0.0117701999177    0.0289480383552     0.00931298619398    
800000000.0         0.0290454897411     0.0106414854513     0.970946934157      -0.0134497664912    0.970946934157      -0.0134497664912    0.0290454897411     0.0106414854513     
900000000.0         0.0291421667775     0.0119695957388     0.970848874784      -0.0151289565113    0.970848874784      -0.0151289565113    0.0291421667775     0.0119695957388     
1000000000.0        0.0292389862238     0.0132973193166     0.970750548415      -0.0168077731307    0.970750548415      -0.0168077731307    0.0292389862238     0.0132973193166     
1100000000.0        0.0293366379195     0.0146246547622     0.970651265189      -0.0184862157739    0.970651265189      -0.0184862157739    0.0293366379195     0.0146246547622     
1200000000.0        0.0294356559576     0.0159515978487     0.97055049099       -0.020164281022     0.97055049099       -0.020164281022     0.0294356559576     0.0159515978487     
1300000000.0        0.0295364635172     0.0172781421593     0.970447802614      -0.0218419632307    0.970447802614      -0.0218419632307    0.0295364635172     0.0172781421593     
1400000000.0        0.0296394023644     0.0186042795305     0.970342858271      -0.0235192549776    0.970342858271      -0.0235192549776    0.0296394023644     0.0186042795305     
1500000000.0        0.0297447529798     0.0199300003823     0.970235377455      -0.0251961473951    0.970235377455      -0.0251961473951    0.0297447529798     0.0199300003823     
1600000000.0        0.0298527487101     0.0212552939685     0.970125126793      -0.0268726304237    0.970125126793      -0.0268726304237    0.0298527487101     0.0212552939685     
1700000000.0        0.0299635859786     0.0225801485715     0.970011909835      -0.028548693008     0.970011909835      -0.028548693008     0.0299635859786     0.0225801485715     
1800000000.0        0.0300774318172     0.023904551656      0.96989555952       -0.0302243232529    0.96989555952       -0.0302243232529    0.0300774318172     0.023904551656      
1900000000.0        0.0301944295304     0.025228489992      0.969775932516      -0.0318995085478    0.969775932516      -0.0318995085478    0.0301944295304     0.025228489992      
2000000000.0        0.0303147030282     0.0265519497547     0.969652904885      -0.0335742356679    0.969652904885      -0.0335742356679    0.0303147030282     0.0265519497547     
2100000000.0        0.0304383601905     0.0278749166069     0.969526368716      -0.0352484908579    0.969526368716      -0.0352484908579    0.0304383601905     0.0278749166069     
2200000000.0        0.0305654955156     0.0291973757671     0.96939622948       -0.0369222599007    0.96939622948       -0.0369222599007    0.0305654955156     0.0291973757671     
2300000000.0        0.030696192229      0.0305193120667     0.969262403922      -0.038595528176     0.969262403922      -0.038595528176     0.030696192229      0.0305193120667     
2400000000.0        0.0308305239823     0.0318407099983     0.969124818358      -0.0402682807094    0.969124818358      -0.0402682807094    0.0308305239823     0.0318407099983     
2500000000.0        0.0309685562352     0.0331615537573     0.968983407296      -0.0419405022143    0.968983407296      -0.0419405022143    0.0309685562352     0.0331615537573     
2600000000.0        0.0311103473889     0.0344818272768     0.968838112302      -0.0436121771278    0.968838112302      -0.0436121771278    0.0311103473889     0.0344818272768     
2700000000.0        0.0312559497245     0.0358015142585     0.968688881061      -0.0452832896425    0.968688881061      -0.0452832896425    0.0312559497245     0.0358015142585     
2800000000.0        0.0314054101857     0.0371205981993     0.968535666596      -0.046953823733     0.968535666596      -0.046953823733     0.0314054101857     0.0371205981993     
2900000000.0        0.0315587710353     0.0384390624143     0.968378426609      -0.04862376318      0.968378426609      -0.04862376318      0.0315587710353     0.0384390624143     
3000000000.0        0.0317160704106     0.0397568900577     0.968217122929      -0.0502930915912    0.968217122929      -0.0502930915912    0.0317160704106     0.0397568900577     
3100000000.0        0.0318773427953     0.0410740641405     0.968051721035      -0.0519617924198    0.968051721035      -0.0519617924198    0.0318773427953     0.0410740641405     
3200000000.0        0.0320426194234     0.0423905675465     0.967882189658      -0.053629848981     0.967882189658      -0.053629848981     0.0320426194234     0.0423905675465     
3300000000.0        0.0322119286255     0.0437063830471     0.967708500429      -0.0552972444663    0.967708500429      -0.0552972444663    0.0322119286255     0.0437063830471     
3400000000.0        0.0323852961291     0.0450214933133     0.967530627586      -0.0569639619573    0.967530627586      -0.0569639619573    0.0323852961291     0.0450214933133     
3500000000.0        0.032562745318      0.0463358809279     0.967348547705      -0.0586299844368    0.967348547705      -0.0586299844368    0.032562745318      0.0463358809279     
3600000000.0        0.0327442974592     0.0476495283956     0.967162239483      -0.0602952948001    0.967162239483      -0.0602952948001    0.0327442974592     0.0476495283956     
3700000000.0        0.0329299719006     0.0489624181522     0.966971683532      -0.0619598758641    0.966971683532      -0.0619598758641    0.0329299719006     0.0489624181522     
3800000000.0        0.0331197862458     0.0502745325734     0.96677686221       -0.0636237103767    0.96677686221       -0.0636237103767    0.0331197862458     0.0502745325734     
3900000000.0        0.0333137565069     0.0515858539823     0.966577759466      -0.0652867810242    0.966577759466      -0.0652867810242    0.0333137565069     0.0515858539823     
4000000000.0        0.0335118972405     0.0528963646569     0.966374360702      -0.066949070439     0.966374360702      -0.066949070439     0.0335118972405     0.0528963646569     
4100000000.0        0.0337142216682     0.0542060468361     0.966166652657      -0.0686105612063    0.966166652657      -0.0686105612063    0.0337142216682     0.0542060468361     
4200000000.0        0.0339207417836     0.055514882726      0.965954623297      -0.07027123587      0.965954623297      -0.07027123587      0.0339207417836     0.055514882726      
4300000000.0        0.0341314684483     0.0568228545051     0.965738261719      -0.0719310769387    0.965738261719      -0.0719310769387    0.0341314684483     0.0568228545051     
4400000000.0        0.0343464114772     0.0581299443297     0.965517558067      -0.0735900668909    0.965517558067      -0.0735900668909    0.0343464114772     0.0581299443297     
4500000000.0        0.0345655797158     0.0594361343385     0.965292503453      -0.0752481881798    0.965292503453      -0.0752481881798    0.0345655797158     0.0594361343385     
4600000000.0        0.0347889811092     0.0607414066567     0.965063089889      -0.0769054232378    0.965063089889      -0.0769054232378    0.0347889811092     0.0607414066567     
4700000000.0        0.0350166227646     0.0620457434006     0.964829310227      -0.0785617544809    0.964829310227      -0.0785617544809    0.0350166227646     0.0620457434006     
4800000000.0        0.0352485110077     0.0633491266806     0.964591158097      -0.0802171643124    0.964591158097      -0.0802171643124    0.0352485110077     0.0633491266806     
4900000000.0        0.0354846514339     0.0646515386054     0.964348627861      -0.0818716351267    0.964348627861      -0.0818716351267    0.0354846514339     0.0646515386054     
5000000000.0        0.035725048955      0.0659529612852     0.964101714564      -0.0835251493128    0.964101714564      -0.0835251493128    0.035725048955      0.0659529612852     
5100000000.0        0.035969707841      0.0672533768343     0.963850413891      -0.0851776892576    0.963850413891      -0.0851776892576    0.035969707841      0.0672533768343     
5200000000.0        0.0362186317591     0.0685527673746     0.96359472213       -0.0868292373484    0.96359472213       -0.0868292373484    0.0362186317591     0.0685527673746     
5300000000.0        0.0364718238089     0.0698511150382     0.963334636139      -0.0884797759765    0.963334636139      -0.0884797759765    0.0364718238089     0.0698511150382     
5400000000.0        0.0367292865544     0.0711484019695     0.963070153307      -0.0901292875395    0.963070153307      -0.0901292875395    0.0367292865544     0.0711484019695     
5500000000.0        0.0369910220539     0.0724446103284     0.962801271533      -0.091777754444     0.962801271533      -0.091777754444     0.0369910220539     0.0724446103284     
5600000000.0        0.037257031887      0.073739722292      0.962527989189      -0.0934251591076    0.962527989189      -0.0934251591076    0.037257031887      0.073739722292      
5700000000.0        0.0375273171794     0.075033720057      0.962250305106      -0.095071483962     0.962250305106      -0.095071483962     0.0375273171794     0.075033720057      
5800000000.0        0.0378018786265     0.0763265858419     0.961968218541      -0.0967167114544    0.961968218541      -0.0967167114544    0.0378018786265     0.0763265858419     
5900000000.0        0.0380807165141     0.0776183018888     0.961681729163      -0.0983608240499    0.961681729163      -0.0983608240499    0.0380807165141     0.0776183018888     
6000000000.0        0.0383638307385     0.0789088504652     0.961390837029      -0.100003804233     0.961390837029      -0.100003804233     0.0383638307385     0.0789088504652     
6100000000.0        0.0386512208244     0.0801982138659     0.961095542568      -0.101645634512     0.961095542568      -0.101645634512     0.0386512208244     0.0801982138659     
6200000000.0        0.038942885942      0.0814863744149     0.960795846562      -0.103286297415     0.960795846562      -0.103286297415     0.038942885942      0.0814863744149     
6300000000.0        0.0392388249225     0.0827733144666     0.960491750133      -0.104925775499     0.960491750133      -0.104925775499     0.0392388249225     0.0827733144666     
6400000000.0        0.0395390362728     0.0840590164076     0.960183254727      -0.106564051345     0.960183254727      -0.106564051345     0.0395390362728     0.0840590164076     
6500000000.0        0.0398435181892     0.0853434626584     0.9598703621        -0.108201107565     0.9598703621        -0.108201107565     0.0398435181892     0.0853434626584     
6600000000.0        0.0401522685695     0.0866266356743     0.959553074306      -0.109836926799     0.959553074306      -0.109836926799     0.0401522685695     0.0866266356743     
6700000000.0        0.0404652850258     0.0879085179473     0.959231393685      -0.111471491718     0.959231393685      -0.111471491718     0.0404652850258     0.0879085179473     
6800000000.0        0.0407825648944     0.089189092007      0.958905322853      -0.113104785029     0.958905322853      -0.113104785029     0.0407825648944     0.089189092007      
6900000000.0        0.0411041052469     0.0904683404222     0.95857486469       -0.114736789469     0.95857486469       -0.114736789469     0.0411041052469     0.0904683404222     
7000000000.0        0.0414299028999     0.0917462458019     0.95824002233       -0.116367487814     0.95824002233       -0.116367487814     0.0414299028999     0.0917462458019     
7100000000.0        0.0417599544236     0.0930227907965     0.957900799155      -0.117996862874     0.957900799155      -0.117996862874     0.0417599544236     0.0930227907965     
7200000000.0        0.0420942561505     0.0942979580992     0.957557198783      -0.119624897498     0.957557198783      -0.119624897498     0.0420942561505     0.0942979580992     
7300000000.0        0.0424328041838     0.0955717304467     0.957209225063      -0.121251574573     0.957209225063      -0.121251574573     0.0424328041838     0.0955717304467     
7400000000.0        0.0427755944045     0.0968440906205     0.956856882063      -0.122876877029     0.956856882063      -0.122876877029     0.0427755944045     0.0968440906205     
7500000000.0        0.0431226224787     0.0981150214479     0.956500174068      -0.124500787833     0.956500174068      -0.124500787833     0.0431226224787     0.0981150214479     
7600000000.0        0.0434738838643     0.0993845058028     0.956139105571      -0.126123289998     0.956139105571      -0.126123289998     0.0434738838643     0.0993845058028     
7700000000.0        0.0438293738172     0.100652526607      0.955773681267      -0.127744366578     0.955773681267      -0.127744366578     0.0438293738172     0.100652526607      
7800000000.0        0.0441890873977     0.101919066831      0.955403906046      -0.129364000673     0.955403906046      -0.129364000673     0.0441890873977     0.101919066831      
7900000000.0        0.0445530194756     0.103184109495      0.955029784987      -0.130982175426     0.955029784987      -0.130982175426     0.0445530194756     0.103184109495      
8000000000.0        0.044921164736      0.104447637668      0.954651323356      -0.132598874028     0.954651323356      -0.132598874028     0.044921164736      0.104447637668      
8100000000.0        0.0452935176843     0.105709634473      0.954268526597      -0.134214079717     0.954268526597      -0.134214079717     0.0452935176843     0.105709634473      
8200000000.0        0.045670072651      0.106970083084      0.953881400329      -0.135827775777     0.953881400329      -0.135827775777     0.045670072651      0.106970083084      
8300000000.0        0.0460508237961     0.108228966727      0.953489950343      -0.137439945544     0.953489950343      -0.137439945544     0.0460508237961     0.108228966727      
8400000000.0        0.0464357651139     0.109486268682      0.953094182593      -0.1390505724       0.953094182593      -0.1390505724       0.0464357651139     0.109486268682      
8500000000.0        0.0468248904369     0.110741972285      0.952694103197      -0.14065963978      0.952694103197      -0.14065963978      0.0468248904369     0.110741972285      
8600000000.0        0.0472181934397     0.111996060925      0.95228971843       -0.14226713117      0.95228971843       -0.14226713117      0.0472181934397     0.111996060925      
8700000000.0        0.0476156676429     0.113248518049      0.95188103472       -0.143873030106     0.95188103472       -0.143873030106     0.0476156676429     0.113248518049      
8800000000.0        0.0480173064166     0.114499327158      0.951468058646      -0.14547732018      0.951468058646      -0.14547732018      0.0480173064166     0.114499327158      
8900000000.0        0.0484231029843     0.115748471814      0.951050796934      -0.147079985034     0.951050796934      -0.147079985034     0.0484231029843     0.115748471814      
9000000000.0        0.0488330504255     0.116995935633      0.950629256455      -0.148681008366     0.950629256455      -0.148681008366     0.0488330504255     0.116995935633      
9100000000.0        0.0492471416793     0.118241702292      0.950203444217      -0.15028037393      0.950203444217      -0.15028037393      0.0492471416793     0.118241702292      
9200000000.0        0.0496653695473     0.119485755527      0.949773367369      -0.151878065532     0.949773367369      -0.151878065532     0.0496653695473     0.119485755527      
9300000000.0        0.0500877266968     0.120728079135      0.949339033192      -0.153474067038     0.949339033192      -0.153474067038     0.0500877266968     0.120728079135      
9400000000.0        0.050514205663      0.12196865697       0.9489004491        -0.155068362369     0.9489004491        -0.155068362369     0.050514205663      0.12196865697       
9500000000.0        0.0509447988522     0.123207472951      0.948457622636      -0.156660935503     0.948457622636      -0.156660935503     0.0509447988522     0.123207472951      
9600000000.0        0.0513794985442     0.124444511056      0.948010561468      -0.158251770477     0.948010561468      -0.158251770477     0.0513794985442     0.124444511056      
9700000000.0        0.0518182968949     0.125679755327      0.947559273391      -0.159840851386     0.947559273391      -0.159840851386     0.0518182968949     0.125679755327      
9800000000.0        0.0522611859382     0.126913189868      0.947103766318      -0.161428162386     0.947103766318      -0.161428162386     0.0522611859382     0.126913189868      
9900000000.0        0.052708157589      0.128144798847      0.946644048285      -0.163013687691     0.946644048285      -0.163013687691     0.052708157589      0.128144798847      
10000000000.0       0.0531592036452     0.129374566494      0.946180127442      -0.164597411575     0.946180127442      -0.164597411575     0.0531592036452     0.129374566494      
