# Hz S RI R 50.00 
100000000.0         0.00116678494494    -0.000489482883917  0.998821620187      -0.00325462402031   0.998821620187      -0.00325462402031   0.00116678494494    -0.000489482883917  
200000000.0         0.00116806704453    -0.000979000836654  0.998795718809      -0.0065092099868    0.998795718809      -0.0065092099868    0.00116806704453    -0.000979000836654  
300000000.0         0.00116411390797    -0.00146852900157   0.998761027364      -0.00976376591059   0.998761027364      -0.00976376591059   0.00116411390797    -0.00146852900157   
400000000.0         0.00115593845529    -0.00195805057295   0.998716531884      -0.0130182818367    0.998716531884      -0.0130182818367    0.00115593845529    -0.00195805057295   
500000000.0         0.00114393009706    -0.00244754969667   0.998661841828      -0.016272741824     0.998661841828      -0.016272741824     0.00114393009706    -0.00244754969667   
600000000.0         0.00112828705409    -0.0029370105624    0.998596757813      -0.0195271265703    0.998596757813      -0.0195271265703    0.00112828705409    -0.0029370105624    
700000000.0         0.00110912619469    -0.00342641716354   0.998521161815      -0.0227814145304    0.998521161815      -0.0227814145304    0.00110912619469    -0.00342641716354   
800000000.0         0.00108652310243    -0.00391575322589   0.998434977127      -0.0260355825138    0.998434977127      -0.0260355825138    0.00108652310243    -0.00391575322589   
900000000.0         0.00106052990945    -0.00440500219123   0.998338150551      -0.0292896060497    0.998338150551      -0.0292896060497    0.00106052990945    -0.00440500219123   
1000000000.0        0.00103118433309    -0.00489414722118   0.998230643377      -0.0325434596287    0.998230643377      -0.0325434596287    0.00103118433309    -0.00489414722118   
1100000000.0        0.000998514698555   -0.00538317120852   0.99811242638       -0.0357971168728    0.99811242638       -0.0357971168728    0.000998514698555   -0.00538317120852   
1200000000.0        0.000962542931675   -0.00587205679102   0.997983476842      -0.0390505506615    0.997983476842      -0.0390505506615    0.000962542931675   -0.00587205679102   
1300000000.0        0.000923286442191   -0.00636078636579   0.997843776678      -0.0423037332277    0.997843776678      -0.0423037332277    0.000923286442191   -0.00636078636579   
1400000000.0        0.000880759362078   -0.00684934210291   0.997693311213      -0.045556636233     0.997693311213      -0.045556636233     0.000880759362078   -0.00684934210291   
1500000000.0        0.000834973389899   -0.00733770595847   0.997532068346      -0.0488092308283    0.997532068346      -0.0488092308283    0.0008349733899     -0.00733770595847   
1600000000.0        0.000785938384366   -0.00782585968652   0.997360037966      -0.0520614877039    0.997360037966      -0.0520614877039    0.000785938384366   -0.00782585968652   
1700000000.0        0.000733662792589   -0.00831378485015   0.997177211534      -0.0553133771308    0.997177211534      -0.0553133771308    0.000733662792589   -0.00831378485015   
1800000000.0        0.000678153966115   -0.00880146283179   0.996983581774      -0.0585648689955    0.996983581774      -0.0585648689955    0.000678153966115   -0.00880146283179   
1900000000.0        0.000619418398777   -0.00928887484256   0.996779142442      -0.0618159328307    0.996779142442      -0.0618159328307    0.000619418398777   -0.00928887484256   
2000000000.0        0.000557461908852   -0.0097760019311    0.996563888155      -0.0650665378406    0.996563888155      -0.0650665378406    0.000557461908852   -0.0097760019311    
2100000000.0        0.000492289780726   -0.0102628249916    0.99633781425       -0.0683166529241    0.99633781425       -0.0683166529241    0.000492289780726   -0.0102628249916    
2200000000.0        0.000423906876639   -0.0107493247716    0.996100916681      -0.0715662466946    0.996100916681      -0.0715662466946    0.00042390687664    -0.0107493247716    
2300000000.0        0.000352317725912   -0.0112354818787    0.995853191939      -0.0748152874979    0.995853191939      -0.0748152874979    0.000352317725912   -0.0112354818787    
2400000000.0        0.000277526597037   -0.0117212767873    0.995594636981      -0.0780637434282    0.995594636981      -0.0780637434282    0.000277526597037   -0.0117212767873    
2500000000.0        0.000199537556511   -0.0122066898452    0.995325249177      -0.081311582342     0.995325249177      -0.081311582342     0.000199537556511   -0.0122066898452    
2600000000.0        0.000118354517335   -0.0126917012789    0.995045026269      -0.084558771872     0.995045026269      -0.084558771872     0.000118354517335   -0.0126917012789    
2700000000.0        3.39812793291e-05   -0.0131762911997    0.994753966334      -0.0878052794379    0.994753966334      -0.0878052794379    3.39812793293e-05   -0.0131762911997    
2800000000.0        -5.35784370672e-05  -0.0136604396086    0.994452067753      -0.0910510722579    0.994452067753      -0.0910510722579    -5.3578437067e-05   -0.0136604396086    
2900000000.0        -0.000144320962245  -0.0141441264014    0.994139329191      -0.0942961173585    0.994139329191      -0.0942961173585    -0.000144320962245  -0.0141441264014    
3000000000.0        -0.000238242653144  -0.0146273313738    0.993815749572      -0.0975403815836    0.993815749572      -0.0975403815836    -0.000238242653144  -0.0146273313738    
3100000000.0        -0.000335339872449  -0.0151100342256    0.993481328066      -0.100783831603     0.993481328066      -0.100783831603     -0.000335339872449  -0.0151100342256    
3200000000.0        -0.000435608970674  -0.0155922145653    0.993136064072      -0.104026433921     0.993136064072      -0.104026433921     -0.000435608970674  -0.0155922145653    
3300000000.0        -0.000539046270629  -0.0160738519146    0.99277995721       -0.107268154882     0.99277995721       -0.107268154882     -0.000539046270629  -0.0160738519146    
3400000000.0        -0.000645648053891  -0.0165549257117    0.992413007304      -0.110508960679     0.992413007304      -0.110508960679     -0.000645648053892  -0.0165549257117    
3500000000.0        -0.000755410548945  -0.0170354153162    0.992035214381      -0.113748817362     0.992035214381      -0.113748817362     -0.000755410548946  -0.0170354153162    
3600000000.0        -0.000868329920752  -0.0175153000124    0.991646578659      -0.116987690838     0.991646578659      -0.116987690838     -0.000868329920752  -0.0175153000124    
3700000000.0        -0.000984402261526  -0.0179945590127    0.991247100544      -0.120225546885     0.991247100544      -0.120225546885     -0.000984402261526  -0.0179945590127    
3800000000.0        -0.00110362358254   -0.0184731714619    0.99083678062       -0.123462351149     0.99083678062       -0.123462351149     -0.00110362358254   -0.0184731714619    
3900000000.0        -0.00122598980684   -0.0189511164402    0.990415619651      -0.126698069157     0.990415619651      -0.126698069157     -0.00122598980684   -0.0189511164402    
4000000000.0        -0.00135149676268   -0.0194283729667    0.989983618569      -0.129932666316     0.989983618569      -0.129932666316     -0.00135149676268   -0.0194283729667    
4100000000.0        -0.0014801401777    -0.0199049200025    0.98954077848       -0.133166107921     0.98954077848       -0.133166107921     -0.0014801401777    -0.0199049200025    
4200000000.0        -0.00161191567358   -0.0203807364543    0.989087100653      -0.136398359159     0.989087100653      -0.136398359159     -0.00161191567358   -0.0203807364543    
4300000000.0        -0.00174681876131   -0.0208558011774    0.988622586523      -0.139629385112     0.988622586523      -0.139629385112     -0.00174681876131   -0.0208558011774    
4400000000.0        -0.00188484483686   -0.0213300929785    0.988147237686      -0.142859150764     0.988147237686      -0.142859150764     -0.00188484483686   -0.0213300929785    
4500000000.0        -0.00202598917721   -0.0218035906191    0.987661055899      -0.146087621001     0.987661055899      -0.146087621001     -0.00202598917721   -0.0218035906191    
4600000000.0        -0.00217024693677   -0.022276272818     0.987164043077      -0.149314760619     0.987164043077      -0.149314760619     -0.00217024693677   -0.022276272818     
4700000000.0        -0.00231761314415   -0.0227481182546    0.986656201291      -0.152540534323     0.986656201291      -0.152540534323     -0.00231761314415   -0.0227481182546    
4800000000.0        -0.00246808269909   -0.0232191055718    0.986137532772      -0.155764906735     0.986137532772      -0.155764906735     -0.00246808269909   -0.0232191055718    
4900000000.0        -0.00262165036978   -0.0236892133781    0.985608039902      -0.158987842397     0.985608039902      -0.158987842397     -0.00262165036978   -0.0236892133781    
5000000000.0        -0.00277831079027   -0.024158420251     0.985067725221      -0.162209305769     0.985067725221      -0.162209305769     -0.00277831079027   -0.024158420251     
5100000000.0        -0.00293805845821   -0.0246267047397    0.984516591421      -0.165429261241     0.984516591421      -0.165429261241     -0.00293805845821   -0.0246267047397    
5200000000.0        -0.00310088773268   -0.025094045367     0.983954641348      -0.168647673128     0.983954641348      -0.168647673128     -0.00310088773268   -0.025094045367     
5300000000.0        -0.00326679283219   -0.0255604206329    0.983381878001      -0.171864505678     0.983381878001      -0.171864505678     -0.00326679283219   -0.0255604206329    
5400000000.0        -0.00343576783292   -0.0260258090165    0.982798304532      -0.175079723072     0.982798304532      -0.175079723072     -0.00343576783292   -0.0260258090165    
5500000000.0        -0.00360780666697   -0.0264901889786    0.982203924244      -0.178293289429     0.982203924244      -0.178293289429     -0.00360780666697   -0.0264901889786    
5600000000.0        -0.00378290312085   -0.0269535389645    0.981598740593      -0.181505168809     0.981598740593      -0.181505168809     -0.00378290312085   -0.0269535389645    
5700000000.0        -0.00396105083403   -0.0274158374062    0.980982757186      -0.184715325213     0.980982757186      -0.184715325213     -0.00396105083403   -0.0274158374062    
5800000000.0        -0.00414224329757   -0.0278770627248    0.980355977783      -0.187923722589     0.980355977783      -0.187923722589     -0.00414224329757   -0.0278770627248    
5900000000.0        -0.00432647385296   -0.0283371933332    0.979718406294      -0.191130324832     0.979718406294      -0.191130324832     -0.00432647385296   -0.0283371933332    
6000000000.0        -0.0045137356909    -0.0287962076382    0.979070046782      -0.194335095787     0.979070046782      -0.194335095787     -0.0045137356909    -0.0287962076382    
6100000000.0        -0.00470402185029   -0.0292540840428    0.97841090346       -0.197537999255     0.97841090346       -0.197537999255     -0.0047040218503    -0.0292540840428    
6200000000.0        -0.00489732521727   -0.0297108009488    0.977740980694      -0.200738998989     0.977740980694      -0.200738998989     -0.00489732521727   -0.0297108009488    
6300000000.0        -0.00509363852427   -0.0301663367589    0.977060283         -0.203938058701     0.977060283         -0.203938058701     -0.00509363852427   -0.0301663367589    
6400000000.0        -0.0052929543492    -0.0306206698789    0.976368815046      -0.207135142063     0.976368815046      -0.207135142063     -0.0052929543492    -0.0306206698789    
6500000000.0        -0.00549526511473   -0.0310737787201    0.975666581652      -0.210330212712     0.975666581652      -0.210330212712     -0.00549526511473   -0.0310737787201    
6600000000.0        -0.00570056308752   -0.0315256417015    0.974953587788      -0.213523234245     0.974953587788      -0.213523234245     -0.00570056308752   -0.0315256417015    
6700000000.0        -0.00590884037761   -0.0319762372519    0.974229838577      -0.216714170231     0.974229838577      -0.216714170231     -0.00590884037761   -0.0319762372519    
6800000000.0        -0.00612008893785   -0.0324255438122    0.973495339292      -0.219902984203     0.973495339292      -0.219902984203     -0.00612008893785   -0.0324255438122    
6900000000.0        -0.00633430056333   -0.0328735398374    0.972750095359      -0.223089639669     0.972750095359      -0.223089639669     -0.00633430056333   -0.0328735398374    
7000000000.0        -0.0065514668909    -0.0333202037991    0.971994112356      -0.226274100108     0.971994112356      -0.226274100108     -0.0065514668909    -0.0333202037991    
7100000000.0        -0.00677157939878   -0.0337655141869    0.97122739601       -0.229456328976     0.97122739601       -0.229456328976     -0.00677157939878   -0.0337655141869    
7200000000.0        -0.00699462940608   -0.0342094495114    0.970449952202      -0.232636289705     0.970449952202      -0.232636289705     -0.00699462940608   -0.0342094495114    
7300000000.0        -0.00722060807254   -0.0346519883056    0.969661786964      -0.235813945707     0.969661786964      -0.235813945707     -0.00722060807254   -0.0346519883056    
7400000000.0        -0.00744950639817   -0.0350931091273    0.96886290648       -0.238989260374     0.96886290648       -0.238989260374     -0.00744950639817   -0.0350931091273    
7500000000.0        -0.00768131522299   -0.0355327905608    0.968053317086      -0.242162197083     0.968053317086      -0.242162197083     -0.00768131522299   -0.0355327905608    
7600000000.0        -0.00791602522681   -0.0359710112196    0.967233025269      -0.245332719194     0.967233025269      -0.245332719194     -0.00791602522681   -0.0359710112196    
7700000000.0        -0.00815362692904   -0.0364077497477    0.966402037667      -0.248500790055     0.966402037667      -0.248500790055     -0.00815362692904   -0.0364077497477    
7800000000.0        -0.00839411068852   -0.0368429848218    0.965560361072      -0.251666373003     0.965560361072      -0.251666373003     -0.00839411068852   -0.0368429848218    
7900000000.0        -0.00863746670339   -0.0372766951537    0.964708002427      -0.254829431365     0.964708002427      -0.254829431365     -0.00863746670339   -0.0372766951537    
8000000000.0        -0.00888368501102   -0.0377088594915    0.963844968825      -0.25798992846      0.963844968825      -0.25798992846      -0.00888368501102   -0.0377088594915    
8100000000.0        -0.00913275548795   -0.0381394566224    0.962971267513      -0.261147827601     0.962971267513      -0.261147827601     -0.00913275548795   -0.0381394566224    
8200000000.0        -0.00938466784983   -0.0385684653739    0.962086905888      -0.264303092097     0.962086905888      -0.264303092097     -0.00938466784983   -0.0385684653739    
8300000000.0        -0.00963941165148   -0.0389958646161    0.961191891501      -0.267455685254     0.961191891501      -0.267455685254     -0.00963941165148   -0.0389958646161    
8400000000.0        -0.00989697628684   -0.0394216332636    0.960286232051      -0.270605570379     0.960286232051      -0.270605570379     -0.00989697628684   -0.0394216332636    
8500000000.0        -0.0101573509891    -0.0398457502773    0.959369935392      -0.273752710778     0.959369935392      -0.273752710778     -0.0101573509891    -0.0398457502773    
8600000000.0        -0.0104205248308    -0.0402681946663    0.958443009527      -0.276897069758     0.958443009527      -0.276897069758     -0.0104205248308    -0.0402681946663    
8700000000.0        -0.0106864867238    -0.0406889454897    0.957505462611      -0.280038610634     0.957505462611      -0.280038610634     -0.0106864867238    -0.0406889454897    
8800000000.0        -0.0109552254197    -0.0411079818585    0.956557302952      -0.283177296723     0.956557302952      -0.283177296723     -0.0109552254197    -0.0411079818585    
8900000000.0        -0.0112267295096    -0.0415252829376    0.955598539006      -0.286313091351     0.955598539006      -0.286313091351     -0.0112267295096    -0.0415252829376    
9000000000.0        -0.0115009874246    -0.0419408279473    0.954629179382      -0.289445957852     0.954629179382      -0.289445957852     -0.0115009874246    -0.0419408279473    
9100000000.0        -0.0117779874361    -0.0423545961654    0.95364923284       -0.292575859572     0.95364923284       -0.292575859572     -0.0117779874361    -0.0423545961654    
9200000000.0        -0.0120577176556    -0.0427665669287    0.952658708289      -0.295702759866     0.952658708289      -0.295702759866     -0.0120577176556    -0.0427665669287    
9300000000.0        -0.0123401660354    -0.0431767196351    0.951657614791      -0.298826622104     0.951657614791      -0.298826622104     -0.0123401660354    -0.0431767196351    
9400000000.0        -0.0126253203686    -0.0435850337452    0.950645961556      -0.301947409672     0.950645961556      -0.301947409672     -0.0126253203686    -0.0435850337452    
9500000000.0        -0.0129131682897    -0.0439914887839    0.949623757946      -0.305065085968     0.949623757946      -0.305065085968     -0.0129131682897    -0.0439914887839    
9600000000.0        -0.0132036972745    -0.0443960643426    0.948591013473      -0.308179614413     0.948591013473      -0.308179614413     -0.0132036972745    -0.0443960643426    
9700000000.0        -0.0134968946408    -0.0447987400804    0.947547737796      -0.311290958444     0.947547737796      -0.311290958444     -0.0134968946408    -0.0447987400804    
9800000000.0        -0.0137927475486    -0.0451994957261    0.946493940727      -0.314399081519     0.946493940727      -0.314399081519     -0.0137927475486    -0.0451994957261    
9900000000.0        -0.0140912430006    -0.0455983110801    0.945429632226      -0.317503947117     0.945429632226      -0.317503947117     -0.0140912430006    -0.0455983110801    
10000000000.0       -0.0143923678427    -0.0459951660157    0.944354822402      -0.320605518743     0.944354822402      -0.320605518743     -0.0143923678427    -0.0459951660157    
