# Hz S RI R 50.00 
100000000.0         0.00211797218634    0.000630747579356   0.997875473295      -0.00315600587709   0.997875473295      -0.00315600587709   0.00211797218634    0.000630747579356   
200000000.0         0.00213693227407    0.00126136331539    0.997844576992      -0.00631188829223   0.997844576992      -0.00631188829223   0.00213693227407    0.00126136331539    
300000000.0         0.00215616921025    0.00189186150717    0.997807021743      -0.00946766605736   0.997807021743      -0.00946766605736   0.00215616921025    0.00189186150717    
400000000.0         0.00217751557822    0.00252222921941    0.997760974455      -0.0126233269093    0.997760974455      -0.0126233269093    0.00217751557822    0.00252222921941    
500000000.0         0.00220167610364    0.00315244741291    0.997705729798      -0.0157788505364    0.997705729798      -0.0157788505364    0.00220167610364    0.00315244741291    
600000000.0         0.00222900940525    0.00378249444521    0.997640928464      -0.0189342127459    0.997640928464      -0.0189342127459    0.00222900940525    0.00378249444521    
700000000.0         0.00225972664144    0.00441234730736    0.99756635853       -0.0220893870419    0.99756635853       -0.0220893870419    0.00225972664144    0.00441234730736    
800000000.0         0.00229396398034    0.00504198218844    0.997481882995      -0.0252443453932    0.997481882995      -0.0252443453932    0.00229396398034    0.00504198218844    
900000000.0         0.00233181485419    0.0056713747736     0.997387407526      -0.0283990586663    0.997387407526      -0.0283990586663    0.00233181485419    0.0056713747736     
1000000000.0        0.00237334630174    0.00630050041747    0.997282864128      -0.031553496894     0.997282864128      -0.031553496894     0.00237334630174    0.00630050041747    
1100000000.0        0.00241860804913    0.00692933425236    0.99716820206       -0.0347076294527    0.99716820206       -0.0347076294527    0.00241860804913    0.00692933425236    
1200000000.0        0.00246763791865    0.00755785125949    0.997043382436      -0.0378614251878    0.997043382436      -0.0378614251878    0.00246763791865    0.00755785125949    
1300000000.0        0.00252046523048    0.00818602631769    0.996908374821      -0.0410148525045    0.996908374821      -0.0410148525045    0.00252046523048    0.00818602631769    
1400000000.0        0.00257711303757    0.00881383423808    0.996763155002      -0.0441678794359    0.996763155002      -0.0441678794359    0.00257711303757    0.00881383423808    
1500000000.0        0.00263759964812    0.00944124978928    0.996607703467      -0.0473204736966    0.996607703467      -0.0473204736966    0.00263759964812    0.00944124978928    
1600000000.0        0.00270193969445    0.0100682477162     0.99644200434       -0.0504726027248    0.99644200434       -0.0504726027248    0.00270193969444    0.0100682477162     
1700000000.0        0.00277014490294    0.0106948027546     0.99626604461       -0.0536242337158    0.99626604461       -0.0536242337158    0.00277014490294    0.0106948027546     
1800000000.0        0.00284222466132    0.0113208896421     0.99607981357       -0.0567753336506    0.99607981357       -0.0567753336506    0.00284222466132    0.0113208896421     
1900000000.0        0.00291818644457    0.0119464831269     0.995883302389      -0.059925869319     0.995883302389      -0.059925869319     0.00291818644457    0.0119464831269     
2000000000.0        0.00299803614029    0.0125715579752     0.99567650379       -0.0630758073394    0.99567650379       -0.0630758073394    0.00299803614029    0.0125715579752     
2100000000.0        0.00308177830111    0.0131960889766     0.995459411802      -0.0662251141757    0.995459411802      -0.0662251141757    0.00308177830111    0.0131960889766     
2200000000.0        0.003169416343      0.013820050949      0.995232021558      -0.069373756152     0.995232021558      -0.069373756152     0.003169416343      0.013820050949      
2300000000.0        0.00326095270314    0.0144434187427     0.994994329141      -0.0725216994653    0.994994329141      -0.0725216994653    0.00326095270314    0.0144434187427     
2400000000.0        0.00335638896689    0.0150661672431     0.994746331461      -0.0756689101967    0.994746331461      -0.0756689101967    0.00335638896689    0.0150661672431     
2500000000.0        0.00345572597097    0.0156882713744     0.994488026148      -0.0788153543216    0.994488026148      -0.0788153543216    0.00345572597097    0.0156882713744     
2600000000.0        0.00355896388805    0.0163097061015     0.994219411474      -0.0819609977183    0.994219411474      -0.0819609977183    0.00355896388805    0.0163097061015     
2700000000.0        0.00366610229678    0.0169304464321     0.993940486278      -0.0851058061762    0.993940486278      -0.0851058061762    0.00366610229678    0.0169304464321     
2800000000.0        0.00377714024003    0.0175504674188     0.993651249917      -0.0882497454031    0.993651249917      -0.0882497454031    0.00377714024003    0.0175504674188     
2900000000.0        0.00389207627389    0.0181697441609     0.99335170221       -0.0913927810317    0.99335170221       -0.0913927810317    0.00389207627389    0.0181697441609     
3000000000.0        0.00401090850902    0.0187882518055     0.993041843402      -0.0945348786256    0.993041843402      -0.0945348786256    0.00401090850902    0.0187882518055     
3100000000.0        0.00413363464583    0.019405965549      0.99272167413       -0.0976760036851    0.99272167413       -0.0976760036851    0.00413363464583    0.019405965549      
3200000000.0        0.00426025200452    0.0200228606385     0.992391195392      -0.100816121652     0.992391195392      -0.100816121652     0.00426025200453    0.0200228606385     
3300000000.0        0.00439075755105    0.020638912373      0.992050408524      -0.103955197914     0.992050408524      -0.103955197914     0.00439075755105    0.020638912373      
3400000000.0        0.00452514791938    0.021254096104      0.991699315176      -0.107093197811     0.991699315176      -0.107093197811     0.00452514791938    0.021254096104      
3500000000.0        0.00466341943102    0.0218683872372     0.991337917297      -0.110230086637     0.991337917297      -0.110230086637     0.00466341943102    0.0218683872372     
3600000000.0        0.00480556811191    0.0224817612326     0.990966217114      -0.113365829644     0.990966217114      -0.113365829644     0.00480556811191    0.0224817612326     
3700000000.0        0.00495158970732    0.0230941936062     0.990584217124      -0.116500392048     0.990584217124      -0.116500392048     0.00495158970732    0.0230941936062     
3800000000.0        0.00510147969497    0.0237056599304     0.990191920075      -0.11963373903      0.990191920075      -0.11963373903      0.00510147969497    0.0237056599304     
3900000000.0        0.00525523329652    0.024316135835      0.989789328961      -0.122765835739     0.989789328961      -0.122765835739     0.00525523329652    0.024316135835      
4000000000.0        0.00541284548794    0.0249255970078     0.98937644701       -0.125896647299     0.98937644701       -0.125896647299     0.00541284548794    0.0249255970078     
4100000000.0        0.00557431100858    0.0255340191957     0.988953277675      -0.129026138808     0.988953277675      -0.129026138808     0.00557431100858    0.0255340191957     
4200000000.0        0.00573962436941    0.0261413782049     0.988519824626      -0.132154275339     0.988519824626      -0.132154275339     0.00573962436941    0.0261413782049     
4300000000.0        0.0059087798603     0.0267476499023     0.988076091746      -0.135281021951     0.988076091746      -0.135281021951     0.0059087798603     0.0267476499023     
4400000000.0        0.00608177155669    0.0273528102157     0.987622083123      -0.13840634368      0.987622083123      -0.13840634368      0.00608177155669    0.0273528102157     
4500000000.0        0.0062585933255     0.0279568351348     0.987157803045      -0.141530205554     0.987157803045      -0.141530205554     0.0062585933255     0.0279568351348     
4600000000.0        0.0064392388306     0.0285597007118     0.986683255996      -0.144652572583     0.986683255996      -0.144652572583     0.0064392388306     0.0285597007118     
4700000000.0        0.00662370153767    0.0291613830619     0.986198446649      -0.14777340977      0.986198446649      -0.14777340977      0.00662370153767    0.0291613830619     
4800000000.0        0.00681197471871    0.0297618583642     0.985703379866      -0.150892682111     0.985703379866      -0.150892682111     0.00681197471871    0.0297618583642     
4900000000.0        0.00700405145617    0.0303611028625     0.985198060692      -0.154010354595     0.985198060692      -0.154010354595     0.00700405145617    0.0303611028625     
5000000000.0        0.00719992464664    0.0309590928654     0.984682494352      -0.157126392207     0.984682494352      -0.157126392207     0.00719992464664    0.0309590928654     
5100000000.0        0.00739958700441    0.0315558047477     0.984156686248      -0.160240759932     0.984156686248      -0.160240759932     0.00739958700441    0.0315558047477     
5200000000.0        0.00760303106459    0.0321512149505     0.983620641959      -0.163353422754     0.983620641959      -0.163353422754     0.00760303106459    0.0321512149505     
5300000000.0        0.00781024918608    0.032745299982      0.983074367232      -0.166464345659     0.983074367232      -0.166464345659     0.00781024918608    0.032745299982      
5400000000.0        0.00802123355436    0.0333380364182     0.982517867989      -0.169573493637     0.982517867989      -0.169573493637     0.00802123355436    0.0333380364182     
5500000000.0        0.00823597618399    0.0339294009035     0.981951150315      -0.172680831685     0.981951150315      -0.172680831685     0.00823597618399    0.0339294009035     
5600000000.0        0.00845446892103    0.0345193701515     0.981374220465      -0.175786324805     0.981374220465      -0.175786324805     0.00845446892103    0.0345193701515     
5700000000.0        0.00867670344525    0.0351079209452     0.980787084856      -0.178889938011     0.980787084856      -0.178889938011     0.00867670344525    0.0351079209452     
5800000000.0        0.00890267127225    0.0356950301383     0.980189750067      -0.181991636323     0.980189750067      -0.181991636323     0.00890267127225    0.0356950301383     
5900000000.0        0.00913236375539    0.0362806746552     0.979582222841      -0.185091384778     0.979582222841      -0.185091384778     0.00913236375539    0.0362806746552     
6000000000.0        0.00936577208767    0.036864831492      0.978964510078      -0.188189148423     0.978964510078      -0.188189148423     0.00936577208767    0.036864831492      
6100000000.0        0.00960288730349    0.0374474777171     0.978336618836      -0.191284892322     0.978336618836      -0.191284892322     0.00960288730349    0.0374474777171     
6200000000.0        0.00984370028028    0.0380285904715     0.977698556332      -0.194378581555     0.977698556332      -0.194378581555     0.00984370028028    0.0380285904715     
6300000000.0        0.0100882017401     0.0386081469701     0.977050329938      -0.19747018122      0.977050329938      -0.19747018122      0.0100882017401     0.0386081469701     
6400000000.0        0.0103363822513     0.0391861245017     0.97639194718       -0.200559656435     0.97639194718       -0.200559656435     0.0103363822513     0.0391861245017     
6500000000.0        0.0105882322295     0.0397625004298     0.975723415738      -0.203646972338     0.975723415738      -0.203646972338     0.0105882322295     0.0397625004298     
6600000000.0        0.0108437419395     0.0403372521934     0.975044743445      -0.206732094088     0.975044743445      -0.206732094088     0.0108437419395     0.0403372521934     
6700000000.0        0.0111029014963     0.0409103573075     0.974355938286      -0.209814986871     0.974355938286      -0.209814986871     0.0111029014963     0.0409103573075     
6800000000.0        0.0113657008664     0.0414817933638     0.973657008397      -0.212895615893     0.973657008397      -0.212895615893     0.0113657008664     0.0414817933638     
6900000000.0        0.0116321298692     0.0420515380312     0.972947962062      -0.215973946391     0.972947962062      -0.215973946391     0.0116321298692     0.0420515380312     
7000000000.0        0.0119021781777     0.0426195690564     0.972228807716      -0.219049943625     0.972228807716      -0.219049943625     0.0119021781777     0.0426195690564     
7100000000.0        0.0121758353203     0.0431858642648     0.971499553943      -0.222123572886     0.971499553943      -0.222123572886     0.0121758353203     0.0431858642648     
7200000000.0        0.0124530906813     0.0437504015608     0.970760209472      -0.225194799494     0.970760209472      -0.225194799494     0.0124530906813     0.0437504015608     
7300000000.0        0.0127339335024     0.0443131589286     0.97001078318       -0.228263588799     0.97001078318       -0.228263588799     0.0127339335024     0.0443131589286     
7400000000.0        0.0130183528834     0.0448741144329     0.969251284092      -0.231329906183     0.969251284092      -0.231329906183     0.0130183528834     0.0448741144329     
7500000000.0        0.0133063377834     0.0454332462192     0.968481721375      -0.234393717064     0.968481721375      -0.234393717064     0.0133063377834     0.0454332462192     
7600000000.0        0.013597877022      0.0459905325148     0.967702104344      -0.23745498689      0.967702104344      -0.23745498689      0.013597877022      0.0459905325148     
7700000000.0        0.0138929592796     0.0465459516291     0.966912442455      -0.240513681148     0.966912442455      -0.240513681148     0.0138929592796     0.0465459516291     
7800000000.0        0.014191573099      0.0470994819544     0.966112745311      -0.24356976536      0.966112745311      -0.24356976536      0.014191573099      0.0470994819544     
7900000000.0        0.014493706886      0.0476511019666     0.965303022655      -0.246623205085     0.965303022655      -0.246623205085     0.014493706886      0.0476511019666     
8000000000.0        0.0147993489105     0.0482007902254     0.964483284373      -0.249673965921     0.964483284373      -0.249673965921     0.0147993489105     0.0482007902254     
8100000000.0        0.0151084873069     0.0487485253755     0.963653540493      -0.252722013507     0.963653540493      -0.252722013507     0.0151084873069     0.0487485253755     
8200000000.0        0.0154211100758     0.0492942861467     0.962813801183      -0.255767313521     0.962813801183      -0.255767313521     0.0154211100758     0.0492942861467     
8300000000.0        0.015737205084      0.0498380513549     0.961964076754      -0.258809831684     0.961964076754      -0.258809831684     0.015737205084      0.0498380513549     
8400000000.0        0.0160567600659     0.0503797999023     0.961104377654      -0.261849533758     0.961104377654      -0.261849533758     0.0160567600659     0.0503797999023     
8500000000.0        0.0163797626241     0.0509195107783     0.960234714471      -0.264886385551     0.960234714471      -0.264886385551     0.0163797626241     0.0509195107783     
8600000000.0        0.0167062002304     0.0514571630602     0.959355097933      -0.267920352914     0.959355097933      -0.267920352914     0.0167062002304     0.0514571630602     
8700000000.0        0.0170360602263     0.0519927359134     0.958465538906      -0.270951401745     0.958465538906      -0.270951401745     0.0170360602263     0.0519927359134     
8800000000.0        0.0173693298241     0.0525262085925     0.957566048391      -0.273979497987     0.957566048391      -0.273979497987     0.0173693298241     0.0525262085925     
8900000000.0        0.0177059961077     0.0530575604413     0.95665663753       -0.277004607632     0.95665663753       -0.277004607632     0.0177059961077     0.0530575604413     
9000000000.0        0.018046046033      0.053586770894      0.9557373176        -0.280026696721     0.9557373176        -0.280026696721     0.018046046033      0.053586770894      
9100000000.0        0.0183894664293     0.0541138194754     0.954808100012      -0.283045731342     0.954808100012      -0.283045731342     0.0183894664293     0.0541138194754     
9200000000.0        0.0187362439994     0.0546386858018     0.953868996315      -0.286061677635     0.953868996315      -0.286061677635     0.0187362439994     0.0546386858018     
9300000000.0        0.019086365321      0.0551613495811     0.952920018193      -0.289074501792     0.952920018193      -0.289074501792     0.019086365321      0.0551613495811     
9400000000.0        0.019439816847      0.055681790614      0.951961177463      -0.292084170056     0.951961177463      -0.292084170056     0.019439816847      0.055681790614      
9500000000.0        0.0197965849064     0.0561999887941     0.950992486077      -0.295090648723     0.950992486077      -0.295090648723     0.0197965849064     0.0561999887941     
9600000000.0        0.0201566557053     0.0567159241087     0.95001395612       -0.298093904143     0.95001395612       -0.298093904143     0.0201566557053     0.0567159241087     
9700000000.0        0.0205200153272     0.0572295766394     0.949025599809      -0.30109390272      0.949025599809      -0.30109390272      0.0205200153272     0.0572295766394     
9800000000.0        0.0208866497341     0.0577409265626     0.948027429495      -0.304090610915     0.948027429495      -0.304090610915     0.0208866497341     0.0577409265626     
9900000000.0        0.0212565447671     0.0582499541501     0.94701945766       -0.307083995245     0.94701945766       -0.307083995245     0.0212565447671     0.0582499541501     
10000000000.0       0.0216296861473     0.0587566397698     0.946001696917      -0.310074022284     0.946001696917      -0.310074022284     0.0216296861473     0.0587566397698     
