# Hz S RI R 50.00 
100000000.0         -6.63894873169e-05  -0.00857907254788   0.99989846158       -0.00872735747037   0.99989846158       -0.00872735747037   -6.63894873169e-05  -0.00857907254788   
200000000.0         -0.000299410347897  -0.0171538975808    0.999665168462      -0.0174504979842    0.999665168462      -0.0174504979842    -0.000299410347896  -0.0171538975808    
300000000.0         -0.000681926836795  -0.0257205658853    0.999282418366      -0.0261655279666    0.999282418366      -0.0261655279666    -0.000681926836794  -0.0257205658853    
400000000.0         -0.00121357215667   -0.0342751885392    0.998750547816      -0.0348685703793    0.998750547816      -0.0348685703793    -0.00121357215667   -0.0342751885392    
500000000.0         -0.00189385495022   -0.0428138985811    0.998070036543      -0.0435557681941    0.998070036543      -0.0435557681941    -0.00189385495022   -0.0428138985811    
600000000.0         -0.00272215405592   -0.0513328553462    0.997241499785      -0.0522232893623    0.997241499785      -0.0522232893623    -0.00272215405591   -0.0513328553462    
700000000.0         -0.00369771834133   -0.0598282494361    0.996265685172      -0.0608673321086    0.996265685172      -0.0608673321086    -0.00369771834133   -0.0598282494361    
800000000.0         -0.00481966784392   -0.0682963078879    0.99514347039       -0.0694841302975    0.99514347039       -0.0694841302975    -0.00481966784392   -0.0682963078879    
900000000.0         -0.00608699551066   -0.0767332993739    0.993875860909      -0.0780699587628    0.993875860909      -0.0780699587628    -0.00608699551066   -0.0767332993739    
1000000000.0        -0.00749856933284   -0.0851355393557    0.992463987582      -0.0866211385565    0.992463987582      -0.0866211385565    -0.00749856933284   -0.0851355393557    
1100000000.0        -0.00905313479815   -0.093499395146     0.990909104043      -0.09513404208      0.990909104043      -0.09513404208      -0.00905313479815   -0.093499395146     
1200000000.0        -0.0107493176219    -0.101821290843     0.989212583884      -0.103605098074     0.989212583884      -0.103605098074     -0.0107493176219    -0.101821290843     
1300000000.0        -0.0125856267332    -0.110097712114     0.987375917622      -0.112030796449     0.987375917622      -0.112030796449     -0.0125856267332    -0.110097712114     
1400000000.0        -0.0145604574991    -0.118325210811     0.98540070943       -0.12040769293      0.98540070943       -0.12040769293      -0.0145604574991    -0.118325210811     
1500000000.0        -0.0166720951685    -0.126500409396     0.983288673671      -0.128732413522     0.983288673671      -0.128732413522     -0.0166720951685    -0.126500409396     
1600000000.0        -0.0189187185228    -0.134620005168     0.981041631232      -0.13700165876      0.981041631232      -0.13700165876      -0.0189187185228    -0.134620005168     
1700000000.0        -0.0212984037164    -0.142680774276     0.978661505671      -0.145212207745     0.978661505671      -0.145212207745     -0.0212984037164    -0.142680774276     
1800000000.0        -0.0238091282918    -0.150679575511     0.976150319189      -0.153360921956     0.976150319189      -0.153360921956     -0.0238091282918    -0.150679575511     
1900000000.0        -0.0264487753553    -0.15861335386      0.973510188452      -0.161444748823     0.973510188452      -0.161444748823     -0.0264487753553    -0.15861335386      
2000000000.0        -0.0292151378954    -0.166479143828     0.970743320266      -0.169460725068     0.970743320266      -0.169460725068     -0.0292151378954    -0.166479143828     
2100000000.0        -0.0321059232289    -0.174274072503     0.967852007126      -0.177405979781     0.967852007126      -0.177405979781     -0.0321059232289    -0.174274072503     
2200000000.0        -0.0351187575592    -0.18199536238      0.964838622656      -0.185277737262     0.964838622656      -0.185277737262     -0.0351187575592    -0.18199536238      
2300000000.0        -0.0382511906295    -0.189640333923     0.961705616951      -0.193073319591     0.961705616951      -0.193073319591     -0.0382511906295    -0.189640333923     
2400000000.0        -0.0415007004551    -0.197206407869     0.958455511846      -0.200790148952     0.958455511846      -0.200790148952     -0.0415007004551    -0.197206407869     
2500000000.0        -0.0448646981196    -0.204691107279     0.955090896117      -0.208425749683     0.955090896117      -0.208425749683     -0.0448646981196    -0.204691107279     
2600000000.0        -0.0483405326174    -0.212092059322     0.951614420636      -0.215977750079     0.951614420636      -0.215977750079     -0.0483405326174    -0.212092059322     
2700000000.0        -0.0519254957285    -0.219406996799     0.948028793496      -0.223443883926     0.948028793496      -0.223443883926     -0.0519254957285    -0.219406996799     
2800000000.0        -0.0556168269098    -0.226633759422     0.94433677512       -0.230821991781     0.94433677512       -0.230821991781     -0.0556168269098    -0.226633759422     
2900000000.0        -0.059411718187     -0.233770294822     0.940541173366      -0.238110021997     0.940541173366      -0.238110021997     -0.059411718187     -0.233770294822     
3000000000.0        -0.0633073190338    -0.240814659316     0.936644838648      -0.245306031493     0.936644838648      -0.245306031493     -0.0633073190338    -0.240814659316     
3100000000.0        -0.0673007412239    -0.247765018427     0.932650659087      -0.252408186282     0.932650659087      -0.252408186282     -0.0673007412239    -0.247765018427     
3200000000.0        -0.0713890636427    -0.254619647161     0.928561555693      -0.259414761757     0.928561555693      -0.259414761757     -0.0713890636427    -0.254619647161     
3300000000.0        -0.0755693370445    -0.26137693005      0.924380477612      -0.266324142737     0.924380477612      -0.266324142737     -0.0755693370445    -0.26137693005      
3400000000.0        -0.0798385887455    -0.268035360967     0.920110397429      -0.273134823292     0.920110397429      -0.273134823292     -0.0798385887455    -0.268035360967     
3500000000.0        -0.084193827238     -0.27459354272      0.915754306559      -0.279845406341     0.915754306559      -0.279845406341     -0.084193827238     -0.27459354272      
3600000000.0        -0.0886320467179    -0.281050186437     0.911315210713      -0.286454603041     0.911315210713      -0.286454603041     -0.0886320467179    -0.281050186437     
3700000000.0        -0.0931502315132    -0.287404110742     0.906796125473      -0.292961231972     0.906796125473      -0.292961231972     -0.0931502315132    -0.287404110742     
3800000000.0        -0.0977453604052    -0.293654240743     0.90220007197       -0.299364218127     0.90220007197       -0.299364218127     -0.0977453604052    -0.293654240743     
3900000000.0        -0.102414410834     -0.299799606828     0.897530072677      -0.305662591714     0.897530072677      -0.305662591714     -0.102414410834     -0.299799606828     
4000000000.0        -0.107154362979     -0.305839343292     0.892789147332      -0.311855486785     0.892789147332      -0.311855486785     -0.107154362979     -0.305839343292     
4100000000.0        -0.111962203712     -0.311772686794     0.887980308981      -0.317942139704     0.887980308981      -0.317942139704     -0.111962203712     -0.311772686794     
4200000000.0        -0.116834930405     -0.317598974662     0.88310656017       -0.323921887446     0.88310656017       -0.323921887446     -0.116834930405     -0.317598974662     
4300000000.0        -0.121769554607     -0.323317643052     0.878170889272      -0.329794165768     0.878170889272      -0.329794165768     -0.121769554607     -0.323317643052     
4400000000.0        -0.126763105563     -0.328928224973     0.873176266963      -0.335558507235     0.873176266963      -0.335558507235     -0.126763105563     -0.328928224973     
4500000000.0        -0.131812633586     -0.33443034819      0.868125642855      -0.341214539125     0.868125642855      -0.341214539125     -0.131812633586     -0.33443034819      
4600000000.0        -0.136915213277     -0.339823733012     0.863021942271      -0.34676198122      0.863021942271      -0.34676198122      -0.136915213277     -0.339823733012     
4700000000.0        -0.142067946581     -0.345108189977     0.857868063192      -0.352200643498     0.857868063192      -0.352200643498     -0.142067946581     -0.345108189977     
4800000000.0        -0.14726796569      -0.350283617447     0.852666873354      -0.357530423728     0.852666873354      -0.357530423728     -0.14726796569      -0.350283617447     
4900000000.0        -0.152512435782     -0.355349999121     0.847421207508      -0.362751304982     0.847421207508      -0.362751304982     -0.152512435782     -0.355349999121     
5000000000.0        -0.157798557601     -0.360307401471     0.842133864837      -0.367863353084     0.842133864837      -0.367863353084     -0.157798557601     -0.360307401471     
5100000000.0        -0.163123569878     -0.365155971122     0.836807606543      -0.372866713981     0.836807606543      -0.372866713981     -0.163123569878     -0.365155971122     
5200000000.0        -0.168484751582     -0.369895932179     0.831445153588      -0.377761611078     0.831445153588      -0.377761611078     -0.168484751582     -0.369895932179     
5300000000.0        -0.173879424026     -0.374527583501     0.826049184593      -0.382548342516     0.826049184593      -0.382548342516     -0.173879424026     -0.374527583501     
5400000000.0        -0.179304952803     -0.379051295955     0.820622333896      -0.387227278424     0.820622333896      -0.387227278424     -0.179304952803     -0.379051295955     
5500000000.0        -0.184758749572     -0.383467509633     0.815167189773      -0.391798858138     0.815167189773      -0.391798858138     -0.184758749572     -0.383467509633     
5600000000.0        -0.190238273693     -0.387776731054     0.809686292801      -0.396263587407     0.809686292801      -0.396263587407     -0.190238273693     -0.387776731054     
5700000000.0        -0.195741033704     -0.391979530357     0.804182134378      -0.400622035591     0.804182134378      -0.400622035591     -0.195741033704     -0.391979530357     
5800000000.0        -0.201264588657     -0.396076538495     0.798657155388      -0.404874832848     0.798657155388      -0.404874832848     -0.201264588657     -0.396076538495     
5900000000.0        -0.206806549308     -0.400068444426     0.793113745013      -0.409022667331     0.793113745013      -0.409022667331     -0.206806549308     -0.400068444426     
6000000000.0        -0.212364579168     -0.403955992321     0.78755423968       -0.413066282403     0.78755423968       -0.413066282403     -0.212364579168     -0.403955992321     
6100000000.0        -0.217936395418     -0.40773997879      0.781980922149      -0.417006473853     0.781980922149      -0.417006473853     -0.217936395418     -0.40773997879      
6200000000.0        -0.223519769692     -0.411421250129     0.776396020725      -0.420844087154     0.776396020725      -0.420844087154     -0.223519769692     -0.411421250129     
6300000000.0        -0.229112528732     -0.415000699596     0.770801708607      -0.424580014736     0.770801708607      -0.424580014736     -0.229112528732     -0.415000699596     
6400000000.0        -0.234712554923     -0.418479264726     0.765200103352      -0.428215193302     0.765200103352      -0.428215193302     -0.234712554923     -0.418479264726     
6500000000.0        -0.240317786709     -0.42185792468      0.759593266458      -0.431750601179     0.759593266458      -0.431750601179     -0.240317786709     -0.42185792468      
6600000000.0        -0.245926218895     -0.425137697639     0.753983203062      -0.435187255714     0.753983203062      -0.435187255714     -0.245926218895     -0.425137697639     
6700000000.0        -0.251535902845     -0.428319638247     0.748371861744      -0.438526210714     0.748371861744      -0.438526210714     -0.251535902845     -0.428319638247     
6800000000.0        -0.257144946572     -0.431404835102     0.742761134435      -0.441768553945     0.742761134435      -0.441768553945     -0.257144946572     -0.431404835102     
6900000000.0        -0.262751514735     -0.434394408306     0.737152856422      -0.444915404673     0.737152856422      -0.444915404673     -0.262751514735     -0.434394408306     
7000000000.0        -0.268353828538     -0.437289507062     0.731548806444      -0.447967911273     0.731548806444      -0.447967911273     -0.268353828538     -0.437289507062     
7100000000.0        -0.273950165548     -0.440091307347     0.725950706881      -0.450927248891     0.725950706881      -0.450927248891     -0.273950165548     -0.440091307347     
7200000000.0        -0.279538859424     -0.442801009628     0.720360224021      -0.453794617171     0.720360224021      -0.453794617171     -0.279538859424     -0.442801009628     
7300000000.0        -0.285118299572     -0.445419836655     0.714778968403      -0.456571238044     0.714778968403      -0.456571238044     -0.285118299572     -0.445419836655     
7400000000.0        -0.290686930725     -0.447949031314     0.709208495242      -0.45925835358      0.709208495242      -0.45925835358      -0.290686930725     -0.447949031314     
7500000000.0        -0.296243252456     -0.45038985455      0.703650304914      -0.461857223913     0.703650304914      -0.461857223913     -0.296243252456     -0.45038985455      
7600000000.0        -0.301785818628     -0.452743583347     0.698105843505      -0.464369125225     0.698105843505      -0.464369125225     -0.301785818628     -0.452743583347     
7700000000.0        -0.30731323678      -0.455011508793     0.692576503422      -0.466795347805     0.692576503422      -0.466795347805     -0.30731323678      -0.455011508793     
7800000000.0        -0.312824167469     -0.457194934198     0.687063624058      -0.469137194172     0.687063624058      -0.469137194172     -0.312824167469     -0.457194934198     
7900000000.0        -0.318317323554     -0.459295173292     0.681568492506      -0.471395977273     0.681568492506      -0.471395977273     -0.318317323554     -0.459295173292     
8000000000.0        -0.323791469433     -0.461313548484     0.676092344317      -0.47357301874      0.676092344317      -0.47357301874      -0.323791469433     -0.461313548484     
8100000000.0        -0.329245420245     -0.463251389196     0.670636364301      -0.475669647227     0.670636364301      -0.475669647227     -0.329245420245     -0.463251389196     
8200000000.0        -0.33467804103      -0.465110030264     0.66520168737       -0.477687196809     0.66520168737       -0.477687196809     -0.33467804103      -0.465110030264     
8300000000.0        -0.340088245856     -0.466890810404     0.659789399407      -0.479627005451     0.659789399407      -0.479627005451     -0.340088245856     -0.466890810404     
8400000000.0        -0.345474996917     -0.46859507075      0.654400538172      -0.481490413545     0.654400538172      -0.481490413545     -0.345474996917     -0.46859507075      
8500000000.0        -0.350837303599     -0.470224153457     0.649036094229      -0.483278762509     0.649036094229      -0.483278762509     -0.350837303599     -0.470224153457     
8600000000.0        -0.356174221532     -0.471779400368     0.6436970119        -0.484993393462     0.6436970119        -0.484993393462     -0.356174221532     -0.471779400368     
8700000000.0        -0.361484851614     -0.473262151749     0.63838419024       -0.486635645955     0.63838419024       -0.486635645955     -0.361484851614     -0.473262151749     
8800000000.0        -0.366768339022     -0.474673745085     0.633098484026      -0.488206856768     0.633098484026      -0.488206856768     -0.366768339022     -0.474673745085     
8900000000.0        -0.372023872208     -0.476015513944     0.627840704759      -0.489708358768     0.627840704759      -0.489708358768     -0.372023872208     -0.476015513944     
9000000000.0        -0.377250681879     -0.477288786889     0.622611621686      -0.491141479836     0.622611621686      -0.491141479836     -0.377250681879     -0.477288786889     
9100000000.0        -0.382448039981     -0.478494886468     0.617411962815      -0.49250754184      0.617411962815      -0.49250754184      -0.382448039981     -0.478494886468     
9200000000.0        -0.387615258659     -0.479635128248     0.612242415953      -0.49380785968      0.612242415953      -0.49380785968      -0.387615258659     -0.479635128248     
9300000000.0        -0.39275168923      -0.48071081991      0.607103629741      -0.495043740381     0.607103629741      -0.495043740381     -0.39275168923      -0.48071081991      
9400000000.0        -0.397856721143     -0.481723260404     0.601996214683      -0.496216482246     0.601996214683      -0.496216482246     -0.397856721143     -0.481723260404     
9500000000.0        -0.402929780942     -0.48267373915      0.596920744191      -0.497327374058     0.596920744191      -0.497327374058     -0.402929780942     -0.48267373915      
9600000000.0        -0.407970331235     -0.483563535296     0.59187775561       -0.498377694339     0.59187775561       -0.498377694339     -0.407970331235     -0.483563535296     
9700000000.0        -0.412977869664     -0.484393917026     0.586867751257      -0.499368710657     0.586867751257      -0.499368710657     -0.412977869664     -0.484393917026     
9800000000.0        -0.417951927876     -0.485166140916     0.581891199438      -0.50030167898      0.581891199438      -0.50030167898      -0.417951927876     -0.485166140916     
9900000000.0        -0.422892070512     -0.485881451336     0.576948535468      -0.501177843084     0.576948535468      -0.501177843084     -0.422892070512     -0.485881451336     
10000000000.0       -0.427797894195     -0.486541079897     0.572040162682      -0.501998433995     0.572040162682      -0.501998433995     -0.427797894195     -0.486541079897     
