# Hz S RI R 50.00 
100000000.0         -0.00012080117825   -0.0105903634655    0.999873702031      -0.0106214871806    0.999873702031      -0.0106214871806    -0.00012080117825   -0.0105903634655    
200000000.0         -0.000468599173371  -0.0211716106082    0.999525865027      -0.0212338700427    0.999525865027      -0.0212338700427    -0.000468599173371  -0.0211716106082    
300000000.0         -0.00104054969875   -0.0317358654332    0.998953883975      -0.0318292785389    0.998953883975      -0.0318292785389    -0.00104054969875   -0.0317358654332    
400000000.0         -0.00183568471623   -0.0422754996012    0.99815872219       -0.0424000886828    0.99815872219       -0.0424000886828    -0.00183568471623   -0.0422754996012    
500000000.0         -0.00285270704093   -0.0527830603836    0.997141675043      -0.0529388512203    0.997141675043      -0.0529388512203    -0.00285270704093   -0.0527830603836    
600000000.0         -0.00409000181705   -0.0632512554481    0.995904356471      -0.0634382766709    0.995904356471      -0.0634382766709    -0.00409000181705   -0.0632512554481    
700000000.0         -0.005545647954     -0.0736729520211    0.994448687022      -0.0738912346268    0.994448687022      -0.0738912346268    -0.005545647954     -0.0736729520211    
800000000.0         -0.00721742958392   -0.0840411814534    0.992776882212      -0.0842907584045    0.992776882212      -0.0842907584045    -0.00721742958392   -0.0840411814534    
900000000.0         -0.00910284770411   -0.0943491461443    0.990891440804      -0.0946300520282    0.990891440804      -0.0946300520282    -0.00910284770411   -0.0943491461443    
1000000000.0        -0.0111991320796    -0.104590227413     0.988795132856      -0.104902498148     0.988795132856      -0.104902498148     -0.0111991320796    -0.104590227413     
1100000000.0        -0.0135032534378    -0.114757993649     0.986490987509      -0.115101666227     0.986490987509      -0.115101666227     -0.0135032534378    -0.114757993649     
1200000000.0        -0.0160119359576    -0.124846208361     0.983982280483      -0.125221320618     0.983982280483      -0.125221320618     -0.0160119359576    -0.124846208361     
1300000000.0        -0.0187216700287    -0.134848837878     0.981272521307      -0.135255428292     0.981272521307      -0.135255428292     -0.0187216700287    -0.134848837878     
1400000000.0        -0.0216287252586    -0.144760058576     0.978365440308      -0.145198166092     0.978365440308      -0.145198166092     -0.0216287252586    -0.144760058576     
1500000000.0        -0.0247291636885    -0.154574263544     0.97526497539       -0.155043927408     0.97526497539       -0.155043927408     -0.0247291636885    -0.154574263544     
1600000000.0        -0.0280188531757    -0.164286068599     0.971975258652      -0.16478732822      0.971975258652      -0.16478732822      -0.0280188531757    -0.164286068599     
1700000000.0        -0.0314934809065    -0.173890317649     0.968500602868      -0.174423212472     0.968500602868      -0.174423212472     -0.0314934809065    -0.173890317649     
1800000000.0        -0.0351485669891    -0.183382087351     0.964845487898      -0.183946656744     0.964845487898      -0.183946656744     -0.0351485669891    -0.183382087351     
1900000000.0        -0.0389794780848    -0.192756691059     0.961014547052      -0.193352974215     0.961014547052      -0.193352974215     -0.0389794780848    -0.192756691059     
2000000000.0        -0.042981441034     -0.202009682057     0.957012553465      -0.202637717906     0.957012553465      -0.202637717906     -0.042981441034     -0.202009682057     
2100000000.0        -0.0471495564313    -0.211136856078     0.95284440652       -0.211796683213     0.95284440652       -0.211796683213     -0.0471495564313    -0.211136856078     
2200000000.0        -0.0514788121058    -0.220134253108     0.948515118369      -0.220825909714     0.948515118369      -0.220825909714     -0.0514788121058    -0.220134253108     
2300000000.0        -0.0559640964666    -0.228998158491     0.944029800585      -0.229721682289     0.944029800585      -0.229721682289     -0.0559640964666    -0.228998158491     
2400000000.0        -0.0606002116727    -0.237725103352     0.939393650995      -0.23848053155      0.939393650995      -0.23848053155      -0.0606002116727    -0.237725103352     
2500000000.0        -0.0653818865857    -0.246311864342     0.934611940723      -0.247099233593     0.934611940723      -0.247099233593     -0.0653818865857    -0.246311864342     
2600000000.0        -0.0703037894729    -0.254755462752     0.929690001488      -0.255574809114     0.929690001488      -0.255574809114     -0.0703037894729    -0.254755462752     
2700000000.0        -0.0753605404209    -0.263053162984     0.924633213194      -0.263904521892     0.924633213194      -0.263904521892     -0.0753605404209    -0.263053162984     
2800000000.0        -0.0805467234332    -0.271202470436     0.919446991825      -0.272085876678     0.919446991825      -0.272085876678     -0.0805467234332    -0.271202470436     
2900000000.0        -0.0858568981761    -0.279201128817     0.914136777707      -0.280116616515     0.914136777707      -0.280116616515     -0.0858568981761    -0.279201128817     
3000000000.0        -0.0912856113495    -0.287047116918     0.90870802413       -0.287994719508     0.90870802413       -0.287994719508     -0.0912856113495    -0.287047116918     
3100000000.0        -0.0968274076564    -0.294738644877     0.903166186384      -0.295718395102     0.903166186384      -0.295718395102     -0.0968274076564    -0.294738644877     
3200000000.0        -0.102476840349     -0.302274149968     0.897516711208      -0.303286079867     0.897516711208      -0.303286079867     -0.102476840349     -0.302274149968     
3300000000.0        -0.108228481333     -0.309652291947     0.891765026692      -0.310696432851     0.891765026692      -0.310696432851     -0.108228481333     -0.309652291947     
3400000000.0        -0.114076930812     -0.316871947994     0.885916532624      -0.317948330524     0.885916532624      -0.317948330524     -0.114076930812     -0.316871947994     
3500000000.0        -0.120016826461     -0.323932207279     0.879976591324      -0.325040861345     0.879976591324      -0.325040861345     -0.120016826461     -0.323932207279     
3600000000.0        -0.126042852116     -0.330832365195     0.87395051895       -0.33197332         0.87395051895       -0.33197332         -0.126042852116     -0.330832365195     
3700000000.0        -0.132149745971     -0.337571917281     0.867843577303      -0.338745201324     0.867843577303      -0.338745201324     -0.132149745971     -0.337571917281     
3800000000.0        -0.13833230828      -0.344150552888     0.861660966125      -0.345356193971     0.861660966125      -0.345356193971     -0.13833230828      -0.344150552888     
3900000000.0        -0.144585408556     -0.350568148606     0.855407815898      -0.351806173841     0.855407815898      -0.351806173841     -0.144585408556     -0.350568148606     
4000000000.0        -0.150903992272     -0.356824761492     0.849089181145      -0.35809519731      0.849089181145      -0.35809519731      -0.150903992272     -0.356824761492     
4100000000.0        -0.15728308706      -0.362920622137     0.842710034231      -0.364223494297     0.842710034231      -0.364223494297     -0.15728308706      -0.362920622137     
4200000000.0        -0.163717808413     -0.368856127594     0.836275259658      -0.370191461194     0.836275259658      -0.370191461194     -0.163717808413     -0.368856127594     
4300000000.0        -0.170203364903     -0.374631834208     0.829789648852      -0.375999653697     0.829789648852      -0.375999653697     -0.170203364903     -0.374631834208     
4400000000.0        -0.176735062909     -0.38024845037      0.82325789543       -0.381648779561     0.82325789543       -0.381648779561     -0.176735062909     -0.38024845037      
4500000000.0        -0.183308310877     -0.38570682923      0.816684590943      -0.387139691312     0.816684590943      -0.387139691312     -0.183308310877     -0.38570682923      
4600000000.0        -0.189918623119     -0.39100796139      0.810074221078      -0.39247337894      0.810074221078      -0.39247337894      -0.189918623119     -0.39100796139      
4700000000.0        -0.196561623153     -0.39615296761      0.803431162312      -0.397650962607     0.803431162312      -0.397650962607     -0.196561623153     -0.39615296761      
4800000000.0        -0.203233046621     -0.401143091539     0.796759679002      -0.40267368538      0.796759679002      -0.40267368538      -0.203233046621     -0.401143091539     
4900000000.0        -0.209928743771     -0.405979692511     0.790063920897      -0.407542906022     0.790063920897      -0.407542906022     -0.209928743771     -0.405979692511     
5000000000.0        -0.216644681543     -0.41066423841      0.783347921056      -0.412260091861     0.783347921056      -0.412260091861     -0.216644681543     -0.41066423841      
5100000000.0        -0.22337694526      -0.415198298632     0.776615594153      -0.416826811752     0.776615594153      -0.416826811752     -0.22337694526      -0.415198298632     
5200000000.0        -0.230121739948     -0.419583537161     0.769870735161      -0.421244729153     0.769870735161      -0.421244729153     -0.230121739948     -0.419583537161     
5300000000.0        -0.236875391302     -0.423821705777     0.763117018381      -0.425515595327     0.763117018381      -0.425515595327     -0.236875391302     -0.423821705777     
5400000000.0        -0.243634346313     -0.427914637399     0.756357996824      -0.429641242695     0.756357996824      -0.429641242695     -0.243634346313     -0.427914637399     
5500000000.0        -0.25039517357      -0.431864239594     0.749597101896      -0.433623578338     0.749597101896      -0.433623578338     -0.25039517357      -0.431864239594     
5600000000.0        -0.257154563278     -0.435672488247     0.742837643393      -0.43746457767      0.742837643393      -0.43746457767      -0.257154563278     -0.435672488247     
5700000000.0        -0.263909326972     -0.439341421414     0.736082809777      -0.441166278287     0.736082809777      -0.441166278287     -0.263909326972     -0.439341421414     
5800000000.0        -0.270656396984     -0.442873133358     0.729335668715      -0.444730774007     0.729335668715      -0.444730774007     -0.270656396984     -0.442873133358     
5900000000.0        -0.27739282565      -0.446269768779     0.72259916787       -0.4481602091       0.72259916787       -0.4481602091       -0.27739282565      -0.446269768779     
6000000000.0        -0.284115784301     -0.449533517247     0.71587613591       -0.451456772713     0.71587613591       -0.451456772713     -0.284115784301     -0.449533517247     
6100000000.0        -0.290822562035     -0.452666607832     0.709169283736      -0.454622693511     0.709169283736      -0.454622693511     -0.290822562035     -0.452666607832     
6200000000.0        -0.297510564295     -0.45567130395      0.702481205904      -0.457660234515     0.702481205904      -0.457660234515     -0.297510564295     -0.45567130395      
6300000000.0        -0.304177311272     -0.458549898412     0.695814382221      -0.460571688155     0.695814382221      -0.460571688155     -0.304177311272     -0.458549898412     
6400000000.0        -0.310820436148     -0.46130470869      0.689171179504      -0.463359371531     0.689171179504      -0.463359371531     -0.310820436148     -0.46130470869      
6500000000.0        -0.317437683195     -0.463938072393     0.682553853483      -0.466025621894     0.682553853483      -0.466025621894     -0.317437683195     -0.463938072393     
6600000000.0        -0.324026905733     -0.466452342954     0.675964550834      -0.468572792329     0.675964550834      -0.468572792329     -0.324026905733     -0.466452342954     
6700000000.0        -0.330586063987     -0.468849885528     0.669405311332      -0.471003247654     0.669405311332      -0.471003247654     -0.330586063987     -0.468849885528     
6800000000.0        -0.337113222833     -0.471133073101     0.662878070101      -0.473319360528     0.662878070101      -0.473319360528     -0.337113222833     -0.471133073101     
6900000000.0        -0.343606549457     -0.473304282801     0.656384659954      -0.475523507763     0.656384659954      -0.475523507763     -0.343606549457     -0.473304282801     
7000000000.0        -0.350064310936     -0.475365892415     0.649926813813      -0.477618066841     0.649926813813      -0.477618066841     -0.350064310936     -0.475365892415     
7100000000.0        -0.356484871761     -0.477320277108     0.643506167186      -0.479605412631     0.643506167186      -0.479605412631     -0.356484871761     -0.477320277108     
7200000000.0        -0.362866691299     -0.479169806329     0.637124260707      -0.481487914297     0.637124260707      -0.481487914297     -0.362866691299     -0.479169806329     
7300000000.0        -0.369208321219     -0.480916840919     0.630782542705      -0.483267932401     0.630782542705      -0.483267932401     -0.369208321219     -0.480916840919     
7400000000.0        -0.375508402881     -0.482563730395     0.62448237182       -0.484947816192     0.62448237182       -0.484947816192     -0.375508402881     -0.482563730395     
7500000000.0        -0.381765664703     -0.484112810422     0.618225019633      -0.486529901075     0.618225019633      -0.486529901075     -0.381765664703     -0.484112810422     
7600000000.0        -0.387978919518     -0.485566400455     0.612011673312      -0.488016506256     0.612011673312      -0.488016506256     -0.387978919518     -0.485566400455     
7700000000.0        -0.394147061917     -0.486926801554     0.605843438264      -0.489409932551     0.605843438264      -0.489409932551     -0.394147061917     -0.486926801554     
7800000000.0        -0.400269065598     -0.488196294364     0.59972134079       -0.49071246037      0.59972134079       -0.49071246037      -0.400269065598     -0.488196294364     
7900000000.0        -0.406343980724     -0.48937713725      0.593646330729      -0.491926347852     0.593646330729      -0.491926347852     -0.406343980724     -0.48937713725      
8000000000.0        -0.412370931288     -0.490471564585     0.587619284085      -0.49305382915      0.587619284085      -0.49305382915      -0.412370931288     -0.490471564585     
8100000000.0        -0.418349112511     -0.491481785187     0.58164100564       -0.494097112868     0.58164100564       -0.494097112868     -0.418349112511     -0.491481785187     
8200000000.0        -0.424277788248     -0.492409980889     0.575712231535      -0.495058380636     0.575712231535      -0.495058380636     -0.424277788248     -0.492409980889     
8300000000.0        -0.430156288443     -0.493258305252     0.569833631828      -0.495939785816     0.569833631828      -0.495939785816     -0.430156288443     -0.493258305252     
8400000000.0        -0.435984006601     -0.494028882401     0.564005813012      -0.496743452339     0.564005813012      -0.496743452339     -0.435984006601     -0.494028882401     
8500000000.0        -0.441760397313     -0.49472380598      0.558229320496      -0.497471473664     0.558229320496      -0.497471473664     -0.441760397313     -0.49472380598      
8600000000.0        -0.447484973812     -0.495345138228     0.552504641049      -0.498125911852     0.552504641049      -0.498125911852     -0.447484973812     -0.495345138228     
8700000000.0        -0.453157305578     -0.495894909164     0.546832205189      -0.498708796748     0.546832205189      -0.498708796748     -0.453157305578     -0.495894909164     
8800000000.0        -0.45877701599      -0.496375115877     0.541212389536      -0.499222125272     0.541212389536      -0.499222125272     -0.45877701599      -0.496375115877     
8900000000.0        -0.464343780029     -0.496787721911     0.535645519109      -0.499667860806     0.535645519109      -0.499667860806     -0.464343780029     -0.496787721911     
9000000000.0        -0.469857322032     -0.497134656748     0.530131869572      -0.500047932676     0.530131869572      -0.500047932676     -0.469857322032     -0.497134656748     
9100000000.0        -0.475317413494     -0.497417815376     0.524671669429      -0.500364235719     0.524671669429      -0.500364235719     -0.475317413494     -0.497417815376     
9200000000.0        -0.480723870931     -0.497639057944     0.519265102163      -0.500618629935     0.519265102163      -0.500618629935     -0.480723870931     -0.497639057944     
9300000000.0        -0.486076553801     -0.49780020949      0.513912308318      -0.500812940222     0.513912308318      -0.500812940222     -0.486076553801     -0.49780020949      
9400000000.0        -0.491375362468     -0.497903059743     0.508613387528      -0.500948956172     0.508613387528      -0.500948956172     -0.491375362468     -0.497903059743     
9500000000.0        -0.49662023624      -0.497949363        0.503368400485      -0.501028431948     0.503368400485      -0.501028431948     -0.49662023624      -0.497949363        
9600000000.0        -0.501811151451     -0.497940838055     0.498177370856      -0.501053086218     0.498177370856      -0.501053086218     -0.501811151451     -0.497940838055     
9700000000.0        -0.506948119607     -0.497879168201     0.493040287132      -0.50102460215      0.493040287132      -0.50102460215      -0.506948119607     -0.497879168201     
9800000000.0        -0.512031185591     -0.497766001276     0.487957104433      -0.500944627462     0.487957104433      -0.500944627462     -0.512031185591     -0.497766001276     
9900000000.0        -0.517060425919     -0.497602949766     0.482927746241      -0.500814774525     0.482927746241      -0.500814774525     -0.517060425919     -0.497602949766     
10000000000.0       -0.522035947059     -0.497391590957     0.477952106089      -0.500636620513     0.477952106089      -0.500636620513     -0.522035947059     -0.497391590957     
