# Hz S RI R 50.00 
100000000.0         0.141657492443      0.00238910451239    0.858339923735      -0.00345410612732   0.858339923735      -0.00345410612732   0.141657492443      0.00238910451239    
200000000.0         0.142480994067      0.00476710623315    0.85751364083       -0.00689711234197   0.85751364083       -0.00689711234197   0.142480994067      0.00476710623315    
300000000.0         0.143103657693      0.00713835396813    0.856886997706      -0.0103333712809    0.856886997706      -0.0103333712809    0.143103657693      0.00713835396813    
400000000.0         0.143632395204      0.00950425352168    0.856353081937      -0.0137642922776    0.856353081937      -0.0137642922776    0.143632395204      0.00950425352168    
500000000.0         0.144108513692      0.0118655249112     0.855870585984      -0.0171905987283    0.855870585984      -0.0171905987283    0.144108513692      0.0118655249112     
600000000.0         0.14455313976       0.014222584073      0.855418382843      -0.0206127098504    0.855418382843      -0.0206127098504    0.14455313976       0.014222584073      
700000000.0         0.144978784949      0.0165756800639     0.854983960601      -0.0240308779112    0.854983960601      -0.0240308779112    0.144978784949      0.0165756800639     
800000000.0         0.145393572743      0.0189249587388     0.854559195418      -0.0274452519222    0.854559195418      -0.0274452519222    0.145393572743      0.0189249587388     
900000000.0         0.145803123194      0.0212704969755     0.854138466896      -0.0308559118732    0.854138466896      -0.0308559118732    0.145803123194      0.0212704969755     
1000000000.0        0.146211509432      0.0236123229516     0.85371770156       -0.0342628890183    0.85371770156       -0.0342628890183    0.146211509432      0.0236123229516     
1100000000.0        0.146621790068      0.025950429034      0.853293840457      -0.0376661787694    0.853293840457      -0.0376661787694    0.146621790068      0.025950429034      
1200000000.0        0.147036326821      0.0282847804199     0.852864521521      -0.0410657493422    0.852864521521      -0.0410657493422    0.147036326821      0.0282847804199     
1300000000.0        0.147456984604      0.0306153211779     0.852427879486      -0.0444615478005    0.852427879486      -0.0444615478005    0.147456984604      0.0306153211779     
1400000000.0        0.147885263197      0.0329419786195     0.851982414211      -0.0478535044299    0.851982414211      -0.0478535044299    0.147885263197      0.0329419786195     
1500000000.0        0.148322387084      0.0352646665513     0.851526900846      -0.0512415359926    0.851526900846      -0.0512415359926    0.148322387084      0.0352646665513     
1600000000.0        0.148769368616      0.0375832877542     0.851060326662      -0.0546255482082    0.851060326662      -0.0546255482082    0.148769368616      0.0375832877542     
1700000000.0        0.14922705359       0.0398977359123     0.850581845473      -0.058005437684     0.850581845473      -0.058005437684     0.14922705359       0.0398977359123     
1800000000.0        0.149696154873      0.0422078971404     0.850090744012      -0.0613810934441    0.850090744012      -0.0613810934441    0.149696154873      0.0422078971404     
1900000000.0        0.150177277686      0.044513651213      0.849586416647      -0.0647523981591    0.849586416647      -0.0647523981591    0.150177277686      0.044513651213      
2000000000.0        0.150670938949      0.0468148725674     0.849068346034      -0.0681192291504    0.849068346034      -0.0681192291504    0.150670938949      0.0468148725674     
2100000000.0        0.151177582307      0.0491114311318     0.848536088091      -0.0714814592193    0.848536088091      -0.0714814592193    0.151177582307      0.0491114311318     
2200000000.0        0.151697589952      0.0514031930182     0.847989260173      -0.0748389573399    0.847989260173      -0.0748389573399    0.151697589952      0.0514031930182     
2300000000.0        0.152231292052      0.0536900211063     0.847427531651      -0.078191589245     0.847427531651      -0.078191589245     0.152231292052      0.0536900211063     
2400000000.0        0.152778974334      0.0559717755426     0.846850616316      -0.0815392179243    0.846850616316      -0.0815392179243    0.152778974334      0.0559717755426     
2500000000.0        0.15334088427       0.058248314168      0.846258266205      -0.0848817040535    0.846258266205      -0.0848817040535    0.15334088427       0.058248314168      
2600000000.0        0.153917236138      0.0605194928896     0.84565026653       -0.0882189063661    0.84565026653       -0.0882189063661    0.153917236138      0.0605194928896     
2700000000.0        0.154508215229      0.0627851660048     0.845026431478      -0.0915506819785    0.845026431478      -0.0915506819785    0.154508215229      0.0627851660048     
2800000000.0        0.155113981348      0.0650451864862     0.844386600706      -0.0948768866745    0.844386600706      -0.0948768866745    0.155113981348      0.0650451864862     
2900000000.0        0.155734671758      0.0672994062342     0.843730636397      -0.0981973751589    0.843730636397      -0.0981973751589    0.155734671758      0.0672994062342     
3000000000.0        0.156370403675      0.0695476763016     0.843058420767      -0.101512001282     0.843058420767      -0.101512001282     0.156370403675      0.0695476763016     
3100000000.0        0.157021276384      0.0717898470944     0.842369853946      -0.104820618241     0.842369853946      -0.104820618241     0.157021276384      0.0717898470944     
3200000000.0        0.157687373061      0.0740257685533     0.841664852158      -0.108123078762     0.841664852158      -0.108123078762     0.157687373061      0.0740257685533     
3300000000.0        0.158368762335      0.0762552903171     0.840943346157      -0.111419235263     0.840943346157      -0.111419235263     0.158368762335      0.0762552903171     
3400000000.0        0.15906549964       0.0784782618718     0.840205279876      -0.114708940004     0.840205279876      -0.114708940004     0.15906549964       0.0784782618718     
3500000000.0        0.159777628399      0.0806945326862     0.839450609247      -0.117992045221     0.839450609247      -0.117992045221     0.159777628399      0.0806945326862     
3600000000.0        0.160505181044      0.0829039523368     0.838679301169      -0.121268403254     0.838679301169      -0.121268403254     0.160505181044      0.0829039523368     
3700000000.0        0.161248179928      0.0851063706216     0.83789133261       -0.12453786666      0.83789133261       -0.12453786666      0.161248179928      0.0851063706216     
3800000000.0        0.162006638115      0.0873016376666     0.837086689808      -0.127800288317     0.837086689808      -0.127800288317     0.162006638115      0.0873016376666     
3900000000.0        0.162780560092      0.0894896040231     0.836265367563      -0.131055521525     0.836265367563      -0.131055521525     0.162780560092      0.0894896040231     
4000000000.0        0.163569942388      0.0916701207587     0.835427368615      -0.134303420096     0.835427368615      -0.134303420096     0.163569942388      0.0916701207587     
4100000000.0        0.164374774138      0.0938430395425     0.834572703082      -0.137543838438     0.834572703082      -0.137543838438     0.164374774138      0.0938430395425     
4200000000.0        0.165195037581      0.0960082127236     0.83370138796       -0.140776631637     0.83370138796       -0.140776631637     0.165195037581      0.0960082127236     
4300000000.0        0.166030708512      0.0981654934053     0.832813446675      -0.144001655527     0.832813446675      -0.144001655527     0.166030708512      0.0981654934053     
4400000000.0        0.166881756686      0.100314735515      0.831908908674      -0.147218766763     0.831908908674      -0.147218766763     0.166881756686      0.100314735515      
4500000000.0        0.167748146183      0.102455793869      0.830987809061      -0.150427822885     0.830987809061      -0.150427822885     0.167748146183      0.102455793869      
4600000000.0        0.168629835745      0.104588524234      0.830050188265      -0.153628682379     0.830050188265      -0.153628682379     0.168629835745      0.104588524234      
4700000000.0        0.169526779076      0.106712783385      0.829096091733      -0.156821204739     0.829096091733      -0.156821204739     0.169526779076      0.106712783385      
4800000000.0        0.17043892512       0.108828429163      0.828125569655      -0.160005250515     0.828125569655      -0.160005250515     0.17043892512       0.108828429163      
4900000000.0        0.171366218317      0.110935320521      0.827138676709      -0.163180681372     0.827138676709      -0.163180681372     0.171366218317      0.110935320521      
5000000000.0        0.172308598832      0.113033317577      0.826135471832      -0.166347360134     0.826135471832      -0.166347360134     0.172308598832      0.113033317577      
5100000000.0        0.173266002771      0.115122281663      0.825116017998      -0.169505150835     0.825116017998      -0.169505150835     0.173266002771      0.115122281663      
5200000000.0        0.174238362384      0.117202075363      0.824080382026      -0.17265391876      0.824080382026      -0.17265391876      0.174238362384      0.117202075363      
5300000000.0        0.175225606245      0.11927256256       0.82302863439       -0.175793530487     0.82302863439       -0.175793530487     0.175225606245      0.11927256256       
5400000000.0        0.176227659424      0.121333608472      0.821960849051      -0.178923853929     0.821960849051      -0.178923853929     0.176227659424      0.121333608472      
5500000000.0        0.177244443647      0.123385079694      0.820877103298      -0.182044758372     0.820877103298      -0.182044758372     0.177244443647      0.123385079694      
5600000000.0        0.178275877446      0.125426844232      0.819777477595      -0.18515611451      0.819777477595      -0.18515611451      0.178275877446      0.125426844232      
5700000000.0        0.179321876297      0.127458771536      0.818662055445      -0.188257794476     0.818662055445      -0.188257794476     0.179321876297      0.127458771536      
5800000000.0        0.180382352755      0.129480732534      0.817530923256      -0.191349671883     0.817530923256      -0.191349671883     0.180382352755      0.129480732534      
5900000000.0        0.181457216572      0.131492599663      0.81638417022       -0.194431621847     0.81638417022       -0.194431621847     0.181457216572      0.131492599663      
6000000000.0        0.18254637482       0.133494246898      0.815221888193      -0.197503521021     0.815221888193      -0.197503521021     0.18254637482       0.133494246898      
6100000000.0        0.183649731996      0.135485549782      0.814044171586      -0.200565247621     0.814044171586      -0.200565247621     0.183649731996      0.135485549782      
6200000000.0        0.184767190131      0.137466385449      0.812851117261      -0.203616681454     0.812851117261      -0.203616681454     0.184767190131      0.137466385449      
6300000000.0        0.185898648886      0.13943663265       0.81164282443       -0.206657703942     0.81164282443       -0.206657703942     0.185898648886      0.13943663265       
6400000000.0        0.18704400565       0.141396171782      0.81041939456       -0.209688198147     0.81041939456       -0.209688198147     0.18704400565       0.141396171782      
6500000000.0        0.18820315563       0.143344884904      0.809180931286      -0.212708048795     0.809180931286      -0.212708048795     0.18820315563       0.143344884904      
6600000000.0        0.189375991934      0.145282655762      0.807927540317      -0.215717142293     0.807927540317      -0.215717142293     0.189375991934      0.145282655762      
6700000000.0        0.190562405658      0.147209369808      0.806659329363      -0.218715366755     0.806659329363      -0.218715366755     0.190562405658      0.147209369808      
6800000000.0        0.191762285964      0.149124914221      0.805376408047      -0.221702612018     0.805376408047      -0.221702612018     0.191762285964      0.149124914221      
6900000000.0        0.192975520157      0.151029177925      0.804078887832      -0.224678769662     0.804078887832      -0.224678769662     0.192975520157      0.151029177925      
7000000000.0        0.194201993758      0.152922051603      0.802766881947      -0.227643733024     0.802766881947      -0.227643733024     0.194201993758      0.152922051603      
7100000000.0        0.195441590573      0.154803427717      0.801440505317      -0.230597397218     0.801440505317      -0.230597397218     0.195441590573      0.154803427717      
7200000000.0        0.196694192767      0.15667320052       0.800099874491      -0.233539659147     0.800099874491      -0.233539659147     0.196694192767      0.15667320052       
7300000000.0        0.197959680925      0.158531266073      0.798745107582      -0.236470417519     0.798745107582      -0.236470417519     0.197959680925      0.158531266073      
7400000000.0        0.199237934119      0.160377522255      0.797376324194      -0.239389572861     0.797376324194      -0.239389572861     0.199237934119      0.160377522255      
7500000000.0        0.20052882997       0.162211868777      0.795993645367      -0.242297027525     0.795993645367      -0.242297027525     0.20052882997       0.162211868777      
7600000000.0        0.201832244708      0.164034207194      0.794597193513      -0.24519268571      0.794597193513      -0.24519268571      0.201832244708      0.164034207194      
7700000000.0        0.203148053231      0.165844440912      0.793187092359      -0.248076453463     0.793187092359      -0.248076453463     0.203148053231      0.165844440912      
7800000000.0        0.20447612916       0.167642475202      0.791763466888      -0.250948238691     0.791763466888      -0.250948238691     0.20447612916       0.167642475202      
7900000000.0        0.205816344901      0.169428217205      0.790326443283      -0.253807951173     0.790326443283      -0.253807951173     0.205816344901      0.169428217205      
8000000000.0        0.207168571692      0.171201575943      0.788876148875      -0.256655502565     0.788876148875      -0.256655502565     0.207168571692      0.171201575943      
8100000000.0        0.20853267966       0.172962462321      0.787412712088      -0.259490806406     0.787412712088      -0.259490806406     0.20853267966       0.172962462321      
8200000000.0        0.209908537871      0.174710789141      0.78593626239       -0.262313778128     0.78593626239       -0.262313778128     0.209908537871      0.174710789141      
8300000000.0        0.211296014384      0.176446471098      0.784446930236      -0.265124335056     0.784446930236      -0.265124335056     0.211296014384      0.176446471098      
8400000000.0        0.212694976295      0.178169424794      0.782944847026      -0.26792239642      0.782944847026      -0.26792239642      0.212694976295      0.178169424794      
8500000000.0        0.214105289789      0.179879568734      0.781430145054      -0.270707883352     0.781430145054      -0.270707883352     0.214105289789      0.179879568734      
8600000000.0        0.215526820186      0.181576823336      0.779902957458      -0.273480718891     0.779902957458      -0.273480718891     0.215526820186      0.181576823336      
8700000000.0        0.216959431989      0.183261110926      0.778363418178      -0.27624082799      0.778363418178      -0.27624082799      0.216959431989      0.183261110926      
8800000000.0        0.218402988928      0.184932355747      0.776811661906      -0.278988137512     0.776811661906      -0.278988137512     0.218402988928      0.184932355747      
8900000000.0        0.219857354004      0.186590483956      0.775247824045      -0.281722576233     0.775247824045      -0.281722576233     0.219857354004      0.186590483956      
9000000000.0        0.221322389532      0.188235423625      0.773672040665      -0.284444074844     0.773672040665      -0.284444074844     0.221322389532      0.188235423625      
9100000000.0        0.222797957189      0.189867104742      0.772084448458      -0.287152565948     0.772084448458      -0.287152565948     0.222797957189      0.189867104742      
9200000000.0        0.224283918047      0.191485459208      0.770485184698      -0.289847984063     0.770485184698      -0.289847984063     0.224283918047      0.191485459208      
9300000000.0        0.225780132624      0.193090420837      0.768874387197      -0.292530265616     0.768874387197      -0.292530265616     0.225780132624      0.193090420837      
9400000000.0        0.227286460918      0.194681925354      0.767252194271      -0.295199348942     0.767252194271      -0.295199348942     0.227286460918      0.194681925354      
9500000000.0        0.228802762447      0.196259910389      0.76561874469       -0.297855174285     0.76561874469       -0.297855174285     0.228802762447      0.196259910389      
9600000000.0        0.230328896293      0.19782431548       0.76397417765       -0.300497683791     0.76397417765       -0.300497683791     0.230328896293      0.19782431548       
9700000000.0        0.231864721133      0.199375082062      0.762318632724      -0.303126821501     0.762318632724      -0.303126821501     0.231864721133      0.199375082062      
9800000000.0        0.233410095284      0.200912153467      0.760652249834      -0.305742533356     0.760652249834      -0.305742533356     0.233410095284      0.200912153467      
9900000000.0        0.234964876734      0.202435474918      0.758975169208      -0.308344767181     0.758975169208      -0.308344767181     0.234964876734      0.202435474918      
10000000000.0       0.236528923184      0.203944993521      0.757287531344      -0.310933472688     0.757287531344      -0.310933472688     0.236528923184      0.203944993521      
