# Hz S RI R 50.00 
100000000.0         7.79529660375e-05   -0.00973368881852   0.999693887441      -0.0106183192917    0.999693887441      -0.0106183192917    7.79529660377e-05   -0.00973368881852   
200000000.0         -0.000240754499158  -0.0194610769382    0.999371401962      -0.0212303755527    0.999371401962      -0.0212303755527    -0.000240754499158  -0.0194610769382    
300000000.0         -0.000766059146993  -0.0291761136395    0.998842199922      -0.0318301449604    0.998842199922      -0.0318301449604    -0.000766059146993  -0.0291761136395    
400000000.0         -0.00149719826257   -0.0388727314086    0.998106712916      -0.0424115816054    0.998106712916      -0.0424115816054    -0.00149719826257   -0.0388727314086    
500000000.0         -0.0024332732365    -0.048544877082     0.99716571226       -0.052968651595     0.99716571226       -0.052968651595     -0.0024332732365    -0.048544877082     
600000000.0         -0.00357317994099   -0.0581865304559    0.99602023717       -0.0634953525358    0.99602023717       -0.0634953525358    -0.00357317994099   -0.0581865304559    
700000000.0         -0.00491559294783   -0.0677917194127    0.994671574644      -0.0739857290805    0.994671574644      -0.0739857290805    -0.00491559294782   -0.0677917194127    
800000000.0         -0.00645896204103   -0.0773545334529    0.993121249874      -0.0844338867047    0.993121249874      -0.0844338867047    -0.00645896204103   -0.0773545334529    
900000000.0         -0.0082015131548    -0.0868691362686    0.991371019497      -0.0948340044378    0.991371019497      -0.0948340044378    -0.0082015131548    -0.0868691362686    
1000000000.0        -0.0101412514775    -0.096329777615     0.989422865546      -0.105180346844     0.989422865546      -0.105180346844     -0.0101412514775    -0.096329777615     
1100000000.0        -0.0122759658911    -0.105730804588     0.987278989383      -0.115467275381     0.987278989383      -0.115467275381     -0.0122759658911    -0.105730804588     
1200000000.0        -0.0146032343781    -0.115066672353     0.984941805315      -0.125689259187     0.984941805315      -0.125689259187     -0.0146032343781    -0.115066672353     
1300000000.0        -0.017120430204     -0.124331954334     0.982413933811      -0.13584088532      0.982413933811      -0.13584088532      -0.017120430204     -0.124331954334     
1400000000.0        -0.0198247287576    -0.133521351866     0.979698194255      -0.145916868445     0.979698194255      -0.145916868445     -0.0198247287576    -0.133521351866     
1500000000.0        -0.022713114968     -0.14262970329      0.976797597259      -0.155912059963     0.976797597259      -0.155912059963     -0.022713114968     -0.14262970329      
1600000000.0        -0.0257823912295    -0.151651992487     0.973715336551      -0.165821456568     0.973715336551      -0.165821456568     -0.0257823912295    -0.151651992487     
1700000000.0        -0.0290291857805    -0.160583356824     0.970454780454      -0.17564020822      0.970454780454      -0.17564020822      -0.0290291857805    -0.160583356824     
1800000000.0        -0.0324499614808    -0.16941909451      0.967019463015      -0.185363625513     0.967019463015      -0.185363625513     -0.0324499614808    -0.16941909451      
1900000000.0        -0.0360410249377    -0.178154671336     0.963413074796      -0.194987186435     0.963413074796      -0.194987186435     -0.0360410249377    -0.178154671336     
2000000000.0        -0.0397985359335    -0.186785726799     0.959639453394      -0.204506542507     0.959639453394      -0.204506542507     -0.0397985359335    -0.186785726799     
2100000000.0        -0.0437185171035    -0.195308079597     0.955702573719      -0.213917524287     0.955702573719      -0.213917524287     -0.0437185171035    -0.195308079597     
2200000000.0        -0.04779686382      -0.203717732487     0.951606538072      -0.223216146244     0.951606538072      -0.223216146244     -0.04779686382      -0.203717732487     
2300000000.0        -0.0520293542351    -0.212010876512     0.947355566078      -0.232398610988     0.947355566078      -0.232398610988     -0.0520293542351    -0.212010876512     
2400000000.0        -0.0564116594363    -0.220183894589     0.942953984506      -0.241461312874     0.942953984506      -0.241461312874     -0.0564116594363    -0.220183894589     
2500000000.0        -0.0609393536714    -0.22823336447      0.938406217028      -0.250400840968     0.938406217028      -0.250400840968     -0.0609393536714    -0.22823336447      
2600000000.0        -0.0656079245997    -0.236156061075     0.933716773952      -0.259213981385     0.933716773952      -0.259213981385     -0.0656079245997    -0.236156061075     
2700000000.0        -0.070412783527     -0.243948958214     0.928890241976      -0.267897719022     0.928890241976      -0.267897719022     -0.070412783527     -0.243948958214     
2800000000.0        -0.0753492755863    -0.251609229703     0.923931273996      -0.276449238679     0.923931273996      -0.276449238679     -0.0753492755863    -0.251609229703     
2900000000.0        -0.0804126898236    -0.2591342499       0.918844579014      -0.284865925598     0.918844579014      -0.284865925598     -0.0804126898236    -0.2591342499       
3000000000.0        -0.0855982691544    -0.266521593665     0.913634912172      -0.293145365431     0.913634912172      -0.293145365431     -0.0855982691544    -0.266521593665     
3100000000.0        -0.0909012201566    -0.273769035775     0.908307064956      -0.301285343659     0.908307064956      -0.301285343659     -0.0909012201566    -0.273769035775     
3200000000.0        -0.0963167226665    -0.280874549808     0.902865855592      -0.309283844482     0.902865855592      -0.309283844482     -0.0963167226665    -0.280874549808     
3300000000.0        -0.10183993915      -0.287836306524     0.897316119673      -0.317139049202     0.897316119673      -0.317139049202     -0.10183993915      -0.287836306524     
3400000000.0        -0.107466023823     -0.294652671767     0.891662701035      -0.32484933413      0.891662701035      -0.32484933413      -0.107466023823     -0.294652671767     
3500000000.0        -0.113190131489     -0.301322203911     0.885910442913      -0.332413268037     0.885910442913      -0.332413268037     -0.113190131489     -0.301322203911     
3600000000.0        -0.119007426084     -0.307843650882     0.880064179399      -0.339829609176     0.880064179399      -0.339829609176     -0.119007426084     -0.307843650882     
3700000000.0        -0.124913088894     -0.31421594678      0.874128727213      -0.347097301914     0.874128727213      -0.347097301914     -0.124913088894     -0.31421594678      
3800000000.0        -0.130902326447     -0.320438208136     0.86810887782       -0.354215472983     0.86810887782       -0.354215472983     -0.130902326447     -0.320438208136     
3900000000.0        -0.13697037804      -0.326509729822     0.862009389895      -0.361183427402     0.862009389895      -0.361183427402     -0.13697037804      -0.326509729822     
4000000000.0        -0.143112522912     -0.332429980654     0.855834982147      -0.368000644078     0.855834982147      -0.368000644078     -0.143112522912     -0.332429980654     
4100000000.0        -0.149324087039     -0.338198598719     0.849590326526      -0.374666771135     0.849590326526      -0.374666771135     -0.149324087039     -0.338198598719     
4200000000.0        -0.15560044955      -0.34381538644      0.843280041805      -0.381181620984     0.843280041805      -0.381181620984     -0.15560044955      -0.34381538644      
4300000000.0        -0.161937048751     -0.349280305423     0.836908687555      -0.387545165175     0.836908687555      -0.387545165175     -0.161937048751     -0.349280305423     
4400000000.0        -0.168329387761     -0.354593471115     0.830480758503      -0.393757529048     0.830480758503      -0.393757529048     -0.168329387761     -0.354593471115     
4500000000.0        -0.17477303976      -0.359755147285     0.824000679293      -0.399818986229     0.824000679293      -0.399818986229     -0.17477303976      -0.359755147285     
4600000000.0        -0.181263652839     -0.364765740375     0.817472799627      -0.405729952973     0.817472799627      -0.405729952973     -0.181263652839     -0.364765740375     
4700000000.0        -0.187796954464     -0.369625793733     0.810901389802      -0.411490982402     0.810901389802      -0.411490982402     -0.187796954464     -0.369625793733     
4800000000.0        -0.194368755555     -0.374335981758     0.804290636633      -0.417102758658     0.804290636633      -0.417102758658     -0.194368755555     -0.374335981758     
4900000000.0        -0.200974954184     -0.378897103988     0.797644639751      -0.422566090982     0.797644639751      -0.422566090982     -0.200974954184     -0.378897103988     
5000000000.0        -0.207611538901     -0.383310079142     0.790967408279      -0.427881907765     0.790967408279      -0.427881907765     -0.207611538901     -0.383310079142     
5100000000.0        -0.214274591696     -0.387575939143     0.784262857869      -0.433051250575     0.784262857869      -0.433051250575     -0.214274591696     -0.387575939143     
5200000000.0        -0.220960290602     -0.391695823149     0.777534808096      -0.438075268184     0.777534808096      -0.438075268184     -0.220960290602     -0.391695823149     
5300000000.0        -0.227664911957     -0.395670971604     0.770786980199      -0.442955210622     0.770786980199      -0.442955210622     -0.227664911957     -0.395670971604     
5400000000.0        -0.234384832329     -0.399502720327     0.764022995153      -0.447692423272     0.764022995153      -0.447692423272     -0.234384832329     -0.399502720327     
5500000000.0        -0.241116530121     -0.403192494665     0.757246372066      -0.452288341017     0.757246372066      -0.452288341017     -0.241116530121     -0.403192494665     
5600000000.0        -0.247856586863     -0.40674180371      0.750460526883      -0.456744482465     0.750460526883      -0.456744482465     -0.247856586863     -0.40674180371      
5700000000.0        -0.254601688211     -0.41015223461      0.743668771392      -0.461062444262     0.743668771392      -0.461062444262     -0.254601688211     -0.41015223461      
5800000000.0        -0.261348624664     -0.41342544698      0.736874312502      -0.465243895497     0.736874312502      -0.465243895497     -0.261348624664     -0.41342544698      
5900000000.0        -0.268094292002     -0.416563167424     0.730080251805      -0.469290572235     0.730080251805      -0.469290572235     -0.268094292002     -0.416563167424     
6000000000.0        -0.274835691483     -0.419567184178     0.723289585381      -0.473204272154     0.723289585381      -0.473204272154     -0.274835691483     -0.419567184178     
6100000000.0        -0.281569929788     -0.422439341892     0.716505203852      -0.476986849329     0.716505203852      -0.476986849329     -0.281569929788     -0.422439341892     
6200000000.0        -0.288294218745     -0.42518153654      0.709729892657      -0.480640209151     0.709729892657      -0.480640209151     -0.288294218745     -0.42518153654      
6300000000.0        -0.295005874837     -0.427795710495     0.702966332545      -0.484166303393     0.702966332545      -0.484166303393     -0.295005874837     -0.427795710495     
6400000000.0        -0.30170231851      -0.430283847741     0.696217100262      -0.48756712543      0.696217100262      -0.48756712543      -0.30170231851      -0.430283847741     
6500000000.0        -0.308381073306     -0.432647969252     0.689484669427      -0.490844705616     0.689484669427      -0.490844705616     -0.308381073306     -0.432647969252     
6600000000.0        -0.315039764809     -0.434890128535     0.682771411575      -0.494001106832     0.682771411575      -0.494001106832     -0.315039764809     -0.434890128535     
6700000000.0        -0.321676119448     -0.437012407336     0.676079597363      -0.497038420185     0.676079597363      -0.497038420185     -0.321676119448     -0.437012407336     
6800000000.0        -0.328287963148     -0.43901691151      0.669411397911      -0.499958760891     0.669411397911      -0.499958760891     -0.328287963148     -0.43901691151      
6900000000.0        -0.33487321985      -0.440905767072     0.662768886289      -0.502764264316     0.662768886289      -0.502764264316     -0.33487321985      -0.440905767072     
7000000000.0        -0.341429909911     -0.442681116405     0.656154039109      -0.505457082193     0.656154039109      -0.505457082193     -0.341429909911     -0.442681116405     
7100000000.0        -0.347956148403     -0.444345114649     0.649568738236      -0.508039379005     0.649568738236      -0.508039379005     -0.347956148403     -0.444345114649     
7200000000.0        -0.354450143302     -0.445899926253     0.643014772585      -0.510513328548     0.643014772585      -0.510513328548     -0.354450143302     -0.445899926253     
7300000000.0        -0.360910193607     -0.447347721701     0.636493840013      -0.512881110646     0.636493840013      -0.512881110646     -0.360910193607     -0.447347721701     
7400000000.0        -0.367334687377     -0.4486906744       0.630007549281      -0.515144908048     0.630007549281      -0.515144908048     -0.367334687377     -0.4486906744       
7500000000.0        -0.373722099701     -0.449930957736     0.623557422076      -0.517306903485     0.623557422076      -0.517306903485     -0.373722099701     -0.449930957736     
7600000000.0        -0.380070990619     -0.451070742291     0.617144895098      -0.519369276883     0.617144895098      -0.519369276883     -0.380070990619     -0.451070742291     
7700000000.0        -0.386380002993     -0.452112193218     0.610771322183      -0.521334202744     0.610771322183      -0.521334202744     -0.386380002993     -0.452112193218     
7800000000.0        -0.392647860342     -0.453057467777     0.60443797647       -0.523203847678     0.60443797647       -0.523203847678     -0.392647860342     -0.453057467777     
7900000000.0        -0.398873364648     -0.453908713014     0.598146052596      -0.52498036809      0.598146052596      -0.52498036809      -0.398873364648     -0.453908713014     
8000000000.0        -0.405055394139     -0.454668063599     0.59189666891       -0.52666590801      0.59189666891       -0.52666590801      -0.405055394139     -0.454668063599     
8100000000.0        -0.41119290106      -0.455337639798     0.585690869708      -0.528262597074     0.585690869708      -0.528262597074     -0.41119290106      -0.455337639798     
8200000000.0        -0.41728490943      -0.455919545592     0.579529627464      -0.529772548639     0.579529627464      -0.529772548639     -0.41728490943      -0.455919545592     
8300000000.0        -0.423330512803     -0.456415866932     0.573413845079      -0.531197858038     0.573413845079      -0.531197858038     -0.423330512803     -0.456415866932     
8400000000.0        -0.429328872032     -0.456828670115     0.567344358114      -0.532540600964     0.567344358114      -0.532540600964     -0.429328872032     -0.456828670115     
8500000000.0        -0.435279213038     -0.457160000302     0.56132193702       -0.533802831979     0.56132193702       -0.533802831979     -0.435279213038     -0.457160000302     
8600000000.0        -0.441180824595     -0.45741188014      0.555347289351      -0.534986583145     0.555347289351      -0.534986583145     -0.441180824595     -0.45741188014      
8700000000.0        -0.447033056136     -0.457586308519     0.549421061961      -0.536093862775     0.549421061961      -0.536093862775     -0.447033056136     -0.457586308519     
8800000000.0        -0.452835315578     -0.457685259424     0.543543843179      -0.537126654294     0.543543843179      -0.537126654294     -0.452835315578     -0.457685259424     
8900000000.0        -0.458587067169     -0.457710680906     0.537716164954      -0.538086915201     0.537716164954      -0.538086915201     -0.458587067169     -0.457710680906     
9000000000.0        -0.464287829376     -0.457664494152     0.531938504978      -0.538976576149     0.531938504978      -0.538976576149     -0.464287829376     -0.457664494152     
9100000000.0        -0.469937172793     -0.457548592651     0.526211288773      -0.539797540104     0.526211288773      -0.539797540104     -0.469937172793     -0.457548592651     
9200000000.0        -0.475534718089     -0.457364841455     0.520534891736      -0.540551681614     0.520534891736      -0.540551681614     -0.475534718089     -0.457364841455     
9300000000.0        -0.481080133994     -0.457115076531     0.514909641165      -0.541240846155     0.514909641165      -0.541240846155     -0.481080133994     -0.457115076531     
9400000000.0        -0.486573135324     -0.456801104192     0.509335818226      -0.541866849565     0.509335818226      -0.541866849565     -0.486573135324     -0.456801104192     
9500000000.0        -0.492013481042     -0.456424700611     0.503813659889      -0.542431477564     0.503813659889      -0.542431477564     -0.492013481042     -0.456424700611     
9600000000.0        -0.497400972369     -0.455987611412     0.498343360826      -0.542936485338     0.498343360826      -0.542936485338     -0.497400972369     -0.455987611412     
9700000000.0        -0.502735450931     -0.455491551332     0.492925075255      -0.543383597204     0.492925075255      -0.543383597204     -0.502735450931     -0.455491551332     
9800000000.0        -0.508016796961     -0.454938203942     0.487558918744      -0.543774506334     0.487558918744      -0.543774506334     -0.508016796961     -0.454938203942     
9900000000.0        -0.513244927533     -0.454329221447     0.482244969969      -0.544110874555     0.482244969969      -0.544110874555     -0.513244927533     -0.454329221447     
10000000000.0       -0.518419794854     -0.453666224531     0.476983272432      -0.544394332193     0.476983272432      -0.544394332193     -0.518419794854     -0.453666224531     
