# Hz S RI R 50.00 
100000000.0         0.000750624709797   0.000390809227097   0.999247196847      -0.00125553467812   0.999247196847      -0.00125553467812   0.000750624709797   0.000390809227097   
200000000.0         0.000756718649014   0.000781599205447   0.999239176478      -0.00251106437434   0.999239176478      -0.00251106437434   0.000756718649014   0.000781599205447   
300000000.0         0.000762473121386   0.00117237355467    0.999230747514      -0.00376660050479   0.999230747514      -0.00376660050479   0.000762473121386   0.00117237355467    
400000000.0         0.00076853916422    0.001563131756      0.999221258826      -0.00502214842167   0.999221258826      -0.00502214842167   0.00076853916422    0.001563131756      
500000000.0         0.000775167328001   0.00195387239494    0.999210459753      -0.00627771159994   0.999210459753      -0.00627771159994   0.000775167328001   0.00195387239494    
600000000.0         0.000782485300464   0.00234459369414    0.999198222486      -0.00753329250347   0.999198222486      -0.00753329250347   0.000782485300464   0.00234459369414    
700000000.0         0.000790568453457   0.0027352936998     0.999184471514      -0.00878889294224   0.999184471514      -0.00878889294224   0.000790568453457   0.0027352936998     
800000000.0         0.000799465580438   0.00312597036555    0.999169157898      -0.010044514259     0.999169157898      -0.010044514259     0.000799465580438   0.00312597036555    
900000000.0         0.00080921035176    0.00351662159593    0.999152247808      -0.0113001574409    0.999152247808      -0.0113001574409    0.00080921035176    0.00351662159593    
1000000000.0        0.000819827118855   0.00390724527112    0.999133716724      -0.0125558231922    0.999133716724      -0.0125558231922    0.000819827118855   0.00390724527112    
1100000000.0        0.000831334139474   0.00429783926184    0.999113546212      -0.0138115119854    0.999113546212      -0.0138115119854    0.000831334139474   0.00429783926184    
1200000000.0        0.000843745498782   0.0046884014388     0.999091722         -0.0150672240974    0.999091722         -0.0150672240974    0.000843745498782   0.0046884014388     
1300000000.0        0.000857072317523   0.00507892967895    0.999068232773      -0.0163229596381    0.999068232773      -0.0163229596381    0.000857072317523   0.00507892967895    
1400000000.0        0.000871323545845   0.00546942186942    0.999043069382      -0.017578718572     0.999043069382      -0.017578718572     0.000871323545845   0.00546942186942    
1500000000.0        0.00088650650402    0.00585987591045    0.999016224298      -0.0188345007352    0.999016224298      -0.0188345007352    0.00088650650402    0.00585987591045    
1600000000.0        0.000902627262047   0.0062502897171     0.998987691236      -0.0200903058497    0.998987691236      -0.0200903058497    0.000902627262047   0.0062502897171     
1700000000.0        0.000919690913125   0.00664066122066    0.998957464883      -0.0213461335348    0.998957464883      -0.0213461335348    0.000919690913125   0.00664066122066    
1800000000.0        0.000937701775064   0.00703098836936    0.998925540695      -0.0226019833174    0.998925540695      -0.0226019833174    0.000937701775064   0.00703098836936    
1900000000.0        0.000956663541527   0.00742126912886    0.998891914747      -0.0238578546396    0.998891914747      -0.0238578546396    0.000956663541527   0.00742126912886    
2000000000.0        0.00097657939754    0.00781150148264    0.998856583617      -0.0251137468663    0.998856583617      -0.0251137468663    0.00097657939754    0.00781150148264    
2100000000.0        0.000997452109068   0.00820168343201    0.998819544299      -0.0263696592909    0.998819544299      -0.0263696592909    0.000997452109068   0.00820168343201    
2200000000.0        0.0010192840934     0.00859181299618    0.998780794128      -0.0276255911413    0.998780794128      -0.0276255911413    0.0010192840934     0.00859181299618    
2300000000.0        0.00104207747512    0.00898188821213    0.998740330731      -0.0288815415839    0.998740330731      -0.0288815415839    0.00104207747512    0.00898188821213    
2400000000.0        0.00106583413116    0.00937190713447    0.998698151976      -0.0301375097284    0.998698151976      -0.0301375097284    0.00106583413116    0.00937190713447    
2500000000.0        0.00109055572736    0.00976186783526    0.99865425594       -0.0313934946313    0.99865425594       -0.0313934946313    0.00109055572736    0.00976186783526    
2600000000.0        0.00111624374841    0.0101517684037     0.998608640876      -0.0326494952991    0.998608640876      -0.0326494952991    0.00111624374841    0.0101517684037     
2700000000.0        0.00114289952262    0.010541606946      0.998561305191      -0.0339055106917    0.998561305191      -0.0339055106917    0.00114289952262    0.010541606946      
2800000000.0        0.00117052424258    0.0109313815849     0.998512247426      -0.0351615397247    0.998512247426      -0.0351615397247    0.00117052424258    0.0109313815849     
2900000000.0        0.00119911898242    0.0113210904596     0.998461466235      -0.0364175812722    0.998461466235      -0.0364175812722    0.00119911898242    0.0113210904596     
3000000000.0        0.00122868471237    0.0117107317252     0.998408960373      -0.0376736341689    0.998408960373      -0.0376736341689    0.00122868471237    0.0117107317252     
3100000000.0        0.00125922231125    0.0121003035527     0.998354728686      -0.0389296972122    0.998354728686      -0.0389296972122    0.00125922231125    0.0121003035527     
3200000000.0        0.00129073257694    0.0124898041284     0.998298770098      -0.0401857691645    0.998298770098      -0.0401857691645    0.00129073257694    0.0124898041284     
3300000000.0        0.00132321623555    0.0128792316536     0.998241083601      -0.041441848754     0.998241083601      -0.041441848754     0.00132321623555    0.0128792316536     
3400000000.0        0.00135667394922    0.0132685843446     0.998181668249      -0.0426979346774    0.998181668249      -0.0426979346774    0.00135667394922    0.0132685843446     
3500000000.0        0.00139110632293    0.0136578604321     0.998120523153      -0.0439540256007    0.998120523153      -0.0439540256007    0.00139110632293    0.0136578604321     
3600000000.0        0.00142651391038    0.0140470581609     0.998057647471      -0.0452101201609    0.998057647471      -0.0452101201609    0.00142651391038    0.0140470581609     
3700000000.0        0.00146289721921    0.0144361757897     0.997993040407      -0.0464662169671    0.997993040407      -0.0464662169671    0.00146289721921    0.0144361757897     
3800000000.0        0.00150025671548    0.0148252115909     0.997926701205      -0.0477223146021    0.997926701205      -0.0477223146021    0.00150025671548    0.0148252115909     
3900000000.0        0.00153859282773    0.01521416385       0.997858629145      -0.048978411623     0.997858629145      -0.048978411623     0.00153859282773    0.01521416385       
4000000000.0        0.00157790595042    0.0156030308655     0.997788823537      -0.0502345065626    0.997788823537      -0.0502345065626    0.00157790595042    0.0156030308655     
4100000000.0        0.00161819644716    0.0159918109488     0.997717283724      -0.0514905979303    0.997717283724      -0.0514905979303    0.00161819644716    0.0159918109488     
4200000000.0        0.00165946465341    0.0163805024234     0.997644009075      -0.0527466842131    0.997644009075      -0.0527466842131    0.00165946465341    0.0163805024234     
4300000000.0        0.00170171087899    0.0167691036254     0.997568998983      -0.0540027638763    0.997568998983      -0.0540027638763    0.00170171087899    0.0167691036254     
4400000000.0        0.00174493541034    0.0171576129023     0.997492252864      -0.0552588353647    0.997492252864      -0.0552588353647    0.00174493541034    0.0171576129023     
4500000000.0        0.00178913851245    0.0175460286137     0.997413770154      -0.0565148971029    0.997413770154      -0.0565148971029    0.00178913851245    0.0175460286137     
4600000000.0        0.00183432043069    0.0179343491301     0.997333550308      -0.0577709474964    0.997333550308      -0.0577709474964    0.00183432043069    0.0179343491301     
4700000000.0        0.0018804813924     0.0183225728336     0.997251592799      -0.059026984932     0.997251592799      -0.059026984932     0.0018804813924     0.0183225728336     
4800000000.0        0.00192762160839    0.0187106981168     0.997167897116      -0.0602830077787    0.997167897116      -0.0602830077787    0.00192762160839    0.0187106981168     
4900000000.0        0.00197574127423    0.0190987233833     0.997082462761      -0.0615390143885    0.997082462761      -0.0615390143885    0.00197574127423    0.0190987233833     
5000000000.0        0.00202484057143    0.0194866470468     0.996995289253      -0.0627950030963    0.996995289253      -0.0627950030963    0.00202484057143    0.0194866470468     
5100000000.0        0.00207491966859    0.0198744675313     0.996906376119      -0.0640509722213    0.996906376119      -0.0640509722213    0.00207491966859    0.0198744675313     
5200000000.0        0.00212597872236    0.0202621832709     0.996815722901      -0.0653069200669    0.996815722901      -0.0653069200669    0.00212597872236    0.0202621832709     
5300000000.0        0.00217801787832    0.0206497927092     0.996723329152      -0.0665628449215    0.996723329152      -0.0665628449215    0.00217801787832    0.0206497927092     
5400000000.0        0.0022310372719     0.0210372942997     0.996629194433      -0.067818745059     0.996629194433      -0.067818745059     0.0022310372719     0.0210372942997     
5500000000.0        0.00228503702902    0.0214246865048     0.996533318316      -0.0690746187392    0.996533318316      -0.0690746187392    0.00228503702902    0.0214246865048     
5600000000.0        0.00234001726691    0.0218119677963     0.996435700382      -0.0703304642081    0.996435700382      -0.0703304642081    0.00234001726691    0.0218119677963     
5700000000.0        0.00239597809467    0.0221991366548     0.996336340218      -0.0715862796985    0.996336340218      -0.0715862796985    0.00239597809467    0.0221991366548     
5800000000.0        0.00245291961391    0.0225861915699     0.99623523742       -0.0728420634305    0.99623523742       -0.0728420634305    0.00245291961391    0.0225861915699     
5900000000.0        0.00251084191925    0.0229731310393     0.996132391593      -0.0740978136116    0.996132391593      -0.0740978136116    0.00251084191925    0.0229731310393     
6000000000.0        0.00256974509888    0.0233599535695     0.996027802347      -0.0753535284373    0.996027802347      -0.0753535284373    0.00256974509888    0.0233599535695     
6100000000.0        0.00262962923499    0.023746657675      0.995921469296      -0.0766092060912    0.995921469296      -0.0766092060912    0.00262962923499    0.023746657675      
6200000000.0        0.00269049440423    0.0241332418781     0.995813392065      -0.0778648447457    0.995813392065      -0.0778648447457    0.00269049440423    0.0241332418781     
6300000000.0        0.00275234067809    0.0245197047093     0.99570357028       -0.079120442562     0.99570357028       -0.079120442562     0.00275234067809    0.0245197047093     
6400000000.0        0.00281516812327    0.0249060447065     0.995592003576      -0.0803759976903    0.995592003576      -0.0803759976903    0.00281516812327    0.0249060447065     
6500000000.0        0.00287897680205    0.0252922604152     0.995478691589      -0.0816315082708    0.995478691589      -0.0816315082708    0.00287897680205    0.0252922604152     
6600000000.0        0.00294376677262    0.0256783503881     0.995363633964      -0.0828869724331    0.995363633964      -0.0828869724331    0.00294376677262    0.0256783503881     
6700000000.0        0.00300953808934    0.0260643131854     0.995246830347      -0.084142388297     0.995246830347      -0.084142388297     0.00300953808934    0.0260643131854     
6800000000.0        0.00307629080305    0.0264501473739     0.99512828039       -0.0853977539725    0.99512828039       -0.0853977539725    0.00307629080305    0.0264501473739     
6900000000.0        0.00314402496136    0.0268358515276     0.995007983748      -0.0866530675604    0.995007983748      -0.0866530675604    0.00314402496137    0.0268358515276     
7000000000.0        0.00321274060885    0.0272214242269     0.994885940081      -0.0879083271522    0.994885940081      -0.0879083271522    0.00321274060885    0.0272214242269     
7100000000.0        0.00328243778731    0.027606864059      0.994762149052      -0.0891635308303    0.994762149052      -0.0891635308303    0.00328243778731    0.027606864059      
7200000000.0        0.003353116536      0.0279921696175     0.994636610327      -0.0904186766686    0.994636610327      -0.0904186766686    0.003353116536      0.0279921696175     
7300000000.0        0.00342477689178    0.0283773395022     0.994509323576      -0.0916737627323    0.994509323576      -0.0916737627323    0.00342477689178    0.0283773395022     
7400000000.0        0.00349741888938    0.028762372319      0.994380288471      -0.0929287870782    0.994380288471      -0.0929287870782    0.00349741888938    0.028762372319      
7500000000.0        0.00357104256153    0.02914726668       0.994249504689      -0.0941837477553    0.994249504689      -0.0941837477553    0.00357104256153    0.02914726668       
7600000000.0        0.00364564793914    0.029532021203      0.994116971908      -0.0954386428042    0.994116971908      -0.0954386428042    0.00364564793914    0.029532021203      
7700000000.0        0.00372123505146    0.0299166345116     0.99398268981       -0.0966934702582    0.99398268981       -0.0966934702582    0.00372123505146    0.0299166345116     
7800000000.0        0.00379780392625    0.0303011052351     0.993846658078      -0.0979482281426    0.993846658078      -0.0979482281426    0.00379780392625    0.0303011052351     
7900000000.0        0.00387535458989    0.030685432008      0.993708876399      -0.0992029144755    0.993708876399      -0.0992029144755    0.00387535458989    0.030685432008      
8000000000.0        0.00395388706753    0.0310696134706     0.993569344462      -0.100457527268     0.993569344462      -0.100457527268     0.00395388706753    0.0310696134706     
8100000000.0        0.00403340138323    0.0314536482681     0.993428061958      -0.101712064523     0.993428061958      -0.101712064523     0.00403340138323    0.0314536482681     
8200000000.0        0.00411389756006    0.0318375350509     0.99328502858       -0.102966524238     0.99328502858       -0.102966524238     0.00411389756006    0.0318375350509     
8300000000.0        0.00419537562021    0.0322212724746     0.993140244025      -0.104220904402     0.993140244025      -0.104220904402     0.00419537562021    0.0322212724746     
8400000000.0        0.00427783558513    0.0326048591994     0.99299370799       -0.105475202999     0.99299370799       -0.105475202999     0.00427783558513    0.0326048591994     
8500000000.0        0.0043612774756     0.0329882938905     0.992845420174      -0.106729418006     0.992845420174      -0.106729418006     0.0043612774756     0.0329882938905     
8600000000.0        0.00444570131184    0.0333715752176     0.99269538028       -0.107983547392     0.99269538028       -0.107983547392     0.00444570131184    0.0333715752176     
8700000000.0        0.0045311071136     0.0337547018553     0.992543588011      -0.109237589122     0.992543588011      -0.109237589122     0.0045311071136     0.0337547018553     
8800000000.0        0.00461749490023    0.0341376724822     0.992390043071      -0.110491541152     0.992390043071      -0.110491541152     0.00461749490023    0.0341376724822     
8900000000.0        0.00470486469082    0.0345204857816     0.992234745169      -0.111745401436     0.992234745169      -0.111745401436     0.00470486469082    0.0345204857816     
9000000000.0        0.00479321650421    0.0349031404408     0.992077694013      -0.112999167918     0.992077694013      -0.112999167918     0.00479321650421    0.0349031404408     
9100000000.0        0.00488255035909    0.0352856351514     0.991918889314      -0.114252838539     0.991918889314      -0.114252838539     0.00488255035909    0.0352856351514     
9200000000.0        0.00497286627409    0.035667968609      0.991758330783      -0.115506411232     0.991758330783      -0.115506411232     0.00497286627409    0.035667968609      
9300000000.0        0.00506416426784    0.0360501395132     0.991596018134      -0.116759883926     0.991596018134      -0.116759883926     0.00506416426784    0.0360501395132     
9400000000.0        0.00515644435901    0.0364321465674     0.991431951082      -0.118013254543     0.991431951082      -0.118013254543     0.00515644435901    0.0364321465674     
9500000000.0        0.00524970656639    0.0368139884786     0.991266129345      -0.119266521001     0.991266129345      -0.119266521001     0.00524970656639    0.0368139884786     
9600000000.0        0.00534395090897    0.0371956639577     0.99109855264       -0.120519681212     0.99109855264       -0.120519681212     0.00534395090897    0.0371956639577     
9700000000.0        0.00543917740595    0.037577171719      0.990929220687      -0.121772733083     0.990929220687      -0.121772733083     0.00543917740595    0.037577171719      
9800000000.0        0.00553538607684    0.0379585104804     0.990758133207      -0.123025674514     0.990758133207      -0.123025674514     0.00553538607684    0.0379585104804     
9900000000.0        0.00563257694148    0.0383396789631     0.990585289922      -0.124278503402     0.990585289922      -0.124278503402     0.00563257694148    0.0383396789631     
10000000000.0       0.00573075002008    0.0387206758915     0.990410690556      -0.125531217639     0.990410690556      -0.125531217639     0.00573075002008    0.0387206758915     
