# Hz S RI R 50.00 
100000000.0         0.000225600079329   -0.000572184765443  0.999769860531      -0.00129543270048   0.999769860531      -0.00129543270048   0.000225600079329   -0.000572184765443  
200000000.0         0.000224011984495   -0.00114438304096   0.999764420761      -0.00259088474018   0.999764420761      -0.00259088474018   0.000224011984495   -0.00114438304096   
300000000.0         0.00022054291383    -0.00171659935011   0.99975737312       -0.00388636764475   0.99975737312       -0.00388636764475   0.00022054291383    -0.00171659935011   
400000000.0         0.000215389614942   -0.00228883651756   0.999748520383      -0.00518188891382   0.999748520383      -0.00518188891382   0.000215389614942   -0.00228883651756   
500000000.0         0.00020862752923    -0.00286109634087   0.999737786545      -0.00647745416968   0.999737786545      -0.00647745416968   0.00020862752923    -0.00286109634087   
600000000.0         0.000200294896854   -0.00343337990853   0.999725132738      -0.00777306783221   0.999725132738      -0.00777306783221   0.000200294896854   -0.00343337990853   
700000000.0         0.000190414118372   -0.00400568777356   0.999710535874      -0.00906873345161   0.999710535874      -0.00906873345161   0.000190414118372   -0.00400568777356   
800000000.0         0.00017899954566    -0.00457802006228   0.999693980863      -0.0103644539049    0.999693980863      -0.0103644539049    0.000178999545659   -0.00457802006228   
900000000.0         0.000166060948732   -0.00515037654715   0.999675457158      -0.0116602315235    0.999675457158      -0.0116602315235    0.000166060948733   -0.00515037654715   
1000000000.0        0.000151605272477   -0.00572275669968   0.999654956994      -0.0129560681827    0.999654956994      -0.0129560681827    0.000151605272478   -0.00572275669968   
1100000000.0        0.000135637612998   -0.00629515972943   0.999632474428      -0.0142519653672    0.999632474428      -0.0142519653672    0.000135637612999   -0.00629515972943   
1200000000.0        0.00011816179947    -0.00686758461473   0.999608004752      -0.0155479242208    0.999608004752      -0.0155479242208    0.00011816179947    -0.00686758461473   
1300000000.0        9.91807603781e-05   -0.00744003012677   0.999581544134      -0.0168439455862    0.999581544134      -0.0168439455862    9.91807603781e-05   -0.00744003012677   
1400000000.0        7.86967644109e-05   -0.0080124948492    0.999553089382      -0.0181400300357    0.999553089382      -0.0181400300357    7.86967644106e-05   -0.0080124948492    
1500000000.0        5.67115848149e-05   -0.00858497719485   0.99952263778       -0.0194361778978    0.99952263778       -0.0194361778978    5.67115848147e-05   -0.00858497719485   
1600000000.0        3.3226615008e-05    -0.00915747541919   0.999490186976      -0.0207323892782    0.999490186976      -0.0207323892782    3.32266150083e-05   -0.00915747541919   
1700000000.0        8.24295206714e-06   -0.00972998763225   0.999455734901      -0.0220286640785    0.999455734901      -0.0220286640785    8.24295206736e-06   -0.00972998763225   
1800000000.0        -1.82385415842e-05  -0.0103025118086    0.999419279711      -0.0233250020114    0.999419279711      -0.0233250020114    -1.82385415843e-05  -0.0103025118086    
1900000000.0        -4.62171916978e-05  -0.0108750457963    0.999380819739      -0.0246214026144    0.999380819739      -0.0246214026144    -4.62171916978e-05  -0.0108750457963    
2000000000.0        -7.56924765392e-05  -0.0114475873246    0.999340353467      -0.0259178652616    0.999340353467      -0.0259178652616    -7.56924765393e-05  -0.0114475873246    
2100000000.0        -0.000106663999109  -0.0120201340111    0.999297879495      -0.0272143891741    0.999297879495      -0.0272143891741    -0.000106663999109  -0.0120201340111    
2200000000.0        -0.000139131465177  -0.0125926833676    0.999253396524      -0.028510973429     0.999253396524      -0.028510973429     -0.000139131465177  -0.0125926833676    
2300000000.0        -0.000173094665711  -0.0131652328056    0.999206903337      -0.0298076169681    0.999206903337      -0.0298076169681    -0.000173094665711  -0.0131652328056    
2400000000.0        -0.000208553462636  -0.0137377796418    0.99915839879       -0.0311043186048    0.99915839879       -0.0311043186048    -0.000208553462636  -0.0137377796418    
2500000000.0        -0.000245507777167  -0.0143103211023    0.999107881799      -0.0324010770311    0.999107881799      -0.0324010770311    -0.000245507777167  -0.0143103211023    
2600000000.0        -0.000283957580176  -0.0148828543265    0.999055351335      -0.0336978908237    0.999055351335      -0.0336978908237    -0.000283957580176  -0.0148828543265    
2700000000.0        -0.000323902884147  -0.0154553763718    0.999000806413      -0.0349947584495    0.999000806413      -0.0349947584495    -0.000323902884147  -0.0154553763718    
2800000000.0        -0.000365343736391  -0.0160278842161    0.998944246089      -0.0362916782704    0.998944246089      -0.0362916782704    -0.000365343736391  -0.0160278842161    
2900000000.0        -0.000408280213312  -0.016600374762     0.998885669457      -0.0375886485485    0.998885669457      -0.0375886485485    -0.000408280213312  -0.016600374762     
3000000000.0        -0.000452712415487  -0.017172844839     0.998825075643      -0.0388856674501    0.998825075643      -0.0388856674501    -0.000452712415487  -0.017172844839     
3100000000.0        -0.00049864046344   -0.0177452912071    0.9987624638        -0.0401827330499    0.9987624638        -0.0401827330499    -0.00049864046344   -0.0177452912071    
3200000000.0        -0.000546064493973  -0.0183177105588    0.998697833111      -0.0414798433344    0.998697833111      -0.0414798433344    -0.000546064493973  -0.0183177105588    
3300000000.0        -0.000594984656975  -0.018890099522     0.998631182783      -0.0427769962058    0.998631182783      -0.0427769962058    -0.000594984656975  -0.018890099522     
3400000000.0        -0.000645401112614  -0.0194624546621    0.998562512046      -0.0440741894848    0.998562512046      -0.0440741894848    -0.000645401112614  -0.0194624546621    
3500000000.0        -0.000697314028867  -0.0200347724843    0.99849182015       -0.0453714209142    0.99849182015       -0.0453714209142    -0.000697314028867  -0.0200347724843    
3600000000.0        -0.00075072357933   -0.0206070494358    0.998419106367      -0.0466686881612    0.998419106367      -0.0466686881612    -0.00075072357933   -0.0206070494358    
3700000000.0        -0.000805629941256  -0.0211792819073    0.998344369988      -0.0479659888204    0.998344369988      -0.0479659888204    -0.000805629941257  -0.0211792819073    
3800000000.0        -0.000862033293822  -0.0217514662353    0.998267610321      -0.0492633204163    0.998267610321      -0.0492633204163    -0.000862033293822  -0.0217514662353    
3900000000.0        -0.000919933816534  -0.0223235987038    0.998188826694      -0.0505606804057    0.998188826694      -0.0505606804057    -0.000919933816534  -0.0223235987038    
4000000000.0        -0.000979331687826  -0.0228956755457    0.998108018449      -0.0518580661799    0.998108018449      -0.0518580661799    -0.000979331687827  -0.0228956755457    
4100000000.0        -0.00104022708376   -0.0234676929447    0.998025184946      -0.0531554750668    0.998025184946      -0.0531554750668    -0.00104022708376   -0.0234676929447    
4200000000.0        -0.00110262017687   -0.0240396470367    0.997940325561      -0.0544529043334    0.997940325561      -0.0544529043334    -0.00110262017687   -0.0240396470367    
4300000000.0        -0.00116651113506   -0.0246115339114    0.997853439686      -0.0557503511871    0.997853439686      -0.0557503511871    -0.00116651113506   -0.0246115339114    
4400000000.0        -0.00123190012065   -0.0251833496132    0.997764526728      -0.0570478127779    0.997764526728      -0.0570478127779    -0.00123190012065   -0.0251833496132    
4500000000.0        -0.00129878728946   -0.0257550901432    0.997673586108      -0.0583452862003    0.997673586108      -0.0583452862003    -0.00129878728946   -0.0257550901432    
4600000000.0        -0.00136717278998   -0.0263267514601    0.997580617264      -0.0596427684947    0.997580617264      -0.0596427684947    -0.00136717278998   -0.0263267514601    
4700000000.0        -0.00143705676262   -0.0268983294815    0.997485619648      -0.0609402566493    0.997485619648      -0.0609402566493    -0.00143705676262   -0.0268983294815    
4800000000.0        -0.00150843933895   -0.0274698200851    0.997388592727      -0.0622377476014    0.997388592727      -0.0622377476014    -0.00150843933895   -0.0274698200851    
4900000000.0        -0.00158132064106   -0.0280412191098    0.997289535981      -0.0635352382392    0.997289535981      -0.0635352382392    -0.00158132064106   -0.0280412191098    
5000000000.0        -0.00165570078096   -0.0286125223569    0.997188448908      -0.0648327254027    0.997188448908      -0.0648327254027    -0.00165570078096   -0.0286125223569    
5100000000.0        -0.00173157985998   -0.0291837255911    0.997085331017      -0.0661302058858    0.997085331017      -0.0661302058858    -0.00173157985998   -0.0291837255911    
5200000000.0        -0.0018089579682    -0.0297548245415    0.996980181834      -0.0674276764371    0.996980181834      -0.0674276764371    -0.0018089579682    -0.0297548245415    
5300000000.0        -0.00188783518401   -0.0303258149025    0.9968730009        -0.0687251337613    0.9968730009        -0.0687251337613    -0.00188783518401   -0.0303258149025    
5400000000.0        -0.00196821157357   -0.0308966923351    0.996763787768      -0.0700225745206    0.996763787768      -0.0700225745206    -0.00196821157357   -0.0308966923351    
5500000000.0        -0.00205008719038   -0.0314674524675    0.996652542008      -0.0713199953355    0.996652542008      -0.0713199953355    -0.00205008719038   -0.0314674524675    
5600000000.0        -0.00213346207487   -0.0320380908959    0.996539263205      -0.0726173927865    0.996539263205      -0.0726173927865    -0.00213346207487   -0.0320380908959    
5700000000.0        -0.00221833625398   -0.032608603186     0.996423950957      -0.0739147634148    0.996423950957      -0.0739147634148    -0.00221833625398   -0.032608603186     
5800000000.0        -0.00230470974077   -0.0331789848729    0.996306604878      -0.0752121037233    0.996306604878      -0.0752121037233    -0.00230470974077   -0.0331789848729    
5900000000.0        -0.00239258253409   -0.0337492314629    0.996187224598      -0.0765094101781    0.996187224598      -0.0765094101781    -0.00239258253409   -0.0337492314629    
6000000000.0        -0.00248195461823   -0.0343193384336    0.996065809759      -0.077806679209     0.996065809759      -0.077806679209     -0.00248195461823   -0.0343193384336    
6100000000.0        -0.00257282596257   -0.0348893012349    0.995942360021      -0.0791039072109    0.995942360021      -0.0791039072109    -0.00257282596257   -0.0348893012349    
6200000000.0        -0.00266519652131   -0.0354591152898    0.995816875059      -0.0804010905444    0.995816875059      -0.0804010905444    -0.00266519652131   -0.0354591152898    
6300000000.0        -0.00275906623314   -0.0360287759952    0.995689354562      -0.081698225537     0.995689354562      -0.081698225537     -0.00275906623314   -0.0360287759952    
6400000000.0        -0.00285443502098   -0.0365982787223    0.995559798234      -0.0829953084836    0.995559798234      -0.0829953084836    -0.00285443502098   -0.0365982787223    
6500000000.0        -0.00295130279172   -0.0371676188178    0.995428205797      -0.0842923356478    0.995428205797      -0.0842923356478    -0.00295130279172   -0.0371676188178    
6600000000.0        -0.00304966943594   -0.037736791604     0.995294576987      -0.0855893032627    0.995294576987      -0.0855893032627    -0.00304966943594   -0.037736791604     
6700000000.0        -0.00314953482771   -0.0383057923798    0.995158911556      -0.0868862075312    0.995158911556      -0.0868862075312    -0.00314953482771   -0.0383057923798    
6800000000.0        -0.00325089882428   -0.0388746164216    0.99502120927       -0.0881830446276    0.99502120927       -0.0881830446276    -0.00325089882428   -0.0388746164216    
6900000000.0        -0.00335376126597   -0.0394432589831    0.994881469914      -0.0894798106975    0.994881469914      -0.0894798106975    -0.00335376126597   -0.0394432589831    
7000000000.0        -0.00345812197583   -0.040011715297     0.994739693288      -0.0907765018594    0.994739693288      -0.0907765018594    -0.00345812197583   -0.040011715297     
7100000000.0        -0.00356398075955   -0.0405799805746    0.994595879206      -0.0920731142048    0.994595879206      -0.0920731142048    -0.00356398075955   -0.0405799805746    
7200000000.0        -0.00367133740519   -0.041148050007     0.9944500275        -0.0933696437992    0.9944500275        -0.0933696437992    -0.00367133740519   -0.041148050007     
7300000000.0        -0.00378019168303   -0.0417159187656    0.994302138019      -0.0946660866828    0.994302138019      -0.0946660866828    -0.00378019168303   -0.0417159187656    
7400000000.0        -0.00389054334537   -0.0422835820024    0.994152210626      -0.0959624388711    0.994152210626      -0.0959624388711    -0.00389054334537   -0.0422835820024    
7500000000.0        -0.00400239212637   -0.0428510348508    0.994000245204      -0.0972586963556    0.994000245204      -0.0972586963556    -0.00400239212637   -0.0428510348508    
7600000000.0        -0.00411573774188   -0.043418272426     0.993846241648      -0.0985548551044    0.993846241648      -0.0985548551044    -0.00411573774188   -0.043418272426     
7700000000.0        -0.0042305798893    -0.0439852898256    0.993690199873      -0.099850911063     0.993690199873      -0.099850911063     -0.0042305798893    -0.0439852898256    
7800000000.0        -0.00434691824738   -0.0445520821303    0.99353211981       -0.101146860155     0.99353211981       -0.101146860155     -0.00434691824738   -0.0445520821303    
7900000000.0        -0.00446475247615   -0.0451186444037    0.993372001407      -0.102442698281     0.993372001407      -0.102442698281     -0.00446475247615   -0.0451186444037    
8000000000.0        -0.00458408221669   -0.0456849716939    0.993209844626      -0.103738421324     0.993209844626      -0.103738421324     -0.00458408221669   -0.0456849716939    
8100000000.0        -0.00470490709109   -0.0462510590328    0.993045649451      -0.105034025143     0.993045649451      -0.105034025143     -0.00470490709109   -0.0462510590328    
8200000000.0        -0.00482722670223   -0.0468169014376    0.992879415879      -0.106329505579     0.992879415879      -0.106329505579     -0.00482722670223   -0.0468169014376    
8300000000.0        -0.00495104063373   -0.0473824939106    0.992711143926      -0.107624858454     0.992711143926      -0.107624858454     -0.00495104063373   -0.0473824939106    
8400000000.0        -0.00507634844978   -0.0479478314399    0.992540833624      -0.108920079572     0.992540833624      -0.108920079572     -0.00507634844978   -0.0479478314399    
8500000000.0        -0.00520314969509   -0.048512909        0.992368485023      -0.110215164716     0.992368485023      -0.110215164716     -0.00520314969509   -0.048512909        
8600000000.0        -0.00533144389468   -0.0490777215517    0.992194098192      -0.111510109654     0.992194098192      -0.111510109654     -0.00533144389468   -0.0490777215517    
8700000000.0        -0.00546123055388   -0.0496422640432    0.992017673213      -0.112804910137     0.992017673213      -0.112804910137     -0.00546123055388   -0.0496422640432    
8800000000.0        -0.00559250915817   -0.0502065314102    0.991839210191      -0.114099561898     0.991839210191      -0.114099561898     -0.00559250915817   -0.0502065314102    
8900000000.0        -0.00572527917309   -0.0507705185762    0.991658709243      -0.115394060654     0.991658709243      -0.115394060654     -0.00572527917309   -0.0507705185762    
9000000000.0        -0.00585954004417   -0.0513342204532    0.991476170508      -0.116688402107     0.991476170508      -0.116688402107     -0.00585954004417   -0.0513342204532    
9100000000.0        -0.00599529119682   -0.0518976319419    0.991291594141      -0.117982581945     0.991291594141      -0.117982581945     -0.00599529119682   -0.0518976319419    
9200000000.0        -0.00613253203624   -0.052460747932     0.991104980313      -0.119276595838     0.991104980313      -0.119276595838     -0.00613253203624   -0.052460747932     
9300000000.0        -0.00627126194738   -0.053023563303     0.990916329217      -0.120570439445     0.990916329217      -0.120570439445     -0.00627126194738   -0.053023563303     
9400000000.0        -0.00641148029482   -0.0535860729241    0.990725641059      -0.12186410841      0.990725641059      -0.12186410841      -0.00641148029482   -0.0535860729241    
9500000000.0        -0.0065531864227    -0.0541482716549    0.990532916066      -0.123157598364     0.990532916066      -0.123157598364     -0.0065531864227    -0.0541482716549    
9600000000.0        -0.00669637965469   -0.0547101543457    0.990338154482      -0.124450904923     0.990338154482      -0.124450904923     -0.00669637965469   -0.0547101543457    
9700000000.0        -0.00684105929386   -0.0552717158377    0.990141356569      -0.125744023694     0.990141356569      -0.125744023694     -0.00684105929386   -0.0552717158377    
9800000000.0        -0.00698722462267   -0.0558329509635    0.989942522607      -0.12703695027      0.989942522607      -0.12703695027      -0.00698722462267   -0.0558329509635    
9900000000.0        -0.00713487490289   -0.0563938545476    0.989741652895      -0.128329680231     0.989741652895      -0.128329680231     -0.00713487490289   -0.0563938545476    
10000000000.0       -0.00728400937552   -0.0569544214064    0.989538747748      -0.129622209148     0.989538747748      -0.129622209148     -0.00728400937552   -0.0569544214064    
