# Hz S RI R 50.00 
100000000.0         0.000211707286318   -2.96534421928e-05  0.999786489878      -0.000605095117965  0.999786489878      -0.000605095117965  0.000211707286318   -2.96534421927e-05  
200000000.0         0.000212778909141   -5.93119973589e-05  0.999784212451      -0.00121019835944   0.999784212451      -0.00121019835944   0.000212778909141   -5.93119973589e-05  
300000000.0         0.000213441570943   -8.89769366934e-05  0.999781940966      -0.00181531546118   0.999781940966      -0.00181531546118   0.000213441570943   -8.89769366933e-05  
400000000.0         0.000213879340635   -0.000118649470101  0.999779491295      -0.0024204505142    0.999779491295      -0.0024204505142    0.000213879340635   -0.000118649470101  
500000000.0         0.000214162996195   -0.000148330652477  0.999776792589      -0.0030256068966    0.999776792589      -0.0030256068966    0.000214162996195   -0.000148330652477  
600000000.0         0.000214328572033   -0.000178021411499  0.999773808733      -0.00363078754162   0.999773808733      -0.00363078754162   0.000214328572032   -0.000178021411499  
700000000.0         0.000214397313049   -0.000207722570774  0.999770518395      -0.00423599506636   0.999770518395      -0.00423599506636   0.000214397313049   -0.000207722570774  
800000000.0         0.000214382952654   -0.000237434866209  0.999766907748      -0.00484123184574   0.999766907748      -0.00484123184574   0.000214382952654   -0.000237434866209  
900000000.0         0.000214294951407   -0.0002671589586    0.999762967228      -0.00544650006061   0.999762967228      -0.00544650006061   0.000214294951407   -0.0002671589586    
1000000000.0        0.000214140137564   -0.000296895442999  0.999758689902      -0.00605180173097   0.999758689902      -0.00605180173097   0.000214140137564   -0.000296895442999  
1100000000.0        0.000213923618513   -0.000326644855836  0.999754070547      -0.00665713873989   0.999754070547      -0.00665713873989   0.000213923618513   -0.000326644855836  
1200000000.0        0.00021364932366    -0.000356407681238  0.999749105118      -0.00726251285233   0.999749105118      -0.00726251285233   0.00021364932366    -0.000356407681238  
1300000000.0        0.000213320345689   -0.000386184355295  0.999743790398      -0.00786792572891   0.999743790398      -0.00786792572891   0.000213320345689   -0.000386184355295  
1400000000.0        0.000212939164822   -0.000415975270497  0.99973812378       -0.00847337893785   0.99973812378       -0.00847337893785   0.000212939164822   -0.000415975270497  
1500000000.0        0.000212507801544   -0.000445780778778  0.999732103113      -0.00907887396399   0.999732103113      -0.00907887396399   0.000212507801544   -0.000445780778778  
1600000000.0        0.000212027923815   -0.000475601194621  0.999725726593      -0.0096844122168    0.999725726593      -0.0096844122168    0.000212027923815   -0.000475601194621  
1700000000.0        0.000211500924308   -0.000505436797579  0.999718992688      -0.010289995037     0.999718992688      -0.010289995037     0.000211500924308   -0.000505436797579  
1800000000.0        0.000210927977289   -0.000535287834433  0.999711900083      -0.010895623702     0.999711900083      -0.010895623702     0.000210927977289   -0.000535287834433  
1900000000.0        0.00021031008133    -0.000565154520988  0.999704447632      -0.0115012994309    0.999704447632      -0.0115012994309    0.00021031008133    -0.000565154520988  
2000000000.0        0.00020964809194    -0.000595037044018  0.999696634332      -0.0121070233885    0.999696634332      -0.0121070233885    0.000209648091939   -0.000595037044018  
2100000000.0        0.000208942746865   -0.000624935562742  0.999688459294      -0.0127127966892    0.999688459294      -0.0127127966892    0.000208942746865   -0.000624935562742  
2200000000.0        0.000208194685985   -0.000654850210219  0.999679921724      -0.0133186204004    0.999679921724      -0.0133186204004    0.000208194685985   -0.000654850210219  
2300000000.0        0.00020740446712    -0.000684781094592  0.999671020907      -0.0139244955451    0.999671020907      -0.0139244955451    0.000207404467119   -0.000684781094592  
2400000000.0        0.000206572578762   -0.000714728300311  0.999661756197      -0.0145304231046    0.999661756197      -0.0145304231046    0.000206572578762   -0.000714728300311  
2500000000.0        0.000205699450428   -0.000744691889133  0.999652127003      -0.0151364040212    0.999652127003      -0.0151364040212    0.000205699450428   -0.000744691889133  
2600000000.0        0.000204785461114   -0.00077467190121   0.999642132783      -0.0157424391999    0.999642132783      -0.0157424391999    0.000204785461114   -0.00077467190121   
2700000000.0        0.000203830946321   -0.000804668355869  0.999631773036      -0.0163485295105    0.999631773036      -0.0163485295105    0.000203830946321   -0.000804668355869  
2800000000.0        0.000202836203886   -0.00083468125248   0.999621047299      -0.0169546757896    0.999621047299      -0.0169546757896    0.000202836203886   -0.00083468125248   
2900000000.0        0.000201801498878   -0.000864710571352  0.999609955137      -0.017560878842     0.999609955137      -0.017560878842     0.000201801498877   -0.000864710571352  
3000000000.0        0.000200727067739   -0.000894756274331  0.999598496145      -0.0181671394422    0.999598496145      -0.0181671394422    0.000200727067739   -0.000894756274331  
3100000000.0        0.000199613121798   -0.000924818305531  0.99958666994       -0.0187734583358    0.99958666994       -0.0187734583358    0.000199613121798   -0.000924818305531  
3200000000.0        0.000198459850271   -0.000954896592037  0.99957447616       -0.0193798362411    0.99957447616       -0.0193798362411    0.000198459850271   -0.000954896592037  
3300000000.0        0.000197267422851   -0.000984991044323  0.999561914462      -0.0199862738496    0.999561914462      -0.0199862738496    0.000197267422851   -0.000984991044323  
3400000000.0        0.000196035991925   -0.00101510155708   0.999548984519      -0.0205927718279    0.999548984519      -0.0205927718279    0.000196035991925   -0.00101510155708   
3500000000.0        0.000194765694514   -0.0010452280096    0.999535686016      -0.0211993308183    0.999535686016      -0.0211993308183    0.000194765694514   -0.0010452280096    
3600000000.0        0.000193456653956   -0.00107537026626   0.999522018656      -0.0218059514398    0.999522018656      -0.0218059514398    0.000193456653956   -0.00107537026626   
3700000000.0        0.000192108981379   -0.00110552817707   0.999507982147      -0.0224126342891    0.999507982147      -0.0224126342891    0.000192108981379   -0.00110552817707   
3800000000.0        0.000190722776996   -0.00113570157815   0.999493576212      -0.0230193799414    0.999493576212      -0.0230193799414    0.000190722776996   -0.00113570157815   
3900000000.0        0.000189298131246   -0.00116589029208   0.999478800582      -0.0236261889512    0.999478800582      -0.0236261889512    0.000189298131246   -0.00116589029208   
4000000000.0        0.000187835125804   -0.00119609412845   0.999463654994      -0.0242330618533    0.999463654994      -0.0242330618533    0.000187835125803   -0.00119609412845   
4100000000.0        0.000186333834476   -0.00122631288407   0.999448139194      -0.0248399991631    0.999448139194      -0.0248399991631    0.000186333834476   -0.00122631288407   
4200000000.0        0.000184794324003   -0.00125654634353   0.999432252936      -0.0254470013774    0.999432252936      -0.0254470013774    0.000184794324003   -0.00125654634353   
4300000000.0        0.000183216654766   -0.00128679427943   0.999415995976      -0.0260540689754    0.999415995976      -0.0260540689754    0.000183216654766   -0.00128679427943   
4400000000.0        0.000181600881432   -0.00131705645286   0.99939936808       -0.0266612024188    0.99939936808       -0.0266612024188    0.000181600881432   -0.00131705645286   
4500000000.0        0.000179947053525   -0.00134733261353   0.999382369016      -0.0272684021529    0.999382369016      -0.0272684021529    0.000179947053525   -0.00134733261353   
4600000000.0        0.000178255215943   -0.00137762250034   0.999364998556      -0.0278756686066    0.999364998556      -0.0278756686066    0.000178255215943   -0.00137762250034   
4700000000.0        0.000176525409427   -0.00140792584145   0.999347256479      -0.0284830021933    0.999347256479      -0.0284830021933    0.000176525409427   -0.00140792584145   
4800000000.0        0.000174757670981   -0.00143824235474   0.999329142563      -0.0290904033113    0.999329142563      -0.0290904033113    0.000174757670981   -0.00143824235474   
4900000000.0        0.000172952034259   -0.00146857174801   0.999310656595      -0.0296978723442    0.999310656595      -0.0296978723442    0.000172952034259   -0.00146857174801   
5000000000.0        0.000171108529911   -0.00149891371926   0.99929179836       -0.0303054096617    0.99929179836       -0.0303054096617    0.000171108529911   -0.00149891371926   
5100000000.0        0.000169227185904   -0.00152926795699   0.999272567649      -0.0309130156193    0.999272567649      -0.0309130156193    0.000169227185904   -0.00152926795699   
5200000000.0        0.000167308027806   -0.00155963414042   0.999252964254      -0.0315206905597    0.999252964254      -0.0315206905597    0.000167308027806   -0.00155963414042   
5300000000.0        0.000165351079062   -0.00159001193972   0.999232987969      -0.0321284348123    0.999232987969      -0.0321284348123    0.000165351079062   -0.00159001193972   
5400000000.0        0.000163356361227   -0.00162040101627   0.999212638591      -0.0327362486941    0.999212638591      -0.0327362486941    0.000163356361228   -0.00162040101627   
5500000000.0        0.0001613238942     -0.00165080102289   0.999191915919      -0.03334413251      0.999191915919      -0.03334413251      0.0001613238942     -0.00165080102289   
5600000000.0        0.00015925369642    -0.00168121160405   0.999170819753      -0.0339520865529    0.999170819753      -0.0339520865529    0.00015925369642    -0.00168121160405   
5700000000.0        0.000157145785064   -0.00171163239605   0.999149349895      -0.0345601111045    0.999149349895      -0.0345601111045    0.000157145785064   -0.00171163239605   
5800000000.0        0.000155000176216   -0.00174206302729   0.99912750615       -0.035168206435     0.99912750615       -0.035168206435     0.000155000176217   -0.00174206302729   
5900000000.0        0.000152816885035   -0.00177250311839   0.99910528832       -0.0357763728041    0.99910528832       -0.0357763728041    0.000152816885035   -0.00177250311839   
6000000000.0        0.000150595925899   -0.00180295228249   0.999082696214      -0.0363846104607    0.999082696214      -0.0363846104607    0.000150595925899   -0.00180295228249   
6100000000.0        0.000148337312551   -0.00183341012528   0.999059729637      -0.0369929196436    0.999059729637      -0.0369929196436    0.00014833731255    -0.00183341012528   
6200000000.0        0.00014604105822    -0.00186387624534   0.999036388399      -0.0376013005816    0.999036388399      -0.0376013005816    0.000146041058219   -0.00186387624534   
6300000000.0        0.000143707175751   -0.00189435023422   0.999012672308      -0.0382097534938    0.999012672308      -0.0382097534938    0.000143707175751   -0.00189435023422   
6400000000.0        0.00014133567771    -0.00192483167661   0.998988581175      -0.0388182785899    0.998988581175      -0.0388182785899    0.00014133567771    -0.00192483167661   
6500000000.0        0.000138926576491   -0.00195532015056   0.99896411481       -0.0394268760703    0.99896411481       -0.0394268760703    0.000138926576491   -0.00195532015056   
6600000000.0        0.000136479884415   -0.00198581522757   0.998939273026      -0.0400355461266    0.998939273026      -0.0400355461266    0.000136479884415   -0.00198581522757   
6700000000.0        0.000133995613818   -0.00201631647281   0.998914055635      -0.0406442889416    0.998914055635      -0.0406442889416    0.000133995613817   -0.00201631647281   
6800000000.0        0.000131473777137   -0.00204682344521   0.99888846245       -0.0412531046896    0.99888846245       -0.0412531046896    0.000131473777138   -0.00204682344521   
6900000000.0        0.000128914387      -0.00207733569765   0.998862493285      -0.0418619935366    0.998862493285      -0.0418619935366    0.000128914387      -0.00207733569765   
7000000000.0        0.000126317456282   -0.00210785277708   0.998836147954      -0.0424709556408    0.998836147954      -0.0424709556408    0.000126317456282   -0.00210785277708   
7100000000.0        0.000123682998193   -0.00213837422466   0.998809426271      -0.0430799911522    0.998809426271      -0.0430799911522    0.000123682998193   -0.00213837422466   
7200000000.0        0.000121011026337   -0.0021688995759    0.998782328052      -0.0436891002134    0.998782328052      -0.0436891002134    0.000121011026337   -0.0021688995759    
7300000000.0        0.000118301554778   -0.00219942836078   0.998754853114      -0.0442982829593    0.998754853114      -0.0442982829593    0.000118301554778   -0.00219942836078   
7400000000.0        0.000115554598091   -0.0022299601039    0.99872700127       -0.0449075395179    0.99872700127       -0.0449075395179    0.000115554598092   -0.0022299601039    
7500000000.0        0.00011277017143    -0.00226049432454   0.998698772339      -0.0455168700097    0.998698772339      -0.0455168700097    0.00011277017143    -0.00226049432454   
7600000000.0        0.000109948290568   -0.0022910305369    0.998670166137      -0.0461262745486    0.998670166137      -0.0461262745486    0.000109948290568   -0.0022910305369    
7700000000.0        0.000107088971957   -0.00232156825006   0.99864118248       -0.0467357532414    0.99864118248       -0.0467357532414    0.000107088971958   -0.00232156825006   
7800000000.0        0.000104192232771   -0.00235210696822   0.998611821187      -0.0473453061887    0.998611821187      -0.0473453061887    0.000104192232771   -0.00235210696822   
7900000000.0        0.000101258090945   -0.00238264619076   0.998582082075      -0.0479549334845    0.998582082075      -0.0479549334845    0.000101258090945   -0.00238264619076   
8000000000.0        9.82865652279e-05   -0.00241318541234   0.998551964962      -0.0485646352164    0.998551964962      -0.0485646352164    9.82865652279e-05   -0.00241318541234   
8100000000.0        9.52776752137e-05   -0.00244372412305   0.998521469666      -0.049174411466     0.998521469666      -0.049174411466     9.52776752137e-05   -0.00244372412305   
8200000000.0        9.22314413829e-05   -0.00247426180843   0.998490596005      -0.0497842623089    0.998490596005      -0.0497842623089    9.22314413827e-05   -0.00247426180843   
8300000000.0        8.91478851399e-05   -0.00250479794965   0.998459343798      -0.050394187815     0.998459343798      -0.050394187815     8.91478851399e-05   -0.00250479794965   
8400000000.0        8.60270288445e-05   -0.00253533202358   0.998427712863      -0.0510041880483    0.998427712863      -0.0510041880483    8.60270288445e-05   -0.00253533202358   
8500000000.0        8.28688958459e-05   -0.00256586350287   0.99839570302       -0.0516142630672    0.99839570302       -0.0516142630672    8.28688958461e-05   -0.00256586350287   
8600000000.0        7.96735105129e-05   -0.00259639185604   0.998363314088      -0.0522244129249    0.998363314088      -0.0522244129249    7.96735105131e-05   -0.00259639185604   
8700000000.0        7.6440898265e-05    -0.00262691654761   0.998330545885      -0.052834637669     0.998330545885      -0.052834637669     7.64408982652e-05   -0.00262691654761   
8800000000.0        7.31710855997e-05   -0.00265743703815   0.998297398232      -0.0534449373422    0.998297398232      -0.0534449373422    7.31710855997e-05   -0.00265743703815   
8900000000.0        6.98641001178e-05   -0.00268795278437   0.998263870947      -0.0540553119819    0.998263870947      -0.0540553119819    6.98641001176e-05   -0.00268795278437   
9000000000.0        6.65199705514e-05   -0.00271846323922   0.99822996385       -0.0546657616207    0.99822996385       -0.0546657616207    6.65199705514e-05   -0.00271846323922   
9100000000.0        6.31387267902e-05   -0.00274896785196   0.998195676761      -0.0552762862862    0.998195676761      -0.0552762862862    6.31387267898e-05   -0.00274896785196   
9200000000.0        5.97203999e-05      -0.00277946606823   0.9981610095        -0.0558868860013    0.9981610095        -0.0558868860013    5.97203999e-05      -0.00277946606823   
9300000000.0        5.62650221461e-05   -0.00280995733015   0.998125961887      -0.0564975607845    0.998125961887      -0.0564975607845    5.62650221461e-05   -0.00280995733015   
9400000000.0        5.27726270214e-05   -0.00284044107639   0.998090533741      -0.0571083106494    0.998090533741      -0.0571083106494    5.27726270214e-05   -0.00284044107639   
9500000000.0        4.92432492549e-05   -0.00287091674224   0.998054724883      -0.0577191356054    0.998054724883      -0.0577191356054    4.92432492551e-05   -0.00287091674224   
9600000000.0        4.56769248447e-05   -0.00290138375965   0.998018535133      -0.0583300356576    0.998018535133      -0.0583300356576    4.56769248447e-05   -0.00290138375965   
9700000000.0        4.20736910662e-05   -0.0029318415574    0.99798196431       -0.0589410108068    0.99798196431       -0.0589410108068    4.20736910665e-05   -0.0029318415574    
9800000000.0        3.84335864971e-05   -0.00296228956102   0.997945012237      -0.0595520610495    0.997945012237      -0.0595520610495    3.84335864974e-05   -0.00296228956102   
9900000000.0        3.4756651031e-05    -0.00299272719301   0.997907678732      -0.0601631863786    0.997907678732      -0.0601631863786    3.4756651031e-05    -0.00299272719301   
10000000000.0       3.10429258938e-05   -0.00302315387279   0.997869963616      -0.0607743867825    0.997869963616      -0.0607743867825    3.10429258936e-05   -0.00302315387279   
