# Hz S RI R 50.00 
100000000.0         0.0153081980431     0.00204053608212    0.98468947763       -0.00299136708681   0.98468947763       -0.00299136708681   0.0153081980431     0.00204053608212    
200000000.0         0.0154262132975     0.00407996135228    0.984569229205      -0.00598162643618   0.984569229205      -0.00598162643618   0.0154262132975     0.00407996135228    
300000000.0         0.0155297868287     0.00611859625551    0.984462513578      -0.00897110144149   0.984462513578      -0.00897110144149   0.0155297868287     0.00611859625551    
400000000.0         0.0156320492043     0.00815649217642    0.984356200101      -0.0119598460065    0.984356200101      -0.0119598460065    0.0156320492043     0.00815649217642    
500000000.0         0.0157380611194     0.0101936380239     0.984245227998      -0.0149478513443    0.984245227998      -0.0149478513443    0.0157380611194     0.0101936380239     
600000000.0         0.0158504038681     0.0122299950992     0.984127015888      -0.0179350809212    0.984127015888      -0.0179350809212    0.0158504038681     0.0122299950992     
700000000.0         0.0159706012796     0.0142655096145     0.984000039848      -0.0209214830122    0.984000039848      -0.0209214830122    0.0159706012796     0.0142655096145     
800000000.0         0.0160996389323     0.0163001184975     0.983863314198      -0.0239069965302    0.983863314198      -0.0239069965302    0.0160996389323     0.0163001184975     
900000000.0         0.0162381954384     0.0183337525112     0.983716160217      -0.0268915541591    0.983716160217      -0.0268915541591    0.0162381954384     0.0183337525112     
1000000000.0        0.0163867597289     0.0203663381011     0.983558088859      -0.0298750842129    0.983558088859      -0.0298750842129    0.0163867597289     0.0203663381011     
1100000000.0        0.0165456962777     0.0223977985715     0.983388735524      -0.0328575118187    0.983388735524      -0.0328575118187    0.0165456962777     0.0223977985715     
1200000000.0        0.0167152839825     0.0244280548743     0.983207821181      -0.0358387597124    0.983207821181      -0.0358387597124    0.0167152839825     0.0244280548743     
1300000000.0        0.0168957406373     0.0264570261626     0.983015127897      -0.0388187487961    0.983015127897      -0.0388187487961    0.0168957406373     0.0264570261626     
1400000000.0        0.0170872390241     0.028484630192      0.982810482739      -0.0417973985433    0.982810482739      -0.0417973985433    0.0170872390241     0.028484630192      
1500000000.0        0.0172899178826     0.0305107836204     0.982593746812      -0.0447746273026    0.982593746812      -0.0447746273026    0.0172899178826     0.0305107836204     
1600000000.0        0.0175038896185     0.0325354022384     0.982364807545      -0.0477503525294    0.982364807545      -0.0477503525294    0.0175038896185     0.0325354022384     
1700000000.0        0.0177292458603     0.0345584011496     0.982123573135      -0.0507244909689    0.982123573135      -0.0507244909689    0.0177292458603     0.0345584011496     
1800000000.0        0.0179660615558     0.0365796949138     0.981869968454      -0.0536969588017    0.981869968454      -0.0536969588017    0.0179660615558     0.0365796949138     
1900000000.0        0.0182143980515     0.0385991976649     0.981603931966      -0.056667671762     0.981603931966      -0.056667671762     0.0182143980515     0.0385991976649     
2000000000.0        0.0184743054459     0.0406168232063     0.981325413375      -0.0596365452357    0.981325413375      -0.0596365452357    0.0184743054459     0.0406168232063     
2100000000.0        0.0187458244168     0.0426324850925     0.981034371798      -0.0626034943424    0.981034371798      -0.0626034943424    0.0187458244168     0.0426324850925     
2200000000.0        0.0190289876584     0.0446460966973     0.980730774327      -0.0655684340046    0.980730774327      -0.0655684340046    0.0190289876584     0.0446460966973     
2300000000.0        0.0193238210263     0.0466575712723     0.980414594885      -0.0685312790076    0.980414594885      -0.0685312790076    0.0193238210263     0.0466575712723     
2400000000.0        0.0196303444593     0.048666821998      0.980085813304      -0.0714919440516    0.980085813304      -0.0714919440516    0.0196303444593     0.048666821998      
2500000000.0        0.0199485727286     0.0506737620287     0.979744414576      -0.0744503437963    0.979744414576      -0.0744503437963    0.0199485727286     0.0506737620287     
2600000000.0        0.0202785160539     0.0526783045316     0.979390388235      -0.0774063929019    0.979390388235      -0.0774063929019    0.0202785160539     0.0526783045316     
2700000000.0        0.0206201806125     0.0546803627223     0.979023727853      -0.0803600060647    0.979023727853      -0.0803600060647    0.0206201806125     0.0546803627223     
2800000000.0        0.0209735689648     0.0566798498963     0.978644430607      -0.0833110980491    0.978644430607      -0.0833110980491    0.0209735689648     0.0566798498963     
2900000000.0        0.0213386804115     0.0586766794582     0.978252496929      -0.0862595837172    0.978252496929      -0.0862595837172    0.0213386804115     0.0586766794582     
3000000000.0        0.0217155112963     0.0606707649475     0.977847930198      -0.0892053780558    0.977847930198      -0.0892053780558    0.0217155112963     0.0606707649475     
3100000000.0        0.0221040552632     0.0626620200629     0.977430736487      -0.0921483962002    0.977430736487      -0.0921483962002    0.0221040552632     0.0626620200629     
3200000000.0        0.022504303478      0.0646503586848     0.977000924338      -0.0950885534576    0.977000924338      -0.0950885534576    0.022504303478      0.0646503586848     
3300000000.0        0.0229162448178     0.0666356948957     0.976558504573      -0.098025765328     0.976558504573      -0.098025765328     0.0229162448178     0.0666356948957     
3400000000.0        0.0233398660366     0.0686179429998     0.976103490133      -0.100959947524     0.976103490133      -0.100959947524     0.0233398660366     0.0686179429998     
3500000000.0        0.0237751519085     0.0705970175412     0.975635895928      -0.103891015989     0.975635895928      -0.103891015989     0.0237751519085     0.0705970175412     
3600000000.0        0.0242220853539     0.0725728333208     0.975155738716      -0.106818886914     0.975155738716      -0.106818886914     0.0242220853539     0.0725728333208     
3700000000.0        0.0246806475499     0.074545305413      0.974663036988      -0.109743476758     0.974663036988      -0.109743476758     0.0246806475499     0.074545305413      
3800000000.0        0.0251508180281     0.0765143491805     0.974157810876      -0.112664702256     0.974157810876      -0.112664702256     0.0251508180281     0.0765143491805     
3900000000.0        0.0256325747617     0.0784798802895     0.973640082062      -0.115582480444     0.973640082062      -0.115582480444     0.0256325747617     0.0784798802895     
4000000000.0        0.0261258942424     0.0804418147234     0.9731098737        -0.118496728663     0.9731098737        -0.118496728663     0.0261258942424     0.0804418147234     
4100000000.0        0.0266307515504     0.0824000687962     0.97256721035       -0.12140736458      0.97256721035       -0.12140736458      0.0266307515504     0.0824000687962     
4200000000.0        0.027147120416      0.0843545591659     0.972012117914      -0.124314306198     0.972012117914      -0.124314306198     0.027147120416      0.0843545591659     
4300000000.0        0.0276749732768     0.0863052028463     0.971444623579      -0.127217471869     0.971444623579      -0.127217471869     0.0276749732768     0.0863052028463     
4400000000.0        0.0282142813276     0.0882519172191     0.970864755767      -0.130116780307     0.970864755767      -0.130116780307     0.0282142813276     0.0882519172191     
4500000000.0        0.0287650145679     0.0901946200458     0.970272544088      -0.1330121506       0.970272544088      -0.1330121506       0.0287650145679     0.0901946200458     
4600000000.0        0.0293271418437     0.0921332294787     0.969668019299      -0.135903502217     0.969668019299      -0.135903502217     0.0293271418437     0.0921332294787     
4700000000.0        0.0299006308865     0.0940676640713     0.969051213262      -0.138790755025     0.969051213262      -0.138790755025     0.0299006308865     0.0940676640713     
4800000000.0        0.0304854483493     0.0959978427896     0.968422158911      -0.141673829298     0.968422158911      -0.141673829298     0.0304854483493     0.0959978427896     
4900000000.0        0.0310815598395     0.0979236850215     0.967780890219      -0.144552645724     0.967780890219      -0.144552645724     0.0310815598395     0.0979236850215     
5000000000.0        0.0316889299498     0.0998451105874     0.967127442166      -0.147427125419     0.967127442166      -0.147427125419     0.0316889299498     0.0998451105874     
5100000000.0        0.0323075222864     0.101762039749      0.96646185071       -0.150297189934     0.96646185071       -0.150297189934     0.0323075222864     0.101762039749      
5200000000.0        0.0329372994961     0.10367439322       0.965784152763      -0.153162761267     0.965784152763      -0.153162761267     0.0329372994961     0.10367439322       
5300000000.0        0.0335782232908     0.105582092174      0.965094386162      -0.156023761871     0.965094386162      -0.156023761871     0.0335782232908     0.105582092174      
5400000000.0        0.0342302544714     0.107485058253      0.964392589649      -0.158880114661     0.964392589649      -0.158880114661     0.0342302544714     0.107485058253      
5500000000.0        0.0348933529498     0.109383213578      0.963678802848      -0.161731743027     0.963678802848      -0.161731743027     0.0348933529498     0.109383213578      
5600000000.0        0.0355674777698     0.111276480755      0.962953066243      -0.16457857084      0.962953066243      -0.16457857084      0.0355674777698     0.111276480755      
5700000000.0        0.036252587127      0.113164782887      0.96221542116       -0.167420522459     0.96221542116       -0.167420522459     0.036252587127      0.113164782887      
5800000000.0        0.0369486383879     0.115048043578      0.961465909745      -0.170257522743     0.961465909745      -0.170257522743     0.0369486383879     0.115048043578      
5900000000.0        0.0376555881077     0.116926186941      0.96070457495       -0.173089497054     0.96070457495       -0.173089497054     0.0376555881077     0.116926186941      
6000000000.0        0.0383733920478     0.118799137609      0.959931460511      -0.175916371271     0.959931460511      -0.175916371271     0.0383733920478     0.118799137609      
6100000000.0        0.0391020051924     0.120666820741      0.959146610936      -0.178738071791     0.959146610936      -0.178738071791     0.0391020051924     0.120666820741      
6200000000.0        0.0398413817644     0.122529162028      0.958350071487      -0.181554525542     0.958350071487      -0.181554525542     0.0398413817644     0.122529162028      
6300000000.0        0.0405914752408     0.124386087701      0.957541888163      -0.184365659985     0.957541888163      -0.184365659985     0.0405914752408     0.124386087701      
6400000000.0        0.0413522383679     0.126237524537      0.956722107688      -0.187171403125     0.956722107688      -0.187171403125     0.0413522383679     0.126237524537      
6500000000.0        0.0421236231751     0.12808339987       0.955890777495      -0.189971683517     0.955890777495      -0.189971683517     0.0421236231751     0.12808339987       
6600000000.0        0.0429055809896     0.12992364159       0.955047945712      -0.192766430272     0.955047945712      -0.192766430272     0.0429055809896     0.12992364159       
6700000000.0        0.0436980624498     0.131758178156      0.954193661148      -0.195555573062     0.954193661148      -0.195555573062     0.0436980624498     0.131758178156      
6800000000.0        0.0445010175183     0.133586938602      0.953327973281      -0.198339042131     0.953327973281      -0.198339042131     0.0445010175183     0.133586938602      
6900000000.0        0.0453143954954     0.135409852537      0.952450932245      -0.201116768297     0.952450932245      -0.201116768297     0.0453143954954     0.135409852537      
7000000000.0        0.0461381450314     0.137226850158      0.951562588815      -0.203888682957     0.951562588815      -0.203888682957     0.0461381450314     0.137226850158      
7100000000.0        0.0469722141393     0.139037862254      0.950662994398      -0.206654718099     0.950662994398      -0.206654718099     0.0469722141393     0.139037862254      
7200000000.0        0.0478165502066     0.140842820206      0.949752201017      -0.209414806301     0.949752201017      -0.209414806301     0.0478165502066     0.140842820206      
7300000000.0        0.048671100008      0.142641656003      0.948830261302      -0.212168880741     0.948830261302      -0.212168880741     0.048671100008      0.142641656003      
7400000000.0        0.0495358097164     0.144434302237      0.947897228478      -0.214916875201     0.947897228478      -0.214916875201     0.0495358097164     0.144434302237      
7500000000.0        0.050410624915      0.146220692115      0.946953156352      -0.217658724071     0.946953156352      -0.217658724071     0.050410624915      0.146220692115      
7600000000.0        0.0512954906085     0.148000759462      0.945998099301      -0.220394362356     0.945998099301      -0.220394362356     0.0512954906085     0.148000759462      
7700000000.0        0.0521903512345     0.149774438723      0.945032112264      -0.22312372568      0.945032112264      -0.22312372568      0.0521903512345     0.149774438723      
7800000000.0        0.0530951506747     0.151541664974      0.944055250728      -0.225846750292     0.944055250728      -0.225846750292     0.0530951506747     0.151541664974      
7900000000.0        0.0540098322658     0.153302373921      0.943067570717      -0.228563373067     0.943067570717      -0.228563373067     0.0540098322658     0.153302373921      
8000000000.0        0.0549343388102     0.155056501907      0.942069128782      -0.231273531516     0.942069128782      -0.231273531516     0.0549343388102     0.155056501907      
8100000000.0        0.0558686125872     0.156803985916      0.941059981991      -0.233977163786     0.941059981991      -0.233977163786     0.0558686125872     0.156803985916      
8200000000.0        0.0568125953635     0.158544763578      0.940040187918      -0.236674208668     0.940040187918      -0.236674208668     0.0568125953635     0.158544763578      
8300000000.0        0.0577662284037     0.160278773169      0.93900980463       -0.239364605597     0.93900980463       -0.239364605597     0.0577662284037     0.160278773169      
8400000000.0        0.0587294524806     0.162005953622      0.937968890678      -0.242048294657     0.937968890678      -0.242048294657     0.0587294524806     0.162005953622      
8500000000.0        0.0597022078863     0.163726244525      0.936917505091      -0.244725216588     0.936917505091      -0.244725216588     0.0597022078863     0.163726244525      
8600000000.0        0.0606844344416     0.165439586126      0.935855707357      -0.247395312787     0.935855707357      -0.247395312787     0.0606844344416     0.165439586126      
8700000000.0        0.061676071507      0.167145919338      0.93478355742       -0.25005852531      0.93478355742       -0.25005852531      0.061676071507      0.167145919338      
8800000000.0        0.0626770579926     0.16884518574       0.933701115665      -0.252714796879     0.933701115665      -0.252714796879     0.0626770579926     0.16884518574       
8900000000.0        0.0636873323681     0.170537327584      0.932608442914      -0.255364070884     0.932608442914      -0.255364070884     0.0636873323681     0.170537327584      
9000000000.0        0.0647068326729     0.172222287792      0.931505600408      -0.258006291384     0.931505600408      -0.258006291384     0.0647068326729     0.172222287792      
9100000000.0        0.0657354965263     0.173900009966      0.930392649803      -0.260641403113     0.930392649803      -0.260641403113     0.0657354965263     0.173900009966      
9200000000.0        0.0667732611373     0.175570438386      0.929269653158      -0.26326935148      0.929269653158      -0.26326935148      0.0667732611373     0.175570438386      
9300000000.0        0.0678200633144     0.177233518013      0.928136672925      -0.265890082576     0.928136672925      -0.265890082576     0.0678200633144     0.177233518013      
9400000000.0        0.0688758394754     0.178889194495      0.926993771939      -0.26850354317      0.926993771939      -0.26850354317      0.0688758394754     0.178889194495      
9500000000.0        0.0699405256575     0.180537414164      0.92584101341       -0.271109680719     0.92584101341       -0.271109680719     0.0699405256575     0.180537414164      
9600000000.0        0.0710140575264     0.182178124044      0.924678460911      -0.273708443363     0.924678460911      -0.273708443363     0.0710140575264     0.182178124044      
9700000000.0        0.0720963703868     0.183811271848      0.923506178369      -0.276299779934     0.923506178369      -0.276299779934     0.0720963703868     0.183811271848      
9800000000.0        0.0731873991912     0.185436805986      0.922324230056      -0.278883639953     0.922324230056      -0.278883639953     0.0731873991912     0.185436805986      
9900000000.0        0.07428707855       0.187054675559      0.921132680578      -0.281459973633     0.921132680578      -0.281459973633     0.07428707855       0.187054675559      
10000000000.0       0.0753953427408     0.188664830368      0.91993159487       -0.284028731884     0.91993159487       -0.284028731884     0.0753953427408     0.188664830368      
