# Hz S RI R 50.00 
100000000.0         0.00970315911537    0.00172997718122    0.990287949945      -0.00486432957207   0.990287949945      -0.00486432957207   0.00970315911537    0.00172997718122    
200000000.0         0.00979121452078    0.0034589324846     0.990182146719      -0.00972762561362   0.990182146719      -0.00972762561362   0.00979121452078    0.0034589324846     
300000000.0         0.00987932212354    0.00518702779359    0.990066433612      -0.0145900470664    0.990066433612      -0.0145900470664    0.00987932212354    0.00518702779359    
400000000.0         0.00997582545545    0.00691420225023    0.989932466181      -0.0194515277401    0.989932466181      -0.0194515277401    0.00997582545545    0.00691420225023    
500000000.0         0.0100839324505     0.00864034351328    0.989777035433      -0.024311948759     0.989777035433      -0.024311948759     0.0100839324505     0.00864034351328    
600000000.0         0.0102052732218     0.0103653166173     0.989598510027      -0.0291711678359    0.989598510027      -0.0291711678359    0.0102052732218     0.0103653166173     
700000000.0         0.0103408045381     0.0120889743275     0.989395931804      -0.0340290298385    0.989395931804      -0.0340290298385    0.0103408045381     0.0120889743275     
800000000.0         0.0104911399353     0.0138111619432     0.98916868567       -0.0388853717186    0.98916868567       -0.0388853717186    0.0104911399353     0.0138111619432     
900000000.0         0.0106566966974     0.0155317198825     0.988916352618      -0.043740025179     0.988916352618      -0.043740025179     0.0106566966974     0.0155317198825     
1000000000.0        0.0108377703575     0.0172504852194     0.988638635223      -0.048592818267     0.988638635223      -0.048592818267     0.0108377703575     0.0172504852194     
1100000000.0        0.0110345761097     0.0189672926654     0.98833531624       -0.0534435763991    0.98833531624       -0.0534435763991    0.0110345761097     0.0189672926654     
1200000000.0        0.0112472734861     0.020681975234      0.988006233919      -0.0582921230565    0.988006233919      -0.0582921230565    0.0112472734861     0.020681975234      
1300000000.0        0.0114759818816     0.0223943647111     0.987651266491      -0.0631382802801    0.987651266491      -0.0631382802801    0.0114759818816     0.0223943647111     
1400000000.0        0.0117207907594     0.0241042920003     0.987270321953      -0.0679818690354    0.987270321953      -0.0679818690354    0.0117207907594     0.0241042920003     
1500000000.0        0.0119817666059     0.0258115873858     0.986863331126      -0.0728227094907    0.986863331126      -0.0728227094907    0.0119817666059     0.0258115873858     
1600000000.0        0.0122589578164     0.0275160807367     0.986430242759      -0.0776606212348    0.986430242759      -0.0776606212348    0.0122589578164     0.0275160807367     
1700000000.0        0.012552398218      0.0292176016716     0.985971020018      -0.082495423452     0.985971020018      -0.082495423452     0.012552398218      0.0292176016716     
1800000000.0        0.0128621096658     0.030915979693      0.985485637881      -0.0873269350653    0.985485637881      -0.0873269350653    0.0128621096658     0.030915979693      
1900000000.0        0.0131881039958     0.0326110442995     0.984974081196      -0.0921549748561    0.984974081196      -0.0921549748561    0.0131881039958     0.0326110442995     
2000000000.0        0.0135303845177     0.0343026250814     0.98443634318       -0.0969793615662    0.98443634318       -0.0969793615662    0.0135303845177     0.0343026250814     
2100000000.0        0.0138889471756     0.0359905518036     0.983872424265      -0.101799913986     0.983872424265      -0.101799913986     0.0138889471756     0.0359905518036     
2200000000.0        0.0142637814614     0.0376746544778     0.983282331185      -0.106616451033     0.983282331185      -0.106616451033     0.0142637814614     0.0376746544778     
2300000000.0        0.0146548711442     0.0393547634276     0.982666076244      -0.111428791816     0.982666076244      -0.111428791816     0.0146548711442     0.0393547634276     
2400000000.0        0.0150621948583     0.0410307093463     0.982023676734      -0.116236755703     0.982023676734      -0.116236755703     0.0150621948583     0.0410307093463     
2500000000.0        0.0154857265834     0.0427023233502     0.981355154452      -0.121040162373     0.981355154452      -0.121040162373     0.0154857265834     0.0427023233502     
2600000000.0        0.0159254360401     0.0443694370269     0.980660535305      -0.125838831868     0.980660535305      -0.125838831868     0.0159254360401     0.0443694370269     
2700000000.0        0.0163812890183     0.0460318824809     0.979939848986      -0.130632584639     0.979939848986      -0.130632584639     0.0163812890183     0.0460318824809     
2800000000.0        0.0168532476534     0.0476894923753     0.979193128693      -0.135421241596     0.979193128693      -0.135421241596     0.0168532476534     0.0476894923753     
2900000000.0        0.0173412706597     0.0493420999717     0.978420410902      -0.140204624139     0.978420410902      -0.140204624139     0.0173412706597     0.0493420999717     
3000000000.0        0.0178453135295     0.0509895391676     0.977621735167      -0.144982554208     0.977621735167      -0.144982554208     0.0178453135295     0.0509895391676     
3100000000.0        0.0183653287038     0.052631644532      0.976797143946      -0.149754854311     0.976797143946      -0.149754854311     0.0183653287038     0.052631644532      
3200000000.0        0.0189012657208     0.0542682513392     0.975946682458      -0.154521347564     0.975946682458      -0.154521347564     0.0189012657208     0.0542682513392     
3300000000.0        0.0194530713451     0.0558991956015     0.975070398553      -0.159281857722     0.975070398553      -0.159281857722     0.0194530713451     0.0558991956015     
3400000000.0        0.0200206896809     0.0575243141008     0.974168342598      -0.164036209212     0.974168342598      -0.164036209212     0.0200206896809     0.0575243141008     
3500000000.0        0.0206040622727     0.059143444418      0.97324056738       -0.168784227164     0.97324056738       -0.168784227164     0.0206040622727     0.059143444418      
3600000000.0        0.0212031281946     0.0607564249629     0.972287128012      -0.173525737438     0.972287128012      -0.173525737438     0.0212031281946     0.0607564249629     
3700000000.0        0.0218178241304     0.062363095002      0.97130808186       -0.178260566657     0.97130808186       -0.178260566657     0.0218178241304     0.062363095002      
3800000000.0        0.0224480844459     0.0639632946863     0.970303488466      -0.182988542232     0.970303488466      -0.182988542232     0.0224480844459     0.0639632946863     
3900000000.0        0.0230938412549     0.0655568650774     0.969273409486      -0.187709492386     0.969273409486      -0.187709492386     0.0230938412549     0.0655568650774     
4000000000.0        0.0237550244788     0.0671436481739     0.968217908629      -0.192423246186     0.968217908629      -0.192423246186     0.0237550244788     0.0671436481739     
4100000000.0        0.0244315619019     0.0687234869362     0.967137051603      -0.197129633564     0.967137051603      -0.197129633564     0.0244315619019     0.0687234869362     
4200000000.0        0.0251233792228     0.0702962253115     0.966030906063      -0.201828485342     0.966030906063      -0.201828485342     0.0251233792228     0.0702962253115     
4300000000.0        0.0258304001014     0.0718617082577     0.964899541567      -0.206519633257     0.964899541567      -0.206519633257     0.0258304001014     0.0718617082577     
4400000000.0        0.0265525462036     0.0734197817667     0.963743029529      -0.211202909983     0.963743029529      -0.211202909983     0.0265525462036     0.0734197817667     
4500000000.0        0.0272897372431     0.0749702928875     0.962561443179      -0.215878149154     0.962561443179      -0.215878149154     0.0272897372431     0.0749702928875     
4600000000.0        0.0280418910205     0.0765130897487     0.961354857526      -0.220545185387     0.961354857526      -0.220545185387     0.0280418910205     0.0765130897487     
4700000000.0        0.0288089234615     0.0780480215799     0.960123349316      -0.225203854302     0.960123349316      -0.225203854302     0.0288089234615     0.0780480215799     
4800000000.0        0.0295907486518     0.0795749387336     0.958866997001      -0.229853992545     0.958866997001      -0.229853992545     0.0295907486518     0.0795749387336     
4900000000.0        0.030387278872      0.081093692706      0.957585880706      -0.234495437804     0.957585880706      -0.234495437804     0.030387278872      0.081093692706      
5000000000.0        0.0311984246302     0.0826041361573     0.956280082193      -0.239128028836     0.956280082193      -0.239128028836     0.0311984246302     0.0826041361573     
5100000000.0        0.032024094694      0.0841061229322     0.954949684829      -0.243751605479     0.954949684829      -0.243751605479     0.032024094694      0.0841061229322     
5200000000.0        0.0328641961213     0.0855995080789     0.953594773561      -0.248366008677     0.953594773561      -0.248366008677     0.0328641961213     0.0855995080789     
5300000000.0        0.0337186342901     0.0870841478684     0.952215434881      -0.252971080494     0.952215434881      -0.252971080494     0.0337186342901     0.0870841478684     
5400000000.0        0.0345873129276     0.0885598998137     0.950811756803      -0.257566664136     0.950811756803      -0.257566664136     0.0345873129276     0.0885598998137     
5500000000.0        0.0354701341393     0.0900266226874     0.949383828827      -0.262152603965     0.949383828827      -0.262152603965     0.0354701341393     0.0900266226874     
5600000000.0        0.0363669984362     0.0914841765401     0.947931741919      -0.266728745518     0.947931741919      -0.266728745518     0.0363669984362     0.0914841765401     
5700000000.0        0.0372778047627     0.0929324227176     0.946455588479      -0.271294935525     0.946455588479      -0.271294935525     0.0372778047627     0.0929324227176     
5800000000.0        0.0382024505235     0.0943712238782     0.944955462319      -0.275851021922     0.944955462319      -0.275851021922     0.0382024505235     0.0943712238782     
5900000000.0        0.0391408316101     0.095800444009      0.943431458632      -0.28039685387      0.943431458632      -0.28039685387      0.0391408316101     0.095800444009      
6000000000.0        0.0400928424272     0.0972199484425     0.941883673969      -0.284932281767     0.941883673969      -0.284932281767     0.0400928424272     0.0972199484425     
6100000000.0        0.0410583759186     0.0986296038719     0.940312206212      -0.289457157267     0.940312206212      -0.289457157267     0.0410583759186     0.0986296038719     
6200000000.0        0.042037323593      0.100029278367      0.938717154552      -0.293971333293     0.938717154552      -0.293971333293     0.042037323593      0.100029278367      
6300000000.0        0.0430295755493     0.101418841391      0.937098619459      -0.298474664048     0.937098619459      -0.298474664048     0.0430295755493     0.101418841391      
6400000000.0        0.044035020502      0.102798163809      0.93545670266       -0.302967005035     0.93545670266       -0.302967005035     0.044035020502      0.102798163809      
6500000000.0        0.0450535458064     0.104167117911      0.933791507116      -0.307448213063     0.933791507116      -0.307448213063     0.0450535458064     0.104167117911      
6600000000.0        0.0460850374834     0.105525577419      0.932103136992      -0.311918146267     0.932103136992      -0.311918146267     0.0460850374834     0.105525577419      
6700000000.0        0.0471293802444     0.106873417503      0.930391697638      -0.316376664116     0.930391697638      -0.316376664116     0.0471293802444     0.106873417503      
6800000000.0        0.0481864575158     0.108210514795      0.928657295563      -0.320823627425     0.928657295563      -0.320823627425     0.0481864575158     0.108210514795      
6900000000.0        0.049256151464      0.109536747398      0.92690003841       -0.32525889837      0.92690003841       -0.32525889837      0.049256151464      0.109536747398      
7000000000.0        0.0503383430196     0.110851994903      0.925120034932      -0.329682340495     0.925120034932      -0.329682340495     0.0503383430196     0.110851994903      
7100000000.0        0.0514329119018     0.112156138399      0.923317394969      -0.334093818727     0.923317394969      -0.334093818727     0.0514329119018     0.112156138399      
7200000000.0        0.0525397366429     0.113449060481      0.921492229422      -0.338493199385     0.921492229422      -0.338493199385     0.0525397366429     0.113449060481      
7300000000.0        0.0536586946126     0.114730645268      0.919644650234      -0.342880350186     0.919644650234      -0.342880350186     0.0536586946126     0.114730645268      
7400000000.0        0.0547896620419     0.116000778407      0.917774770359      -0.347255140262     0.917774770359      -0.347255140262     0.0547896620419     0.116000778407      
7500000000.0        0.0559325140476     0.11725934709       0.915882703744      -0.351617440164     0.915882703744      -0.351617440164     0.0559325140476     0.11725934709       
7600000000.0        0.0570871246562     0.118506240056      0.913968565303      -0.355967121872     0.913968565303      -0.355967121872     0.0570871246562     0.118506240056      
7700000000.0        0.0582533668282     0.119741347607      0.912032470894      -0.360304058804     0.912032470894      -0.360304058804     0.0582533668282     0.119741347607      
7800000000.0        0.0594311124817     0.120964561617      0.910074537295      -0.364628125824     0.910074537295      -0.364628125824     0.0594311124817     0.120964561617      
7900000000.0        0.0606202325167     0.122175775535      0.908094882181      -0.36893919925      0.908094882181      -0.36893919925      0.0606202325167     0.122175775535      
8000000000.0        0.0618205968387     0.1233748844        0.906093624099      -0.37323715686      0.906093624099      -0.37323715686      0.0618205968387     0.1233748844        
8100000000.0        0.0630320743829     0.124561784846      0.904070882448      -0.3775218779       0.904070882448      -0.3775218779       0.0630320743829     0.124561784846      
8200000000.0        0.0642545331378     0.125736375109      0.90202677745       -0.38179324309      0.90202677745       -0.38179324309      0.0642545331378     0.125736375109      
8300000000.0        0.0654878401689     0.126898555037      0.899961430134      -0.386051134631     0.899961430134      -0.386051134631     0.0654878401689     0.126898555037      
8400000000.0        0.0667318616427     0.128048226094      0.897874962305      -0.39029543621      0.897874962305      -0.39029543621      0.0667318616427     0.128048226094      
8500000000.0        0.0679864628498     0.129185291369      0.895767496527      -0.394526033003     0.895767496527      -0.394526033003     0.0679864628498     0.129185291369      
8600000000.0        0.0692515082292     0.130309655579      0.893639156096      -0.398742811686     0.893639156096      -0.398742811686     0.0692515082292     0.130309655579      
8700000000.0        0.0705268613913     0.13142122508       0.89149006502       -0.402945660433     0.89149006502       -0.402945660433     0.0705268613913     0.13142122508       
8800000000.0        0.0718123851417     0.132519907867      0.889320347991      -0.407134468926     0.889320347991      -0.407134468926     0.0718123851417     0.132519907867      
8900000000.0        0.0731079415044     0.133605613583      0.887130130369      -0.411309128352     0.887130130369      -0.411309128352     0.0731079415044     0.133605613583      
9000000000.0        0.0744133917455     0.134678253521      0.884919538152      -0.415469531415     0.884919538152      -0.415469531415     0.0744133917455     0.134678253521      
9100000000.0        0.0757285963959     0.135737740629      0.882688697959      -0.419615572332     0.882688697959      -0.419615572332     0.0757285963959     0.135737740629      
9200000000.0        0.0770534152752     0.136783989517      0.880437737003      -0.423747146837     0.880437737003      -0.423747146837     0.0770534152752     0.136783989517      
9300000000.0        0.0783877075144     0.137816916458      0.878166783071      -0.427864152187     0.878166783071      -0.427864152187     0.0783877075144     0.137816916458      
9400000000.0        0.079731331579      0.138836439388      0.875875964499      -0.431966487162     0.875875964499      -0.431966487162     0.079731331579      0.138836439388      
9500000000.0        0.0810841452922     0.139842477917      0.873565410153      -0.436054052065     0.873565410153      -0.436054052065     0.0810841452922     0.139842477917      
9600000000.0        0.0824460058578     0.140834953326      0.871235249402      -0.440126748724     0.871235249402      -0.440126748724     0.0824460058578     0.140834953326      
9700000000.0        0.0838167698825     0.141813788569      0.868885612101      -0.444184480495     0.868885612101      -0.444184480495     0.0838167698825     0.141813788569      
9800000000.0        0.0851962933994     0.142778908277      0.866516628563      -0.44822715226      0.866516628563      -0.44822715226      0.0851962933994     0.142778908277      
9900000000.0        0.0865844318901     0.143730238761      0.864128429541      -0.45225467043      0.864128429541      -0.45225467043      0.0865844318901     0.143730238761      
10000000000.0       0.0879810403071     0.14466770801       0.861721146206      -0.456266942941     0.861721146206      -0.456266942941     0.0879810403071     0.14466770801       
