# Hz S RI R 50.00 
100000000.0         -0.000112249697241  -0.012679581097     0.999753222362      -0.0131081568863    0.999753222362      -0.0131081568863    -0.000112249697241  -0.012679581097     
200000000.0         -0.000622894069704  -0.0253458591968    0.999241387459      -0.0262030497456    0.999241387459      -0.0262030497456    -0.000622894069704  -0.0253458591968    
300000000.0         -0.00146478713639   -0.0379861600664    0.998398352058      -0.0392720260693    0.998398352058      -0.0392720260693    -0.00146478713639   -0.0379861600664    
400000000.0         -0.00263622634553   -0.0505878761443    0.997225702832      -0.0523024953514    0.997225702832      -0.0523024953514    -0.00263622634553   -0.0505878761443    
500000000.0         -0.00413490827086   -0.0631385155567    0.995725698684      -0.0652819804514    0.995725698684      -0.0652819804514    -0.00413490827086   -0.0631385155567    
600000000.0         -0.00595791409752   -0.075625745013     0.99390123573       -0.0781981612861    0.99390123573       -0.0781981612861    -0.00595791409752   -0.075625745013     
700000000.0         -0.008101716782     -0.088037430209     0.991755827582      -0.0910389156359    0.991755827582      -0.0910389156359    -0.008101716782     -0.088037430209     
800000000.0         -0.0105621951815    -0.100361674305     0.989293586638      -0.103792357862     0.989293586638      -0.103792357862     -0.0105621951815    -0.100361674305     
900000000.0         -0.0133346522396    -0.112586854526     0.986519203868      -0.116446875667     0.986519203868      -0.116446875667     -0.0133346522396    -0.112586854526     
1000000000.0        -0.0164138362665    -0.124701656788     0.983437926498      -0.128991164829     0.983437926498      -0.128991164829     -0.0164138362665    -0.124701656788     
1100000000.0        -0.0197939648354    -0.136695108208     0.980055533552      -0.1414142618       0.980055533552      -0.1414142618       -0.0197939648354    -0.136695108208     
1200000000.0        -0.0234687509676    -0.148556607365     0.976378309325      -0.153705574024     0.976378309325      -0.153705574024     -0.0234687509676    -0.148556607365     
1300000000.0        -0.0274314313234    -0.160275952159     0.972413014975      -0.16585490785      0.972413014975      -0.16585490785      -0.0274314313234    -0.160275952159     
1400000000.0        -0.0316747961361    -0.171843365163     0.968166858458      -0.177852493924     0.968166858458      -0.177852493924     -0.0316747961361    -0.171843365163     
1500000000.0        -0.0361912206287    -0.183249516367     0.96364746301       -0.189689009967     0.96364746301       -0.189689009967     -0.0361912206287    -0.183249516367     
1600000000.0        -0.0409726976554    -0.194485543235     0.958862834441      -0.201355600858     0.958862834441      -0.201355600858     -0.0409726976554    -0.194485543235     
1700000000.0        -0.0460108713108    -0.205543068036     0.953821327482      -0.212843895994     0.953821327482      -0.212843895994     -0.0460108713108    -0.205543068036     
1800000000.0        -0.0512970712511    -0.216414212409     0.948531611423      -0.224146023871     0.948531611423      -0.224146023871     -0.0512970712511    -0.216414212409     
1900000000.0        -0.056822347479     -0.227091609179     0.943002635307      -0.235254623922     0.943002635307      -0.235254623922     -0.056822347479     -0.227091609179     
2000000000.0        -0.0625775053471    -0.237568411423     0.937243592904      -0.246162855597     0.937243592904      -0.246162855597     -0.0625775053471    -0.237568411423     
2100000000.0        -0.0685531405461    -0.247838298858     0.931263887709      -0.256864404766     0.931263887709      -0.256864404766     -0.0685531405461    -0.247838298858     
2200000000.0        -0.074739673853     -0.257895481588     0.92507309818       -0.267353487482     0.92507309818       -0.267353487482     -0.074739673853     -0.257895481588     
2300000000.0        -0.0811273854274    -0.267734701319     0.918680943435      -0.2776248512       0.918680943435      -0.2776248512       -0.0811273854274    -0.267734701319     
2400000000.0        -0.0877064484591    -0.277351230122     0.912097249595      -0.287673773563     0.912097249595      -0.287673773563     -0.0877064484591    -0.277351230122     
2500000000.0        -0.0944669619838    -0.286740866881     0.905331916962      -0.297496058848     0.905331916962      -0.297496058848     -0.0944669619838    -0.286740866881     
2600000000.0        -0.101398982702     -0.295899931538     0.898394888198      -0.307088032225     0.898394888198      -0.307088032225     -0.101398982702     -0.295899931538     
2700000000.0        -0.108492555651     -0.304825257288     0.891296117646      -0.316446531963     0.891296117646      -0.316446531963     -0.108492555651     -0.304825257288     
2800000000.0        -0.1157377436       -0.313514180868     0.88404554193       -0.325568899719     0.88404554193       -0.325568899719     -0.1157377436       -0.313514180868     
2900000000.0        -0.123124655056     -0.321964531095     0.876653051952      -0.334452969095     0.876653051952      -0.334452969095     -0.123124655056     -0.321964531095     
3000000000.0        -0.130643470781     -0.330174615825     0.869128466369      -0.343097052593     0.869128466369      -0.343097052593     -0.130643470781     -0.330174615825     
3100000000.0        -0.138284468751     -0.338143207481     0.861481506631      -0.351499927154     0.861481506631      -0.351499927154     -0.138284468751     -0.338143207481     
3200000000.0        -0.146038047486     -0.345869527332     0.853721773652      -0.35966081844      0.853721773652      -0.35966081844      -0.146038047486     -0.345869527332     
3300000000.0        -0.153894747713     -0.353353228668     0.845858726143      -0.367579384022     0.845858726143      -0.367579384022     -0.153894747713     -0.353353228668     
3400000000.0        -0.16184527234      -0.360594379051     0.837901660642      -0.375255695628     0.837901660642      -0.375255695628     -0.16184527234      -0.360594379051     
3500000000.0        -0.169880504709     -0.367593441794     0.82985969325       -0.382690220629     0.82985969325       -0.382690220629     -0.169880504709     -0.367593441794     
3600000000.0        -0.177991525156     -0.37435125681      0.821741743082      -0.389883802898     0.821741743082      -0.389883802898     -0.177991525156     -0.37435125681      
3700000000.0        -0.186169625862     -0.380869020996     0.813556517408      -0.396837643193     0.813556517408      -0.396837643193     -0.186169625862     -0.380869020996     
3800000000.0        -0.194406324046     -0.387148268283     0.805312498461      -0.403553279211     0.805312498461      -0.403553279211     -0.194406324046     -0.387148268283     
3900000000.0        -0.202693373513     -0.393190849476     0.797017931886      -0.410032565435     0.797017931886      -0.410032565435     -0.202693373513     -0.393190849476     
4000000000.0        -0.21102277463      -0.398998912021     0.788680816771      -0.416277652907     0.788680816771      -0.416277652907     -0.21102277463      -0.398998912021     
4100000000.0        -0.219386782746     -0.404574879813     0.780308897218      -0.422290969032     0.780308897218      -0.422290969032     -0.219386782746     -0.404574879813     
4200000000.0        -0.227777915152     -0.409921433139     0.771909655386      -0.428075197532     0.771909655386      -0.428075197532     -0.227777915152     -0.409921433139     
4300000000.0        -0.236188956626     -0.41504148886      0.76349030595       -0.433633258628     0.76349030595       -0.433633258628     -0.236188956626     -0.41504148886      
4400000000.0        -0.244612963632     -0.419938180924     0.755057791894      -0.438968289558     0.755057791894      -0.438968289558     -0.244612963632     -0.419938180924     
4500000000.0        -0.253043267262     -0.42461484128      0.746618781572      -0.444083625491     0.746618781572      -0.444083625491     -0.253043267262     -0.42461484128      
4600000000.0        -0.261473474981     -0.429074981259     0.738179666966      -0.448982780914     0.738179666966      -0.448982780914     -0.261473474981     -0.429074981259     
4700000000.0        -0.269897471267     -0.433322273496     0.72974656304       -0.453669431558     0.72974656304       -0.453669431558     -0.269897471267     -0.433322273496     
4800000000.0        -0.278309417214     -0.437360534429     0.721325308144      -0.458147396896     0.721325308144      -0.458147396896     -0.278309417214     -0.437360534429     
4900000000.0        -0.286703749182     -0.441193707429     0.712921465355      -0.462420623275     0.712921465355      -0.462420623275     -0.286703749182     -0.441193707429     
5000000000.0        -0.295075176574     -0.444825846584     0.704540324707      -0.46649316771      0.704540324707      -0.46649316771      -0.295075176574     -0.444825846584     
5100000000.0        -0.303418678818     -0.448261101179     0.696186906208      -0.470369182359     0.696186906208      -0.470369182359     -0.303418678818     -0.448261101179     
5200000000.0        -0.311729501621     -0.451503700888     0.687865963581      -0.474052899721     0.687865963581      -0.474052899721     -0.311729501621     -0.451503700888     
5300000000.0        -0.320003152585     -0.454557941685     0.679581988654      -0.477548618546     0.679581988654      -0.477548618546     -0.320003152585     -0.454557941685     
5400000000.0        -0.328235396239     -0.457428172495     0.671339216324      -0.480860690492     0.671339216324      -0.480860690492     -0.328235396239     -0.457428172495     
5500000000.0        -0.336422248566     -0.460118782581     0.663141630029      -0.483993507512     0.663141630029      -0.483993507512     -0.336422248566     -0.460118782581     
5600000000.0        -0.344559971091     -0.462634189666     0.654992967665      -0.48695148998      0.654992967665      -0.48695148998      -0.344559971091     -0.462634189666     
5700000000.0        -0.352645064584     -0.464978828792     0.646896727882      -0.489739075549     0.646896727882      -0.489739075549     -0.352645064584     -0.464978828792     
5800000000.0        -0.360674262439     -0.467157141892     0.638856176695      -0.492360708728     0.638856176695      -0.492360708728     -0.360674262439     -0.467157141892     
5900000000.0        -0.368644523799     -0.469173568085     0.630874354376      -0.494820831175     0.630874354376      -0.494820831175     -0.368644523799     -0.469173568085     
6000000000.0        -0.376553026449     -0.471032534648     0.622954082545      -0.497123872676     0.622954082545      -0.497123872676     -0.376553026449     -0.471032534648     
6100000000.0        -0.384397159555     -0.472738448679     0.61509797144       -0.499274242804     0.61509797144       -0.499274242804     -0.384397159555     -0.472738448679     
6200000000.0        -0.392174516279     -0.474295689403     0.607308427301      -0.501276323233     0.607308427301      -0.501276323233     -0.392174516279     -0.474295689403     
6300000000.0        -0.399882886303     -0.47570860112      0.599587659842      -0.50313446068      0.599587659842      -0.50313446068      -0.399882886303     -0.47570860112      
6400000000.0        -0.407520248325     -0.476981486759     0.591937689761      -0.504852960468     0.591937689761      -0.504852960468     -0.407520248325     -0.476981486759     
6500000000.0        -0.415084762529     -0.478118602017     0.584360356262      -0.50643608066      0.584360356262      -0.50643608066      -0.415084762529     -0.478118602017     
6600000000.0        -0.422574763094     -0.479124150057     0.576857324555      -0.507888026766     0.576857324555      -0.507888026766     -0.422574763094     -0.479124150057     
6700000000.0        -0.429988750734     -0.480002276744     0.569430093307      -0.509212946972     0.569430093307      -0.509212946972     -0.429988750734     -0.480002276744     
6800000000.0        -0.437325385331     -0.480757066384     0.562080002018      -0.510414927886     0.562080002018      -0.510414927886     -0.437325385331     -0.480757066384     
6900000000.0        -0.44458347865      -0.481392537947     0.554808238298      -0.511497990761     0.554808238298      -0.511497990761     -0.44458347865      -0.481392537947     
7000000000.0        -0.451761987182     -0.481912641747     0.547615845027      -0.512466088172     0.547615845027      -0.512466088172     -0.451761987182     -0.481912641747     
7100000000.0        -0.458860005113     -0.482321256541     0.540503727389      -0.513323101128     0.540503727389      -0.513323101128     -0.458860005113     -0.482321256541     
7200000000.0        -0.465876757449     -0.482622187048     0.533472659742      -0.514072836576     0.533472659742      -0.514072836576     -0.465876757449     -0.482622187048     
7300000000.0        -0.472811593293     -0.482819161828     0.526523292345      -0.514719025296     0.526523292345      -0.514719025296     -0.472811593293     -0.482819161828     
7400000000.0        -0.479663979304     -0.482915831532     0.519656157894      -0.515265320139     0.519656157894      -0.515265320139     -0.479663979304     -0.482915831532     
7500000000.0        -0.486433493331     -0.482915767465     0.512871677895      -0.515715294604     0.512871677895      -0.515715294604     -0.486433493331     -0.482915767465     
7600000000.0        -0.493119818237     -0.482822460469     0.506170168833      -0.51607244171      0.506170168833      -0.51607244171      -0.493119818237     -0.482822460469     
7700000000.0        -0.499722735916     -0.482639320082     0.499551848159      -0.516340173166     0.499551848159      -0.516340173166     -0.499722735916     -0.482639320082     
7800000000.0        -0.506242121507     -0.482369673966     0.493016840077      -0.516521818792     0.493016840077      -0.516521818792     -0.506242121507     -0.482369673966     
7900000000.0        -0.51267793781      -0.482016767568     0.486565181121      -0.516620626187     0.486565181121      -0.516620626187     -0.51267793781      -0.482016767568     
8000000000.0        -0.519030229906     -0.481583764017     0.480196825546      -0.516639760623     0.480196825546      -0.516639760623     -0.519030229906     -0.481583764017     
8100000000.0        -0.525299119971     -0.481073744211     0.473911650503      -0.516582305135     0.473911650503      -0.516582305135     -0.525299119971     -0.481073744211     
8200000000.0        -0.531484802306     -0.4804897071       0.467709461016      -0.516451260802     0.467709461016      -0.516451260802     -0.531484802306     -0.4804897071       
8300000000.0        -0.537587538554     -0.479834570133     0.461589994762      -0.516249547201     0.461589994762      -0.516249547201     -0.537587538554     -0.479834570133     
8400000000.0        -0.543607653128     -0.479111169861     0.455552926644      -0.515980003001     0.455552926644      -0.515980003001     -0.543607653128     -0.479111169861     
8500000000.0        -0.549545528827     -0.478322262678     0.449597873176      -0.515645386715     0.449597873176      -0.515645386715     -0.549545528827     -0.478322262678     
8600000000.0        -0.555401602649     -0.477470525681     0.443724396665      -0.515248377554     0.443724396665      -0.515248377554     -0.555401602649     -0.477470525681     
8700000000.0        -0.561176361798     -0.476558557651     0.437932009213      -0.51479157641      0.437932009213      -0.51479157641      -0.561176361798     -0.476558557651     
8800000000.0        -0.566870339864     -0.475588880121     0.432220176526      -0.514277506929     0.432220176526      -0.514277506929     -0.566870339864     -0.475588880121     
8900000000.0        -0.572484113201     -0.474563938541     0.426588321546      -0.513708616668     0.426588321546      -0.513708616668     -0.572484113201     -0.474563938541     
9000000000.0        -0.578018297468     -0.473486103511     0.421035827903      -0.513087278338     0.421035827903      -0.513087278338     -0.578018297468     -0.473486103511     
9100000000.0        -0.583473544346     -0.472357672081     0.415562043199      -0.512415791098     0.415562043199      -0.512415791098     -0.583473544346     -0.472357672081     
9200000000.0        -0.588850538428     -0.471180869113     0.410166282124      -0.511696381922     0.410166282124      -0.511696381922     -0.588850538428     -0.471180869113     
9300000000.0        -0.594149994259     -0.469957848688     0.404847829407      -0.510931207002     0.404847829407      -0.510931207002     -0.594149994259     -0.469957848688     
9400000000.0        -0.599372653539     -0.468690695545     0.39960594262       -0.510122353192     0.39960594262       -0.510122353192     -0.599372653539     -0.468690695545     
9500000000.0        -0.604519282476     -0.467381426565     0.39443985482       -0.50927183949      0.39443985482       -0.50927183949      -0.604519282476     -0.467381426565     
9600000000.0        -0.609590669281     -0.466031992273     0.389348777059      -0.508381618541     0.389348777059      -0.508381618541     -0.609590669281     -0.466031992273     
9700000000.0        -0.614587621807     -0.464644278361     0.384331900739      -0.50745357816      0.384331900739      -0.50745357816      -0.614587621807     -0.464644278361     
9800000000.0        -0.619510965316     -0.463220107222     0.37938839985       -0.506489542869     0.37938839985       -0.506489542869     -0.619510965316     -0.463220107222     
9900000000.0        -0.624361540383     -0.461761239498     0.374517433064      -0.505491275442     0.374517433064      -0.505491275442     -0.624361540383     -0.461761239498     
10000000000.0       -0.629140200914     -0.460269375626     0.369718145716      -0.504460478454     0.369718145716      -0.504460478454     -0.629140200914     -0.460269375626     
