# Hz S RI R 50.00 
100000000.0         0.0809114563429     0.00468412466452    0.919084487969      -0.00638801054096   0.919084487969      -0.00638801054096   0.0809114563429     0.00468412466452    
200000000.0         0.0814986096241     0.00935525309098    0.91849128938       -0.0127630380136    0.91849128938       -0.0127630380136    0.0814986096241     0.00935525309098    
300000000.0         0.0820175987702     0.0140170784513     0.91796326407       -0.0191287906096    0.91796326407       -0.0191287906096    0.0820175987702     0.0140170784513     
400000000.0         0.0825333249412     0.0186701452609     0.91743550984       -0.025485826993     0.91743550984       -0.025485826993     0.0825333249412     0.0186701452609     
500000000.0         0.0830707320428     0.0233142692635     0.916883081767      -0.0318339766191    0.916883081767      -0.0318339766191    0.0830707320428     0.0233142692635     
600000000.0         0.0836424717747     0.0279489463237     0.916293327104      -0.0381727487807    0.916293327104      -0.0381727487807    0.0836424717747     0.0279489463237     
700000000.0         0.0842559414678     0.0325734995564     0.915658847411      -0.0445014798145    0.915658847411      -0.0445014798145    0.0842559414678     0.0325734995564     
800000000.0         0.0849158541983     0.0371871478405     0.914974928432      -0.0508194016621    0.914974928432      -0.0508194016621    0.0849158541983     0.0371871478405     
900000000.0         0.0856253837536     0.0417890428746     0.914238395116      -0.0571256789557    0.914238395116      -0.0571256789557    0.0856253837536     0.0417890428746     
1000000000.0        0.0863867453116     0.0463782913534     0.913447030928      -0.0634194312164    0.913447030928      -0.0634194312164    0.0863867453116     0.0463782913534     
1100000000.0        0.087201518436      0.0509539692673     0.912599254856      -0.0696997471702    0.912599254856      -0.0696997471702    0.087201518436      0.0509539692673     
1200000000.0        0.0880708396954     0.0555151316768     0.911693928782      -0.0759656945337    0.911693928782      -0.0759656945337    0.0880708396954     0.0555151316768     
1300000000.0        0.0889955239806     0.0600608197159     0.910730236167      -0.0822163270278    0.910730236167      -0.0822163270278    0.0889955239806     0.0600608197159     
1400000000.0        0.0899761443676     0.0645900658146     0.909707602183      -0.0884506896074    0.909707602183      -0.0884506896074    0.0899761443676     0.0645900658146     
1500000000.0        0.0910130866549     0.0691018977252     0.908625639173      -0.0946678224944    0.908625639173      -0.0946678224944    0.0910130866549     0.0691018977252     
1600000000.0        0.0921065877796     0.0735953417194     0.907484108238      -0.10086676438      0.907484108238      -0.10086676438      0.0921065877796     0.0735953417194     
1700000000.0        0.0932567636155     0.0780694251913     0.906282891434      -0.107046555032     0.906282891434      -0.107046555032     0.0932567636155     0.0780694251913     
1800000000.0        0.0944636295647     0.0825231788237     0.905021971181      -0.113206237465     0.905021971181      -0.113206237465     0.0944636295647     0.0825231788237     
1900000000.0        0.0957271161372     0.0869556384265     0.903701414683      -0.119344859783     0.903701414683      -0.119344859783     0.0957271161372     0.0869556384265     
2000000000.0        0.0970470809638     0.091365846521      0.902321361911      -0.125461476766     0.902321361911      -0.125461476766     0.0970470809638     0.091365846521      
2100000000.0        0.0984233182228     0.0957528537271     0.900882016181      -0.131555151256     0.900882016181      -0.131555151256     0.0984233182228     0.0957528537271     
2200000000.0        0.0998555661585     0.10011571999       0.899383636632      -0.137624955395     0.899383636632      -0.137624955395     0.0998555661585     0.10011571999       
2300000000.0        0.10134351317       0.104453515676      0.897826532138      -0.143669971714     0.897826532138      -0.143669971714     0.10134351317       0.104453515676      
2400000000.0        0.102886802814      0.108765322566      0.896211056301      -0.149689294133     0.896211056301      -0.149689294133     0.102886802814      0.108765322566      
2500000000.0        0.104485037976      0.113050234751      0.894537603286      -0.155682028855     0.894537603286      -0.155682028855     0.104485037976      0.113050234751      
2600000000.0        0.106137784387      0.117307359453      0.892806604297      -0.161647295193     0.892806604297      -0.161647295193     0.106137784387      0.117307359453      
2700000000.0        0.107844573636      0.121535817777      0.891018524568      -0.167584226318     0.891018524568      -0.167584226318     0.107844573636      0.121535817777      
2800000000.0        0.109604905778      0.125734745404      0.889173860756      -0.173491969959     0.889173860756      -0.173491969959     0.109604905778      0.125734745404      
2900000000.0        0.111418251614      0.129903293233      0.887273138658      -0.179369689039     0.887273138658      -0.179369689039     0.111418251614      0.129903293233      
3000000000.0        0.113284054717      0.134040627961      0.885316911183      -0.185216562265     0.885316911183      -0.185216562265     0.113284054717      0.134040627961      
3100000000.0        0.115201733244      0.13814593264       0.883305756546      -0.191031784676     0.883305756546      -0.191031784676     0.115201733244      0.13814593264       
3200000000.0        0.117170681575      0.14221840717       0.881240276621      -0.196814568147     0.881240276621      -0.196814568147     0.117170681575      0.14221840717       
3300000000.0        0.119190271808      0.146257268773      0.879121095453      -0.202564141853     0.879121095453      -0.202564141853     0.119190271808      0.146257268773      
3400000000.0        0.12125985514       0.150261752413      0.876948857872      -0.208279752702     0.876948857872      -0.208279752702     0.12125985514       0.150261752413      
3500000000.0        0.123378763143      0.154231111197      0.874724228215      -0.213960665727     0.874724228215      -0.213960665727     0.123378763143      0.154231111197      
3600000000.0        0.125546308967      0.158164616732      0.872447889129      -0.219606164446     0.872447889129      -0.219606164446     0.125546308967      0.158164616732      
3700000000.0        0.12776178846       0.162061559456      0.870120540447      -0.2252155512       0.870120540447      -0.2252155512       0.12776178846       0.162061559456      
3800000000.0        0.130024481241      0.16592124894       0.867742898116      -0.230788147444     0.867742898116      -0.230788147444     0.130024481241      0.16592124894       
3900000000.0        0.132333651708      0.169743014154      0.865315693183      -0.236323294023     0.865315693183      -0.236323294023     0.132333651708      0.169743014154      
4000000000.0        0.134688550015      0.173526203713      0.862839670827      -0.241820351417     0.862839670827      -0.241820351417     0.134688550015      0.173526203713      
4100000000.0        0.137088413002      0.177270186091      0.860315589424      -0.247278699952     0.860315589424      -0.247278699952     0.137088413002      0.177270186091      
4200000000.0        0.139532465087      0.180974349808      0.857744219652      -0.252697739992     0.857744219652      -0.252697739992     0.139532465087      0.180974349808      
4300000000.0        0.14201991914       0.184638103596      0.855126343621      -0.2580768921       0.855126343621      -0.2580768921       0.14201991914       0.184638103596      
4400000000.0        0.144549977318      0.188260876536      0.852462754039      -0.263415597179     0.852462754039      -0.263415597179     0.144549977318      0.188260876536      
4500000000.0        0.147121831876      0.19184211817       0.849754253392      -0.268713316587     0.849754253392      -0.268713316587     0.147121831876      0.19184211817       
4600000000.0        0.149734665965      0.195381298592      0.847001653156      -0.273969532222     0.847001653156      -0.273969532222     0.149734665965      0.195381298592      
4700000000.0        0.152387654395      0.198877908516      0.844205773027      -0.279183746597     0.844205773027      -0.279183746597     0.152387654395      0.198877908516      
4800000000.0        0.155079964389      0.20233145932       0.84136744017       -0.284355482878     0.84136744017       -0.284355482878     0.155079964389      0.20233145932       
4900000000.0        0.157810756313      0.205741483068      0.838487488487      -0.289484284912     0.838487488487      -0.289484284912     0.157810756313      0.205741483068      
5000000000.0        0.160579184389      0.209107532512      0.835566757905      -0.294569717226     0.835566757905      -0.294569717226     0.160579184389      0.209107532512      
5100000000.0        0.16338439739       0.212429181076      0.832606093678      -0.299611365012     0.832606093678      -0.299611365012     0.16338439739       0.212429181076      
5200000000.0        0.166225539324      0.215706022814      0.829606345705      -0.304608834085     0.829606345705      -0.304608834085     0.166225539324      0.215706022814      
5300000000.0        0.169101750092      0.218937672352      0.826568367871      -0.309561750828     0.826568367871      -0.309561750828     0.169101750092      0.218937672352      
5400000000.0        0.172012166139      0.222123764815      0.823493017395      -0.314469762114     0.823493017395      -0.314469762114     0.172012166139      0.222123764815      
5500000000.0        0.174955921089      0.225263955728      0.820381154198      -0.319332535214     0.820381154198      -0.319332535214     0.174955921089      0.225263955728      
5600000000.0        0.177932146354      0.228357920906      0.817233640285      -0.324149757682     0.817233640285      -0.324149757682     0.177932146354      0.228357920906      
5700000000.0        0.180939971746      0.231405356327      0.814051339145      -0.328921137228     0.814051339145      -0.328921137228     0.180939971746      0.231405356327      
5800000000.0        0.183978526056      0.234405977981      0.81083511516       -0.333646401573     0.81083511516       -0.333646401573     0.183978526056      0.234405977981      
5900000000.0        0.187046937629      0.237359521716      0.807585833036      -0.338325298289     0.807585833036      -0.338325298289     0.187046937629      0.237359521716      
6000000000.0        0.190144334921      0.240265743059      0.804304357244      -0.342957594623     0.804304357244      -0.342957594623     0.190144334921      0.240265743059      
6100000000.0        0.193269847042      0.243124417025      0.800991551476      -0.347543077307     0.800991551476      -0.347543077307     0.193269847042      0.243124417025      
6200000000.0        0.196422604282      0.245935337917      0.797648278121      -0.352081552356     0.797648278121      -0.352081552356     0.196422604282      0.245935337917      
6300000000.0        0.199601738621      0.248698319106      0.79427539775       -0.356572844849     0.79427539775       -0.356572844849     0.199601738621      0.248698319106      
6400000000.0        0.20280638423       0.251413192803      0.790873768618      -0.361016798703     0.790873768618      -0.361016798703     0.20280638423       0.251413192803      
6500000000.0        0.206035677953      0.254079809819      0.787444246181      -0.365413276431     0.787444246181      -0.365413276431     0.206035677953      0.254079809819      
6600000000.0        0.209288759771      0.256698039313      0.783987682632      -0.36976215889      0.783987682632      -0.36976215889      0.209288759771      0.256698039313      
6700000000.0        0.212564773257      0.259267768528      0.780504926441      -0.374063345019     0.780504926441      -0.374063345019     0.212564773257      0.259267768528      
6800000000.0        0.215862866014      0.261788902519      0.776996821923      -0.378316751566     0.776996821923      -0.378316751566     0.215862866014      0.261788902519      
6900000000.0        0.219182190096      0.264261363871      0.773464208814      -0.382522312809     0.773464208814      -0.382522312809     0.219182190096      0.264261363871      
7000000000.0        0.222521902416      0.266685092412      0.769907921861      -0.386679980261     0.769907921861      -0.386679980261     0.222521902416      0.266685092412      
7100000000.0        0.22588116514       0.26906004491       0.766328790427      -0.390789722376     0.766328790427      -0.390789722376     0.22588116514       0.26906004491       
7200000000.0        0.229259146062      0.271386194766      0.762727638119      -0.39485152424      0.762727638119      -0.39485152424      0.229259146062      0.271386194766      
7300000000.0        0.23265501897       0.273663531706      0.759105282417      -0.398865387261     0.759105282417      -0.398865387261     0.23265501897       0.273663531706      
7400000000.0        0.236067963993      0.27589206146       0.755462534331      -0.402831328846     0.755462534331      -0.402831328846     0.236067963993      0.27589206146       
7500000000.0        0.239497167938      0.278071805432      0.751800198061      -0.406749382079     0.751800198061      -0.406749382079     0.239497167938      0.278071805432      
7600000000.0        0.242941824601      0.280202800376      0.748119070683      -0.410619595391     0.748119070683      -0.410619595391     0.242941824601      0.280202800376      
7700000000.0        0.246401135082      0.282285098058      0.744419941838      -0.41444203222      0.744419941838      -0.41444203222      0.246401135082      0.282285098058      
7800000000.0        0.24987430807       0.284318764915      0.740703593445      -0.418216770678     0.740703593445      -0.418216770678     0.24987430807       0.284318764915      
7900000000.0        0.253360560119      0.286303881716      0.736970799421      -0.421943903205     0.736970799421      -0.421943903205     0.253360560119      0.286303881716      
8000000000.0        0.256859115913      0.288240543211      0.733222325419      -0.425623536222     0.733222325419      -0.425623536222     0.256859115913      0.288240543211      
8100000000.0        0.260369208512      0.290128857787      0.729458928582      -0.429255789786     0.729458928582      -0.429255789786     0.260369208512      0.290128857787      
8200000000.0        0.263890079589      0.291968947115      0.725681357301      -0.432840797234     0.725681357301      -0.432840797234     0.263890079589      0.291968947115      
8300000000.0        0.26742097965       0.293760945796      0.721890350999      -0.436378704836     0.721890350999      -0.436378704836     0.26742097965       0.293760945796      
8400000000.0        0.270961168243      0.295505001008      0.718086639917      -0.439869671435     0.718086639917      -0.439869671435     0.270961168243      0.295505001008      
8500000000.0        0.274509914153      0.297201272152      0.714270944925      -0.4433138681       0.714270944925      -0.4433138681       0.274509914153      0.297201272152      
8600000000.0        0.278066495581      0.298849930499      0.710443977333      -0.446711477762     0.710443977333      -0.446711477762     0.278066495581      0.298849930499      
8700000000.0        0.281630200319      0.300451158827      0.706606438722      -0.450062694867     0.706606438722      -0.450062694867     0.281630200319      0.300451158827      
8800000000.0        0.285200325902      0.302005151078      0.702759020791      -0.453367725016     0.702759020791      -0.453367725016     0.285200325902      0.302005151078      
8900000000.0        0.288776179753      0.303512111992      0.698902405206      -0.456626784613     0.698902405206      -0.456626784613     0.288776179753      0.303512111992      
9000000000.0        0.292357079321      0.304972256763      0.695037263469      -0.459840100514     0.695037263469      -0.459840100514     0.292357079321      0.304972256763      
9100000000.0        0.295942352196      0.306385810684      0.691164256797      -0.463007909672     0.691164256797      -0.463007909672     0.295942352196      0.306385810684      
9200000000.0        0.299531336221      0.3077530088        0.687284036007      -0.46613045879      0.687284036007      -0.46613045879      0.299531336221      0.3077530088        
9300000000.0        0.303123379591      0.309074095556      0.683397241424      -0.469208003975     0.683397241424      -0.469208003975     0.303123379591      0.309074095556      
9400000000.0        0.306717840941      0.310349324457      0.679504502787      -0.472240810391     0.679504502787      -0.472240810391     0.306717840941      0.310349324457      
9500000000.0        0.310314089421      0.311578957724      0.675606439172      -0.475229151915     0.675606439172      -0.475229151915     0.310314089421      0.311578957724      
9600000000.0        0.313911504763      0.312763265956      0.671703658926      -0.478173310805     0.671703658926      -0.478173310805     0.313911504763      0.312763265956      
9700000000.0        0.31750947734       0.313902527792      0.667796759611      -0.481073577356     0.667796759611      -0.481073577356     0.31750947734       0.313902527792      
9800000000.0        0.321107408211      0.314997029581      0.663886327951      -0.483930249574     0.663886327951      -0.483930249574     0.321107408211      0.314997029581      
9900000000.0        0.324704709155      0.316047065053      0.659972939801      -0.486743632843     0.659972939801      -0.486743632843     0.324704709155      0.316047065053      
10000000000.0       0.328300802708      0.317052934992      0.656057160112      -0.489514039603     0.656057160112      -0.489514039603     0.328300802708      0.317052934992      
