# Hz S RI R 50.00 
100000000.0         -0.00257811690584   -0.0503066482146    0.997367646196      -0.0506452135946    0.997367646196      -0.0506452135946    -0.00257811690584   -0.0503066482146    
200000000.0         -0.0102112644723    -0.099830212291     0.989733955898      -0.100507486353     0.989733955898      -0.100507486353     -0.0102112644723    -0.099830212291     
300000000.0         -0.0226415038827    -0.147840533616     0.97730315149       -0.14885673387      0.97730315149       -0.14885673387      -0.0226415038827    -0.147840533616     
400000000.0         -0.0395044911073    -0.19368243472      0.960439530111      -0.195037834772     0.960439530111      -0.195037834772     -0.0395044911073    -0.19368243472      
500000000.0         -0.0603290750563    -0.236802347707     0.939614224636      -0.238497267418     0.939614224636      -0.238497267418     -0.0603290750563    -0.236802347707     
600000000.0         -0.0845684204994    -0.27676568733      0.915374060826      -0.278800485941     0.915374060826      -0.278800485941     -0.0845684204994    -0.27676568733      
700000000.0         -0.111632818507     -0.313264212272     0.888308741832      -0.31563928308      0.888308741832      -0.31563928308      -0.111632818507     -0.313264212272     
800000000.0         -0.140920920188     -0.346114076803     0.859019612625      -0.348829842812     0.859019612625      -0.348829842812     -0.140920920188     -0.346114076803     
900000000.0         -0.171846876682     -0.375246278063     0.828092519186      -0.378303188306     0.828092519186      -0.378303188306     -0.171846876682     -0.375246278063     
1000000000.0        -0.203861832561     -0.40069173937      0.796076314702      -0.404090265736     0.796076314702      -0.404090265736     -0.203861832561     -0.40069173937      
1100000000.0        -0.236469180131     -0.422563363108     0.763467605033      -0.426303997566     0.763467605033      -0.426303997566     -0.236469180131     -0.422563363108     
1200000000.0        -0.269233777838     -0.441037141182     0.730701530174      -0.445120393324     0.730701530174      -0.445120393324     -0.269233777838     -0.441037141182     
1300000000.0        -0.301785886442     -0.456333964318     0.698147828         -0.460760359184     0.698147828         -0.460760359184     -0.301785886442     -0.456333964318     
1400000000.0        -0.33382087329      -0.468703254593     0.666111129936      -0.473473330722     0.666111129936      -0.473473330722     -0.33382087329      -0.468703254593     
1500000000.0        -0.365095817415     -0.478409056822     0.634834355827      -0.483523364512     0.634834355827      -0.483523364512     -0.365095817415     -0.478409056822     
1600000000.0        -0.395424078221     -0.485718822272     0.604504145223      -0.491177922022     0.604504145223      -0.491177922022     -0.395424078221     -0.485718822272     
1700000000.0        -0.424668731384     -0.490894824985     0.575257421464      -0.4966992861       0.575257421464      -0.4966992861       -0.424668731384     -0.490894824985     
1800000000.0        -0.452735579963     -0.494187963892     0.547188380555      -0.50033836323      0.547188380555      -0.50033836323      -0.452735579963     -0.494187963892     
1900000000.0        -0.479566253496     -0.495833605541     0.520355392059      -0.5023305264       0.520355392059      -0.5023305264       -0.479566253496     -0.495833605541     
2000000000.0        -0.505131735199     -0.496049090116     0.494787471895      -0.502893121234     0.494787471895      -0.502893121234     -0.505131735199     -0.496049090116     
2100000000.0        -0.529426517061     -0.495032535333     0.470490127234      -0.502224270002     0.470490127234      -0.502224270002     -0.529426517061     -0.495032535333     
2200000000.0        -0.552463476644     -0.492962610485     0.447450479697      -0.500502645759     0.447450479697      -0.500502645759     -0.552463476644     -0.492962610485     
2300000000.0        -0.574269494441     -0.489999002444     0.425641647992      -0.49788793845      0.425641647992      -0.49788793845      -0.574269494441     -0.489999002444     
2400000000.0        -0.594881781612     -0.486283347716     0.405026420176      -0.494521787033     0.405026420176      -0.494521787033     -0.594881781612     -0.486283347716     
2500000000.0        -0.614344858834     -0.481940453793     0.385560274805      -0.490529000919     0.385560274805      -0.490529000919     -0.614344858834     -0.481940453793     
2600000000.0        -0.632708112462     -0.477079676312     0.367193824769      -0.486018937194     0.367193824769      -0.486018937194     -0.632708112462     -0.477079676312     
2700000000.0        -0.650023849684     -0.471796354672     0.349874762133      -0.481086936301     0.349874762133      -0.481086936301     -0.650023849684     -0.471796354672     
2800000000.0        -0.666345776241     -0.466173237807     0.333549380424      -0.475815747875     0.333549380424      -0.475815747875     -0.666345776241     -0.466173237807     
2900000000.0        -0.681727825937     -0.460281854489     0.318163745109      -0.470276901094     0.318163745109      -0.470276901094     -0.681727825937     -0.460281854489     
3000000000.0        -0.696223278789     -0.454183799618     0.303664575452      -0.464531991017     0.303664575452      -0.464531991017     -0.696223278789     -0.454183799618     
3100000000.0        -0.709884112897     -0.447931920571     0.289999892642      -0.45863386498      0.289999892642      -0.45863386498      -0.709884112897     -0.447931920571     
3200000000.0        -0.722760543301     -0.441571396668     0.277119480933      -0.452627702101     0.277119480933      -0.452627702101     -0.722760543301     -0.441571396668     
3300000000.0        -0.734900708685     -0.435140711038     0.264975200937      -0.446551985182     0.264975200937      -0.446551985182     -0.734900708685     -0.435140711038     
3400000000.0        -0.746350473598     -0.428672518254     0.253521187411      -0.440439368375     0.253521187411      -0.440439368375     -0.746350473598     -0.428672518254     
3500000000.0        -0.757153319784     -0.422194413701     0.242713957917      -0.434317446584     0.242713957917      -0.434317446584     -0.757153319784     -0.422194413701     
3600000000.0        -0.767350305289     -0.415729612064     0.232512453718      -0.428209433973     0.232512453718      -0.428209433973     -0.767350305289     -0.415729612064     
3700000000.0        -0.776980074261     -0.409297543009     0.22287802998       -0.42213475968      0.22287802998       -0.42213475968      -0.776980074261     -0.409297543009     
3800000000.0        -0.786078903864     -0.402914372246     0.213774408854      -0.416109588894     0.213774408854      -0.416109588894     -0.786078903864     -0.402914372246     
3900000000.0        -0.794680777647     -0.396593455953     0.205167606106      -0.410147277303     0.205167606106      -0.410147277303     -0.794680777647     -0.396593455953     
4000000000.0        -0.802817477019     -0.390345736099     0.197025839643      -0.404258766432     0.197025839643      -0.404258766432     -0.802817477019     -0.390345736099     
4100000000.0        -0.81051868441      -0.384180083633     0.189319426354      -0.39845292685      0.189319426354      -0.39845292685      -0.81051868441      -0.384180083633     
4200000000.0        -0.817812093174     -0.378103595928     0.182020672203      -0.392736855624     0.182020672203      -0.392736855624     -0.817812093174     -0.378103595928     
4300000000.0        -0.824723520523     -0.372121854178     0.175103759292      -0.387116133734     0.175103759292      -0.387116133734     -0.824723520523     -0.372121854178     
4400000000.0        -0.831277020721     -0.366239145891     0.168544632676      -0.381595048572     0.168544632676      -0.381595048572     -0.831277020721     -0.366239145891     
4500000000.0        -0.837494996503     -0.360458656996     0.162320888931      -0.376176786059     0.162320888931      -0.376176786059     -0.837494996503     -0.360458656996     
4600000000.0        -0.843398307293     -0.354782637573     0.156411667948      -0.370863596388     0.156411667948      -0.370863596388     -0.843398307293     -0.354782637573     
4700000000.0        -0.849006373207     -0.349212544704     0.15079754892       -0.365656936875     0.15079754892       -0.365656936875     -0.849006373207     -0.349212544704     
4800000000.0        -0.854337274216     -0.343749165516     0.145460451181      -0.360557595015     0.145460451181      -0.360557595015     -0.854337274216     -0.343749165516     
4900000000.0        -0.859407844076     -0.338392723084     0.140383540282      -0.355565794383     0.140383540282      -0.355565794383     -0.859407844076     -0.338392723084     
5000000000.0        -0.864233758837     -0.333142967514     0.135551139471      -0.350681285733     0.135551139471      -0.350681285733     -0.864233758837     -0.333142967514     
5100000000.0        -0.868829619904     -0.327999254237     0.130948646639      -0.345903425282     0.130948646639      -0.345903425282     -0.868829619904     -0.327999254237     
5200000000.0        -0.873209031721     -0.32296061124      0.126562456635      -0.341231241954     0.126562456635      -0.341231241954     -0.873209031721     -0.32296061124      
5300000000.0        -0.877384674209     -0.318025796758     0.122379888822      -0.336663495072     0.122379888822      -0.336663495072     -0.877384674209     -0.318025796758     
5400000000.0        -0.881368370186     -0.313193348739     0.118389119668      -0.332198723823     0.118389119668      -0.332198723823     -0.881368370186     -0.313193348739     
5500000000.0        -0.885171147975     -0.308461627201     0.114579120122      -0.327835289617     0.114579120122      -0.327835289617     -0.885171147975     -0.308461627201     
5600000000.0        -0.888803299477     -0.303828850464     0.110939597555      -0.323571412324     0.110939597555      -0.323571412324     -0.888803299477     -0.303828850464     
5700000000.0        -0.892274433965     -0.299293126098     0.107460941956      -0.319405201219     0.107460941956      -0.319405201219     -0.892274433965     -0.299293126098     
5800000000.0        -0.895593527868     -0.294852477319     0.104134176156      -0.315334681377     0.104134176156      -0.315334681377     -0.895593527868     -0.294852477319     
5900000000.0        -0.89876897081      -0.290504865454     0.100950909778      -0.311357816142     0.100950909778      -0.311357816142     -0.89876897081      -0.290504865454     
6000000000.0        -0.901808608167     -0.286248209019     0.0979032966906     -0.307472526202     0.0979032966906     -0.307472526202     -0.901808608167     -0.286248209019     
6100000000.0        -0.904719780384     -0.282080399884     0.0949839956842     -0.303676705757     0.0949839956842     -0.303676705757     -0.904719780384     -0.282080399884     
6200000000.0        -0.90750935929      -0.277999316924     0.0921861341564     -0.299968236163     0.0921861341564     -0.299968236163     -0.90750935929      -0.277999316924     
6300000000.0        -0.91018378164      -0.274002837503     0.089503274571      -0.296344997421     0.089503274571      -0.296344997421     -0.91018378164      -0.274002837503     
6400000000.0        -0.912749080089     -0.270088847096     0.0869293834843     -0.292804877798     0.0869293834843     -0.292804877798     -0.912749080089     -0.270088847096     
6500000000.0        -0.915210911794     -0.266255247309     0.0844588029404     -0.28934578184      0.0844588029404     -0.28934578184      -0.915210911794     -0.266255247309     
6600000000.0        -0.917574584835     -0.262499962518     0.0820862240513     -0.285965637016     0.0820862240513     -0.285965637016     -0.917574584835     -0.262499962518     
6700000000.0        -0.919845082621     -0.258820945324     0.0798066625917     -0.28266239917      0.0798066625917     -0.28266239917      -0.919845082621     -0.258820945324     
6800000000.0        -0.922027086437     -0.255216180993     0.0776154364494     -0.279434056957     0.0776154364494     -0.279434056957     -0.922027086437     -0.255216180993     
6900000000.0        -0.924124996286     -0.251683691021     0.0755081447847     -0.276278635411     0.0755081447847     -0.276278635411     -0.924124996286     -0.251683691021     
7000000000.0        -0.926142950156     -0.248221535954     0.0734806487632     -0.27319419876      0.0734806487632     -0.27319419876      -0.926142950156     -0.248221535954     
7100000000.0        -0.928084841835     -0.244827817571     0.0715290537384     -0.270178852604     0.0715290537384     -0.270178852604     -0.928084841835     -0.244827817571     
7200000000.0        -0.929954337398     -0.241500680512     0.0696496927662     -0.267230745554     0.0696496927662     -0.267230745554     -0.929954337398     -0.241500680512     
7300000000.0        -0.931754890465     -0.238238313458     0.0678391113486     -0.264348070395     0.0678391113486     -0.264348070395     -0.931754890465     -0.238238313458     
7400000000.0        -0.933489756323     -0.235038949897     0.0660940533063     -0.261529064863     0.0660940533063     -0.261529064863     -0.933489756323     -0.235038949897     
7500000000.0        -0.935162005015     -0.231900868574     0.0644114476937     -0.258772012085     0.0644114476937     -0.258772012085     -0.935162005015     -0.231900868574     
7600000000.0        -0.936774533468     -0.228822393643     0.0627883966706     -0.256075240733     0.0627883966706     -0.256075240733     -0.936774533468     -0.228822393643     
7700000000.0        -0.938330076733     -0.225801894593     0.061222164258      -0.253437124947     0.061222164258      -0.253437124947     -0.938330076733     -0.225801894593     
7800000000.0        -0.939831218419     -0.222837785965     0.0597101659072     -0.250856084054     0.0597101659072     -0.250856084054     -0.939831218419     -0.222837785965     
7900000000.0        -0.941280400375     -0.219928526915     0.0582499588187     -0.248330582123     0.0582499588187     -0.248330582123     -0.941280400375     -0.219928526915     
8000000000.0        -0.942679931676     -0.217072620628     0.0568392329529     -0.245859127385     0.0568392329529     -0.245859127385     -0.942679931676     -0.217072620628     
8100000000.0        -0.944031996974     -0.214268613631     0.0554758026783     -0.243440271538     0.0554758026783     -0.243440271538     -0.944031996974     -0.214268613631     
8200000000.0        -0.945338664265     -0.211515095009     0.0541575990082     -0.241072608967     0.0541575990082     -0.241072608967     -0.945338664265     -0.211515095009     
8300000000.0        -0.946601892106     -0.208810695554     0.0528826623815     -0.238754775884     0.0528826623815     -0.238754775884     -0.946601892106     -0.208810695554     
8400000000.0        -0.947823536332     -0.20615408685      0.0516491359441     -0.236485449422     0.0516491359441     -0.236485449422     -0.947823536332     -0.20615408685      
8500000000.0        -0.949005356309     -0.203543980322     0.0504552592951     -0.234263346675     0.0504552592951     -0.234263346675     -0.949005356309     -0.203543980322     
8600000000.0        -0.950149020765     -0.200979126253     0.0492993626609     -0.232087223715     0.0492993626609     -0.232087223715     -0.950149020765     -0.200979126253     
8700000000.0        -0.951256113213     -0.198458312775     0.0481798614657     -0.229955874584     0.0481798614657     -0.229955874584     -0.951256113213     -0.198458312775     
8800000000.0        -0.952328137016     -0.195980364849     0.0470952512691     -0.227868130272     0.0470952512691     -0.227868130272     -0.952328137016     -0.195980364849     
8900000000.0        -0.953366520109     -0.193544143244     0.0460441030429     -0.225822857692     0.0460441030429     -0.225822857692     -0.953366520109     -0.193544143244     
9000000000.0        -0.954372619411     -0.191148543504     0.0450250587622     -0.22381895865      0.0450250587622     -0.22381895865      -0.954372619411     -0.191148543504     
9100000000.0        -0.955347724936     -0.18879249493      0.044036827288      -0.221855368826     0.044036827288      -0.221855368826     -0.955347724936     -0.18879249493      
9200000000.0        -0.956293063646     -0.18647495957      0.0430781805204     -0.219931056758     0.0430781805204     -0.219931056758     -0.956293063646     -0.18647495957      
9300000000.0        -0.957209803043     -0.184194931214     0.042147949801      -0.21804502284      0.042147949801      -0.21804502284      -0.957209803043     -0.184194931214     
9400000000.0        -0.958099054536     -0.18195143441      0.041245022549      -0.216196298339     0.041245022549      -0.216196298339     -0.958099054536     -0.18195143441      
9500000000.0        -0.958961876587     -0.1797435235       0.0403683391128     -0.214383944424     0.0403683391128     -0.214383944424     -0.958961876587     -0.1797435235       
9600000000.0        -0.959799277663     -0.177570281667     0.0395168898219     -0.212607051221     0.0395168898219     -0.212607051221     -0.959799277663     -0.177570281667     
9700000000.0        -0.96061221899      -0.175430820012     0.0386897122252     -0.210864736879     0.0386897122252     -0.210864736879     -0.96061221899      -0.175430820012     
9800000000.0        -0.96140161715      -0.173324276647     0.0378858885027     -0.209156146668     0.0378858885027     -0.209156146668     -0.96140161715      -0.173324276647     
9900000000.0        -0.962168346499     -0.17124981581      0.0371045430385     -0.207480452098     0.0371045430385     -0.207480452098     -0.962168346499     -0.17124981581      
10000000000.0       -0.962913241452     -0.169206627011     0.0363448401436     -0.205836850053     0.0363448401436     -0.205836850053     -0.962913241452     -0.169206627011     
