# Hz S RI R 50.00 
100000000.0         0.00238481292213    0.000548709348344   0.997613733047      -0.000952081054356  0.997613733047      -0.000952081054356  0.00238481292213    0.000548709348344   
200000000.0         0.00240201737733    0.00109736980158    0.997595911715      -0.00190411533618   0.997595911715      -0.00190411533618   0.00240201737733    0.00109736980158    
300000000.0         0.00241604766231    0.00164599855991    0.997581101701      -0.00285612130429   0.997581101701      -0.00285612130429   0.00241604766231    0.00164599855991    
400000000.0         0.00242897392659    0.00219460026882    0.997567232847      -0.00380810458229   0.997567232847      -0.00380810458229   0.00242897392659    0.00219460026882    
500000000.0         0.00244159402019    0.00274317664211    0.997553507293      -0.00476006772098   0.997553507293      -0.00476006772098   0.00244159402019    0.00274317664211    
600000000.0         0.00245431512265    0.0032917280917     0.997539517849      -0.00571201187757   0.997539517849      -0.00571201187757   0.00245431512265    0.0032917280917     
700000000.0         0.00246737792097    0.00384025431439    0.997525023817      -0.00666393742727   0.997525023817      -0.00666393742727   0.00246737792097    0.00384025431439    
800000000.0         0.00248093844658    0.00438875456455    0.997509869154      -0.00761584425078   0.997509869154      -0.00761584425078   0.00248093844658    0.00438875456455    
900000000.0         0.00249510452142    0.00493722780064    0.997493946024      -0.00856773189083   0.997493946024      -0.00856773189083   0.00249510452142    0.00493722780064    
1000000000.0        0.00250995423552    0.00548567277228    0.997477176324      -0.00951959964597   0.997477176324      -0.00951959964597   0.00250995423552    0.00548567277228    
1100000000.0        0.00252554622068    0.00603408807537    0.997459501407      -0.010471446631     0.997459501407      -0.010471446631     0.00252554622068    0.00603408807537    
1200000000.0        0.00254192577347    0.00658247218925    0.997440875961      -0.011423271818     0.997440875961      -0.011423271818     0.00254192577347    0.00658247218925    
1300000000.0        0.00255912870819    0.00713082350262    0.997421264156      -0.0123750740649    0.997421264156      -0.0123750740649    0.00255912870819    0.00713082350262    
1400000000.0        0.00257718389002    0.00767914033207    0.99740063711       -0.0133268521372    0.99740063711       -0.0133268521372    0.00257718389002    0.00767914033207    
1500000000.0        0.0025961149614     0.00822742093622    0.997378971163      -0.0142786047235    0.997378971163      -0.0142786047235    0.0025961149614     0.00822742093622    
1600000000.0        0.00261594155473    0.00877566352608    0.997356246665      -0.0152303304477    0.997356246665      -0.0152303304477    0.00261594155473    0.00877566352608    
1700000000.0        0.00263668016653    0.00932386627333    0.997332447101      -0.0161820278788    0.997332447101      -0.0161820278788    0.00263668016653    0.00932386627333    
1800000000.0        0.00265834480156    0.00987202731672    0.997307558447      -0.0171336955388    0.997307558447      -0.0171336955388    0.00265834480156    0.00987202731672    
1900000000.0        0.0026809474568     0.0104201447674     0.997281568685      -0.0180853319081    0.997281568685      -0.0180853319081    0.0026809474568     0.0104201447674     
2000000000.0        0.00270449849126    0.0109682167128     0.997254467437      -0.0190369354317    0.997254467437      -0.0190369354317    0.00270449849126    0.0109682167128     
2100000000.0        0.00272900691289    0.0115162412204     0.997226245674      -0.0199885045225    0.997226245674      -0.0199885045225    0.00272900691289    0.0115162412204     
2200000000.0        0.00275448060414    0.0120642163405     0.997196895492      -0.0209400375653    0.997196895492      -0.0209400375653    0.00275448060414    0.0120642163405     
2300000000.0        0.00278092650147    0.0126121401083     0.997166409932      -0.0218915329199    0.997166409932      -0.0218915329199    0.00278092650147    0.0126121401083     
2400000000.0        0.00280835073976    0.0131600105464     0.997134782837      -0.0228429889234    0.997134782837      -0.0228429889234    0.00280835073976    0.0131600105464     
2500000000.0        0.00283675876963    0.0137078256662     0.997102008734      -0.0237944038925    0.997102008734      -0.0237944038925    0.00283675876963    0.0137078256662     
2600000000.0        0.00286615545367    0.0142555834692     0.997068082737      -0.0247457761257    0.997068082737      -0.0247457761257    0.00286615545367    0.0142555834692     
2700000000.0        0.00289654514589    0.0148032819488     0.997033000468      -0.0256971039045    0.997033000468      -0.0256971039045    0.00289654514589    0.0148032819488     
2800000000.0        0.00292793175802    0.0153509190909     0.99699675799       -0.0266483854953    0.99699675799       -0.0266483854953    0.00292793175802    0.0153509190909     
2900000000.0        0.00296031881501    0.0158984928751     0.996959351755      -0.0275996191503    0.996959351755      -0.0275996191503    0.002960318815      0.0158984928751     
3000000000.0        0.00299370950194    0.0164460012752     0.996920778552      -0.0285508031093    0.996920778552      -0.0285508031093    0.00299370950194    0.0164460012752     
3100000000.0        0.00302810670387    0.0169934422604     0.996881035471      -0.0295019355998    0.996881035471      -0.0295019355998    0.00302810670387    0.0169934422604     
3200000000.0        0.00306351303983    0.0175408137958     0.996840119865      -0.0304530148388    0.996840119865      -0.0304530148388    0.00306351303983    0.0175408137958     
3300000000.0        0.00309993089202    0.0180881138426     0.996798029328      -0.031404039033     0.996798029328      -0.031404039033     0.00309993089202    0.0180881138426     
3400000000.0        0.003137362431      0.0186353403592     0.996754761661      -0.0323550063799    0.996754761661      -0.0323550063799    0.003137362431      0.0186353403592     
3500000000.0        0.00317580963757    0.0191824913011     0.996710314857      -0.0333059150685    0.996710314857      -0.0333059150685    0.00317580963757    0.0191824913011     
3600000000.0        0.00321527432168    0.0197295646216     0.996664687078      -0.0342567632796    0.996664687078      -0.0342567632796    0.00321527432168    0.0197295646216     
3700000000.0        0.00325575813911    0.0202765582722     0.996617876641      -0.0352075491866    0.996617876641      -0.0352075491866    0.00325575813911    0.0202765582722     
3800000000.0        0.003297262606      0.0208234702027     0.996569882001      -0.036158270956     0.996569882001      -0.036158270956     0.003297262606      0.0208234702027     
3900000000.0        0.00333978911168    0.0213702983619     0.99652070174       -0.0371089267476    0.99652070174       -0.0371089267476    0.00333978911168    0.0213702983619     
4000000000.0        0.00338333893001    0.0219170406973     0.996470334556      -0.0380595147155    0.996470334556      -0.0380595147155    0.00338333893001    0.0219170406973     
4100000000.0        0.00342791322936    0.0224636951557     0.996418779251      -0.0390100330079    0.996418779251      -0.0390100330079    0.00342791322936    0.0224636951557     
4200000000.0        0.00347351308163    0.0230102596835     0.996366034724      -0.0399604797677    0.996366034724      -0.0399604797677    0.00347351308163    0.0230102596835     
4300000000.0        0.00352013947008    0.0235567322267     0.996312099961      -0.0409108531329    0.996312099961      -0.0409108531329    0.00352013947008    0.0235567322267     
4400000000.0        0.00356779329654    0.024103110731      0.996256974031      -0.041861151237     0.996256974031      -0.041861151237     0.00356779329654    0.024103110731      
4500000000.0        0.00361647538773    0.0246493931424     0.996200656076      -0.042811372209     0.996200656076      -0.042811372209     0.00361647538773    0.0246493931424     
4600000000.0        0.00366618650101    0.0251955774068     0.996143145309      -0.0437615141737    0.996143145309      -0.0437615141737    0.00366618650101    0.0251955774068     
4700000000.0        0.00371692732949    0.0257416614706     0.996084441004      -0.0447115752524    0.996084441004      -0.0447115752524    0.00371692732949    0.0257416614706     
4800000000.0        0.00376869850674    0.0262876432804     0.996024542498      -0.0456615535624    0.996024542498      -0.0456615535624    0.00376869850674    0.0262876432804     
4900000000.0        0.00382150061096    0.0268335207837     0.99596344918       -0.0466114472181    0.99596344918       -0.0466114472181    0.00382150061097    0.0268335207837     
5000000000.0        0.00387533416883    0.0273792919283     0.995901160492      -0.0475612543303    0.995901160492      -0.0475612543303    0.00387533416883    0.0273792919283     
5100000000.0        0.00393019965893    0.027924954663      0.995837675924      -0.048510973007     0.995837675924      -0.048510973007     0.00393019965893    0.027924954663      
5200000000.0        0.00398609751493    0.0284705069374     0.995772995008      -0.0494606013536    0.995772995008      -0.0494606013536    0.00398609751493    0.0284705069374     
5300000000.0        0.00404302812846    0.029015946702      0.995707117321      -0.0504101374727    0.995707117321      -0.0504101374727    0.00404302812846    0.029015946702      
5400000000.0        0.00410099185173    0.0295612719085     0.995640042477      -0.0513595794643    0.995640042477      -0.0513595794643    0.00410099185173    0.0295612719085     
5500000000.0        0.00415998899995    0.0301064805095     0.995571770129      -0.0523089254265    0.995571770129      -0.0523089254265    0.00415998899995    0.0301064805095     
5600000000.0        0.00422001985351    0.0306515704588     0.995502299962      -0.0532581734549    0.995502299962      -0.0532581734549    0.00422001985351    0.0306515704588     
5700000000.0        0.00428108466001    0.0311965397116     0.995431631696      -0.0542073216432    0.995431631696      -0.0542073216432    0.00428108466001    0.0311965397116     
5800000000.0        0.00434318363613    0.0317413862242     0.995359765079      -0.0551563680833    0.995359765079      -0.0551563680833    0.00434318363613    0.0317413862242     
5900000000.0        0.00440631696933    0.0322861079544     0.99528669989       -0.0561053108653    0.99528669989       -0.0561053108653    0.00440631696933    0.0322861079544     
6000000000.0        0.00447048481943    0.0328307028614     0.995212435935      -0.0570541480775    0.995212435935      -0.0570541480775    0.00447048481943    0.0328307028614     
6100000000.0        0.00453568732008    0.0333751689058     0.995136973046      -0.058002877807     0.995136973046      -0.058002877807     0.00453568732008    0.0333751689058     
6200000000.0        0.00460192458007    0.0339195040497     0.995060311079      -0.058951498139     0.995060311079      -0.058951498139     0.00460192458007    0.0339195040497     
6300000000.0        0.00466919668464    0.0344637062569     0.994982449915      -0.0599000071579    0.994982449915      -0.0599000071579    0.00466919668464    0.0344637062569     
6400000000.0        0.00473750369656    0.0350077734924     0.994903389454      -0.0608484029466    0.994903389454      -0.0608484029466    0.00473750369656    0.0350077734924     
6500000000.0        0.00480684565725    0.0355517037234     0.994823129621      -0.0617966835868    0.994823129621      -0.0617966835868    0.00480684565725    0.0355517037234     
6600000000.0        0.00487722258778    0.0360954949183     0.994741670358      -0.0627448471593    0.994741670358      -0.0627448471593    0.00487722258778    0.0360954949183     
6700000000.0        0.00494863448975    0.0366391450474     0.994659011629      -0.0636928917439    0.994659011629      -0.0636928917439    0.00494863448975    0.0366391450474     
6800000000.0        0.00502108134623    0.0371826520826     0.994575153414      -0.0646408154195    0.994575153414      -0.0646408154195    0.00502108134623    0.0371826520826     
6900000000.0        0.00509456312247    0.0377260139978     0.994490095712      -0.0655886162643    0.994490095712      -0.0655886162643    0.00509456312247    0.0377260139978     
7000000000.0        0.00516907976672    0.0382692287685     0.994403838539      -0.0665362923556    0.994403838539      -0.0665362923556    0.00516907976672    0.0382692287685     
7100000000.0        0.00524463121092    0.0388122943721     0.994316381925      -0.0674838417702    0.994316381925      -0.0674838417702    0.00524463121092    0.0388122943721     
7200000000.0        0.00532121737131    0.0393552087877     0.994227725919      -0.0684312625842    0.994227725919      -0.0684312625842    0.00532121737131    0.0393552087877     
7300000000.0        0.00539883814911    0.0398979699964     0.994137870581      -0.0693785528732    0.994137870581      -0.0693785528732    0.00539883814911    0.0398979699964     
7400000000.0        0.00547749343103    0.0404405759812     0.994046815989      -0.0703257107125    0.994046815989      -0.0703257107125    0.00547749343103    0.0404405759812     
7500000000.0        0.00555718308988    0.0409830247269     0.993954562233      -0.0712727341768    0.993954562233      -0.0712727341768    0.00555718308988    0.0409830247269     
7600000000.0        0.00563790698498    0.0415253142203     0.993861109415      -0.0722196213406    0.993861109415      -0.0722196213406    0.00563790698498    0.0415253142203     
7700000000.0        0.00571966496272    0.0420674424502     0.993766457652      -0.073166370278     0.993766457652      -0.073166370278     0.00571966496272    0.0420674424502     
7800000000.0        0.00580245685699    0.0426094074074     0.993670607072      -0.0741129790629    0.993670607072      -0.0741129790629    0.00580245685699    0.0426094074074     
7900000000.0        0.00588628248954    0.0431512070844     0.993573557816      -0.0750594457692    0.993573557816      -0.0750594457692    0.00588628248954    0.0431512070844     
8000000000.0        0.00597114167044    0.043692839476      0.993475310036      -0.0760057684705    0.993475310036      -0.0760057684705    0.00597114167044    0.043692839476      
8100000000.0        0.00605703419845    0.044234302579      0.993375863895      -0.0769519452404    0.993375863895      -0.0769519452404    0.00605703419845    0.044234302579      
8200000000.0        0.00614395986131    0.044775594392      0.993275219567      -0.0778979741524    0.993275219567      -0.0778979741524    0.00614395986131    0.044775594392      
8300000000.0        0.00623191843615    0.045316712916      0.993173377236      -0.0788438532801    0.993173377236      -0.0788438532801    0.00623191843615    0.045316712916      
8400000000.0        0.00632090968975    0.0458576561537     0.993070337098      -0.0797895806971    0.993070337098      -0.0797895806971    0.00632090968975    0.0458576561537     
8500000000.0        0.00641093337884    0.0463984221101     0.992966099357      -0.0807351544773    0.992966099357      -0.0807351544773    0.00641093337884    0.0463984221101     
8600000000.0        0.0065019892504     0.0469390087922     0.992860664227      -0.0816805726945    0.992860664227      -0.0816805726945    0.0065019892504     0.0469390087922     
8700000000.0        0.00659407704193    0.0474794142092     0.992754031932      -0.0826258334228    0.992754031932      -0.0826258334228    0.00659407704193    0.0474794142092     
8800000000.0        0.00668719648167    0.0480196363724     0.992646202704      -0.0835709347366    0.992646202704      -0.0835709347366    0.00668719648167    0.0480196363724     
8900000000.0        0.00678134728885    0.048559673295      0.992537176786      -0.0845158747106    0.992537176786      -0.0845158747106    0.00678134728885    0.048559673295      
9000000000.0        0.00687652917392    0.0490995229927     0.992426954427      -0.0854606514195    0.992426954427      -0.0854606514195    0.00687652917392    0.0490995229927     
9100000000.0        0.00697274183876    0.0496391834829     0.992315535887      -0.0864052629388    0.992315535887      -0.0864052629388    0.00697274183876    0.0496391834829     
9200000000.0        0.00706998497691    0.0501786527857     0.992202921432      -0.087349707344     0.992202921432      -0.087349707344     0.00706998497691    0.0501786527857     
9300000000.0        0.00716825827371    0.0507179289229     0.992089111337      -0.0882939827112    0.992089111337      -0.0882939827112    0.00716825827371    0.0507179289229     
9400000000.0        0.00726756140651    0.0512570099186     0.991974105886      -0.089238087117     0.991974105886      -0.089238087117     0.00726756140651    0.0512570099186     
9500000000.0        0.00736789404487    0.0517958937993     0.991857905369      -0.0901820186383    0.991857905369      -0.0901820186383    0.00736789404487    0.0517958937993     
9600000000.0        0.00746925585068    0.0523345785933     0.991740510084      -0.0911257753527    0.991740510084      -0.0911257753527    0.00746925585068    0.0523345785933     
9700000000.0        0.00757164647834    0.0528730623315     0.991621920337      -0.0920693553382    0.991621920337      -0.0920693553382    0.00757164647834    0.0528730623315     
9800000000.0        0.00767506557492    0.0534113430467     0.991502136441      -0.0930127566734    0.991502136441      -0.0930127566734    0.00767506557492    0.0534113430467     
9900000000.0        0.0077795127803     0.0539494187741     0.991381158716      -0.0939559774377    0.991381158716      -0.0939559774377    0.0077795127803     0.0539494187741     
10000000000.0       0.00788498772729    0.054487287551      0.991258987488      -0.0948990157107    0.991258987488      -0.0948990157107    0.00788498772729    0.054487287551      
