# Hz S RI R 50.00 
100000000.0         0.0773667891501     0.00471925264677    0.922629489219      -0.00628823143485   0.922629489219      -0.00628823143485   0.0773667891501     0.00471925264677    
200000000.0         0.0779328365764     0.00942614759051    0.922058188633      -0.0125641302533    0.922058188633      -0.0125641302533    0.0779328365764     0.00942614759051    
300000000.0         0.0784351752658     0.0141241736449     0.921548064155      -0.0188312053255    0.921548064155      -0.0188312053255    0.0784351752658     0.0141241736449     
400000000.0         0.078936111777      0.0188138259822     0.921036808253      -0.0250899695247    0.921036808253      -0.0250899695247    0.078936111777      0.0188138259822     
500000000.0         0.07945959737       0.0234949062755     0.92050046869       -0.0313402410352    0.92050046869       -0.0313402410352    0.07945959737       0.0234949062755     
600000000.0         0.0800177829663     0.0281669115837     0.91992689352       -0.0375815326468    0.91992689352       -0.0375815326468    0.0800177829663     0.0281669115837     
700000000.0         0.0806177749684     0.032829174344      0.919308975252      -0.0438131919563    0.919308975252      -0.0438131919563    0.0806177749684     0.032829174344      
800000000.0         0.0812641025134     0.0374809275879     0.918642183585      -0.0500344667093    0.918642183585      -0.0500344667093    0.0812641025134     0.0374809275879     
900000000.0         0.0819598166704     0.0421213402277     0.917923466203      -0.0562445401687    0.917923466203      -0.0562445401687    0.0819598166704     0.0421213402277     
1000000000.0        0.0827070479337     0.0467495381818     0.91715069128       -0.0624425522987    0.91715069128       -0.0624425522987    0.0827070479337     0.0467495381818     
1100000000.0        0.0835073163342     0.0513646180018     0.916322337364      -0.068627613435     0.916322337364      -0.068627613435     0.0835073163342     0.0513646180018     
1200000000.0        0.0843617163807     0.0559656561893     0.915437308435      -0.0747988136342    0.915437308435      -0.0747988136342    0.0843617163807     0.0559656561893     
1300000000.0        0.0852710335462     0.0605517158755     0.914494817416      -0.0809552293794    0.914494817416      -0.0809552293794    0.0852710335462     0.0605517158755     
1400000000.0        0.0862358209507     0.0651218518018     0.913494309494      -0.0870959285821    0.913494309494      -0.0870959285821    0.0862358209507     0.0651218518018     
1500000000.0        0.0872564517272     0.0696751141625     0.912435409747      -0.093219974442     0.912435409747      -0.093219974442     0.0872564517272     0.0696751141625     
1600000000.0        0.0883331559081     0.0742105516564     0.911317886261      -0.0993264285129    0.911317886261      -0.0993264285129    0.0883331559081     0.0742105516564     
1700000000.0        0.089466047114      0.0787272139724     0.910141623439      -0.1054143532       0.910141623439      -0.1054143532       0.089466047114      0.0787272139724     
1800000000.0        0.0906551423239     0.0832241538589     0.908906602233      -0.111482813843     0.908906602233      -0.111482813843     0.0906551423239     0.0832241538589     
1900000000.0        0.0919003768304     0.0877004288807     0.907612885189      -0.117530880474     0.907612885189      -0.117530880474     0.0919003768304     0.0877004288807     
2000000000.0        0.0932016157703     0.0921551029339     0.906260604911      -0.123557629353     0.906260604911      -0.123557629353     0.0932016157703     0.0921551029339     
2100000000.0        0.0945586631709     0.0965872475726     0.90484995502       -0.129562144288     0.90484995502       -0.129562144288     0.0945586631709     0.0965872475726     
2200000000.0        0.0959712691631     0.100995943183      0.903381182942      -0.135543517826     0.903381182942      -0.135543517826     0.0959712691631     0.100995943183      
2300000000.0        0.0974391358221     0.105380280035      0.90185458406       -0.141500852305     0.90185458406       -0.141500852305     0.0974391358221     0.105380280035      
2400000000.0        0.0989619219648     0.109739359232      0.900270496925      -0.147433260807     0.900270496925      -0.147433260807     0.0989619219648     0.109739359232      
2500000000.0        0.100539247146      0.114072293568      0.898629299255      -0.153339868029     0.898629299255      -0.153339868029     0.100539247146      0.114072293568      
2600000000.0        0.102170695029      0.118378208322      0.896931404564      -0.159219811069     0.896931404564      -0.159219811069     0.102170695029      0.118378208322      
2700000000.0        0.103855816273      0.122656241978      0.895177259279      -0.165072240157     0.895177259279      -0.165072240157     0.103855816273      0.122656241978      
2800000000.0        0.105594131023      0.12690554689       0.893367340247      -0.170896319325     0.893367340247      -0.170896319325     0.105594131023      0.12690554689       
2900000000.0        0.107385131098      0.131125289898      0.891502152544      -0.176691227022     0.891502152544      -0.176691227022     0.107385131098      0.131125289898      
3000000000.0        0.109228281924      0.1353146529        0.88958222755       -0.18245615669      0.88958222755       -0.18245615669      0.109228281924      0.1353146529        
3100000000.0        0.111123024269      0.139472833373      0.887608121207      -0.18819031729      0.887608121207      -0.18819031729      0.111123024269      0.139472833373      
3200000000.0        0.113068775804      0.143599044865      0.885580412459      -0.193892933792     0.885580412459      -0.193892933792     0.113068775804      0.143599044865      
3300000000.0        0.115064932537      0.147692517445      0.883499701825      -0.199563247634     0.883499701825      -0.199563247634     0.115064932537      0.147692517445      
3400000000.0        0.117110870123      0.151752498116      0.881366610075      -0.20520051713      0.881366610075      -0.20520051713      0.117110870123      0.151752498116      
3500000000.0        0.119205945092      0.155778251205      0.879181777019      -0.210804017869     0.879181777019      -0.210804017869     0.119205945092      0.155778251205      
3600000000.0        0.121349495984      0.15976905871       0.876945860356      -0.216373043058     0.876945860356      -0.216373043058     0.121349495984      0.15976905871       
3700000000.0        0.12354084443       0.163724220627      0.874659534607      -0.221906903855     0.874659534607      -0.221906903855     0.12354084443       0.163724220627      
3800000000.0        0.125779296163      0.167643055245      0.872323490093      -0.227404929662     0.872323490093      -0.227404929662     0.125779296163      0.167643055245      
3900000000.0        0.128064141989      0.171524899408      0.869938431972      -0.232866468396     0.869938431972      -0.232866468396     0.128064141989      0.171524899408      
4000000000.0        0.130394658711      0.175369108763      0.867505079307      -0.238290886728     0.867505079307      -0.238290886728     0.130394658711      0.175369108763      
4100000000.0        0.132770110019      0.17917505797       0.865024164185      -0.243677570303     0.865024164185      -0.243677570303     0.132770110019      0.17917505797       
4200000000.0        0.135189747342      0.182942140893      0.862496430856      -0.249025923928     0.862496430856      -0.249025923928     0.135189747342      0.182942140893      
4300000000.0        0.137652810679      0.186669770765      0.859922634911      -0.254335371742     0.859922634911      -0.254335371742     0.137652810679      0.186669770765      
4400000000.0        0.140158529395      0.190357380332      0.857303542478      -0.259605357357     0.857303542478      -0.259605357357     0.140158529395      0.190357380332      
4500000000.0        0.142706122997      0.194004421969      0.854639929449      -0.26483534398      0.854639929449      -0.26483534398      0.142706122997      0.194004421969      
4600000000.0        0.145294801894      0.19761036778       0.851932580721      -0.270024814506     0.851932580721      -0.270024814506     0.145294801894      0.19761036778       
4700000000.0        0.147923768128      0.201174709667      0.849182289465      -0.275173271603     0.849182289465      -0.275173271603     0.147923768128      0.201174709667      
4800000000.0        0.150592216091      0.204696959391      0.846389856407      -0.280280237755     0.846389856407      -0.280280237755     0.150592216091      0.204696959391      
4900000000.0        0.153299333224      0.208176648598      0.843556089127      -0.285345255307     0.843556089127      -0.285345255307     0.153299333224      0.208176648598      
5000000000.0        0.156044300701      0.211613328835      0.840681801382      -0.290367886469     0.840681801382      -0.290367886469     0.156044300701      0.211613328835      
5100000000.0        0.158826294093      0.215006571544      0.837767812437      -0.295347713317     0.837767812437      -0.295347713317     0.158826294093      0.215006571544      
5200000000.0        0.161644484018      0.218355968034      0.83481494641       -0.300284337765     0.83481494641       -0.300284337765     0.161644484018      0.218355968034      
5300000000.0        0.164498036781      0.221661129437      0.831824031644      -0.305177381523     0.831824031644      -0.305177381523     0.164498036781      0.221661129437      
5400000000.0        0.167386114991      0.224921686647      0.828795900078      -0.310026486034     0.828795900078      -0.310026486034     0.167386114991      0.224921686647      
5500000000.0        0.170307878171      0.22813729024       0.825731386645      -0.314831312398     0.825731386645      -0.314831312398     0.170307878171      0.22813729024       
5600000000.0        0.173262483348      0.231307610378      0.822631328676      -0.319591541275     0.822631328676      -0.319591541275     0.173262483348      0.231307610378      
5700000000.0        0.176249085635      0.2344323367        0.819496565324      -0.324306872775     0.819496565324      -0.324306872775     0.176249085635      0.2344323367        
5800000000.0        0.179266838792      0.237511178187      0.816327936995      -0.328977026328     0.816327936995      -0.328977026328     0.179266838792      0.237511178187      
5900000000.0        0.182314895779      0.240543863027      0.813126284802      -0.333601740548     0.813126284802      -0.333601740548     0.182314895779      0.240543863027      
6000000000.0        0.185392409292      0.243530138453      0.809892450024      -0.338180773071     0.809892450024      -0.338180773071     0.185392409292      0.243530138453      
6100000000.0        0.188498532289      0.246469770575      0.806627273583      -0.342713900386     0.806627273583      -0.342713900386     0.188498532289      0.246469770575      
6200000000.0        0.191632418493      0.249362544195      0.803331595539      -0.347200917655     0.803331595539      -0.347200917655     0.191632418493      0.249362544195      
6300000000.0        0.194793222893      0.252208262609      0.800006254586      -0.351641638513     0.800006254586      -0.351641638513     0.194793222893      0.252208262609      
6400000000.0        0.197980102225      0.255006747399      0.796652087579      -0.356035894862     0.796652087579      -0.356035894862     0.197980102225      0.255006747399      
6500000000.0        0.201192215437      0.257757838217      0.793269929061      -0.360383536651     0.793269929061      -0.360383536651     0.201192215437      0.257757838217      
6600000000.0        0.204428724142      0.260461392545      0.78986061081       -0.364684431644     0.78986061081       -0.364684431644     0.204428724142      0.260461392545      
6700000000.0        0.207688793063      0.263117285461      0.786424961401      -0.368938465182     0.786424961401      -0.368938465182     0.207688793063      0.263117285461      
6800000000.0        0.210971590452      0.265725409385      0.782963805776      -0.37314553993      0.782963805776      -0.37314553993      0.210971590452      0.265725409385      
6900000000.0        0.214276288507      0.26828567382       0.779477964835      -0.377305575617     0.779477964835      -0.377305575617     0.214276288507      0.26828567382       
7000000000.0        0.217602063769      0.270798005081      0.775968255039      -0.381418508771     0.775968255039      -0.381418508771     0.217602063769      0.270798005081      
7100000000.0        0.220948097501      0.273262346017      0.77243548802       -0.385484292438     0.77243548802       -0.385484292438     0.220948097501      0.273262346017      
7200000000.0        0.224313576067      0.275678655732      0.768880470218      -0.3895028959       0.768880470218      -0.3895028959       0.224313576067      0.275678655732      
7300000000.0        0.227697691281      0.278046909287      0.765304002517      -0.393474304385     0.765304002517      -0.393474304385     0.227697691281      0.278046909287      
7400000000.0        0.231099640751      0.280367097407      0.761706879909      -0.397398518766     0.761706879909      -0.397398518766     0.231099640751      0.280367097407      
7500000000.0        0.234518628211      0.282639226172      0.758089891159      -0.401275555263     0.758089891159      -0.401275555263     0.234518628211      0.282639226172      
7600000000.0        0.23795386383       0.284863316715      0.754453818494      -0.405105445131     0.754453818494      -0.405105445131     0.23795386383       0.284863316715      
7700000000.0        0.241404564522      0.2870394049        0.750799437299      -0.408888234344     0.750799437299      -0.408888234344     0.241404564522      0.2870394049        
7800000000.0        0.244869954224      0.28916754101       0.747127515828      -0.412623983283     0.747127515828      -0.412623983283     0.244869954224      0.28916754101       
7900000000.0        0.24834926418       0.29124778942       0.743438814931      -0.41631276641      0.743438814931      -0.41631276641      0.24834926418       0.29124778942       
8000000000.0        0.251841733196      0.293280228276      0.739734087792      -0.419954671944     0.739734087792      -0.419954671944     0.251841733196      0.293280228276      
8100000000.0        0.25534660789       0.295264949163      0.736014079676      -0.42354980153      0.736014079676      -0.42354980153      0.25534660789       0.295264949163      
8200000000.0        0.258863142931      0.297202056774      0.732279527699      -0.427098269916     0.732279527699      -0.427098269916     0.258863142931      0.297202056774      
8300000000.0        0.262390601255      0.299091668578      0.728531160603      -0.430600204612     0.728531160603      -0.430600204612     0.262390601255      0.299091668578      
8400000000.0        0.265928254281      0.300933914487      0.724769698543      -0.434055745559     0.724769698543      -0.434055745559     0.265928254281      0.300933914487      
8500000000.0        0.269475382103      0.302728936516      0.720995852892      -0.437465044795     0.720995852892      -0.437465044795     0.269475382103      0.302728936516      
8600000000.0        0.273031273682      0.304476888452      0.717210326054      -0.440828266117     0.717210326054      -0.440828266117     0.273031273682      0.304476888452      
8700000000.0        0.276595227013      0.30617793551       0.713413811293      -0.444145584745     0.713413811293      -0.444145584745     0.276595227013      0.30617793551       
8800000000.0        0.280166549289      0.307832254004      0.709606992566      -0.447417186985     0.709606992566      -0.447417186985     0.280166549289      0.307832254004      
8900000000.0        0.28374455705       0.309440031004      0.705790544377      -0.450643269893     0.705790544377      -0.450643269893     0.28374455705       0.309440031004      
9000000000.0        0.287328576322      0.311001464003      0.701965131637      -0.45382404094      0.701965131637      -0.45382404094      0.287328576322      0.311001464003      
9100000000.0        0.290917942745      0.312516760582      0.698131409537      -0.456959717679     0.698131409537      -0.456959717679     0.290917942745      0.312516760582      
9200000000.0        0.294512001684      0.313986138077      0.694290023429      -0.460050527405     0.694290023429      -0.460050527405     0.294512001684      0.313986138077      
9300000000.0        0.298110108341      0.315409823247      0.690441608725      -0.463096706835     0.690441608725      -0.463096706835     0.298110108341      0.315409823247      
9400000000.0        0.301711627847      0.316788051943      0.686586790797      -0.466098501767     0.686586790797      -0.466098501767     0.301711627847      0.316788051943      
9500000000.0        0.305315935345      0.318121068782      0.682726184892      -0.469056166763     0.682726184892      -0.469056166763     0.305315935345      0.318121068782      
9600000000.0        0.308922416066      0.319409126823      0.678860396062      -0.471969964814     0.678860396062      -0.471969964814     0.308922416066      0.319409126823      
9700000000.0        0.312530465396      0.320652487241      0.67499001909       -0.474840167029     0.67499001909       -0.474840167029     0.312530465396      0.320652487241      
9800000000.0        0.316139488927      0.321851419014      0.671115638442      -0.477667052308     0.671115638442      -0.477667052308     0.316139488927      0.321851419014      
9900000000.0        0.319748902507      0.323006198602      0.667237828216      -0.480450907031     0.667237828216      -0.480450907031     0.319748902507      0.323006198602      
10000000000.0       0.323358132277      0.324117109636      0.663357152105      -0.483192024742     0.663357152105      -0.483192024742     0.323358132277      0.324117109636      
