# Hz S RI R 50.00 
100000000.0         0.00548171289314    0.00205010059974    0.994509899238      -0.00507084755311   0.994509899238      -0.00507084755311   0.00548171289314    0.00205010059974    
200000000.0         0.00554806742054    0.00409945972474    0.99442701462       -0.0101409637719    0.99442701462       -0.0101409637719    0.00554806742054    0.00409945972474    
300000000.0         0.00562575021565    0.00614805402398    0.99432365863       -0.0152103349939    0.99432365863       -0.0152103349939    0.00562575021565    0.00614805402398    
400000000.0         0.00571947993116    0.00819572459068    0.994195111485      -0.0202788077463    0.994195111485      -0.0202788077463    0.00571947993116    0.00819572459068    
500000000.0         0.00583106544838    0.0102422812813     0.994039562917      -0.025346195163     0.994039562917      -0.025346195163     0.00583106544838    0.0102422812813     
600000000.0         0.00596142089878    0.0122875203144     0.993856097158      -0.0304122953199    0.993856097158      -0.0304122953199    0.00596142089878    0.0122875203144     
700000000.0         0.00611107778143    0.0143312305996     0.993644180835      -0.0354768979406    0.993644180835      -0.0354768979406    0.00611107778143    0.0143312305996     
800000000.0         0.00628037182091    0.0163731966853     0.993403476117      -0.0405397875689    0.993403476117      -0.0405397875689    0.00628037182091    0.0163731966853     
900000000.0         0.00646952614318    0.0184132003553     0.99313375754       -0.0456007453131    0.99313375754       -0.0456007453131    0.00646952614318    0.0184132003553     
1000000000.0        0.00667869342443    0.020451021587      0.992834869871      -0.0506595499089    0.992834869871      -0.0506595499089    0.00667869342443    0.020451021587      
1100000000.0        0.00690797931545    0.022486439172      0.992506704683      -0.0557159784157    0.992506704683      -0.0557159784157    0.00690797931545    0.022486439172      
1200000000.0        0.00715745639704    0.0245192311428     0.992149186406      -0.0607698067027    0.992149186406      -0.0607698067027    0.00715745639704    0.0245192311428     
1300000000.0        0.00742717295958    0.0265491750819     0.991762263552      -0.0658208098026    0.991762263552      -0.0658208098026    0.00742717295958    0.0265491750819     
1400000000.0        0.0077171587743     0.0285760483546     0.991345902944      -0.0708687621817    0.991345902944      -0.0708687621817    0.0077171587743     0.0285760483546     
1500000000.0        0.00802742902741    0.030599628291      0.990900085786      -0.0759134379518    0.990900085786      -0.0759134379518    0.00802742902741    0.030599628291      
1600000000.0        0.00835798708506    0.0326196923334     0.990424804906      -0.080954611042     0.990424804906      -0.080954611042     0.00835798708506    0.0326196923334     
1700000000.0        0.00870882648819    0.0346360181586     0.989920062754      -0.0859920553422    0.989920062754      -0.0859920553422    0.00870882648819    0.0346360181586     
1800000000.0        0.0090799324249     0.0366483837815     0.989385869941      -0.0910255448242    0.989385869941      -0.0910255448242    0.0090799324249     0.0366483837815     
1900000000.0        0.00947128283928    0.0386565676462     0.98882224413       -0.0960548536481    0.98882224413       -0.0960548536481    0.00947128283928    0.0386565676462     
2000000000.0        0.00988284928143    0.040660348706      0.988229209184      -0.101079756255     0.988229209184      -0.101079756255     0.00988284928143    0.040660348706      
2100000000.0        0.0103145975699     0.0426595064953     0.987606794511      -0.106100027451     0.987606794511      -0.106100027451     0.0103145975699     0.0426595064953     
2200000000.0        0.0107664883153     0.0446538211963     0.986955034539      -0.111115442483     0.986955034539      -0.111115442483     0.0107664883153     0.0446538211963     
2300000000.0        0.0112384773407     0.0466430736992     0.9862739683        -0.116125777109     0.9862739683        -0.116125777109     0.0112384773407     0.0466430736992     
2400000000.0        0.0117305160222     0.0486270456595     0.985563639087      -0.121130807661     0.985563639087      -0.121130807661     0.0117305160222     0.0486270456595     
2500000000.0        0.0122425515693     0.0506055195517     0.984824094181      -0.126130311108     0.984824094181      -0.126130311108     0.0122425515693     0.0506055195517     
2600000000.0        0.0127745272583     0.0525782787196     0.984055384614      -0.131124065111     0.984055384614      -0.131124065111     0.0127745272583     0.0525782787196     
2700000000.0        0.0133263826277     0.0545451074249     0.983257564977      -0.136111848077     0.983257564977      -0.136111848077     0.0133263826277     0.0545451074249     
2800000000.0        0.0138980536454     0.0565057908939     0.982430693255      -0.141093439214     0.982430693255      -0.141093439214     0.0138980536454     0.0565057908939     
2900000000.0        0.0144894728508     0.0584601153614     0.981574830684      -0.146068618572     0.981574830684      -0.146068618572     0.0144894728508     0.0584601153614     
3000000000.0        0.0151005694795     0.0604078681146     0.980690041629      -0.1510371671       0.980690041629      -0.1510371671       0.0151005694795     0.0604078681146     
3100000000.0        0.0157312695719     0.0623488375343     0.979776393479      -0.155998866683     0.979776393479      -0.155998866683     0.0157312695719     0.0623488375343     
3200000000.0        0.0163814960687     0.0642828131355     0.978833956547      -0.16095350019      0.978833956547      -0.16095350019      0.0163814960687     0.0642828131355     
3300000000.0        0.0170511688975     0.0662095856071     0.977862803989      -0.165900851516     0.977862803989      -0.165900851516     0.0170511688975     0.0662095856071     
3400000000.0        0.0177402050497     0.0681289468498     0.976863011727      -0.170840705624     0.976863011727      -0.170840705624     0.0177402050497     0.0681289468498     
3500000000.0        0.0184485186509     0.0700406900139     0.975834658379      -0.17577284858      0.975834658379      -0.17577284858      0.0184485186509     0.0700406900139     
3600000000.0        0.0191760210256     0.0719446095356     0.974777825196      -0.180697067599     0.974777825196      -0.180697067599     0.0191760210256     0.0719446095356     
3700000000.0        0.0199226207564     0.0738405011731     0.973692596002      -0.185613151077     0.973692596002      -0.185613151077     0.0199226207564     0.0738405011731     
3800000000.0        0.0206882237402     0.0757281620409     0.972579057141      -0.190520888629     0.972579057141      -0.190520888629     0.0206882237402     0.0757281620409     
3900000000.0        0.0214727332399     0.0776073906444     0.971437297427      -0.195420071127     0.971437297427      -0.195420071127     0.0214727332399     0.0776073906444     
4000000000.0        0.022276049934      0.0794779869134     0.970267408089      -0.200310490733     0.970267408089      -0.200310490733     0.022276049934      0.0794779869134     
4100000000.0        0.0230980719633     0.0813397522344     0.969069482735      -0.205191940931     0.969069482735      -0.205191940931     0.0230980719633     0.0813397522344     
4200000000.0        0.0239386949758     0.0831924894828     0.967843617297      -0.210064216566     0.967843617297      -0.210064216566     0.0239386949758     0.0831924894828     
4300000000.0        0.0247978121701     0.0850360030547     0.966589909998      -0.214927113871     0.966589909998      -0.214927113871     0.0247978121701     0.0850360030547     
4400000000.0        0.0256753143371     0.0868700988965     0.965308461304      -0.219780430501     0.965308461304      -0.219780430501     0.0256753143371     0.0868700988965     
4500000000.0        0.0265710899002     0.0886945845362     0.963999373888      -0.224623965562     0.963999373888      -0.224623965562     0.0265710899002     0.0886945845362     
4600000000.0        0.0274850249552     0.0905092691117     0.962662752591      -0.229457519645     0.962662752591      -0.229457519645     0.0274850249552     0.0905092691117     
4700000000.0        0.0284170033089     0.0923139634002     0.961298704382      -0.234280894851     0.961298704382      -0.234280894851     0.0284170033089     0.0923139634002     
4800000000.0        0.0293669065168     0.0941084798461     0.959907338322      -0.239093894821     0.959907338322      -0.239093894821     0.0293669065168     0.0941084798461     
4900000000.0        0.0303346139207     0.0958926325882     0.958488765527      -0.243896324767     0.958488765527      -0.243896324767     0.0303346139207     0.0958926325882     
5000000000.0        0.0313200026855     0.0976662374871     0.957043099132      -0.248687991493     0.957043099132      -0.248687991493     0.0313200026855     0.0976662374871     
5100000000.0        0.0323229478355     0.0994291121509     0.955570454255      -0.253468703429     0.955570454255      -0.253468703429     0.0323229478355     0.0994291121509     
5200000000.0        0.0333433222908     0.101181075961      0.954070947961      -0.25823827065      0.954070947961      -0.25823827065      0.0333433222908     0.101181075961      
5300000000.0        0.0343809969026     0.102921950097      0.952544699227      -0.262996504905     0.952544699227      -0.262996504905     0.0343809969026     0.102921950097      
5400000000.0        0.0354358404895     0.104651557561      0.950991828907      -0.267743219641     0.950991828907      -0.267743219641     0.0354358404895     0.104651557561      
5500000000.0        0.0365077198721     0.106369723201      0.949412459698      -0.272478230026     0.949412459698      -0.272478230026     0.0365077198721     0.106369723201      
5600000000.0        0.037596499909      0.108076273736      0.947806716102      -0.277201352972     0.947806716102      -0.277201352972     0.037596499909      0.108076273736      
5700000000.0        0.0387020435315     0.109771037775      0.946174724396      -0.281912407159     0.946174724396      -0.281912407159     0.0387020435315     0.109771037775      
5800000000.0        0.0398242117788     0.11145384584       0.944516612595      -0.286611213055     0.944516612595      -0.286611213055     0.0398242117788     0.11145384584       
5900000000.0        0.0409628638333     0.113124530391      0.942832510415      -0.291297592936     0.942832510415      -0.291297592936     0.0409628638333     0.113124530391      
6000000000.0        0.0421178570549     0.114782925841      0.941122549243      -0.295971370911     0.941122549243      -0.295971370911     0.0421178570549     0.114782925841      
6100000000.0        0.0432890470165     0.116428868579      0.939386862099      -0.300632372936     0.939386862099      -0.300632372936     0.0432890470165     0.116428868579      
6200000000.0        0.0444762875389     0.118062196989      0.937625583604      -0.305280426838     0.937625583604      -0.305280426838     0.0444762875389     0.118062196989      
6300000000.0        0.0456794307254     0.119682751469      0.935838849944      -0.30991536233      0.935838849944      -0.30991536233      0.0456794307254     0.119682751469      
6400000000.0        0.0468983269969     0.121290374446      0.934026798836      -0.314537011031     0.934026798836      -0.314537011031     0.0468983269969     0.121290374446      
6500000000.0        0.0481328251267     0.122884910399      0.932189569492      -0.31914520648      0.932189569492      -0.31914520648      0.0481328251267     0.122884910399      
6600000000.0        0.0493827722757     0.124466205873      0.930327302587      -0.323739784157     0.930327302587      -0.323739784157     0.0493827722757     0.124466205873      
6700000000.0        0.0506480140269     0.126034109493      0.928440140222      -0.328320581495     0.928440140222      -0.328320581495     0.0506480140269     0.126034109493      
6800000000.0        0.0519283944207     0.127588471983      0.926528225893      -0.332887437895     0.926528225893      -0.332887437895     0.0519283944207     0.127588471983      
6900000000.0        0.0532237559897     0.12912914618       0.924591704451      -0.337440194746     0.924591704451      -0.337440194746     0.0532237559897     0.12912914618       
7000000000.0        0.0545339397934     0.130655987048      0.922630722072      -0.341978695429     0.922630722072      -0.341978695429     0.0545339397934     0.130655987048      
7100000000.0        0.0558587854538     0.13216885169       0.92064542622       -0.346502785341     0.92064542622       -0.346502785341     0.0558587854538     0.13216885169       
7200000000.0        0.0571981311896     0.133667599366      0.918635965615      -0.351012311898     0.918635965615      -0.351012311898     0.0571981311896     0.133667599366      
7300000000.0        0.0585518138515     0.135152091501      0.916602490193      -0.355507124554     0.916602490193      -0.355507124554     0.0585518138515     0.135152091501      
7400000000.0        0.0599196689571     0.136622191697      0.914545151078      -0.359987074808     0.914545151078      -0.359987074808     0.0599196689571     0.136622191697      
7500000000.0        0.0613015307259     0.138077765749      0.912464100543      -0.364452016216     0.912464100543      -0.364452016216     0.0613015307259     0.138077765749      
7600000000.0        0.0626972321138     0.139518681649      0.910359491977      -0.368901804401     0.910359491977      -0.368901804401     0.0626972321138     0.139518681649      
7700000000.0        0.0641066048486     0.140944809601      0.908231479849      -0.373336297063     0.908231479849      -0.373336297063     0.0641066048486     0.140944809601      
7800000000.0        0.0655294794639     0.142356022028      0.906080219677      -0.377755353985     0.906080219677      -0.377755353985     0.0655294794639     0.142356022028      
7900000000.0        0.0669656853349     0.143752193583      0.903905867988      -0.382158837045     0.903905867988      -0.382158837045     0.0669656853349     0.143752193583      
8000000000.0        0.0684150507122     0.145133201155      0.90170858229       -0.38654661022      0.90170858229       -0.38654661022      0.0684150507122     0.145133201155      
8100000000.0        0.0698774027571     0.146498923877      0.899488521031      -0.390918539593     0.899488521031      -0.390918539593     0.0698774027571     0.146498923877      
8200000000.0        0.0713525675757     0.147849243136      0.897245843571      -0.395274493363     0.897245843571      -0.395274493363     0.0713525675757     0.147849243136      
8300000000.0        0.0728403702538     0.149184042574      0.894980710142      -0.399614341847     0.894980710142      -0.399614341847     0.0728403702538     0.149184042574      
8400000000.0        0.0743406348912     0.1505032081        0.892693281819      -0.403937957483     0.892693281819      -0.403937957483     0.0743406348912     0.1505032081        
8500000000.0        0.0758531846356     0.15180662789       0.890383720481      -0.408245214842     0.890383720481      -0.408245214842     0.0758531846356     0.15180662789       
8600000000.0        0.0773778417175     0.153094192396      0.888052188783      -0.412535990623     0.888052188783      -0.412535990623     0.0773778417175     0.153094192396      
8700000000.0        0.078914427484      0.154365794346      0.885698850114      -0.416810163663     0.885698850114      -0.416810163663     0.078914427484      0.154365794346      
8800000000.0        0.0804627624327     0.155621328752      0.883323868571      -0.421067614934     0.883323868571      -0.421067614934     0.0804627624327     0.155621328752      
8900000000.0        0.0820226662455     0.156860692909      0.880927408923      -0.425308227551     0.880927408923      -0.425308227551     0.0820226662455     0.156860692909      
9000000000.0        0.0835939578227     0.158083786402      0.878509636575      -0.429531886767     0.878509636575      -0.429531886767     0.0835939578227     0.158083786402      
9100000000.0        0.0851764553163     0.159290511103      0.876070717536      -0.433738479979     0.876070717536      -0.433738479979     0.0851764553163     0.159290511103      
9200000000.0        0.0867699761634     0.160480771176      0.873610818388      -0.437927896727     0.873610818388      -0.437927896727     0.0867699761634     0.160480771176      
9300000000.0        0.0883743371196     0.161654473074      0.87113010625       -0.442100028691     0.87113010625       -0.442100028691     0.0883743371196     0.161654473074      
9400000000.0        0.089989354292      0.162811525545      0.868628748748      -0.446254769694     0.868628748748      -0.446254769694     0.089989354292      0.162811525545      
9500000000.0        0.0916148431722     0.163951839628      0.866106913978      -0.450392015697     0.866106913978      -0.450392015697     0.0916148431722     0.163951839628      
9600000000.0        0.0932506186691     0.16507532865       0.863564770478      -0.454511664802     0.863564770478      -0.454511664802     0.0932506186691     0.16507532865       
9700000000.0        0.094896495141      0.166181908231      0.861002487194      -0.458613617243     0.861002487194      -0.458613617243     0.094896495141      0.166181908231      
9800000000.0        0.0965522864285     0.167271496278      0.858420233447      -0.462697775389     0.858420233447      -0.462697775389     0.0965522864285     0.167271496278      
9900000000.0        0.0982178058865     0.168344012981      0.855818178902      -0.466764043739     0.855818178902      -0.466764043739     0.0982178058865     0.168344012981      
10000000000.0       0.0998928664158     0.169399380817      0.853196493537      -0.470812328914     0.853196493537      -0.470812328914     0.0998928664158     0.169399380817      
