# Hz S RI R 50.00 
100000000.0         -0.000209922073004  -0.0141099568321    0.999781750305      -0.0141365389268    0.999781750305      -0.0141365389268    -0.000209922073004  -0.0141099568321    
200000000.0         -0.000821912623492  -0.0282009452151    0.999169701804      -0.0282541158149    0.999169701804      -0.0282541158149    -0.000821912623492  -0.0282009452151    
300000000.0         -0.00183070188331   -0.0422555117152    0.998160868212      -0.0423352804767    0.998160868212      -0.0423352804767    -0.00183070188331   -0.0422555117152    
400000000.0         -0.00323365004709   -0.0562565202603    0.996757882177      -0.0563628992845    0.996757882177      -0.0563628992845    -0.00323365004709   -0.0562565202603    
500000000.0         -0.00502715365572   -0.0701871464833    0.994964344416      -0.0703201498892    0.994964344416      -0.0703201498892    -0.00502715365572   -0.0701871464833    
600000000.0         -0.00720667397404   -0.0840309179207    0.992784792272      -0.0841905615501    0.992784792272      -0.0841905615501    -0.00720667397404   -0.0840309179207    
700000000.0         -0.00976676997406   -0.0977717638481    0.990224665956      -0.0979580650396    0.990224665956      -0.0979580650396    -0.00976676997406   -0.0977717638481    
800000000.0         -0.012701135474     -0.111394066959     0.98729027112       -0.111607044362     0.98729027112       -0.111607044362     -0.012701135474     -0.111394066959     
900000000.0         -0.0160026402313    -0.124882713829     0.983988737646      -0.125122387248     0.983988737646      -0.125122387248     -0.0160026402313    -0.124882713829     
1000000000.0        -0.0196633747098    -0.138223142773     0.980327974806      -0.138489533029     0.980327974806      -0.138489533029     -0.0196633747098    -0.138223142773     
1100000000.0        -0.0236746981336    -0.151401388121     0.976316623181      -0.15169451693      0.976316623181      -0.15169451693      -0.0236746981336    -0.151401388121     
1200000000.0        -0.0280272894141    -0.164404120426     0.97196400371       -0.164724010291     0.97196400371       -0.164724010291     -0.0280272894141    -0.164404120426     
1300000000.0        -0.0327112004847    -0.177218682219     0.967280064338      -0.177565356332     0.967280064338      -0.177565356332     -0.0327112004847    -0.177218682219     
1400000000.0        -0.0377159115547    -0.189833119032     0.962275324763      -0.190206601182     0.962275324763      -0.190206601182     -0.0377159115547    -0.189833119032     
1500000000.0        -0.0430303877972    -0.202236205577     0.956960819732      -0.20263652007      0.956960819732      -0.20263652007      -0.0430303877972    -0.202236205577     
1600000000.0        -0.0486431369785    -0.214417467001     0.951348041413      -0.214844638582     0.951348041413      -0.214844638582     -0.0486431369785    -0.214417467001     
1700000000.0        -0.0545422675388    -0.226367195207     0.945448881314      -0.226821248991     0.945448881314      -0.226821248991     -0.0545422675388    -0.226367195207     
1800000000.0        -0.0607155466688    -0.238076460325     0.939275572196      -0.238557421735     0.939275572196      -0.238557421735     -0.0607155466688    -0.238076460325     
1900000000.0        -0.0671504579273    -0.249537117432     0.932840630461      -0.250045012137     0.932840630461      -0.250045012137     -0.0671504579273    -0.249537117432     
2000000000.0        -0.0738342579868    -0.260741808689     0.926156799402      -0.26127666255      0.926156799402      -0.26127666255      -0.0738342579868    -0.260741808689     
2100000000.0        -0.0807540321193    -0.271683961096     0.919236993717      -0.272245800116     0.919236993717      -0.272245800116     -0.0807540321193    -0.271683961096     
2200000000.0        -0.0878967480664    -0.282357780108     0.912094245639      -0.282946630385     0.912094245639      -0.282946630385     -0.0878967480664    -0.282357780108     
2300000000.0        -0.095249307985     -0.292758239371     0.904741652987      -0.293374127055     0.904741652987      -0.293374127055     -0.095249307985     -0.292758239371     
2400000000.0        -0.102798598183     -0.302881066872     0.897192329433      -0.303524018124     0.897192329433      -0.303524018124     -0.102798598183     -0.302881066872     
2500000000.0        -0.110531536414     -0.312722727811     0.889459357204      -0.313392768768     0.889459357204      -0.313392768768     -0.110531536414     -0.312722727811     
2600000000.0        -0.118435116527     -0.322280404505     0.881555742435      -0.322977561246     0.881555742435      -0.322977561246     -0.118435116527     -0.322280404505     
2700000000.0        -0.126496450315     -0.33155197366      0.87349437332       -0.332276272175     0.87349437332       -0.332276272175     -0.126496450315     -0.33155197366      
2800000000.0        -0.134702806437     -0.340535981337     0.865287981183      -0.341287447499     0.865287981183      -0.341287447499     -0.134702806437     -0.340535981337     
2900000000.0        -0.143041646338     -0.349231615929     0.85694910457       -0.350010275468     0.85694910457       -0.350010275468     -0.143041646338     -0.349231615929     
3000000000.0        -0.151500657095     -0.357638679486     0.84849005639       -0.358444557963     0.84849005639       -0.358444557963     -0.151500657095     -0.357638679486     
3100000000.0        -0.160067781199     -0.365757557678     0.839922894143      -0.366590680469     0.839922894143      -0.366590680469     -0.160067781199     -0.365757557678     
3200000000.0        -0.168731243256     -0.373589188724     0.831259393215      -0.374449580996     0.831259393215      -0.374449580996     -0.168731243256     -0.373589188724     
3300000000.0        -0.177479573659     -0.381135031544     0.822511023202      -0.382022718239     0.822511023202      -0.382022718239     -0.177479573659     -0.381135031544     
3400000000.0        -0.186301629298     -0.388397033419     0.813688927207      -0.389312039237     0.813688927207      -0.389312039237     -0.186301629298     -0.388397033419     
3500000000.0        -0.19518661137      -0.395377597408     0.804803904027      -0.396319946795     0.804803904027      -0.396319946795     -0.19518661137      -0.395377597408     
3600000000.0        -0.204124080411     -0.402079549751     0.795866393117      -0.403049266886     0.795866393117      -0.403049266886     -0.204124080411     -0.402079549751     
3700000000.0        -0.213103968655     -0.40850610747      0.786886462239      -0.409503216252     0.786886462239      -0.409503216252     -0.213103968655     -0.40850610747      
3800000000.0        -0.222116589847     -0.414660846369     0.77787379764       -0.415685370408     0.77787379764       -0.415685370408     -0.222116589847     -0.414660846369     
3900000000.0        -0.231152646658     -0.42054766958      0.768837696643      -0.42159963219      0.768837696643      -0.42159963219      -0.231152646658     -0.42054766958      
4000000000.0        -0.240203235841     -0.426170776846     0.759787062493      -0.427250201034     0.759787062493      -0.427250201034     -0.240203235841     -0.426170776846     
4100000000.0        -0.249259851274     -0.431534634628     0.750730401306      -0.432641543092     0.750730401306      -0.432641543092     -0.249259851274     -0.431534634628     
4200000000.0        -0.258314385061     -0.436643947188     0.741675820971      -0.437778362307     0.741675820971      -0.437778362307     -0.258314385061     -0.436643947188     
4300000000.0        -0.26735912683      -0.441503628712     0.732631031859      -0.442665572547     0.732631031859      -0.442665572547     -0.26735912683      -0.441503628712     
4400000000.0        -0.27638676139      -0.446118776575     0.723603349157      -0.447308270862     0.723603349157      -0.447308270862     -0.27638676139      -0.446118776575     
4500000000.0        -0.285390364898     -0.450494645789     0.714599696702      -0.451711711934     0.714599696702      -0.451711711934     -0.285390364898     -0.450494645789     
4600000000.0        -0.294363399693     -0.45463662469      0.705626612153      -0.455881283773     0.705626612153      -0.455881283773     -0.294363399693     -0.45463662469      
4700000000.0        -0.303299707927     -0.458550211899     0.696690253356      -0.459822484669     0.696690253356      -0.459822484669     -0.303299707927     -0.458550211899     
4800000000.0        -0.312193504148     -0.462240994567     0.687796405757      -0.463540901441     0.687796405757      -0.463540901441     -0.312193504148     -0.462240994567     
4900000000.0        -0.321039366961     -0.465714627921     0.67895049075       -0.467042188985     0.67895049075       -0.467042188985     -0.321039366961     -0.465714627921     
5000000000.0        -0.329832229895     -0.468976816098     0.670157574804      -0.470332051108     0.670157574804      -0.470332051108     -0.329832229895     -0.468976816098     
5100000000.0        -0.338567371596     -0.472033294273     0.661422379269      -0.473416222654     0.661422379269      -0.473416222654     -0.338567371596     -0.472033294273     
5200000000.0        -0.347240405462     -0.474889812038     0.652749290745      -0.476300452887     0.652749290745      -0.476300452887     -0.347240405462     -0.474889812038     
5300000000.0        -0.355847268818     -0.477552118029     0.644142371904      -0.478990490118     0.644142371904      -0.478990490118     -0.355847268818     -0.477552118029     
5400000000.0        -0.364384211742     -0.480025945757     0.635605372669      -0.481492067531     0.635605372669      -0.481492067531     -0.364384211742     -0.480025945757     
5500000000.0        -0.372847785609     -0.482317000599     0.627141741659      -0.483810890182     0.627141741659      -0.483810890182     -0.372847785609     -0.482317000599     
5600000000.0        -0.381234831461     -0.484430947928     0.618754637832      -0.485952623125     0.618754637832      -0.485952623125     -0.381234831461     -0.484430947928     
5700000000.0        -0.389542468264     -0.486373402316     0.61044694222       -0.487922880617     0.61044694222       -0.487922880617     -0.389542468264     -0.486373402316     
5800000000.0        -0.397768081118     -0.488149917786     0.602221269722      -0.489727216366     0.602221269722      -0.489727216366     -0.397768081118     -0.488149917786     
5900000000.0        -0.405909309486     -0.489765979034     0.594079980871      -0.491371114761     0.594079980871      -0.491371114761     -0.405909309486     -0.489765979034     
6000000000.0        -0.413964035503     -0.49122699361      0.586025193534      -0.492859983046     0.586025193534      -0.492859983046     -0.413964035503     -0.49122699361      
6100000000.0        -0.421930372396     -0.492538284969     0.578058794479      -0.494199144374     0.578058794479      -0.494199144374     -0.421930372396     -0.492538284969     
6200000000.0        -0.429806653076     -0.49370508637      0.570182450796      -0.495393831707     0.570182450796      -0.495393831707     -0.429806653076     -0.49370508637      
6300000000.0        -0.437591418928     -0.494732535557     0.562397621099      -0.496449182497     0.562397621099      -0.496449182497     -0.437591418928     -0.494732535557     
6400000000.0        -0.445283408827     -0.495625670184     0.554705566509      -0.497370234108     0.554705566509      -0.497370234108     -0.445283408827     -0.495625670184     
6500000000.0        -0.452881548429     -0.496389423919     0.547107361372      -0.498161919923     0.547107361372      -0.498161919923     -0.452881548429     -0.496389423919     
6600000000.0        -0.460384939726     -0.497028623196     0.539603903692      -0.498829066097     0.539603903692      -0.498829066097     -0.460384939726     -0.497028623196     
6700000000.0        -0.467792850919     -0.497547984561     0.53219592527       -0.499376388901     0.53219592527       -0.499376388901     -0.467792850919     -0.497547984561     
6800000000.0        -0.475104706591     -0.497952112567     0.52488400152       -0.499808492616     0.52488400152       -0.499808492616     -0.475104706591     -0.497952112567     
6900000000.0        -0.482320078221     -0.498245498176     0.517668560962      -0.500129867941     0.517668560962      -0.500129867941     -0.482320078221     -0.498245498176     
7000000000.0        -0.489438675026     -0.498432517629     0.510549894379      -0.500344890853     0.510549894379      -0.500344890853     -0.489438675026     -0.498432517629     
7100000000.0        -0.496460335148     -0.498517431743     0.503528163628      -0.500457821913     0.503528163628      -0.500457821913     -0.496460335148     -0.498517431743     
7200000000.0        -0.503385017183     -0.49850438559      0.496603410112      -0.500472805943     0.496603410112      -0.500472805943     -0.503385017183     -0.49850438559      
7300000000.0        -0.51021279206      -0.498397408545     0.489775562901      -0.500393872069     0.489775562901      -0.500393872069     -0.51021279206      -0.498397408545     
7400000000.0        -0.516943835262     -0.498200414638     0.483044446512      -0.50022493408      0.483044446512      -0.50022493408      -0.516943835262     -0.498200414638     
7500000000.0        -0.523578419393     -0.497917203209     0.476409788339      -0.499969791077     0.476409788339      -0.499969791077     -0.523578419393     -0.497917203209     
7600000000.0        -0.530116907083     -0.49755145981      0.469871225753      -0.499632128381     0.469871225753      -0.499632128381     -0.530116907083     -0.49755145981      
7700000000.0        -0.536559744222     -0.497106757347     0.463428312863      -0.49921551867      0.463428312863      -0.49921551867      -0.536559744222     -0.497106757347     
7800000000.0        -0.542907453532     -0.496586557428     0.457080526946      -0.498723423326     0.457080526946      -0.498723423326     -0.542907453532     -0.496586557428     
7900000000.0        -0.549160628444     -0.495994211882     0.450827274569      -0.498159193961     0.450827274569      -0.498159193961     -0.549160628444     -0.495994211882     
8000000000.0        -0.555319927307     -0.495332964451     0.444667897385      -0.497526074103     0.444667897385      -0.497526074103     -0.555319927307     -0.495332964451     
8100000000.0        -0.561386067879     -0.494605952608     0.438601677635      -0.496827201016     0.438601677635      -0.496827201016     -0.561386067879     -0.494605952608     
8200000000.0        -0.567359822129     -0.493816209504     0.432627843349      -0.496065607643     0.432627843349      -0.496065607643     -0.567359822129     -0.493816209504     
8300000000.0        -0.573242011313     -0.492966666003     0.42674557327       -0.49524422465      0.42674557327       -0.49524422465      -0.573242011313     -0.492966666003     
8400000000.0        -0.579033501336     -0.492060152818     0.420954001494      -0.494365882552     0.420954001494      -0.494365882552     -0.579033501336     -0.492060152818     
8500000000.0        -0.584735198366     -0.491099402702     0.415252221851      -0.49343331391      0.415252221851      -0.49343331391      -0.584735198366     -0.491099402702     
8600000000.0        -0.590348044715     -0.490087052701     0.40963929203       -0.492449155583     0.40963929203       -0.492449155583     -0.590348044715     -0.490087052701     
8700000000.0        -0.595873014956     -0.489025646453     0.404114237457      -0.491415951024     0.404114237457      -0.491415951024     -0.595873014956     -0.489025646453     
8800000000.0        -0.601311112279     -0.487917636514     0.398676054942      -0.490336152611     0.398676054942      -0.490336152611     -0.601311112279     -0.487917636514     
8900000000.0        -0.606663365075     -0.486765386707     0.393323716093      -0.489212123991     0.393323716093      -0.489212123991     -0.606663365075     -0.486765386707     
9000000000.0        -0.611930823722     -0.485571174485     0.388056170533      -0.488046142446     0.388056170533      -0.488046142446     -0.611930823722     -0.485571174485     
9100000000.0        -0.617114557593     -0.484337193298     0.382872348886      -0.486840401258     0.382872348886      -0.486840401258     -0.617114557593     -0.484337193298     
9200000000.0        -0.622215652247     -0.483065554952     0.377771165597      -0.485597012068     0.377771165597      -0.485597012068     -0.622215652247     -0.483065554952     
9300000000.0        -0.627235206808     -0.481758291961     0.372751521538      -0.484318007234     0.372751521538      -0.484318007234     -0.627235206808     -0.481758291961     
9400000000.0        -0.632174331524     -0.480417359884     0.367812306463      -0.483005342156     0.367812306463      -0.483005342156     -0.632174331524     -0.480417359884     
9500000000.0        -0.637034145492     -0.479044639637     0.362952401274      -0.481660897598     0.362952401274      -0.481660897598     -0.637034145492     -0.479044639637     
9600000000.0        -0.641815774543     -0.477641939779     0.358170680139      -0.480286481972     0.358170680139      -0.480286481972     -0.641815774543     -0.477641939779     
9700000000.0        -0.646520349274     -0.47621099877      0.353466012462      -0.47888383359      0.353466012462      -0.47888383359      -0.646520349274     -0.47621099877      
9800000000.0        -0.651149003228     -0.47475348719      0.348837264699      -0.477454622893     0.348837264699      -0.477454622893     -0.651149003228     -0.47475348719      
9900000000.0        -0.655702871208     -0.473271009925     0.344283302048      -0.476000454627     0.344283302048      -0.476000454627     -0.655702871208     -0.473271009925     
10000000000.0       -0.660183087714     -0.471765108312     0.339802990007      -0.474522869996     0.339802990007      -0.474522869996     -0.660183087714     -0.471765108312     
