# Hz S RI R 50.00 
100000000.0         0.000109249012104   -0.000501037001683  0.999887108326      -0.00102687274498   0.999887108326      -0.00102687274498   0.000109249012104   -0.000501037001683  
200000000.0         0.000107715887242   -0.001002103453     0.999883663861      -0.0020537891428    0.999883663861      -0.0020537891428    0.000107715887242   -0.001002103453     
300000000.0         0.000104959418798   -0.00150321345255   0.999879107225      -0.00308077205418   0.999879107225      -0.00308077205418   0.000104959418798   -0.00150321345255   
400000000.0         0.000101075221174   -0.00200437718848   0.999873342052      -0.00410783821236   0.999873342052      -0.00410783821236   0.000101075221174   -0.00200437718848   
500000000.0         9.60997515222e-05   -0.00250560276444   0.999866330995      -0.00513500127574   0.999866330995      -0.00513500127574   9.60997515222e-05   -0.00250560276444   
600000000.0         9.00513037607e-05   -0.0030068968774    0.999858054757      -0.00616227287838   0.999858054757      -0.00616227287838   9.00513037607e-05   -0.0030068968774    
700000000.0         8.2940422742e-05    -0.00350826517039   0.999848501692      -0.00718966316405   0.999848501692      -0.00718966316405   8.2940422742e-05    -0.00350826517039   
800000000.0         7.47737039826e-05   -0.00400971244759   0.999837664015      -0.00821718110701   0.999837664015      -0.00821718110701   7.47737039826e-05   -0.00400971244759   
900000000.0         6.55554859441e-05   -0.00451124281801   0.999825536123      -0.00924483472387   0.999825536123      -0.00924483472387   6.55554859441e-05   -0.00451124281801   
1000000000.0        5.52887085108e-05   -0.00501285979788   0.999812113746      -0.0102726312233    0.999812113746      -0.0102726312233    5.52887085108e-05   -0.00501285979788   
1100000000.0        4.39753909169e-05   -0.00551456638805   0.999797393471      -0.0113005771178    0.999797393471      -0.0113005771178    4.39753909169e-05   -0.00551456638805   
1200000000.0        3.16169172314e-05   -0.00601636513285   0.999781372466      -0.0123286783084    0.999781372466      -0.0123286783084    3.16169172312e-05   -0.00601636513285   
1300000000.0        1.82142165692e-05   -0.00651825816792   0.999764048308      -0.0133569401531    0.999764048308      -0.0133569401531    1.8214216569e-05    -0.00651825816792   
1400000000.0        3.76788208878e-06   -0.007020247259     0.999745418863      -0.0143853675214    0.999745418863      -0.0143853675214    3.76788208856e-06   -0.007020247259     
1500000000.0        -1.17217474678e-05  -0.00752233383409   0.999725482217      -0.0154139648398    0.999725482217      -0.0154139648398    -1.17217474679e-05  -0.00752233383409   
1600000000.0        -2.82545300848e-05  -0.008024519011     0.999704236613      -0.0164427361301    0.999704236613      -0.0164427361301    -2.82545300846e-05  -0.008024519011     
1700000000.0        -4.58304785393e-05  -0.0085268036205    0.999681680423      -0.0174716850417    0.999681680423      -0.0174716850417    -4.58304785395e-05  -0.0085268036205    
1800000000.0        -6.44497291917e-05  -0.00902918822691   0.999657812112      -0.0185008148798    0.999657812112      -0.0185008148798    -6.44497291918e-05  -0.00902918822691   
1900000000.0        -8.41125182586e-05  -0.00953167314586   0.999632630223      -0.0195301286299    0.999632630223      -0.0195301286299    -8.41125182581e-05  -0.00953167314586   
2000000000.0        -0.000104819163418  -0.01003425846      0.99960613336       -0.0205596289793    0.99960613336       -0.0205596289793    -0.000104819163418  -0.01003425846      
2100000000.0        -0.000126570049347  -0.0105369440332    0.999578320175      -0.0215893183359    0.999578320175      -0.0215893183359    -0.000126570049347  -0.0105369440332    
2200000000.0        -0.000149365616125  -0.0110397295232    0.999549189361      -0.0226191988458    0.999549189361      -0.0226191988458    -0.000149365616125  -0.0110397295232    
2300000000.0        -0.00017320634984   -0.011542614393     0.999518739645      -0.0236492724082    0.999518739645      -0.0236492724082    -0.00017320634984   -0.011542614393     
2400000000.0        -0.000198092774867  -0.0120455979213    0.999486969782      -0.0246795406892    0.999486969782      -0.0246795406892    -0.000198092774868  -0.0120455979213    
2500000000.0        -0.000224025447452  -0.0125486792121    0.999453878551      -0.0257100051351    0.999453878551      -0.0257100051351    -0.000224025447452  -0.0125486792121    
2600000000.0        -0.000251004950309  -0.0130518572031    0.999419464753      -0.0267406669828    0.999419464753      -0.0267406669828    -0.000251004950309  -0.0130518572031    
2700000000.0        -0.000279031888048  -0.0135551306743    0.999383727206      -0.0277715272714    0.999383727206      -0.0277715272714    -0.000279031888048  -0.0135551306743    
2800000000.0        -0.000308106883253  -0.0140584982551    0.999346664746      -0.0288025868516    0.999346664746      -0.0288025868516    -0.000308106883253  -0.0140584982551    
2900000000.0        -0.00033823057308   -0.014561958431     0.999308276222      -0.0298338463942    0.999308276222      -0.0298338463942    -0.000338230573081  -0.014561958431     
3000000000.0        -0.000369403606319  -0.0150655095506    0.999268560497      -0.0308653063994    0.999268560497      -0.0308653063994    -0.000369403606319  -0.0150655095506    
3100000000.0        -0.000401626640786  -0.0155691498313    0.999227516448      -0.0318969672036    0.999227516448      -0.0318969672036    -0.000401626640786  -0.0155691498313    
3200000000.0        -0.000434900341048  -0.0160728773648    0.999185142964      -0.0329288289874    0.999185142964      -0.0329288289874    -0.000434900341048  -0.0160728773648    
3300000000.0        -0.00046922537638   -0.0165766901229    0.999141438943      -0.0339608917819    0.999141438943      -0.0339608917819    -0.000469225376381  -0.0165766901229    
3400000000.0        -0.000504602418946  -0.0170805859618    0.999096403297      -0.0349931554752    0.999096403297      -0.0349931554752    -0.000504602418946  -0.0170805859618    
3500000000.0        -0.000541032142161  -0.0175845626274    0.999050034948      -0.0360256198186    0.999050034948      -0.0360256198186    -0.000541032142161  -0.0175845626274    
3600000000.0        -0.000578515219214  -0.0180886177595    0.999002332828      -0.0370582844318    0.999002332828      -0.0370582844318    -0.000578515219214  -0.0180886177595    
3700000000.0        -0.000617052321729  -0.018592748896     0.998953295879      -0.0380911488086    0.998953295879      -0.0380911488086    -0.00061705232173   -0.018592748896     
3800000000.0        -0.000656644118533  -0.0190969534769    0.998902923056      -0.0391242123215    0.998902923056      -0.0391242123215    -0.000656644118533  -0.0190969534769    
3900000000.0        -0.000697291274545  -0.0196012288481    0.998851213321      -0.040157474227     0.998851213321      -0.040157474227     -0.000697291274545  -0.0196012288481    
4000000000.0        -0.000738994449741  -0.020105572265     0.99879816565       -0.0411909336695    0.99879816565       -0.0411909336695    -0.000738994449741  -0.020105572265     
4100000000.0        -0.000781754298208  -0.0206099808959    0.998743779028      -0.042224589686     0.998743779028      -0.042224589686     -0.000781754298208  -0.0206099808959    
4200000000.0        -0.000825571467272  -0.0211144518253    0.998688052451      -0.0432584412098    0.998688052451      -0.0432584412098    -0.000825571467272  -0.0211144518253    
4300000000.0        -0.000870446596681  -0.021618982057     0.998630984926      -0.044292487075     0.998630984926      -0.044292487075     -0.000870446596681  -0.021618982057     
4400000000.0        -0.000916380317855  -0.0221235685172    0.998572575471      -0.0453267260194    0.998572575471      -0.0453267260194    -0.000916380317855  -0.0221235685172    
4500000000.0        -0.000963373253181  -0.022628208057     0.998512823115      -0.0463611566884    0.998512823115      -0.0463611566884    -0.000963373253181  -0.022628208057     
4600000000.0        -0.00101142601536   -0.0231328974558    0.9984517269        -0.0473957776385    0.9984517269        -0.0473957776385    -0.00101142601536   -0.0231328974558    
4700000000.0        -0.00106053920678   -0.023637633423     0.998389285878      -0.0484305873402    0.998389285878      -0.0484305873402    -0.00106053920678   -0.023637633423     
4800000000.0        -0.00111071341897   -0.0241424126012    0.998325499113      -0.0494655841814    0.998325499113      -0.0494655841814    -0.00111071341897   -0.0241424126012    
4900000000.0        -0.00116194923203   -0.0246472315686    0.998260365682      -0.0505007664698    0.998260365682      -0.0505007664698    -0.00116194923203   -0.0246472315686    
5000000000.0        -0.00121424721416   -0.0251520868408    0.998193884674      -0.0515361324364    0.998193884674      -0.0515361324364    -0.00121424721416   -0.0251520868408    
5100000000.0        -0.00126760792115   -0.0256569748736    0.998126055189      -0.0525716802378    0.998126055189      -0.0525716802378    -0.00126760792115   -0.0256569748736    
5200000000.0        -0.00132203189592   -0.0261618920645    0.998056876342      -0.0536074079588    0.998056876342      -0.0536074079588    -0.00132203189592   -0.0261618920645    
5300000000.0        -0.00137751966817   -0.0266668347556    0.99798634726       -0.0546433136149    0.99798634726       -0.0546433136149    -0.00137751966817   -0.0266668347556    
5400000000.0        -0.00143407175389   -0.0271717992347    0.997914467081      -0.055679395155     0.997914467081      -0.055679395155     -0.00143407175389   -0.0271717992347    
5500000000.0        -0.00149168865503   -0.0276767817379    0.997841234959      -0.0567156504632    0.997841234959      -0.0567156504632    -0.00149168865503   -0.0276767817379    
5600000000.0        -0.00155037085916   -0.0281817784509    0.99776665006       -0.0577520773614    0.99776665006       -0.0577520773614    -0.00155037085916   -0.0281817784509    
5700000000.0        -0.00161011883908   -0.0286867855114    0.997690711564      -0.0587886736113    0.997690711564      -0.0587886736113    -0.00161011883908   -0.0286867855114    
5800000000.0        -0.00167093305254   -0.0291917990099    0.997613418665      -0.0598254369165    0.997613418665      -0.0598254369165    -0.00167093305254   -0.0291917990099    
5900000000.0        -0.00173281394193   -0.0296968149924    0.99753477057       -0.0608623649246    0.99753477057       -0.0608623649246    -0.00173281394193   -0.0296968149924    
6000000000.0        -0.00179576193396   -0.0302018294611    0.9974547665        -0.0618994552285    0.9974547665        -0.0618994552285    -0.00179576193396   -0.0302018294611    
6100000000.0        -0.00185977743945   -0.0307068383766    0.997373405693      -0.0629367053693    0.997373405693      -0.0629367053693    -0.00185977743945   -0.0307068383766    
6200000000.0        -0.00192486085302   -0.031211837659     0.997290687398      -0.063974112837     0.997290687398      -0.063974112837     -0.00192486085302   -0.031211837659     
6300000000.0        -0.00199101255286   -0.0317168231893    0.99720661088       -0.0650116750731    0.99720661088       -0.0650116750731    -0.00199101255286   -0.0317168231893    
6400000000.0        -0.0020582329005    -0.0322217908113    0.997121175418      -0.0660493894717    0.997121175418      -0.0660493894717    -0.0020582329005    -0.0322217908113    
6500000000.0        -0.00212652224059   -0.0327267363322    0.997034380309      -0.0670872533812    0.997034380309      -0.0670872533812    -0.00212652224059   -0.0327267363322    
6600000000.0        -0.00219588090068   -0.0332316555246    0.99694622486       -0.0681252641061    0.99694622486       -0.0681252641061    -0.00219588090068   -0.0332316555246    
6700000000.0        -0.00226630919103   -0.0337365441273    0.996856708397      -0.0691634189082    0.996856708397      -0.0691634189082    -0.00226630919103   -0.0337365441273    
6800000000.0        -0.00233780740444   -0.0342413978467    0.99676583026       -0.0702017150083    0.99676583026       -0.0702017150083    -0.00233780740444   -0.0342413978467    
6900000000.0        -0.00241037581602   -0.034746212358     0.996673589805      -0.0712401495874    0.996673589805      -0.0712401495874    -0.00241037581602   -0.034746212358     
7000000000.0        -0.00248401468308   -0.0352509833063    0.996579986401      -0.0722787197882    0.996579986401      -0.0722787197882    -0.00248401468308   -0.0352509833063    
7100000000.0        -0.00255872424492   -0.0357557063077    0.996485019437      -0.0733174227163    0.996485019437      -0.0733174227163    -0.00255872424492   -0.0357557063077    
7200000000.0        -0.0026345047227    -0.0362603769504    0.996388688313      -0.0743562554417    0.996388688313      -0.0743562554417    -0.0026345047227    -0.0362603769504    
7300000000.0        -0.0027113563193    -0.0367649907959    0.996290992448      -0.0753952149997    0.996290992448      -0.0753952149997    -0.0027113563193    -0.0367649907959    
7400000000.0        -0.00278927921918   -0.0372695433797    0.996191931277      -0.0764342983923    0.996191931277      -0.0764342983923    -0.00278927921918   -0.0372695433797    
7500000000.0        -0.00286827358821   -0.0377740302125    0.996091504249      -0.0774735025895    0.996091504249      -0.0774735025895    -0.00286827358821   -0.0377740302125    
7600000000.0        -0.00294833957363   -0.0382784467811    0.995989710831      -0.07851282453      0.995989710831      -0.07851282453      -0.00294833957363   -0.0382784467811    
7700000000.0        -0.00302947730384   -0.0387827885494    0.995886550505      -0.0795522611227    0.995886550505      -0.0795522611227    -0.00302947730384   -0.0387827885494    
7800000000.0        -0.00311168688837   -0.0392870509591    0.99578202277       -0.0805918092476    0.99578202277       -0.0805918092476    -0.00311168688837   -0.0392870509591    
7900000000.0        -0.00319496841772   -0.0397912294309    0.995676127142      -0.0816314657569    0.995676127142      -0.0816314657569    -0.00319496841772   -0.0397912294309    
8000000000.0        -0.00327932196329   -0.040295319365     0.99556886315       -0.0826712274757    0.99556886315       -0.0826712274757    -0.00327932196329   -0.040295319365     
8100000000.0        -0.00336474757727   -0.0407993161423    0.995460230345      -0.0837110912035    0.995460230345      -0.0837110912035    -0.00336474757727   -0.0407993161423    
8200000000.0        -0.00345124529258   -0.0413032151247    0.99535022829       -0.0847510537145    0.99535022829       -0.0847510537145    -0.00345124529258   -0.0413032151247    
8300000000.0        -0.00353881512276   -0.0418070116564    0.995238856568      -0.0857911117591    0.995238856568      -0.0857911117591    -0.00353881512276   -0.0418070116564    
8400000000.0        -0.00362745706189   -0.0423107010643    0.995126114775      -0.0868312620644    0.995126114775      -0.0868312620644    -0.00362745706189   -0.0423107010643    
8500000000.0        -0.00371717108456   -0.042814278659     0.995012002527      -0.0878715013353    0.995012002527      -0.0878715013353    -0.00371717108457   -0.042814278659     
8600000000.0        -0.00380795714576   -0.0433177397352    0.994896519455      -0.0889118262551    0.994896519455      -0.0889118262551    -0.00380795714576   -0.0433177397352    
8700000000.0        -0.00389981518082   -0.0438210795729    0.994779665209      -0.0899522334865    0.994779665209      -0.0899522334865    -0.00389981518082   -0.0438210795729    
8800000000.0        -0.00399274510538   -0.0443242934374    0.994661439453      -0.0909927196722    0.994661439453      -0.0909927196722    -0.00399274510538   -0.0443242934374    
8900000000.0        -0.0040867468153    -0.0448273765804    0.994541841869      -0.092033281436     0.994541841869      -0.092033281436     -0.0040867468153    -0.0448273765804    
9000000000.0        -0.00418182018663   -0.0453303242409    0.994420872158      -0.0930739153832    0.994420872158      -0.0930739153832    -0.00418182018663   -0.0453303242409    
9100000000.0        -0.00427796507558   -0.0458331316451    0.994298530035      -0.0941146181015    0.994298530035      -0.0941146181015    -0.00427796507558   -0.0458331316451    
9200000000.0        -0.00437518131841   -0.0463357940075    0.994174815235      -0.0951553861616    0.994174815235      -0.0951553861616    -0.00437518131841   -0.0463357940075    
9300000000.0        -0.00447346873149   -0.0468383065316    0.994049727507      -0.0961962161179    0.994049727507      -0.0961962161179    -0.00447346873149   -0.0468383065316    
9400000000.0        -0.00457282711116   -0.0473406644099    0.993923266619      -0.0972371045094    0.993923266619      -0.0972371045094    -0.00457282711116   -0.0473406644099    
9500000000.0        -0.00467325623378   -0.0478428628253    0.993795432356      -0.09827804786      0.993795432356      -0.09827804786      -0.00467325623378   -0.0478428628253    
9600000000.0        -0.00477475585565   -0.0483448969507    0.99366622452       -0.0993190426793    0.99366622452       -0.0993190426793    -0.00477475585565   -0.0483448969507    
9700000000.0        -0.004877325713     -0.0488467619505    0.99353564293       -0.100360085463     0.99353564293       -0.100360085463     -0.004877325713     -0.0488467619505    
9800000000.0        -0.00498096552196   -0.0493484529802    0.993403687423      -0.101401172695     0.993403687423      -0.101401172695     -0.00498096552196   -0.0493484529802    
9900000000.0        -0.00508567497856   -0.0498499651876    0.993270357851      -0.102442300844     0.993270357851      -0.102442300844     -0.00508567497856   -0.0498499651876    
10000000000.0       -0.00519145375868   -0.0503512937131    0.993135654087      -0.10348346637      0.993135654087      -0.10348346637      -0.00519145375868   -0.0503512937131    
