# Hz S RI R 50.00 
100000000.0         -0.0296260405487    -0.169108342895     0.970283654643      -0.169247266597     0.970283654643      -0.169247266597     -0.0296260405487    -0.169108342895     
200000000.0         -0.108643013104     -0.310607333683     0.891266033568      -0.310885195661     0.891266033568      -0.310885195661     -0.108643013104     -0.310607333683     
300000000.0         -0.215061345391     -0.410185276323     0.784847187142      -0.41060210042      0.784847187142      -0.41060210042      -0.215061345391     -0.410185276323     
400000000.0         -0.327413495558     -0.468504324887     0.672494579621      -0.469060142817     0.672494579621      -0.469060142817     -0.327413495558     -0.468504324887     
500000000.0         -0.431912505736     -0.49449579572      0.567995139139      -0.495190646358     0.567995139139      -0.495190646358     -0.431912505736     -0.49449579572      
600000000.0         -0.52254546893      -0.498565516428     0.477361757595      -0.499399445345     0.477361757595      -0.499399445345     -0.52254546893      -0.498565516428     
700000000.0         -0.598267046863     -0.489244398099     0.401639764381      -0.49021745721      0.401639764381      -0.49021745721      -0.598267046863     -0.489244398099     
800000000.0         -0.660394770559     -0.472493671783     0.339511622731      -0.473605919073     0.339511622731      -0.473605919073     -0.660394770559     -0.472493671783     
900000000.0         -0.71102932683      -0.452125634768     0.288876641878      -0.453377134063     0.288876641878      -0.453377134063     -0.71102932683      -0.452125634768     
1000000000.0        -0.752296728911     -0.430443133251     0.247608805726      -0.43183395402      0.247608805726      -0.43183395402      -0.752296728911     -0.430443133251     
1100000000.0        -0.786058264734     -0.408774161619     0.213846824193      -0.410304378804     0.213846824193      -0.410304378804     -0.786058264734     -0.408774161619     
1200000000.0        -0.813842372923     -0.387845301394     0.186062256994      -0.389514995257     0.186062256994      -0.389514995257     -0.813842372923     -0.387845301394     
1300000000.0        -0.836866425599     -0.368022527215     0.163037730685      -0.369831783206     0.163037730685      -0.369831783206     -0.836866425599     -0.368022527215     
1400000000.0        -0.856086691748     -0.349460394153     0.143816975213      -0.351409302781     0.143816975213      -0.351409302781     -0.856086691748     -0.349460394153     
1500000000.0        -0.872250759732     -0.332192514599     0.127652401328      -0.334281171324     0.127652401328      -0.334281171324     -0.872250759732     -0.332192514599     
1600000000.0        -0.885943313274     -0.316185738262     0.113959324568      -0.318414243389     0.113959324568      -0.318414243389     -0.885943313274     -0.316185738262     
1700000000.0        -0.897623193769     -0.30137227852      0.102278902904      -0.303740737105     0.102278902904      -0.303740737105     -0.897623193769     -0.30137227852      
1800000000.0        -0.90765234544      -0.287668548574     0.0922491915679     -0.290177070332     0.0922491915679     -0.290177070332     -0.90765234544      -0.287668548574     
1900000000.0        -0.91631802978      -0.274986020492     0.0835829285867     -0.277634719719     0.0835829285867     -0.277634719719     -0.91631802978      -0.274986020492     
2000000000.0        -0.923849746207     -0.263237310159     0.076050614123      -0.266026305652     0.076050614123      -0.266026305652     -0.923849746207     -0.263237310159     
2100000000.0        -0.930432096443     -0.252339416854     0.0694676460762     -0.255268831841     0.0694676460762     -0.255268831841     -0.930432096443     -0.252339416854     
2200000000.0        -0.936214580002     -0.242215279838     0.063684524593      -0.24528524191      0.063684524593      -0.24528524191      -0.936214580002     -0.242215279838     
2300000000.0        -0.941319079729     -0.232794353216     0.0585793665176     -0.236004994268     0.0585793665176     -0.236004994268     -0.941319079729     -0.232794353216     
2400000000.0        -0.945845609911     -0.22401262209      0.0540521572783     -0.227364078258     0.0540521572783     -0.227364078258     -0.945845609911     -0.22401262209      
2500000000.0        -0.949876754937     -0.215812314545     0.0500203122233     -0.219304726154     0.0500203122233     -0.219304726154     -0.949876754937     -0.215812314545     
2600000000.0        -0.953481117408     -0.208141461669     0.0464152285056     -0.211774973183     0.0464152285056     -0.211774973183     -0.953481117408     -0.208141461669     
2700000000.0        -0.956716013369     -0.20095339546      0.0431795898485     -0.20472815543      0.0431795898485     -0.20472815543      -0.956716013369     -0.20095339546      
2800000000.0        -0.959629592217     -0.19420623649      0.0402652466367     -0.198122397515     0.0402652466367     -0.198122397515     -0.959629592217     -0.19420623649      
2900000000.0        -0.962262514433     -0.18786240014      0.0376315381826     -0.191920118824     0.0376315381826     -0.191920118824     -0.962262514433     -0.18786240014      
3000000000.0        -0.964649287448     -0.181888136232     0.035243956854      -0.186087573144     0.035243956854      -0.186087573144     -0.964649287448     -0.181888136232     
3100000000.0        -0.966819335638     -0.176253108569     0.0330730780854     -0.18059442821      0.0330730780854     -0.18059442821      -0.966819335638     -0.176253108569     
3200000000.0        -0.968797862274     -0.170930016034     0.0310936984183     -0.175413386801     0.0310936984183     -0.175413386801     -0.968797862274     -0.170930016034     
3300000000.0        -0.970606547775     -0.165894254113     0.029284137256      -0.170519848273     0.029284137256      -0.170519848273     -0.970606547775     -0.165894254113     
3400000000.0        -0.972264118362     -0.161123614294     0.0276256682015     -0.165891607952     0.0276256682015     -0.165891607952     -0.972264118362     -0.161123614294     
3500000000.0        -0.973786811581     -0.156598018093     0.0261020535354     -0.16150859117      0.0261020535354     -0.16150859117      -0.973786811581     -0.156598018093     
3600000000.0        -0.975188759291     -0.152299282253     0.0246991612323     -0.157352618461     0.0246991612323     -0.157352618461     -0.975188759291     -0.152299282253     
3700000000.0        -0.976482304239     -0.148210911727     0.0234046483769     -0.153407198549     0.0234046483769     -0.153407198549     -0.976482304239     -0.148210911727     
3800000000.0        -0.977678262963     -0.144317917242     0.0222076982677     -0.149657345912     0.0222076982677     -0.149657345912     -0.977678262963     -0.144317917242     
3900000000.0        -0.978786145062     -0.140606654507     0.0210988011426     -0.146089419996     0.0210988011426     -0.146089419996     -0.978786145062     -0.140606654507     
4000000000.0        -0.97981433686      -0.137064682441     0.0200695705153     -0.142690983439     0.0200695705153     -0.142690983439     -0.97981433686      -0.137064682441     
4100000000.0        -0.980770255866     -0.133680638056     0.0191125887153     -0.139450676961     0.0191125887153     -0.139450676961     -0.980770255866     -0.133680638056     
4200000000.0        -0.981660481182     -0.130444125924     0.0182212764813     -0.136358108834     0.0182212764813     -0.136358108834     -0.981660481182     -0.130444125924     
4300000000.0        -0.982490864009     -0.127345620424     0.0173897824512     -0.133403757123     0.0173897824512     -0.133403757123     -0.982490864009     -0.127345620424     
4400000000.0        -0.983266621636     -0.12437637915      0.0166128891749     -0.130578883104     0.0166128891749     -0.130578883104     -0.983266621636     -0.12437637915      
4500000000.0        -0.983992417648     -0.121528366116     0.0158859329053     -0.127875454467     0.0158859329053     -0.127875454467     -0.983992417648     -0.121528366116     
4600000000.0        -0.98467243061      -0.118794183539     0.015204734918      -0.125286077102     0.015204734918      -0.125286077102     -0.98467243061      -0.118794183539     
4700000000.0        -0.985310413054     -0.116167011146     0.0145655425164     -0.122803934405     0.0145655425164     -0.122803934405     -0.985310413054     -0.116167011146     
4800000000.0        -0.98590974232      -0.11364055209      0.0139649781995     -0.1204227332       0.0139649781995     -0.1204227332       -0.98590974232      -0.11364055209      
4900000000.0        -0.986473464475     -0.111208984685     0.0133999957338     -0.11813665547      0.0133999957338     -0.11813665547      -0.986473464475     -0.111208984685     
5000000000.0        -0.987004332391     -0.108866919255     0.0128678420823     -0.115940315214     0.0128678420823     -0.115940315214     -0.987004332391     -0.108866919255     
5100000000.0        -0.987504838826     -0.106609359502     0.0123660243206     -0.11382871981      0.0123660243206     -0.11382871981      -0.987504838826     -0.106609359502     
5200000000.0        -0.987977245251     -0.104431667859     0.0118922808087     -0.111797235377     0.0118922808087     -0.111797235377     -0.987977245251     -0.104431667859     
5300000000.0        -0.988423607034     -0.102329534376     0.0114445560077     -0.109841555651     0.0114445560077     -0.109841555651     -0.988423607034     -0.102329534376     
5400000000.0        -0.988845795495     -0.100298948721     0.0110209784268     -0.107957674001     0.0110209784268     -0.107957674001     -0.988845795495     -0.100298948721     
5500000000.0        -0.989245517262     -0.0983361749635    0.0106198412639     -0.106141858202     0.0106198412639     -0.106141858202     -0.989245517262     -0.0983361749635    
5600000000.0        -0.989624331305     -0.0964377288161    0.010239585373      -0.104390627688     0.010239585373      -0.104390627688     -0.989624331305     -0.0964377288161    
5700000000.0        -0.989983663956     -0.0946003570706    0.00987878424507    -0.102700732979     0.00987878424507    -0.102700732979     -0.989983663956     -0.0946003570706    
5800000000.0        -0.99032482218      -0.092821018988     0.00953613073472    -0.101069137082     0.00953613073472    -0.101069137082     -0.99032482218      -0.092821018988     
5900000000.0        -0.99064900533      -0.0910968694339    0.00921042530723    -0.0994929986213    0.00921042530723    -0.0994929986213    -0.99064900533      -0.0910968694339    
6000000000.0        -0.990957315575     -0.0894252435724    0.00890056560909    -0.0979696565353    0.00890056560909    -0.0979696565353    -0.990957315575     -0.0894252435724    
6100000000.0        -0.991250767171     -0.0878036429582    0.00860553719577    -0.0964966161706    0.00860553719577    -0.0964966161706    -0.991250767171     -0.0878036429582    
6200000000.0        -0.991530294726     -0.0862297228795    0.00832440527252    -0.0950715366253    0.00832440527252    -0.0950715366253    -0.991530294726     -0.0862297228795    
6300000000.0        -0.991796760563     -0.0847012808258    0.00805630732397    -0.0936922192182    0.00805630732397    -0.0936922192182    -0.991796760563     -0.0847012808258    
6400000000.0        -0.992050961311     -0.0832162459673    0.0078004465252     -0.0923565969687    0.0078004465252     -0.0923565969687    -0.992050961311     -0.0832162459673    
6500000000.0        -0.99229363381      -0.0817726695432    0.0075560858413     -0.0910627249872    0.0075560858413     -0.0910627249872    -0.99229363381      -0.0817726695432    
6600000000.0        -0.992525460395     -0.0803687160725    0.00732254273459    -0.089808771686     0.00732254273459    -0.089808771686     -0.992525460395     -0.0803687160725    
6700000000.0        -0.992747073662     -0.0790026553049    0.00709918440915    -0.0885930107316    0.00709918440915    -0.0885930107316    -0.992747073662     -0.0790026553049    
6800000000.0        -0.992959060737     -0.0776728548416    0.00688542353141    -0.0874138136669    0.00688542353141    -0.0874138136669    -0.992959060737     -0.0776728548416    
6900000000.0        -0.993161967139     -0.0763777733635    0.0066807143733     -0.0862696431396    0.0066807143733     -0.0862696431396    -0.993161967139     -0.0763777733635    
7000000000.0        -0.993356300262     -0.0751159544079    0.00648454933084    -0.0851590466807    0.00648454933084    -0.0851590466807    -0.993356300262     -0.0751159544079    
7100000000.0        -0.993542532517     -0.073886020645     0.00629645577732    -0.0840806509814    0.00629645577732    -0.0840806509814    -0.993542532517     -0.073886020645     
7200000000.0        -0.993721104184     -0.0726866686069    0.00611599321471    -0.0830331566233    0.00611599321471    -0.0830331566233    -0.993721104184     -0.0726866686069    
7300000000.0        -0.993892425993     -0.0715166638293    0.00594275069155    -0.0820153332209    0.00594275069155    -0.0820153332209    -0.993892425993     -0.0715166638293    
7400000000.0        -0.994056881467     -0.0703748363682    0.00577634445929    -0.0810260149397    0.00577634445929    -0.0810260149397    -0.994056881467     -0.0703748363682    
7500000000.0        -0.994214829056     -0.0692600766594    0.00561641584228    -0.0800640963561    0.00561641584228    -0.0800640963561    -0.994214829056     -0.0692600766594    
7600000000.0        -0.994366604067     -0.06817133169      0.00546262929948    -0.0791285286297    0.00546262929948    -0.0791285286297    -0.994366604067     -0.06817133169      
7700000000.0        -0.994512520439     -0.0671076014553    0.00531467065835    -0.0782183159619    0.00531467065835    -0.0782183159619    -0.994512520439     -0.0671076014553    
7800000000.0        -0.994652872348     -0.0660679356774    0.00517224550394    -0.0773325123145    0.00517224550394    -0.0773325123145    -0.994652872348     -0.0660679356774    
7900000000.0        -0.994787935681     -0.0650514307619    0.00503507770751    -0.076470218368     0.00503507770751    -0.076470218368     -0.994787935681     -0.0650514307619    
8000000000.0        -0.994917969378     -0.0640572269751    0.0049029080813     -0.075630578699     0.0049029080813     -0.075630578699     -0.994917969378     -0.0640572269751    
8100000000.0        -0.995043216668     -0.0630845058206    0.00477549314711    -0.0748127791583    0.00477549314711    -0.0748127791583    -0.995043216668     -0.0630845058206    
8200000000.0        -0.995163906195     -0.0621324876021    0.00465260400796    -0.0740160444344    0.00465260400796    -0.0740160444344    -0.995163906195     -0.0621324876021    
8300000000.0        -0.995280253051     -0.0612004291552    0.0045340253129     -0.0732396357858    0.0045340253129     -0.0732396357858    -0.995280253051     -0.0612004291552    
8400000000.0        -0.99539245973      -0.0602876217353    0.00441955430659    -0.0724828489302    0.00441955430659    -0.0724828489302    -0.99539245973      -0.0602876217353    
8500000000.0        -0.995500717        -0.0593933890499    0.00430899995553    -0.0717450120776    0.00430899995553    -0.0717450120776    -0.995500717        -0.0593933890499    
8600000000.0        -0.995605204706     -0.058517085423     0.00420218214413    -0.0710254840953    0.00420218214413    -0.0710254840953    -0.995605204706     -0.058517085423     
8700000000.0        -0.995706092512     -0.0576580940824    0.00409893093432    -0.0703236527961    0.00409893093432    -0.0703236527961    -0.995706092512     -0.0576580940824    
8800000000.0        -0.995803540583     -0.0568158255592    0.00399908588291    -0.0696389333393    0.00399908588291    -0.0696389333393    -0.995803540583     -0.0568158255592    
8900000000.0        -0.995897700213     -0.0559897161929    0.00390249541178    -0.0689707667355    0.00390249541178    -0.0689707667355    -0.995897700213     -0.0559897161929    
9000000000.0        -0.995988714409     -0.0551792267321    0.00380901622619    -0.0683186184491    0.00380901622619    -0.0683186184491    -0.995988714409     -0.0551792267321    
9100000000.0        -0.996076718429     -0.0543838410251    0.003718512777      -0.0676819770893    0.003718512777      -0.0676819770893    -0.996076718429     -0.0543838410251    
9200000000.0        -0.996161840277     -0.0536030647933    0.00363085676321    -0.0670603531848    0.00363085676321    -0.0670603531848    -0.996161840277     -0.0536030647933    
9300000000.0        -0.996244201164     -0.0528364244814    0.0035459266713     -0.0664532780341    0.0035459266713     -0.0664532780341    -0.996244201164     -0.0528364244814    
9400000000.0        -0.996323915938     -0.0520834661792    0.00346360734829    -0.0658603026289    0.00346360734829    -0.0658603026289    -0.996323915938     -0.0520834661792    
9500000000.0        -0.996401093475     -0.051343754609     0.00338378960579    -0.0652809966421    0.00338378960579    -0.0652809966421    -0.996401093475     -0.051343754609     
9600000000.0        -0.996475837051     -0.0506168721753    0.00330636985246    -0.0647149474781    0.00330636985246    -0.0647149474781    -0.996475837051     -0.0506168721753    
9700000000.0        -0.996548244679     -0.0499024180712    0.00323124975257    -0.0641617593805    0.00323124975257    -0.0641617593805    -0.996548244679     -0.0499024180712    
9800000000.0        -0.996618409432     -0.0492000074381    0.00315833590858    -0.0636210525925    0.00315833590858    -0.0636210525925    -0.996618409432     -0.0492000074381    
9900000000.0        -0.996686419731     -0.0485092705756    0.00308753956585    -0.0630924625676    0.00308753956585    -0.0630924625676    -0.996686419731     -0.0485092705756    
10000000000.0       -0.996752359627     -0.0478298521967    0.00301877633769    -0.0625756392259    0.00301877633769    -0.0625756392259    -0.996752359627     -0.0478298521967    
