# Hz S RI R 50.00 
100000000.0         -0.000680775226772  -0.0260102595057    0.999256538462      -0.0263402506693    0.999256538462      -0.0263402506693    -0.000680775226772  -0.0260102595057    
200000000.0         -0.00275742430923   -0.0519092624568    0.997179298623      -0.0525693482778    0.997179298623      -0.0525693482778    -0.00275742430923   -0.0519092624568    
300000000.0         -0.00618208661655   -0.077590662878     0.993754044137      -0.0785810004573    0.993754044137      -0.0785810004573    -0.00618208661655   -0.077590662878     
400000000.0         -0.0109265896837    -0.102951252382     0.989008893366      -0.104272039613     0.989008893366      -0.104272039613     -0.0109265896837    -0.102951252382     
500000000.0         -0.0169525348134    -0.127892225312     0.9829822241        -0.129543694102     0.9829822241        -0.129543694102     -0.0169525348134    -0.127892225312     
600000000.0         -0.024212059296     -0.152320370802     0.975721888274      -0.154302782422     0.975721888274      -0.154302782422     -0.024212059296     -0.152320370802     
700000000.0         -0.0326487670944    -0.176149125952     0.967284275439      -0.178462767491     0.967284275439      -0.178462767491     -0.0326487670944    -0.176149125952     
800000000.0         -0.0421987900215    -0.199299459885     0.957733249458      -0.201944641374     0.957733249458      -0.201944641374     -0.0421987900215    -0.199299459885     
900000000.0         -0.0527919431485    -0.221700570841     0.947138992159      -0.224677622839     0.947138992159      -0.224677622839     -0.0527919431485    -0.221700570841     
1000000000.0        -0.0643529376504    -0.243290387699     0.935576790004      -0.246599659209     0.935576790004      -0.246599659209     -0.0643529376504    -0.243290387699     
1100000000.0        -0.0768026150143    -0.264015875383     0.923125799627      -0.267657732015     0.923125799627      -0.267657732015     -0.0768026150143    -0.264015875383     
1200000000.0        -0.0900591687277    -0.283833150712     0.909867825984      -0.287807973061     0.909867825984      -0.287807973061     -0.0900591687277    -0.283833150712     
1300000000.0        -0.104039323037     -0.302707421326     0.895886143498      -0.307015603506     0.895886143498      -0.307015603506     -0.104039323037     -0.302707421326     
1400000000.0        -0.118659442795     -0.320612765091     0.881264386153      -0.325254713415     0.881264386153      -0.325254713415     -0.118659442795     -0.320612765091     
1500000000.0        -0.133836553444     -0.337531770881     0.866085527462      -0.342507902659     0.866085527462      -0.342507902659     -0.133836553444     -0.337531770881     
1600000000.0        -0.149489255497     -0.353455063808     0.850430965957      -0.358765806254     0.850430965957      -0.358765806254     -0.149489255497     -0.353455063808     
1700000000.0        -0.165538523117     -0.368380738913     0.834379726593      -0.374026528139     0.834379726593      -0.374026528139     -0.165538523117     -0.368380738913     
1800000000.0        -0.18190838136      -0.382313727123     0.818007783488      -0.388295007226     0.818007783488      -0.388295007226     -0.18190838136      -0.382313727123     
1900000000.0        -0.198526461081     -0.39526511625      0.801387505001      -0.401582338466     0.801387505001      -0.401582338466     -0.198526461081     -0.39526511625      
2000000000.0        -0.215324434336     -0.407251447949     0.784587218329      -0.41390506988      0.784587218329      -0.41390506988      -0.215324434336     -0.407251447949     
2100000000.0        -0.232238336204     -0.418294009268     0.767670887673      -0.42528449417      0.767670887673      -0.42528449417      -0.232238336204     -0.418294009268     
2200000000.0        -0.249208781339     -0.428418134798     0.750697897684      -0.435745950931     0.750697897684      -0.435745950931     -0.249208781339     -0.428418134798     
2300000000.0        -0.266181085239     -0.437652532661     0.733722932187      -0.445318152684     0.733722932187      -0.445318152684     -0.266181085239     -0.437652532661     
2400000000.0        -0.283105301266     -0.446028644829     0.716795937165      -0.45403254525      0.716795937165      -0.45403254525      -0.283105301266     -0.446028644829     
2500000000.0        -0.29993618489      -0.453580049643     0.699962156502      -0.461922710317     0.699962156502      -0.461922710317     -0.29993618489      -0.453580049643     
2600000000.0        -0.316633096677     -0.460341912009     0.683262229005      -0.469023815669     0.683262229005      -0.469023815669     -0.316633096677     -0.460341912009     
2700000000.0        -0.333159855106     -0.46635048458      0.666732335572      -0.475372116414     0.666732335572      -0.475372116414     -0.333159855106     -0.46635048458      
2800000000.0        -0.349484549694     -0.471642661412     0.65040438608       -0.481004508677     0.65040438608       -0.481004508677     -0.349484549694     -0.471642661412     
2900000000.0        -0.365579324        -0.476255584048     0.634306236369      -0.485958135716     0.634306236369      -0.485958135716     -0.365579324        -0.476255584048     
3000000000.0        -0.381420137118     -0.480226298749     0.618461926752      -0.490270045181     0.618461926752      -0.490270045181     -0.381420137118     -0.480226298749     
3100000000.0        -0.396986511231     -0.48359146263      0.602891934464      -0.493976895286     0.602891934464      -0.493976895286     -0.396986511231     -0.48359146263      
3200000000.0        -0.412261271713     -0.486387095784     0.587613433551      -0.497114706957     0.587613433551      -0.497114706957     -0.412261271713     -0.486387095784     
3300000000.0        -0.427230285275     -0.488648375991     0.57264055673       -0.499718658567     0.57264055673       -0.499718658567     -0.427230285275     -0.488648375991     
3400000000.0        -0.441882200663     -0.490409472322     0.557984654691      -0.501822919565     0.557984654691      -0.501822919565     -0.441882200663     -0.490409472322     
3500000000.0        -0.456208195527     -0.49170341384      0.54365454922       -0.503460519196     0.54365454922       -0.503460519196     -0.456208195527     -0.49170341384      
3600000000.0        -0.470201732302     -0.49256198957      0.52965677733       -0.504663246498     0.52965677733       -0.504663246498     -0.470201732302     -0.49256198957      
3700000000.0        -0.483858325196     -0.493015676038     0.515995824259      -0.505461577854     0.515995824259      -0.505461577854     -0.483858325196     -0.493015676038     
3800000000.0        -0.497175319816     -0.493093588823     0.502674343853      -0.505884628563     0.502674343853      -0.505884628563     -0.497175319816     -0.493093588823     
3900000000.0        -0.510151686399     -0.492823454787     0.489693365332      -0.505960125091     0.489693365332      -0.505960125091     -0.510151686399     -0.492823454787     
4000000000.0        -0.522787827216     -0.492231601913     0.477052485885      -0.505714394921     0.477052485885      -0.505714394921     -0.522787827216     -0.492231601913     
4100000000.0        -0.535085398329     -0.491342963939     0.464750048914      -0.505172371202     0.464750048914      -0.505172371202     -0.535085398329     -0.491342963939     
4200000000.0        -0.547047145633     -0.490181097241     0.45278330799       -0.504357609645     0.45278330799       -0.504357609645     -0.547047145633     -0.490181097241     
4300000000.0        -0.558676754845     -0.488768207712     0.441148576868      -0.503292315415     0.441148576868      -0.503292315415     -0.558676754845     -0.488768207712     
4400000000.0        -0.569978714974     -0.487125185632     0.429841366009      -0.501997378014     0.429841366009      -0.501997378014     -0.569978714974     -0.487125185632     
4500000000.0        -0.58095819466      -0.485271646775     0.418856506249      -0.500492412398     0.418856506249      -0.500492412398     -0.58095819466      -0.485271646775     
4600000000.0        -0.591620930684     -0.483225978237     0.408188260283      -0.498795804812     0.408188260283      -0.498795804812     -0.591620930684     -0.483225978237     
4700000000.0        -0.601973127896     -0.48100538767      0.397830422741      -0.496924762038     0.397830422741      -0.496924762038     -0.601973127896     -0.48100538767      
4800000000.0        -0.612021369793     -0.478625954825     0.387776409607      -0.494895362941     0.387776409607      -0.494895362941     -0.612021369793     -0.478625954825     
4900000000.0        -0.621772538951     -0.476102684446     0.378019337786      -0.492722611376     0.378019337786      -0.492722611376     -0.621772538951     -0.476102684446     
5000000000.0        -0.631233746532     -0.47344955975      0.368552095601      -0.490420489673     0.368552095601      -0.490420489673     -0.631233746532     -0.47344955975      
5100000000.0        -0.640412270113     -0.470679595832     0.359367404961      -0.488002012047     0.359367404961      -0.488002012047     -0.640412270113     -0.470679595832     
5200000000.0        -0.649315499091     -0.467804892484     0.350457875952      -0.485479277427     0.350457875952      -0.485479277427     -0.649315499091     -0.467804892484     
5300000000.0        -0.657950886988     -0.464836685994     0.341816054543      -0.482863521257     0.341816054543      -0.482863521257     -0.657950886988     -0.464836685994     
5400000000.0        -0.666325909977     -0.4617853996       0.333434464045      -0.480165165954     0.333434464045      -0.480165165954     -0.666325909977     -0.4617853996       
5500000000.0        -0.674448031037     -0.458660692343     0.325305640969      -0.477393869772     0.325305640969      -0.477393869772     -0.674448031037     -0.458660692343     
5600000000.0        -0.682324669141     -0.455471506128     0.31742216583       -0.474558573863     0.31742216583       -0.474558573863     -0.682324669141     -0.455471506128     
5700000000.0        -0.689963172972     -0.452226110868     0.309776689433      -0.471667547422     0.309776689433      -0.471667547422     -0.689963172972     -0.452226110868     
5800000000.0        -0.697370798663     -0.448932147612     0.302361955133      -0.468728430823     0.302361955133      -0.468728430823     -0.697370798663     -0.448932147612     
5900000000.0        -0.704554691126     -0.445596669611     0.295170817507      -0.46574827669      0.295170817507      -0.46574827669      -0.704554691126     -0.445596669611     
6000000000.0        -0.711521868558     -0.442226181314     0.288196257846      -0.462733588887     0.288196257846      -0.462733588887     -0.711521868558     -0.442226181314     
6100000000.0        -0.718279209761     -0.438826675284     0.281431396834      -0.459690359448     0.281431396834      -0.459690359448     -0.718279209761     -0.438826675284     
6200000000.0        -0.724833443937     -0.435403667082     0.274869504755      -0.456624103454     0.274869504755      -0.456624103454     -0.724833443937     -0.435403667082     
6300000000.0        -0.731191142661     -0.431962228147     0.26850400952       -0.45353989192      0.26850400952       -0.45353989192      -0.731191142661     -0.431962228147     
6400000000.0        -0.737358713755     -0.428507016735     0.262328502792      -0.450442382734     0.262328502792      -0.450442382734     -0.737358713755     -0.428507016735     
6500000000.0        -0.74334239683      -0.425042306988     0.256336744443      -0.44733584973      0.256336744443      -0.44733584973      -0.74334239683      -0.425042306988     
6600000000.0        -0.749148260263     -0.421572016199     0.250522665576      -0.44422420995      0.250522665576      -0.44422420995      -0.749148260263     -0.421572016199     
6700000000.0        -0.754782199435     -0.418099730346     0.244880370292      -0.441111049183     0.244880370292      -0.441111049183     -0.754782199435     -0.418099730346     
6800000000.0        -0.760249936034     -0.414628727992     0.23940413638       -0.437999645866     0.23940413638       -0.437999645866     -0.760249936034     -0.414628727992     
6900000000.0        -0.765557018287     -0.411162002612     0.234088415091      -0.434892993411     0.234088415091      -0.434892993411     -0.765557018287     -0.411162002612     
7000000000.0        -0.770708821976     -0.40770228345      0.228927830116      -0.431793821059     0.228927830116      -0.431793821059     -0.770708821976     -0.40770228345      
7100000000.0        -0.775710552121     -0.40425205496      0.223917175907      -0.428704613329     0.223917175907      -0.428704613329     -0.775710552121     -0.40425205496      
7200000000.0        -0.78056724522      -0.400813574941     0.219051415439      -0.42562762815      0.219051415439      -0.42562762815      -0.78056724522      -0.400813574941     
7300000000.0        -0.785283771951     -0.397388891423     0.214325677498      -0.422564913743     0.214325677498      -0.422564913743     -0.785283771951     -0.397388891423     
7400000000.0        -0.789864840265     -0.393979858376     0.2097352536        -0.419518324342     0.2097352536        -0.419518324342     -0.789864840265     -0.393979858376     
7500000000.0        -0.79431499878      -0.390588150342     0.205275594589      -0.416489534809     0.205275594589      -0.416489534809     -0.79431499878      -0.390588150342     
7600000000.0        -0.798638640428     -0.387215276016     0.200942306993      -0.413480054233     0.200942306993      -0.413480054233     -0.798638640428     -0.387215276016     
7700000000.0        -0.802840006289     -0.383862590887     0.196731149186      -0.41049123856      0.196731149186      -0.41049123856      -0.802840006289     -0.383862590887     
7800000000.0        -0.806923189578     -0.380531308967     0.192638027409      -0.407524302322     0.192638027409      -0.407524302322     -0.806923189578     -0.380531308967     
7900000000.0        -0.810892139725     -0.377222513682     0.188658991682      -0.404580329535     0.188658991682      -0.404580329535     -0.810892139725     -0.377222513682     
8000000000.0        -0.814750666525     -0.373937167989     0.184790231654      -0.40166028381      0.184790231654      -0.40166028381      -0.814750666525     -0.373937167989     
8100000000.0        -0.818502444332     -0.370676123752     0.181028072417      -0.398765017729     0.181028072417      -0.398765017729     -0.818502444332     -0.370676123752     
8200000000.0        -0.822151016249     -0.367440130445     0.177368970307      -0.395895281552     0.177368970307      -0.395895281552     -0.822151016249     -0.367440130445     
8300000000.0        -0.825699798319     -0.36422984322      0.173809508715      -0.393051731278     0.173809508715      -0.393051731278     -0.825699798319     -0.36422984322      
8400000000.0        -0.829152083676     -0.361045830386     0.170346393941      -0.39023493613      0.170346393941      -0.39023493613      -0.829152083676     -0.361045830386     
8500000000.0        -0.832511046655     -0.35788858034      0.166976451078      -0.387445385483     0.166976451078      -0.387445385483     -0.832511046655     -0.35788858034      
8600000000.0        -0.835779746833     -0.354758507989     0.16369661997       -0.384683495283     0.16369661997       -0.384683495283     -0.835779746833     -0.354758507989     
8700000000.0        -0.838961133012     -0.3516559607       0.160503951238      -0.381949614004     0.160503951238      -0.381949614004     -0.838961133012     -0.3516559607       
8800000000.0        -0.842058047106     -0.34858122381      0.157395602381      -0.379244028147     0.157395602381      -0.379244028147     -0.842058047106     -0.34858122381      
8900000000.0        -0.845073227955     -0.345534525728     0.154368833972      -0.376566967352     0.154368833972      -0.376566967352     -0.845073227955     -0.345534525728     
9000000000.0        -0.848009315032     -0.342516042657     0.151421005942      -0.373918609111     0.151421005942      -0.373918609111     -0.848009315032     -0.342516042657     
9100000000.0        -0.850868852069     -0.339525902968     0.148549573962      -0.371299083149     0.148549573962      -0.371299083149     -0.850868852069     -0.339525902968     
9200000000.0        -0.853654290565     -0.336564191247     0.145752085929      -0.368708475462     0.145752085929      -0.368708475462     -0.853654290565     -0.336564191247     
9300000000.0        -0.856367993206     -0.333630952034     0.143026178549      -0.366146832063     0.143026178549      -0.366146832063     -0.856367993206     -0.333630952034     
9400000000.0        -0.859012237173     -0.330726193292     0.140369574029      -0.363614162448     0.140369574029      -0.363614162448     -0.859012237173     -0.330726193292     
9500000000.0        -0.861589217346     -0.327849889605     0.137780076869      -0.361110442792     0.137780076869      -0.361110442792     -0.861589217346     -0.327849889605     
9600000000.0        -0.86410104941      -0.325001985146     0.135255570763      -0.358635618917     0.135255570763      -0.358635618917     -0.86410104941      -0.325001985146     
9700000000.0        -0.866549772848     -0.322182396411     0.132794015597      -0.356189609027     0.132794015597      -0.356189609027     -0.866549772848     -0.322182396411     
9800000000.0        -0.868937353838     -0.319391014752     0.13039344456       -0.353772306238     0.13039344456       -0.353772306238     -0.868937353838     -0.319391014752     
9900000000.0        -0.87126568805      -0.316627708719     0.128051961343      -0.351383580921     0.128051961343      -0.351383580921     -0.87126568805      -0.316627708719     
10000000000.0       -0.873536603335     -0.313892326218     0.125767737449      -0.349023282859     0.125767737449      -0.349023282859     -0.873536603335     -0.313892326218     
