# Hz S RI R 50.00 
100000000.0         1.53952198247e-05   -0.00396645232387   0.999941982481      -0.00422540278806   0.999941982481      -0.00422540278806   1.5395219825e-05    -0.00396645232387   
200000000.0         -3.86704606824e-05  -0.00793263043431   0.999887317958      -0.00845055326146   0.999887317958      -0.00845055326146   -3.86704606824e-05  -0.00793263043431   
300000000.0         -0.000126316903712  -0.0118982268521    0.999799132691      -0.0126751554937    0.999799132691      -0.0126751554937    -0.000126316903713  -0.0118982268521    
400000000.0         -0.0002475052528    -0.0158629093848    0.99967740226       -0.0168988861745    0.99967740226       -0.0168988861745    -0.0002475052528    -0.0158629093848    
500000000.0         -0.000402211580059  -0.0198263330408    0.999522126292      -0.0211214078562    0.999522126292      -0.0211214078562    -0.000402211580059  -0.0198263330408    
600000000.0         -0.000590413032576  -0.023788144317     0.99933331527       -0.0253423736994    0.99933331527       -0.0253423736994    -0.000590413032576  -0.023788144317     
700000000.0         -0.000812084164904  -0.0277479834587    0.999110987334      -0.0295614299655    0.999110987334      -0.0295614299655    -0.000812084164905  -0.0277479834587    
800000000.0         -0.00106719550682   -0.0317054858685    0.998855167216      -0.0337782175657    0.998855167216      -0.0337782175657    -0.00106719550682   -0.0317054858685    
900000000.0         -0.00135571286126   -0.0356602830867    0.998565885831      -0.0379923731315    0.998565885831      -0.0379923731315    -0.00135571286126   -0.0356602830867    
1000000000.0        -0.00167759690264   -0.0396120035234    0.998243180118      -0.0422035298132    0.998243180118      -0.0422035298132    -0.00167759690264   -0.0396120035234    
1100000000.0        -0.00203280291987   -0.0435602730376    0.997887092981      -0.0464113179056    0.997887092981      -0.0464113179056    -0.00203280291987   -0.0435602730376    
1200000000.0        -0.00242128063887   -0.0475047154163    0.997497673286      -0.0506153653642    0.997497673286      -0.0506153653642    -0.00242128063887   -0.0475047154163    
1300000000.0        -0.00284297409275   -0.0514449527814    0.99707497587       -0.0548152982416    0.99707497587       -0.0548152982416    -0.00284297409275   -0.0514449527814    
1400000000.0        -0.00329782152366   -0.0553806059492    0.996619061568      -0.0590107410696    0.996619061568      -0.0590107410696    -0.00329782152366   -0.0553806059492    
1500000000.0        -0.00378575530705   -0.0593112947497    0.996129997231      -0.0632013171988    0.996129997231      -0.0632013171988    -0.00378575530704   -0.0593112947497    
1600000000.0        -0.00430670189287   -0.0632366383201    0.995607855754      -0.0673866491081    0.995607855754      -0.0673866491081    -0.00430670189287   -0.0632366383201    
1700000000.0        -0.00486058176027   -0.0671562553744    0.995052716091      -0.0715663586884    0.995052716091      -0.0715663586884    -0.00486058176027   -0.0671562553744    
1800000000.0        -0.00544730938354   -0.0710697644569    0.994464663274      -0.0757400675079    0.994464663274      -0.0757400675079    -0.00544730938354   -0.0710697644569    
1900000000.0        -0.00606679320765   -0.07497678418      0.993843788417      -0.0799073970608    0.993843788417      -0.0799073970608    -0.00606679320765   -0.07497678418      
2000000000.0        -0.0067189356324    -0.078876933451     0.993190188729      -0.0840679690032    0.993190188729      -0.0840679690032    -0.0067189356324    -0.078876933451     
2100000000.0        -0.00740363300432   -0.0827698316891    0.992503967506      -0.0882214053783    0.992503967506      -0.0882214053783    -0.00740363300432   -0.0827698316891    
2200000000.0        -0.0081207756155    -0.0866550990327    0.991785234131      -0.0923673288318    0.991785234131      -0.0923673288318    -0.0081207756155    -0.0866550990327    
2300000000.0        -0.00887024770917   -0.0905323565408    0.99103410406       -0.0965053628188    0.99103410406       -0.0965053628188    -0.00887024770917   -0.0905323565408    
2400000000.0        -0.00965192749143   -0.0944012263866    0.990250698809      -0.100635131805     0.990250698809      -0.100635131805     -0.00965192749143   -0.0944012263866    
2500000000.0        -0.0104656871488    -0.0982613320455    0.98943514593       -0.104756261458     0.98943514593       -0.104756261458     -0.0104656871488    -0.0982613320455    
2600000000.0        -0.0113113928713    -0.102112298478     0.988587578986      -0.108868378838     0.988587578986      -0.108868378838     -0.0113113928713    -0.102112298478     
2700000000.0        -0.0121889048811    -0.105953752307     0.987708137522      -0.112971112578     0.987708137522      -0.112971112578     -0.0121889048811    -0.105953752307     
2800000000.0        -0.0130980774659    -0.10978532199      0.986796967029      -0.117064093063     0.986796967029      -0.117064093063     -0.0130980774659    -0.10978532199      
2900000000.0        -0.0140387590174    -0.113606637991     0.9858542189        -0.121146952599     0.9858542189        -0.121146952599     -0.0140387590174    -0.113606637991     
3000000000.0        -0.0150107920748    -0.11741733294      0.984880050394      -0.125219325586     0.984880050394      -0.125219325586     -0.0150107920748    -0.11741733294      
3100000000.0        -0.0160140133724    -0.121217041796     0.983874624576      -0.129280848678     0.983874624576      -0.129280848678     -0.0160140133724    -0.121217041796     
3200000000.0        -0.0170482538914    -0.125005402004     0.982838110275      -0.133331160943     0.982838110275      -0.133331160943     -0.0170482538914    -0.125005402004     
3300000000.0        -0.0181133389171    -0.128782053644     0.981770682019      -0.137369904022     0.981770682019      -0.137369904022     -0.0181133389171    -0.128782053644     
3400000000.0        -0.0192090880986    -0.132546639585     0.980672519977      -0.141396722275     0.980672519977      -0.141396722275     -0.0192090880986    -0.132546639585     
3500000000.0        -0.0203353155137    -0.136298805624     0.979543809893      -0.145411262934     0.979543809893      -0.145411262934     -0.0203353155137    -0.136298805624     
3600000000.0        -0.0214918297372    -0.140038200631     0.978384743018      -0.149413176242     0.978384743018      -0.149413176242     -0.0214918297372    -0.140038200631     
3700000000.0        -0.0226784339123    -0.143764476686     0.977195516039      -0.153402115598     0.977195516039      -0.153402115598     -0.0226784339123    -0.143764476686     
3800000000.0        -0.0238949258269    -0.147477289213     0.975976330999      -0.157377737689     0.975976330999      -0.157377737689     -0.0238949258269    -0.147477289213     
3900000000.0        -0.0251410979916    -0.151176297108     0.974727395222      -0.161339702627     0.974727395222      -0.161339702627     -0.0251410979916    -0.151176297108     
4000000000.0        -0.0264167377226    -0.154861162869     0.973448921229      -0.16528767407      0.973448921229      -0.16528767407      -0.0264167377226    -0.154861162869     
4100000000.0        -0.0277216272265    -0.158531552716     0.97214112665       -0.169221319357     0.97214112665       -0.169221319357     -0.0277216272265    -0.158531552716     
4200000000.0        -0.0290555436887    -0.162187136713     0.970804234141      -0.173140309622     0.970804234141      -0.173140309622     -0.0290555436887    -0.162187136713     
4300000000.0        -0.0304182593646    -0.165827588881     0.969438471288      -0.177044319913     0.969438471288      -0.177044319913     -0.0304182593646    -0.165827588881     
4400000000.0        -0.0318095416737    -0.169452587311     0.968044070514      -0.180933029308     0.968044070514      -0.180933029308     -0.0318095416737    -0.169452587311     
4500000000.0        -0.0332291532959    -0.173061814274     0.966621268984      -0.184806121021     0.966621268984      -0.184806121021     -0.0332291532959    -0.173061814274     
4600000000.0        -0.0346768522707    -0.176654956321     0.965170308503      -0.188663282513     0.965170308503      -0.188663282513     -0.0346768522707    -0.176654956321     
4700000000.0        -0.0361523920986    -0.18023170439      0.963691435418      -0.192504205591     0.963691435418      -0.192504205591     -0.0361523920986    -0.18023170439      
4800000000.0        -0.0376555218446    -0.183791753899     0.96218490051       -0.196328586507     0.96218490051       -0.196328586507     -0.0376555218446    -0.183791753899     
4900000000.0        -0.0391859862445    -0.187334804839     0.960650958893      -0.200136126053     0.960650958893      -0.200136126053     -0.0391859862445    -0.187334804839     
5000000000.0        -0.0407435258119    -0.190860561866     0.959089869899      -0.203926529654     0.959089869899      -0.203926529654     -0.0407435258119    -0.190860561866     
5100000000.0        -0.0423278769486    -0.194368734386     0.957501896978      -0.207699507452     0.957501896978      -0.207699507452     -0.0423278769486    -0.194368734386     
5200000000.0        -0.0439387720555    -0.197859036638     0.955887307579      -0.211454774391     0.955887307579      -0.211454774391     -0.0439387720555    -0.197859036638     
5300000000.0        -0.0455759396459    -0.201331187769     0.954246373037      -0.2151920503       0.954246373037      -0.2151920503       -0.0455759396459    -0.201331187769     
5400000000.0        -0.0472391044599    -0.204784911914     0.952579368465      -0.21891105996      0.952579368465      -0.21891105996      -0.0472391044599    -0.204784911914     
5500000000.0        -0.0489279875802    -0.208219938264     0.95088657263       -0.222611533187     0.95088657263       -0.222611533187     -0.0489279875802    -0.208219938264     
5600000000.0        -0.0506423065496    -0.211636001132     0.949168267842      -0.226293204892     0.949168267842      -0.226293204892     -0.0506423065496    -0.211636001132     
5700000000.0        -0.0523817754889    -0.215032840019     0.947424739831      -0.22995581515      0.947424739831      -0.22995581515      -0.0523817754889    -0.215032840019     
5800000000.0        -0.0541461052164    -0.218410199673     0.945656277633      -0.233599109257     0.945656277633      -0.233599109257     -0.0541461052164    -0.218410199673     
5900000000.0        -0.0559350033681    -0.221767830145     0.943863173462      -0.237222837794     0.943863173462      -0.237222837794     -0.0559350033681    -0.221767830145     
6000000000.0        -0.057748174519     -0.225105486841     0.942045722597      -0.24082675667      0.942045722597      -0.24082675667      -0.057748174519     -0.225105486841     
6100000000.0        -0.0595853203044    -0.228422930572     0.940204223257      -0.244410627183     0.940204223257      -0.244410627183     -0.0595853203044    -0.228422930572     
6200000000.0        -0.0614461395423    -0.231719927597     0.938338976475      -0.247974216057     0.938338976475      -0.247974216057     -0.0614461395423    -0.231719927597     
6300000000.0        -0.0633303283562    -0.234996249667     0.936450285982      -0.251517295489     0.936450285982      -0.251517295489     -0.0633303283562    -0.234996249667     
6400000000.0        -0.0652375802983    -0.238251674062     0.93453845808       -0.255039643185     0.93453845808       -0.255039643185     -0.0652375802983    -0.238251674062     
6500000000.0        -0.0671675864725    -0.241485983623     0.932603801517      -0.258541042398     0.932603801517      -0.258541042398     -0.0671675864725    -0.241485983623     
6600000000.0        -0.0691200356582    -0.244698966786     0.930646627369      -0.262021281959     0.930646627369      -0.262021281959     -0.0691200356582    -0.244698966786     
6700000000.0        -0.0710946144336    -0.24789041761      0.928667248912      -0.265480156302     0.928667248912      -0.265480156302     -0.0710946144336    -0.24789041761      
6800000000.0        -0.0730910072991    -0.251060135797     0.926665981498      -0.268917465491     0.926665981498      -0.268917465491     -0.0730910072991    -0.251060135797     
6900000000.0        -0.0751088968008    -0.254207926714     0.924643142436      -0.272333015243     0.924643142436      -0.272333015243     -0.0751088968008    -0.254207926714     
7000000000.0        -0.0771479636535    -0.257333601412     0.922599050866      -0.27572661694      0.922599050866      -0.27572661694      -0.0771479636535    -0.257333601412     
7100000000.0        -0.0792078868629    -0.260436976639     0.920534027635      -0.279098087651     0.920534027635      -0.279098087651     -0.0792078868629    -0.260436976639     
7200000000.0        -0.0812883438487    -0.263517874847     0.918448395179      -0.282447250134     0.918448395179      -0.282447250134     -0.0812883438487    -0.263517874847     
7300000000.0        -0.0833890105652    -0.266576124205     0.916342477397      -0.285773932854     0.916342477397      -0.285773932854     -0.0833890105652    -0.266576124205     
7400000000.0        -0.0855095616234    -0.269611558598     0.914216599533      -0.289077969977     0.914216599533      -0.289077969977     -0.0855095616234    -0.269611558598     
7500000000.0        -0.0876496704108    -0.272624017631     0.912071088054      -0.292359201381     0.912071088054      -0.292359201381     -0.0876496704108    -0.272624017631     
7600000000.0        -0.0898090092111    -0.275613346625     0.90990627053       -0.295617472647     0.90990627053       -0.295617472647     -0.0898090092111    -0.275613346625     
7700000000.0        -0.0919872493227    -0.278579396612     0.907722475518      -0.298852635059     0.907722475518      -0.298852635059     -0.0919872493227    -0.278579396612     
7800000000.0        -0.0941840611769    -0.281522024329     0.90552003244       -0.302064545592     0.90552003244       -0.302064545592     -0.0941840611769    -0.281522024329     
7900000000.0        -0.0963991144545    -0.284441092203     0.90329927147       -0.305253066908     0.90329927147       -0.305253066908     -0.0963991144545    -0.284441092203     
8000000000.0        -0.0986320782012    -0.28733646834      0.901060523417      -0.308418067334     0.901060523417      -0.308418067334     -0.0986320782012    -0.28733646834      
8100000000.0        -0.100882620942     -0.290208026509     0.89880411961       -0.311559420851     0.89880411961       -0.311559420851     -0.100882620942     -0.290208026509     
8200000000.0        -0.103150410796     -0.293055646117     0.896530391784      -0.314677007076     0.896530391784      -0.314677007076     -0.103150410796     -0.293055646117     
8300000000.0        -0.105435115587     -0.295879212194     0.894239671971      -0.317770711235     0.894239671971      -0.317770711235     -0.105435115587     -0.295879212194     
8400000000.0        -0.107736402951     -0.298678615363     0.891932292387      -0.320840424144     0.891932292387      -0.320840424144     -0.107736402951     -0.298678615363     
8500000000.0        -0.110053940454     -0.301453751817     0.889608585321      -0.323886042177     0.889608585321      -0.323886042177     -0.110053940454     -0.301453751817     
8600000000.0        -0.112387395691     -0.304204523284     0.887268883033      -0.326907467243     0.887268883033      -0.326907467243     -0.112387395691     -0.304204523284     
8700000000.0        -0.114736436396     -0.306930837        0.884913517641      -0.329904606746     0.884913517641      -0.329904606746     -0.114736436396     -0.306930837        
8800000000.0        -0.117100730549     -0.30963260567      0.882542821022      -0.332877373559     0.882542821022      -0.332877373559     -0.117100730549     -0.30963260567      
8900000000.0        -0.119479946473     -0.312309747434     0.880157124705      -0.335825685982     0.880157124705      -0.335825685982     -0.119479946473     -0.312309747434     
9000000000.0        -0.121873752941     -0.314962185829     0.87775675977       -0.338749467705     0.87775675977       -0.338749467705     -0.121873752941     -0.314962185829     
9100000000.0        -0.124281819274     -0.317589849745     0.875342056752      -0.341648647769     0.875342056752      -0.341648647769     -0.124281819274     -0.317589849745     
9200000000.0        -0.126703815437     -0.320192673384     0.872913345539      -0.344523160518     0.872913345539      -0.344523160518     -0.126703815437     -0.320192673384     
9300000000.0        -0.129139412138     -0.322770596211     0.870470955275      -0.347372945561     0.870470955275      -0.347372945561     -0.129139412138     -0.322770596211     
9400000000.0        -0.131588280921     -0.325323562915     0.868015214273      -0.350197947721     0.868015214273      -0.350197947721     -0.131588280921     -0.325323562915     
9500000000.0        -0.134050094257     -0.327851523351     0.865546449911      -0.352998116986     0.865546449911      -0.352998116986     -0.134050094257     -0.327851523351     
9600000000.0        -0.136524525638     -0.330354432496     0.863064988553      -0.35577340846      0.863064988553      -0.35577340846      -0.136524525638     -0.330354432496     
9700000000.0        -0.139011249664     -0.332832250392     0.860571155453      -0.358523782313     0.860571155453      -0.358523782313     -0.139011249664     -0.332832250392     
9800000000.0        -0.141509942128     -0.335284942096     0.858065274668      -0.36124920372      0.858065274668      -0.36124920372      -0.141509942128     -0.335284942096     
9900000000.0        -0.144020280104     -0.337712477621     0.85554766898       -0.363949642815     0.85554766898       -0.363949642815     -0.144020280104     -0.337712477621     
10000000000.0       -0.146541942028     -0.340114831882     0.853018659804      -0.366625074628     0.853018659804      -0.366625074628     -0.146541942028     -0.340114831882     
