# Hz S RI R 50.00 
100000000.0         -0.000743536263637  -0.0273010238957    0.999176301875      -0.0276624865934    0.999176301875      -0.0276624865934    -0.000743536263637  -0.0273010238957    
200000000.0         -0.0030308135134    -0.0544739485054    0.996888282019      -0.0551969604278    0.996888282019      -0.0551969604278    -0.0030308135134    -0.0544739485054    
300000000.0         -0.00680174197119   -0.081396125801     0.993116617762      -0.0824808192818    0.993116617762      -0.0824808192818    -0.00680174197119   -0.081396125801     
400000000.0         -0.0120223328468    -0.107948792848     0.987895228776      -0.109395335598     0.987895228776      -0.109395335598     -0.0120223328468    -0.107948792848     
500000000.0         -0.0186463177388    -0.134018701936     0.981270356808      -0.135827291603     0.981270356808      -0.135827291603     -0.0186463177388    -0.134018701936     
600000000.0         -0.0266161478406    -0.159499621519     0.973299536982      -0.161670482004     0.973299536982      -0.161670482004     -0.0266161478406    -0.159499621519     
700000000.0         -0.035864211848     -0.184293639331     0.964050372411      -0.186827017993     0.964050372411      -0.186827017993     -0.035864211848     -0.184293639331     
800000000.0         -0.0463142184673    -0.208312231852     0.953599148972      -0.211208397265     0.953599148972      -0.211208397265     -0.0463142184673    -0.208312231852     
900000000.0         -0.0578826919768    -0.231477079353     0.942029338534      -0.234736319427     0.942029338534      -0.234736319427     -0.0578826919768    -0.231477079353     
1000000000.0        -0.070480529241     -0.253720618216     0.929430041335      -0.257343238579     0.929430041335      -0.257343238579     -0.070480529241     -0.253720618216     
1100000000.0        -0.0840145684152    -0.27498633347      0.915894416937      -0.278972656049     0.915894416937      -0.278972656049     -0.0840145684152    -0.27498633347      
1200000000.0        -0.0983891235662    -0.295228804299     0.901518149409      -0.299579166061     0.901518149409      -0.299579166061     -0.0983891235662    -0.295228804299     
1300000000.0        -0.11350744518      -0.314413523381     0.886397986692      -0.319128275191     0.886397986692      -0.319128275191     -0.11350744518      -0.314413523381     
1400000000.0        -0.129273073508     -0.33251651705      0.870630387171      -0.337596022646     0.870630387171      -0.337596022646     -0.129273073508     -0.33251651705      
1500000000.0        -0.145591059355     -0.349523797429     0.854310298831      -0.354968432483     0.854310298831      -0.354968432483     -0.145591059355     -0.349523797429     
1600000000.0        -0.162369034722     -0.365430679783     0.83753008858       -0.371240831036     0.83753008858       -0.371240831036     -0.162369034722     -0.365430679783     
1700000000.0        -0.179518123188     -0.38024099875      0.820378631833      -0.386417063221     0.820378631833      -0.386417063221     -0.179518123188     -0.38024099875      
1800000000.0        -0.196953686747     -0.393966255889     0.802940565662      -0.400508640144     0.802940565662      -0.400508640144     -0.196953686747     -0.393966255889     
1900000000.0        -0.214595911707     -0.406624728676     0.785295702876      -0.413533848146     0.785295702876      -0.413533848146     -0.214595911707     -0.406624728676     
2000000000.0        -0.232370241087     -0.418240567769     0.767518599618      -0.425516846127     0.767518599618      -0.425516846127     -0.232370241087     -0.418240567769     
2100000000.0        -0.250207664646     -0.428842905641     0.749678265323      -0.436486774215     0.749678265323      -0.436486774215     -0.250207664646     -0.428842905641     
2200000000.0        -0.268044880323     -0.438464995593     0.731838001276      -0.446476892824     0.731838001276      -0.446476892824     -0.268044880323     -0.438464995593     
2300000000.0        -0.285824342438     -0.447143396125     0.714055352403      -0.455523767067     0.714055352403      -0.455523767067     -0.285824342438     -0.447143396125     
2400000000.0        -0.303494212776     -0.454917211795     0.696382156182      -0.463666507644     0.696382156182      -0.463666507644     -0.303494212776     -0.454917211795     
2500000000.0        -0.32100823064      -0.461827398111     0.678864672591      -0.47094607577      0.678864672591      -0.47094607577      -0.32100823064      -0.461827398111     
2600000000.0        -0.338325517411     -0.46791613493      0.661543779542      -0.477404656602     0.661543779542      -0.477404656602     -0.338325517411     -0.46791613493      
2700000000.0        -0.355410330113     -0.473226270123     0.644455219312      -0.483085102938     0.644455219312      -0.483085102938     -0.355410330113     -0.473226270123     
2800000000.0        -0.372231777219     -0.477800833118     0.62762988274       -0.48803044878      0.62762988274       -0.48803044878      -0.372231777219     -0.477800833118     
2900000000.0        -0.388763508416     -0.481682616181     0.611094119461      -0.492283490643     0.611094119461      -0.492283490643     -0.388763508416     -0.481682616181     
3000000000.0        -0.404983388545     -0.48491382         0.594870063957      -0.495886433166     0.594870063957      -0.495886433166     -0.404983388545     -0.48491382         
3100000000.0        -0.42087316436      -0.487535759221     0.578975968806      -0.498880594662     0.578975968806      -0.498880594662     -0.42087316436      -0.487535759221     
3200000000.0        -0.436418131271     -0.489588622978     0.563426537936      -0.501306167677     0.563426537936      -0.501306167677     -0.436418131271     -0.489588622978     
3300000000.0        -0.45160680586      -0.491111285163     0.548233254104      -0.503202029271     0.548233254104      -0.503202029271     -0.45160680586      -0.491111285163     
3400000000.0        -0.466430608717     -0.492141159043     0.533404696061      -0.504605595664     0.533404696061      -0.504605595664     -0.466430608717     -0.492141159043     
3500000000.0        -0.48088356101      -0.492714090957     0.518946841988      -0.505552715939     0.518946841988      -0.505552715939     -0.48088356101      -0.492714090957     
3600000000.0        -0.494961997254     -0.492864287982     0.504863356718      -0.506077599735     0.504863356718      -0.506077599735     -0.494961997254     -0.492864287982     
3700000000.0        -0.50866429593      -0.492624274781     0.49115586112       -0.506212774097     0.49115586112       -0.506212774097     -0.50866429593      -0.492624274781     
3800000000.0        -0.521990628913     -0.492024875182     0.477824182671      -0.505989065086     0.477824182671      -0.505989065086     -0.521990628913     -0.492024875182     
3900000000.0        -0.534942730101     -0.491095214445     0.464866586829      -0.505435600045     0.464866586829      -0.505435600045     -0.534942730101     -0.491095214445     
4000000000.0        -0.547523683214     -0.489862738563     0.452279989226      -0.504579826923     0.452279989226      -0.504579826923     -0.547523683214     -0.489862738563     
4100000000.0        -0.559737728364     -0.488353247349     0.440060149107      -0.503447547367     0.440060149107      -0.503447547367     -0.559737728364     -0.488353247349     
4200000000.0        -0.571590086745     -0.486590938456     0.428201844634      -0.502062960758     0.428201844634      -0.502062960758     -0.571590086745     -0.486590938456     
4300000000.0        -0.583086802598     -0.484598459838     0.416699030923      -0.500448716681     0.416699030923      -0.500448716681     -0.583086802598     -0.484598459838     
4400000000.0        -0.594234601469     -0.482396968522     0.405544981784      -0.498625973707     0.405544981784      -0.498625973707     -0.594234601469     -0.482396968522     
4500000000.0        -0.605040763723     -0.480006193841     0.39473241621       -0.496614462635     0.39473241621       -0.496614462635     -0.605040763723     -0.480006193841     
4600000000.0        -0.615513012198     -0.477444503604     0.384253610718      -0.494432552676     0.384253610718      -0.494432552676     -0.615513012198     -0.477444503604     
4700000000.0        -0.625659412902     -0.474728971907     0.374100498659      -0.492097319262     0.374100498659      -0.492097319262     -0.625659412902     -0.474728971907     
4800000000.0        -0.635488287658     -0.471875447513     0.364264757563      -0.489624612444     0.364264757563      -0.489624612444     -0.635488287658     -0.471875447513     
4900000000.0        -0.64500813764      -0.468898621944     0.354737885612      -0.48702912499      0.354737885612      -0.48702912499      -0.64500813764      -0.468898621944     
5000000000.0        -0.654227576777     -0.465812096589     0.345511268232      -0.484324459492     0.345511268232      -0.484324459492     -0.654227576777     -0.465812096589     
5100000000.0        -0.663155274066     -0.462628448266     0.336576235777      -0.481523193945     0.336576235777      -0.481523193945     -0.663155274066     -0.462628448266     
5200000000.0        -0.671799903903     -0.459359292832     0.327924113206      -0.478636945357     0.327924113206      -0.478636945357     -0.671799903903     -0.459359292832     
5300000000.0        -0.68017010357      -0.456015346516     0.319546262584      -0.475676431089     0.319546262584      -0.475676431089     -0.68017010357      -0.456015346516     
5400000000.0        -0.688274437129     -0.452606484743     0.3114341192        -0.472651527685     0.3114341192        -0.472651527685     -0.688274437129     -0.452606484743     
5500000000.0        -0.696121364992     -0.449141798316     0.303579221989      -0.46957132706      0.303579221989      -0.46957132706      -0.696121364992     -0.449141798316     
5600000000.0        -0.703719218522     -0.44562964684      0.295973238932      -0.466444189927     0.295973238932      -0.466444189927     -0.703719218522     -0.44562964684      
5700000000.0        -0.711076179082     -0.442077709373     0.288607988012      -0.463277796453     0.288607988012      -0.463277796453     -0.711076179082     -0.442077709373     
5800000000.0        -0.718200260981     -0.438493032284     0.281475454259      -0.460079194122     0.281475454259      -0.460079194122     -0.718200260981     -0.438493032284     
5900000000.0        -0.725099297852     -0.434882074366     0.274567803381      -0.456854842849     0.274567803381      -0.456854842849     -0.725099297852     -0.434882074366     
6000000000.0        -0.731780932011     -0.431250749249     0.267877392396      -0.453610657405     0.267877392396      -0.453610657405     -0.731780932011     -0.431250749249     
6100000000.0        -0.738252606423     -0.427604465206     0.261396777675      -0.450352047213     0.261396777675      -0.450352047213     -0.738252606423     -0.427604465206     
6200000000.0        -0.744521558919     -0.423948162426     0.255118720716      -0.447083953637     0.255118720716      -0.447083953637     -0.744521558919     -0.423948162426     
6300000000.0        -0.750594818364     -0.420286347869     0.249036191985      -0.443810884832     0.249036191985      -0.443810884832     -0.750594818364     -0.420286347869     
6400000000.0        -0.756479202483     -0.416623127806     0.24314237308       -0.440536948291     0.24314237308       -0.440536948291     -0.756479202483     -0.416623127806     
6500000000.0        -0.762181317135     -0.412962238163     0.237430657465      -0.437265881188     0.237430657465      -0.437265881188     -0.762181317135     -0.412962238163     
6600000000.0        -0.767707556779     -0.409307072773     0.231894649998      -0.434001078636     0.231894649998      -0.434001078636     -0.767707556779     -0.409307072773     
6700000000.0        -0.773064105987     -0.405660709664     0.226528165424      -0.430745619974     0.226528165424      -0.430745619974     -0.773064105987     -0.405660709664     
6800000000.0        -0.778256941795     -0.402025935486     0.221325226017      -0.4275022932       0.221325226017      -0.4275022932       -0.778256941795     -0.402025935486     
6900000000.0        -0.783291836784     -0.398405268195     0.216280058503      -0.424273617652     0.216280058503      -0.424273617652     -0.783291836784     -0.398405268195     
7000000000.0        -0.78817436274      -0.394800978101     0.211387090403      -0.421061865062     0.211387090403      -0.421061865062     -0.78817436274      -0.394800978101     
7100000000.0        -0.792909894782     -0.391215107383     0.206640945893      -0.41786907907      0.206640945893      -0.41786907907      -0.792909894782     -0.391215107383     
7200000000.0        -0.797503615886     -0.387649488171     0.202036441295      -0.414697093307     0.202036441295      -0.414697093307     -0.797503615886     -0.387649488171     
7300000000.0        -0.801960521684     -0.384105759288     0.197568580267      -0.411547548143     0.197568580267      -0.411547548143     -0.801960521684     -0.384105759288     
7400000000.0        -0.8062854255       -0.380585381755     0.193232548771      -0.408421906188     0.193232548771      -0.408421906188     -0.8062854255       -0.380585381755     
7500000000.0        -0.810482963538     -0.377089653125     0.189023709886      -0.405321466628     0.189023709886      -0.405321466628     -0.810482963538     -0.377089653125     
7600000000.0        -0.814557600181     -0.373619720744     0.184937598504      -0.40224737849      0.184937598504      -0.40224737849      -0.814557600181     -0.373619720744     
7700000000.0        -0.818513633344     -0.370176594007     0.180969915982      -0.399200652899     0.180969915982      -0.399200652899     -0.818513633344     -0.370176594007     
7800000000.0        -0.822355199862     -0.366761155688     0.177116524754      -0.396182174402     0.177116524754      -0.396182174402     -0.822355199862     -0.366761155688     
7900000000.0        -0.826086280848     -0.363374172398     0.173373442966      -0.393192711436     0.173373442966      -0.393192711436     -0.826086280848     -0.363374172398     
8000000000.0        -0.829710707033     -0.360016304247     0.169736839143      -0.390232925985     0.169736839143      -0.390232925985     -0.829710707033     -0.360016304247     
8100000000.0        -0.83323216403      -0.356688113766     0.166203026924      -0.387303382504     0.166203026924      -0.387303382504     -0.83323216403      -0.356688113766     
8200000000.0        -0.83665419752      -0.353390074137     0.162768459872      -0.38440455615      0.162768459872      -0.38440455615      -0.83665419752      -0.353390074137     
8300000000.0        -0.839980218349     -0.35012257679      0.159429726379      -0.381536840381     0.159429726379      -0.381536840381     -0.839980218349     -0.35012257679      
8400000000.0        -0.843213507508     -0.346885938412     0.156183544688      -0.37870055396      0.156183544688      -0.37870055396      -0.843213507508     -0.346885938412     
8500000000.0        -0.846357220999     -0.343680407407     0.153026758024      -0.375895947423     0.153026758024      -0.375895947423     -0.846357220999     -0.343680407407     
8600000000.0        -0.849414394571     -0.340506169858     0.149956329858      -0.373123209037     0.149956329858      -0.373123209037     -0.849414394571     -0.340506169858     
8700000000.0        -0.852387948331     -0.337363355021     0.146969339298      -0.370382470293     0.146969339298      -0.370382470293     -0.852387948331     -0.337363355021     
8800000000.0        -0.855280691208     -0.334252040391     0.144062976621      -0.367673810973     0.144062976621      -0.367673810973     -0.855280691208     -0.334252040391     
8900000000.0        -0.858095325291     -0.331172256363     0.141234538942      -0.364997263817     0.141234538942      -0.364997263817     -0.858095325291     -0.331172256363     
9000000000.0        -0.860834450015     -0.328123990538     0.138481426018      -0.362352818822     0.138481426018      -0.362352818822     -0.860834450015     -0.328123990538     
9100000000.0        -0.863500566215     -0.32510719168      0.135801136203      -0.3597404272       0.135801136203      -0.3597404272       -0.863500566215     -0.32510719168      
9200000000.0        -0.866096080033     -0.322121773365     0.133191262534      -0.357160005032     0.133191262534      -0.357160005032     -0.866096080033     -0.322121773365     
9300000000.0        -0.868623306695     -0.319167617338     0.130649488958      -0.354611436621     0.130649488958      -0.354611436621     -0.868623306695     -0.319167617338     
9400000000.0        -0.87108447414      -0.316244576605     0.128173586703      -0.352094577582     0.128173586703      -0.352094577582     -0.87108447414      -0.316244576605     
9500000000.0        -0.873481726521     -0.313352478278     0.125761410773      -0.349609257695     0.125761410773      -0.349609257695     -0.873481726521     -0.313352478278     
9600000000.0        -0.875817127574     -0.310491126189     0.123410896584      -0.347155283511     0.123410896584      -0.347155283511     -0.875817127574     -0.310491126189     
9700000000.0        -0.878092663852     -0.307660303304     0.121120056725      -0.344732440769     0.121120056725      -0.344732440769     -0.878092663852     -0.307660303304     
9800000000.0        -0.88031024784      -0.304859773928     0.118886977848      -0.342340496604     0.118886977848      -0.342340496604     -0.88031024784      -0.304859773928     
9900000000.0        -0.88247172094      -0.302089285746     0.116709817675      -0.339979201582     0.116709817675      -0.339979201582     -0.88247172094      -0.302089285746     
10000000000.0       -0.884578856345     -0.29934857169      0.114586802135      -0.337648291571     0.114586802135      -0.337648291571     -0.884578856345     -0.29934857169      
