# Hz S RI R 50.00 
100000000.0         0.107194703429      0.00526874108252    0.892801292284      -0.00694271499872   0.892801292284      -0.00694271499872   0.107194703429      0.00526874108252    
200000000.0         0.10794665108       0.0105185619215     0.892043424393      -0.0138665390094    0.892043424393      -0.0138665390094    0.10794665108       0.0105185619215     
300000000.0         0.108608524184      0.0157549289739     0.891372713408      -0.0207769630149    0.891372713408      -0.0207769630149    0.108608524184      0.0157549289739     
400000000.0         0.109263913478      0.0209786962538     0.890705567149      -0.0276748631048    0.890705567149      -0.0276748631048    0.109263913478      0.0209786962538     
500000000.0         0.109944917827      0.0261896507227     0.890009885333      -0.0345600470795    0.890009885333      -0.0345600470795    0.109944917827      0.0261896507227     
600000000.0         0.110667789935      0.0313871117696     0.889269413793      -0.0414318543551    0.889269413793      -0.0414318543551    0.110667789935      0.0313871117696     
700000000.0         0.111442004809      0.0365701471121     0.888474675982      -0.0482893720831    0.888474675982      -0.0482893720831    0.111442004809      0.0365701471121     
800000000.0         0.112273571514      0.0417376734751     0.8876196612        -0.0551315359598    0.8876196612        -0.0551315359598    0.112273571514      0.0417376734751     
900000000.0         0.113166508579      0.046888511154      0.886700349171      -0.061957184875     0.886700349171      -0.061957184875     0.113166508579      0.046888511154      
1000000000.0        0.114123592317      0.0520214167607     0.885713961723      -0.0687650937196    0.885713961723      -0.0687650937196    0.114123592317      0.0520214167607     
1100000000.0        0.115146773128      0.0571351044164     0.884658546477      -0.0755539946226    0.884658546477      -0.0755539946226    0.115146773128      0.0571351044164     
1200000000.0        0.11623742382       0.0622282603005     0.883532728518      -0.0823225915349    0.883532728518      -0.0823225915349    0.11623742382       0.0622282603005     
1300000000.0        0.117396496087      0.0672995531313     0.88233555392       -0.0890695707375    0.88233555392       -0.0890695707375    0.117396496087      0.0672995531313     
1400000000.0        0.118624623592      0.0723476420247     0.881066386661      -0.0957936087211    0.881066386661      -0.0957936087211    0.118624623592      0.0723476420247     
1500000000.0        0.119922192433      0.07737118259       0.87972483815       -0.102493378302     0.87972483815       -0.102493378302     0.119922192433      0.07737118259       
1600000000.0        0.121289390863      0.0823688317999     0.87831071751       -0.109167553504     0.87831071751       -0.109167553504     0.121289390863      0.0823688317999     
1700000000.0        0.12272624534       0.0873392519777     0.876823995528      -0.115814813562     0.876823995528      -0.115814813562     0.12272624534       0.0873392519777     
1800000000.0        0.124232647315      0.0922811141336     0.875264777862      -0.122433846268     0.875264777862      -0.122433846268     0.124232647315      0.0922811141336     
1900000000.0        0.125808373573      0.0971931008061     0.873633284706      -0.129023350821     0.873633284706      -0.129023350821     0.125808373573      0.0971931008061     
2000000000.0        0.127453101992      0.102073908521      0.871929835021      -0.135582040296     0.871929835021      -0.135582040296     0.127453101992      0.102073908521      
2100000000.0        0.129166423987      0.106922249947      0.870154834101      -0.142108643806     0.870154834101      -0.142108643806     0.129166423987      0.106922249947      
2200000000.0        0.130947854501      0.1117368558        0.868308763573      -0.148601908415     0.868308763573      -0.148601908415     0.130947854501      0.1117368558        
2300000000.0        0.132796840173      0.116516476551      0.866392173235      -0.155060600847     0.866392173235      -0.155060600847     0.132796840173      0.116516476551      
2400000000.0        0.134712766103      0.121259883952      0.864405674286      -0.161483509026     0.864405674286      -0.161483509026     0.134712766103      0.121259883952      
2500000000.0        0.136694961568      0.125965872426      0.862349933614      -0.16786944346      0.862349933614      -0.16786944346      0.136694961568      0.125965872426      
2600000000.0        0.138742704889      0.130633260319      0.860225668925      -0.174217238507     0.860225668925      -0.174217238507     0.138742704889      0.130633260319      
2700000000.0        0.140855227666      0.135260891041      0.858033644511      -0.180525753512     0.858033644511      -0.180525753512     0.140855227666      0.135260891041      
2800000000.0        0.14303171848       0.139847634104      0.855774667544      -0.186793873858     0.855774667544      -0.186793873858     0.14303171848       0.139847634104      
2900000000.0        0.145271326196      0.144392386068      0.853449584777      -0.193020511906     0.853449584777      -0.193020511906     0.145271326196      0.144392386068      
3000000000.0        0.147573162927      0.148894071399      0.851059279579      -0.199204607864     0.851059279579      -0.199204607864     0.147573162927      0.148894071399      
3100000000.0        0.149936306724      0.153351643252      0.848604669241      -0.205345130567     0.848604669241      -0.205345130567     0.149936306724      0.153351643252      
3200000000.0        0.152359804051      0.15776408417       0.846086702505      -0.211441078182     0.846086702505      -0.211441078182     0.152359804051      0.15776408417       
3300000000.0        0.154842672069      0.16213040672       0.843506357277      -0.217491478848     0.843506357277      -0.217491478848     0.154842672069      0.16213040672       
3400000000.0        0.157383900772      0.166449654061      0.840864638494      -0.223495391244     0.840864638494      -0.223495391244     0.157383900772      0.166449654061      
3500000000.0        0.159982454987      0.17072090045       0.838162576122      -0.229451905094     0.838162576122      -0.229451905094     0.159982454987      0.17072090045       
3600000000.0        0.162637276267      0.174943251675      0.835401223259      -0.235360141612     0.835401223259      -0.235360141612     0.162637276267      0.174943251675      
3700000000.0        0.165347284693      0.179115845449      0.832581654342      -0.241219253889     0.832581654342      -0.241219253889     0.165347284693      0.179115845449      
3800000000.0        0.168111380584      0.183237851729      0.829704963426      -0.247028427217     0.829704963426      -0.247028427217     0.168111380584      0.183237851729      
3900000000.0        0.170928446141      0.187308472992      0.826772262548      -0.252786879369     0.826772262548      -0.252786879369     0.170928446141      0.187308472992      
4000000000.0        0.173797347032      0.191326944456      0.823784680138      -0.258493860817     0.823784680138      -0.258493860817     0.173797347032      0.191326944456      
4100000000.0        0.176716933902      0.195292534246      0.820743359509      -0.264148654906     0.820743359509      -0.264148654906     0.176716933902      0.195292534246      
4200000000.0        0.17968604385       0.199204543515      0.81764945738       -0.269750577971     0.81764945738       -0.269750577971     0.17968604385       0.199204543515      
4300000000.0        0.182703501847      0.20306230652       0.814504142457      -0.275298979418     0.814504142457      -0.275298979418     0.182703501847      0.20306230652       
4400000000.0        0.185768122108      0.206865190645      0.811308594064      -0.280793241744     0.811308594064      -0.280793241744     0.185768122108      0.206865190645      
4500000000.0        0.188878709429      0.210612596385      0.808064000801      -0.286232780532     0.808064000801      -0.286232780532     0.188878709429      0.210612596385      
4600000000.0        0.192034060475      0.214303957287      0.804771559256      -0.291617044382     0.804771559256      -0.291617044382     0.192034060475      0.214303957287      
4700000000.0        0.195232965042      0.217938739851      0.801432472749      -0.296945514819     0.801432472749      -0.296945514819     0.195232965042      0.217938739851      
4800000000.0        0.198474207266      0.221516443386      0.798047950113      -0.302217706152     0.798047950113      -0.302217706152     0.198474207266      0.221516443386      
4900000000.0        0.201756566812      0.225036599834      0.794619204513      -0.307433165296     0.794619204513      -0.307433165296     0.201756566812      0.225036599834      
5000000000.0        0.205078820016      0.228498773558      0.791147452298      -0.31259147156      0.791147452298      -0.31259147156      0.205078820016      0.228498773558      
5100000000.0        0.208439741002      0.231902561087      0.787633911887      -0.317692236399     0.787633911887      -0.317692236399     0.208439741002      0.231902561087      
5200000000.0        0.211838102755      0.23524759084       0.784079802694      -0.322735103132     0.784079802694      -0.322735103132     0.211838102755      0.23524759084       
5300000000.0        0.215272678171      0.238533522808      0.780486344077      -0.32771974663      0.780486344077      -0.32771974663      0.215272678171      0.238533522808      
5400000000.0        0.218742241066      0.241760048208      0.77685475433       -0.332645872971     0.77685475433       -0.332645872971     0.218742241066      0.241760048208      
5500000000.0        0.222245567157      0.244926889115      0.7731862497        -0.33751321907      0.7731862497        -0.33751321907      0.222245567157      0.244926889115      
5600000000.0        0.225781435006      0.248033798058      0.769482043445      -0.342321552276     0.769482043445      -0.342321552276     0.225781435006      0.248033798058      
5700000000.0        0.229348626935      0.251080557595      0.765743344913      -0.347070669952     0.765743344913      -0.347070669952     0.229348626935      0.251080557595      
5800000000.0        0.232945929906      0.254066979863      0.76197135867       -0.351760399023     0.76197135867       -0.351760399023     0.232945929906      0.254066979863      
5900000000.0        0.236572136372      0.256992906107      0.758167283639      -0.356390595505     0.758167283639      -0.356390595505     0.236572136372      0.256992906107      
6000000000.0        0.240226045091      0.259858206182      0.754332312295      -0.360961144011     0.754332312295      -0.360961144011     0.240226045091      0.259858206182      
6100000000.0        0.243906461909      0.262662778045      0.750467629872      -0.365471957241     0.750467629872      -0.365471957241     0.243906461909      0.262662778045      
6200000000.0        0.247612200516      0.26540654722       0.746574413612      -0.369922975449     0.746574413612      -0.369922975449     0.247612200516      0.26540654722       
6300000000.0        0.251342083165      0.268089466253      0.742653832046      -0.374314165897     0.742653832046      -0.374314165897     0.251342083165      0.268089466253      
6400000000.0        0.25509494136       0.270711514143      0.738707044302      -0.378645522291     0.738707044302      -0.378645522291     0.25509494136       0.270711514143      
6500000000.0        0.258869616515      0.273272695769      0.734735199447      -0.382917064207     0.734735199447      -0.382917064207     0.258869616515      0.273272695769      
6600000000.0        0.262664960577      0.275773041298      0.730739435862      -0.387128836496     0.730739435862      -0.387128836496     0.262664960577      0.275773041298      
6700000000.0        0.266479836627      0.278212605584      0.726720880645      -0.391280908689     0.726720880645      -0.391280908689     0.266479836627      0.278212605584      
6800000000.0        0.27031311944       0.280591467557      0.722680649043      -0.395373374382     0.722680649043      -0.395373374382     0.27031311944       0.280591467557      
6900000000.0        0.274163696024      0.2829097296        0.718619843919      -0.399406350619     0.718619843919      -0.399406350619     0.274163696024      0.2829097296        
7000000000.0        0.27803046612       0.285167516927      0.714539555246      -0.403379977264     0.714539555246      -0.403379977264     0.27803046612       0.285167516927      
7100000000.0        0.281912342681      0.28736497694       0.710440859631      -0.40729441637      0.710440859631      -0.40729441637      0.281912342681      0.28736497694       
7200000000.0        0.285808252319      0.2895022786        0.706324819866      -0.411149851534     0.706324819866      -0.411149851534     0.285808252319      0.2895022786        
7300000000.0        0.289717135718      0.291579611778      0.702192484513      -0.414946487263     0.702192484513      -0.414946487263     0.289717135718      0.291579611778      
7400000000.0        0.293637948029      0.293597186609      0.698044887509      -0.418684548322     0.698044887509      -0.418684548322     0.293637948029      0.293597186609      
7500000000.0        0.297569659229      0.295555232845      0.693883047807      -0.42236427909      0.693883047807      -0.42236427909      0.297569659229      0.295555232845      
7600000000.0        0.301511254456      0.297453999207      0.68970796904       -0.425985942912     0.68970796904       -0.425985942912     0.301511254456      0.297453999207      
7700000000.0        0.305461734319      0.299293752738      0.685520639209      -0.429549821448     0.685520639209      -0.429549821448     0.305461734319      0.299293752738      
7800000000.0        0.309420115179      0.30107477815       0.681322030401      -0.43305621403      0.681322030401      -0.43305621403      0.309420115179      0.30107477815       
7900000000.0        0.313385429407      0.302797377184      0.677113098532      -0.436505437014     0.677113098532      -0.436505437014     0.313385429407      0.302797377184      
8000000000.0        0.317356725614      0.304461867962      0.672894783114      -0.439897823139     0.672894783114      -0.439897823139     0.317356725614      0.304461867962      
8100000000.0        0.321333068864      0.306068584354      0.668668007043      -0.443233720887     0.668668007043      -0.443233720887     0.321333068864      0.306068584354      
8200000000.0        0.325313540853      0.307617875337      0.664433676417      -0.44651349385      0.664433676417      -0.44651349385      0.325313540853      0.307617875337      
8300000000.0        0.329297240075      0.309110104367      0.66019268037       -0.449737520101     0.66019268037       -0.449737520101     0.329297240075      0.309110104367      
8400000000.0        0.333283281959      0.310545648759      0.655945890936      -0.452906191566     0.655945890936      -0.452906191566     0.333283281959      0.310545648759      
8500000000.0        0.33727079899       0.311924899062      0.651694162923      -0.456019913414     0.651694162923      -0.456019913414     0.33727079899       0.311924899062      
8600000000.0        0.341258940802      0.313248258454      0.647438333821      -0.459079103441     0.647438333821      -0.459079103441     0.341258940802      0.313248258454      
8700000000.0        0.345246874259      0.314516142136      0.64317922372       -0.46208419147      0.64317922372       -0.46208419147      0.345246874259      0.314516142136      
8800000000.0        0.349233783512      0.315728976739      0.638917635253      -0.465035618754     0.638917635253      -0.465035618754     0.349233783512      0.315728976739      
8900000000.0        0.353218870036      0.316887199734      0.634654353556      -0.467933837393     0.634654353556      -0.467933837393     0.353218870036      0.316887199734      
9000000000.0        0.357201352652      0.31799125886       0.630390146246      -0.470779309755     0.630390146246      -0.470779309755     0.357201352652      0.31799125886       
9100000000.0        0.361180467533      0.31904161155       0.626125763414      -0.473572507909     0.626125763414      -0.473572507909     0.361180467533      0.31904161155       
9200000000.0        0.365155468184      0.320038724377      0.621861937641      -0.476313913067     0.621861937641      -0.476313913067     0.365155468184      0.320038724377      
9300000000.0        0.36912562542       0.320983072504      0.617599384024      -0.479004015037     0.617599384024      -0.479004015037     0.36912562542       0.320983072504      
9400000000.0        0.373090227318      0.321875139149      0.613338800219      -0.481643311684     0.613338800219      -0.481643311684     0.373090227318      0.321875139149      
9500000000.0        0.377048579157      0.322715415054      0.609080866501      -0.484232308407     0.609080866501      -0.484232308407     0.377048579157      0.322715415054      
9600000000.0        0.381000003347      0.323504397974      0.604826245834      -0.486771517621     0.604826245834      -0.486771517621     0.381000003347      0.323504397974      
9700000000.0        0.384943839341      0.324242592167      0.600575583957      -0.489261458254     0.600575583957      -0.489261458254     0.384943839341      0.324242592167      
9800000000.0        0.388879443534      0.324930507907      0.596329509481      -0.491702655252     0.596329509481      -0.491702655252     0.388879443534      0.324930507907      
9900000000.0        0.392806189158      0.325568660999      0.592088634004      -0.494095639102     0.592088634004      -0.494095639102     0.392806189158      0.325568660999      
10000000000.0       0.396723466151      0.326157572311      0.587853552223      -0.49644094536      0.587853552223      -0.49644094536      0.396723466151      0.326157572311      
