# Hz S RI R 50.00 
100000000.0         0.000121791643272   -0.00153993476533   0.999866192255      -0.00228250462965   0.999866192255      -0.00228250462965   0.000121791643272   -0.00153993476533   
200000000.0         0.000110253129529   -0.00307992708275   0.999852101157      -0.00456509423527   0.999852101157      -0.00456509423527   0.000110253129529   -0.00307992708275   
300000000.0         9.14596711925e-05   -0.00461999241129   0.999830648105      -0.00684780093897   0.999830648105      -0.00684780093897   9.14596711925e-05   -0.00461999241129   
400000000.0         6.55194659149e-05   -0.00616013295396   0.999801720652      -0.00913063953149   0.999801720652      -0.00913063953149   6.55194659149e-05   -0.00616013295396   
500000000.0         3.24725208669e-05   -0.0077003439384    0.999765273957      -0.0114136159759    0.999765273957      -0.0114136159759    3.24725208671e-05   -0.0077003439384    
600000000.0         -7.66215389369e-06  -0.0092406158921    0.999721283772      -0.0136967303692    0.999721283772      -0.0136967303692    -7.66215389392e-06  -0.0092406158921    
700000000.0         -5.48745248945e-05  -0.0107809358194    0.999669734545      -0.0159799784554    0.999669734545      -0.0159799784554    -5.48745248945e-05  -0.0107809358194    
800000000.0         -0.000109159128167  -0.0123212879159    0.999610615111      -0.0182633525369    0.999610615111      -0.0182633525369    -0.000109159128167  -0.0123212879159    
900000000.0         -0.000170513091535  -0.0138616540454    0.999543916792      -0.0205468420783    0.999543916792      -0.0205468420783    -0.000170513091535  -0.0138616540454    
1000000000.0        -0.000238935120089  -0.0154020140805    0.999469632456      -0.0228304341359    0.999469632456      -0.0228304341359    -0.000238935120089  -0.0154020140805    
1100000000.0        -0.000314424922623  -0.0169423461564    0.999387755996      -0.0251141136762    0.999387755996      -0.0251141136762    -0.000314424922623  -0.0169423461564    
1200000000.0        -0.000396982862098  -0.0184826268693    0.999298282037      -0.0273978638225    0.999298282037      -0.0273978638225    -0.000396982862099  -0.0184826268693    
1300000000.0        -0.000486609729333  -0.020022831434     0.999201205751      -0.0296816660515    0.999201205751      -0.0296816660515    -0.000486609729333  -0.020022831434     
1400000000.0        -0.000583306588864  -0.0215629338129    0.999096522747      -0.0319655003526    0.999096522747      -0.0319655003526    -0.000583306588864  -0.0215629338129    
1500000000.0        -0.000687074669431  -0.0231029068246    0.998984228998      -0.0342493453612    0.998984228998      -0.0342493453612    -0.000687074669431  -0.0231029068246    
1600000000.0        -0.000797915283145  -0.0246427222355    0.998864320798      -0.0365331784711    0.998864320798      -0.0365331784711    -0.000797915283145  -0.0246427222355    
1700000000.0        -0.000915829763916  -0.0261823508391    0.998736794725      -0.0388169759309    0.998736794725      -0.0388169759309    -0.000915829763916  -0.0261823508391    
1800000000.0        -0.00104081941919   -0.0277217625246    0.998601647631      -0.0411007129281    0.998601647631      -0.0411007129281    -0.00104081941919   -0.0277217625246    
1900000000.0        -0.00117288549112   -0.0292609263385    0.998458876622      -0.0433843636624    0.998458876622      -0.0433843636624    -0.00117288549112   -0.0292609263385    
2000000000.0        -0.00131202912475   -0.0307998105386    0.998308479058      -0.0456679014115    0.998308479058      -0.0456679014115    -0.00131202912475   -0.0307998105386    
2100000000.0        -0.00145825134125   -0.0323383826429    0.998150452548      -0.0479512985893    0.998150452548      -0.0479512985893    -0.00145825134125   -0.0323383826429    
2200000000.0        -0.00161155301525   -0.033876609474     0.997984794945      -0.0502345267989    0.997984794945      -0.0502345267989    -0.00161155301525   -0.033876609474     
2300000000.0        -0.00177193485517   -0.0354144571992    0.997811504357      -0.0525175568804    0.997811504357      -0.0525175568804    -0.00177193485517   -0.0354144571992    
2400000000.0        -0.00193939738606   -0.0369518913677    0.99763057914       -0.0548003589546    0.99763057914       -0.0548003589546    -0.00193939738606   -0.0369518913677    
2500000000.0        -0.0021139409344    -0.0384888769449    0.997442017905      -0.0570829024637    0.997442017905      -0.0570829024637    -0.0021139409344    -0.0384888769449    
2600000000.0        -0.00229556561453   -0.0400253783436    0.997245819524      -0.0593651562076    0.997245819524      -0.0593651562076    -0.00229556561453   -0.0400253783436    
2700000000.0        -0.00248427131647   -0.0415613594542    0.99704198313       -0.0616470883794    0.99704198313       -0.0616470883794    -0.00248427131647   -0.0415613594542    
2800000000.0        -0.00268005769488   -0.0430967836716    0.996830508123      -0.0639286665968    0.996830508123      -0.0639286665968    -0.00268005769488   -0.0430967836716    
2900000000.0        -0.00288292415894   -0.0446316139216    0.996611394178      -0.0662098579325    0.996611394178      -0.0662098579325    -0.00288292415894   -0.0446316139216    
3000000000.0        -0.0030928698632    -0.0461658126855    0.996384641244      -0.0684906289423    0.996384641244      -0.0684906289423    -0.0030928698632    -0.0461658126855    
3100000000.0        -0.0033098936991    -0.0476993420223    0.996150249551      -0.070770945692     0.996150249551      -0.070770945692     -0.0033098936991    -0.0476993420223    
3200000000.0        -0.00353399428711   -0.0492321635917    0.995908219615      -0.073050773782     0.995908219615      -0.073050773782     -0.00353399428711   -0.0492321635917    
3300000000.0        -0.00376516996957   -0.050764238674     0.995658552244      -0.0753300783713    0.995658552244      -0.0753300783713    -0.00376516996957   -0.050764238674     
3400000000.0        -0.00400341880396   -0.0522955281903    0.995401248536      -0.0776088242002    0.995401248536      -0.0776088242002    -0.00400341880396   -0.0522955281903    
3500000000.0        -0.00424873855671   -0.0538259927216    0.99513630989       -0.0798869756119    0.99513630989       -0.0798869756119    -0.00424873855671   -0.0538259927216    
3600000000.0        -0.00450112669738   -0.0553555925264    0.994863738008      -0.0821644965725    0.994863738008      -0.0821644965725    -0.00450112669738   -0.0553555925264    
3700000000.0        -0.00476058039336   -0.0568842875585    0.994583534897      -0.0844413506913    0.994583534897      -0.0844413506913    -0.00476058039336   -0.0568842875585    
3800000000.0        -0.0050270965048    -0.0584120374832    0.994295702874      -0.0867175012388    0.994295702874      -0.0867175012388    -0.0050270965048    -0.0584120374832    
3900000000.0        -0.00530067157996   -0.0599388016938    0.994000244568      -0.0889929111654    0.994000244568      -0.0889929111654    -0.00530067157996   -0.0599388016938    
4000000000.0        -0.00558130185089   -0.0614645393267    0.993697162927      -0.0912675431182    0.993697162927      -0.0912675431182    -0.00558130185089   -0.0614645393267    
4100000000.0        -0.0058689832294    -0.0629892092764    0.993386461216      -0.0935413594579    0.993386461216      -0.0935413594579    -0.0058689832294    -0.0629892092764    
4200000000.0        -0.00616371130324   -0.0645127702097    0.993068143025      -0.0958143222747    0.993068143025      -0.0958143222747    -0.00616371130324   -0.0645127702097    
4300000000.0        -0.00646548133268   -0.0660351805798    0.992742212269      -0.0980863934038    0.992742212269      -0.0980863934038    -0.00646548133268   -0.0660351805798    
4400000000.0        -0.00677428824724   -0.0675563986397    0.99240867319       -0.10035753444      0.99240867319       -0.10035753444      -0.00677428824724   -0.0675563986397    
4500000000.0        -0.00709012664266   -0.0690763824552    0.99206753036       -0.102627706754     0.99206753036       -0.102627706754     -0.00709012664266   -0.0690763824552    
4600000000.0        -0.00741299077817   -0.0705950899174    0.991718788687      -0.104896871502     0.991718788687      -0.104896871502     -0.00741299077817   -0.0705950899174    
4700000000.0        -0.00774287457391   -0.0721124787551    0.99136245341       -0.107164989644     0.99136245341       -0.107164989644     -0.00774287457391   -0.0721124787551    
4800000000.0        -0.00807977160857   -0.0736285065468    0.990998530108      -0.109432021956     0.990998530108      -0.109432021956     -0.00807977160857   -0.0736285065468    
4900000000.0        -0.00842367511724   -0.075143130732     0.990627024696      -0.111697929038     0.990627024696      -0.111697929038     -0.00842367511724   -0.075143130732     
5000000000.0        -0.00877457798944   -0.0766563086227    0.990247943432      -0.113962671334     0.990247943432      -0.113962671334     -0.00877457798944   -0.0766563086227    
5100000000.0        -0.00913247276734   -0.0781679974144    0.989861292915      -0.116226209137     0.989861292915      -0.116226209137     -0.00913247276734   -0.0781679974144    
5200000000.0        -0.00949735164414   -0.0796781541966    0.989467080086      -0.118488502607     0.989467080086      -0.118488502607     -0.00949735164414   -0.0796781541966    
5300000000.0        -0.00986920646265   -0.0811867359632    0.989065312232      -0.120749511775     0.989065312232      -0.120749511775     -0.00986920646265   -0.0811867359632    
5400000000.0        -0.010248028714     -0.082693699623     0.988655996985      -0.123009196562     0.988655996985      -0.123009196562     -0.010248028714     -0.082693699623     
5500000000.0        -0.0106338095364    -0.0841990020091    0.988239142323      -0.125267516783     0.988239142323      -0.125267516783     -0.0106338095364    -0.0841990020091    
5600000000.0        -0.0110265397144    -0.0857025998891    0.987814756573      -0.127524432162     0.987814756573      -0.127524432162     -0.0110265397144    -0.0857025998891    
5700000000.0        -0.0114262096778    -0.0872044499741    0.987382848407      -0.12977990234      0.987382848407      -0.12977990234      -0.0114262096778    -0.0872044499741    
5800000000.0        -0.0118328095012    -0.0887045089281    0.986943426849      -0.132033886887     0.986943426849      -0.132033886887     -0.0118328095012    -0.0887045089281    
5900000000.0        -0.0122463289034    -0.0902027333773    0.98649650127       -0.134286345309     0.98649650127       -0.134286345309     -0.0122463289034    -0.0902027333773    
6000000000.0        -0.0126667572466    -0.0916990799184    0.98604208139       -0.136537237059     0.98604208139       -0.136537237059     -0.0126667572466    -0.0916990799184    
6100000000.0        -0.0130940835367    -0.0931935051275    0.98558017728       -0.138786521546     0.98558017728       -0.138786521546     -0.0130940835367    -0.0931935051275    
6200000000.0        -0.0135282964227    -0.0946859655686    0.98511079936       -0.141034158146     0.98511079936       -0.141034158146     -0.0135282964227    -0.0946859655686    
6300000000.0        -0.0139693841969    -0.0961764178019    0.984633958399      -0.143280106208     0.984633958399      -0.143280106208     -0.0139693841969    -0.0961764178019    
6400000000.0        -0.0144173347948    -0.0976648183917    0.984149665516      -0.145524325064     0.984149665516      -0.145524325064     -0.0144173347948    -0.0976648183917    
6500000000.0        -0.0148721357953    -0.0991511239141    0.983657932179      -0.147766774037     0.983657932179      -0.147766774037     -0.0148721357953    -0.0991511239141    
6600000000.0        -0.0153337744211    -0.100635290966     0.983158770205      -0.15000741245      0.983158770205      -0.15000741245      -0.0153337744211    -0.100635290966     
6700000000.0        -0.0158022375389    -0.102117276169     0.982652191759      -0.152246199635     0.982652191759      -0.152246199635     -0.0158022375389    -0.102117276169     
6800000000.0        -0.01627751166      -0.103597036184     0.982138209354      -0.154483094937     0.982138209354      -0.154483094937     -0.01627751166      -0.103597036184     
6900000000.0        -0.0167595829412    -0.105074527711     0.981616835852      -0.156718057727     0.981616835852      -0.156718057727     -0.0167595829412    -0.105074527711     
7000000000.0        -0.0172484371848    -0.106549707499     0.981088084458      -0.158951047407     0.981088084458      -0.158951047407     -0.0172484371848    -0.106549707499     
7100000000.0        -0.0177440598401    -0.108022532356     0.980551968725      -0.161182023416     0.980551968725      -0.161182023416     -0.0177440598401    -0.108022532356     
7200000000.0        -0.0182464360039    -0.109492959149     0.98000850255       -0.16341094524      0.98000850255       -0.16341094524      -0.0182464360039    -0.109492959149     
7300000000.0        -0.0187555504215    -0.110960944819     0.979457700175      -0.165637772418     0.979457700175      -0.165637772418     -0.0187555504215    -0.110960944819     
7400000000.0        -0.0192713874878    -0.112426446382     0.978899576182      -0.16786246455      0.978899576182      -0.16786246455      -0.0192713874878    -0.112426446382     
7500000000.0        -0.0197939312486    -0.113889420935     0.978334145498      -0.170084981301     0.978334145498      -0.170084981301     -0.0197939312486    -0.113889420935     
7600000000.0        -0.0203231654016    -0.115349825668     0.977761423386      -0.172305282412     0.977761423386      -0.172305282412     -0.0203231654016    -0.115349825668     
7700000000.0        -0.0208590732977    -0.116807617864     0.977181425452      -0.174523327702     0.977181425452      -0.174523327702     -0.0208590732977    -0.116807617864     
7800000000.0        -0.0214016379428    -0.118262754909     0.976594167636      -0.176739077077     0.976594167636      -0.176739077077     -0.0214016379428    -0.118262754909     
7900000000.0        -0.0219508419987    -0.119715194294     0.975999666217      -0.178952490539     0.975999666217      -0.178952490539     -0.0219508419987    -0.119715194294     
8000000000.0        -0.022506667785     -0.121164893626     0.975397937805      -0.181163528185     0.975397937805      -0.181163528185     -0.022506667785     -0.121164893626     
8100000000.0        -0.0230690972805    -0.122611810632     0.974788999347      -0.183372150221     0.974788999347      -0.183372150221     -0.0230690972805    -0.122611810632     
8200000000.0        -0.0236381121252    -0.124055903162     0.974172868118      -0.185578316963     0.974172868118      -0.185578316963     -0.0236381121252    -0.124055903162     
8300000000.0        -0.0242136936217    -0.125497129196     0.973549561722      -0.187781988842     0.973549561722      -0.187781988842     -0.0242136936217    -0.125497129196     
8400000000.0        -0.0247958227372    -0.126935446851     0.972919098093      -0.189983126416     0.972919098093      -0.189983126416     -0.0247958227372    -0.126935446851     
8500000000.0        -0.0253844801055    -0.128370814386     0.972281495488      -0.192181690368     0.972281495488      -0.192181690368     -0.0253844801055    -0.128370814386     
8600000000.0        -0.0259796460285    -0.129803190205     0.971636772491      -0.194377641516     0.971636772491      -0.194377641516     -0.0259796460285    -0.129803190205     
8700000000.0        -0.0265813004788    -0.131232532864     0.970984948003      -0.196570940819     0.970984948003      -0.196570940819     -0.0265813004788    -0.131232532864     
8800000000.0        -0.0271894231014    -0.132658801076     0.970326041248      -0.198761549379     0.970326041248      -0.198761549379     -0.0271894231014    -0.132658801076     
8900000000.0        -0.0278039932159    -0.134081953715     0.969660071767      -0.200949428447     0.969660071767      -0.200949428447     -0.0278039932159    -0.134081953715     
9000000000.0        -0.0284249898185    -0.135501949822     0.968987059415      -0.203134539432     0.968987059415      -0.203134539432     -0.0284249898185    -0.135501949822     
9100000000.0        -0.0290523915849    -0.136918748608     0.968307024361      -0.205316843899     0.968307024361      -0.205316843899     -0.0290523915849    -0.136918748608     
9200000000.0        -0.0296861768717    -0.138332309461     0.967619987083      -0.207496303581     0.967619987083      -0.207496303581     -0.0296861768717    -0.138332309461     
9300000000.0        -0.0303263237194    -0.139742591949     0.96692596837       -0.209672880379     0.96692596837       -0.209672880379     -0.0303263237194    -0.139742591949     
9400000000.0        -0.0309728098546    -0.141149555824     0.966224989315      -0.211846536368     0.966224989315      -0.211846536368     -0.0309728098546    -0.141149555824     
9500000000.0        -0.0316256126922    -0.142553161029     0.965517071314      -0.214017233803     0.965517071314      -0.214017233803     -0.0316256126922    -0.142553161029     
9600000000.0        -0.0322847093384    -0.143953367697     0.964802236066      -0.21618493512      0.964802236066      -0.21618493512      -0.0322847093384    -0.143953367697     
9700000000.0        -0.0329500765928    -0.145350136164     0.964080505566      -0.218349602946     0.964080505566      -0.218349602946     -0.0329500765928    -0.145350136164     
9800000000.0        -0.0336216909513    -0.146743426962     0.963351902107      -0.220511200096     0.963351902107      -0.220511200096     -0.0336216909513    -0.146743426962     
9900000000.0        -0.0342995286084    -0.148133200834     0.962616448273      -0.222669689585     0.962616448273      -0.222669689585     -0.0342995286084    -0.148133200834     
10000000000.0       -0.0349835654601    -0.149519418728     0.96187416694       -0.224825034625     0.96187416694       -0.224825034625     -0.0349835654601    -0.149519418728     
