# Hz S RI R 50.00 
100000000.0         0.000832717959685   0.00026781142867    0.999165734503      -0.000732519811274  0.999165734503      -0.000732519811274  0.000832717959685   0.00026781142867    
200000000.0         0.000838640016889   0.000535611539259   0.999159048879      -0.00146503502554   0.999159048879      -0.00146503502554   0.000838640016889   0.000535611539259   
300000000.0         0.000843482720139   0.000803404286447   0.99915322656       -0.00219755322376   0.99915322656       -0.00219755322376   0.000843482720139   0.000803404286447   
400000000.0         0.000847969430986   0.00107119072877    0.999147544159      -0.00293007823899   0.999147544159      -0.00293007823899   0.000847969430986   0.00107119072877    
500000000.0         0.000852378757668   0.00133897126323    0.999141723041      -0.00366261281148   0.999141723041      -0.00366261281148   0.000852378757669   0.00133897126323    
600000000.0         0.000856852801914   0.00160674600196    0.999135621073      -0.00439515911346   0.999135621073      -0.00439515911346   0.000856852801914   0.00160674600196    
700000000.0         0.000861475514763   0.00187451490765    0.999129154271      -0.00512771895908   0.999129154271      -0.00512771895908   0.000861475514763   0.00187451490765    
800000000.0         0.000866301292662   0.00214227785487    0.999122268199      -0.00586029391286   0.999122268199      -0.00586029391286   0.000866301292662   0.00214227785487    
900000000.0         0.000871367708866   0.0024100346641     0.999114925247      -0.00659288535197   0.999114925247      -0.00659288535197   0.000871367708865   0.0024100346641     
1000000000.0        0.00087670196653    0.00267778512059    0.999107098169      -0.00732549450739   0.999107098169      -0.00732549450739   0.00087670196653    0.00267778512059    
1100000000.0        0.000882324485502   0.0029455289868     0.999098766501      -0.00805812249143   0.999098766501      -0.00805812249143   0.000882324485502   0.0029455289868     
1200000000.0        0.000888251039543   0.00321326601035    0.999089914423      -0.0087907703179    0.999089914423      -0.0087907703179    0.000888251039543   0.00321326601035    
1300000000.0        0.000894494100769   0.00348099592955    0.999080529416      -0.00952343891702   0.999080529416      -0.00952343891702   0.000894494100769   0.00348099592955    
1400000000.0        0.000901063723331   0.0037487184773     0.999070601374      -0.010256129147     0.999070601374      -0.010256129147     0.000901063723331   0.0037487184773     
1500000000.0        0.000907968145515   0.00401643338391    0.999060122009      -0.0109888418029    0.999060122009      -0.0109888418029    0.000907968145515   0.00401643338391    
1600000000.0        0.000915214212545   0.0042841403792     0.999049084421      -0.0117215776243    0.999049084421      -0.0117215776243    0.000915214212545   0.0042841403792     
1700000000.0        0.000922807681285   0.00455183919393    0.999037482799      -0.0124543373013    0.999037482799      -0.0124543373013    0.000922807681285   0.00455183919393    
1800000000.0        0.000930753444699   0.00481952956115    0.999025312194      -0.0131871214791    0.999025312194      -0.0131871214791    0.000930753444699   0.00481952956115    
1900000000.0        0.000939055700456   0.005087211217      0.999012568351      -0.0139199307626    0.999012568351      -0.0139199307626    0.000939055700455   0.005087211217      
2000000000.0        0.00094771807973    0.00535488390139    0.998999247578      -0.01465276572      0.998999247578      -0.01465276572      0.00094771807973    0.00535488390139    
2100000000.0        0.000956743747107   0.00562254735864    0.998985346651      -0.0153856268855    0.998985346651      -0.0153856268855    0.000956743747107   0.00562254735864    
2200000000.0        0.000966135479088   0.00589020133777    0.998970862732      -0.0161185147627    0.998970862732      -0.0161185147627    0.000966135479088   0.00589020133777    
2300000000.0        0.00097589572658    0.00615784559288    0.998955793308      -0.016851429826     0.998955793308      -0.016851429826     0.00097589572658    0.00615784559288    
2400000000.0        0.000986026665127   0.00642547988336    0.998940136139      -0.0175843725237    0.998940136139      -0.0175843725237    0.000986026665127   0.00642547988336    
2500000000.0        0.000996530235727   0.00669310397411    0.998923889218      -0.0183173432789    0.998923889218      -0.0183173432789    0.000996530235727   0.00669310397411    
2600000000.0        0.00100740817829    0.00696071763567    0.998907050742      -0.0190503424919    0.998907050742      -0.0190503424919    0.00100740817829    0.00696071763567    
2700000000.0        0.00101866205927    0.00722832064429    0.998889619075      -0.019783370541     0.998889619075      -0.019783370541     0.00101866205927    0.00722832064429    
2800000000.0        0.0010302932947     0.00749591278202    0.998871592735      -0.0205164277845    0.998871592735      -0.0205164277845    0.0010302932947     0.00749591278202    
2900000000.0        0.00104230316949    0.00776349383675    0.998852970368      -0.0212495145612    0.998852970368      -0.0212495145612    0.00104230316949    0.00776349383675    
3000000000.0        0.00105469285374    0.00803106360221    0.998833750735      -0.0219826311922    0.998833750735      -0.0219826311922    0.00105469285374    0.00803106360221    
3100000000.0        0.00106746341655    0.00829862187803    0.998813932696      -0.0227157779813    0.998813932696      -0.0227157779813    0.00106746341655    0.00829862187803    
3200000000.0        0.00108061583785    0.00856616846961    0.998793515201      -0.0234489552162    0.998793515201      -0.0234489552162    0.00108061583785    0.00856616846961    
3300000000.0        0.00109415101852    0.00883370318829    0.998772497277      -0.0241821631692    0.998772497277      -0.0241821631692    0.00109415101852    0.00883370318829    
3400000000.0        0.00110806978917    0.00910122585112    0.998750878021      -0.0249154020982    0.998750878021      -0.0249154020982    0.00110806978917    0.00910122585112    
3500000000.0        0.00112237291771    0.00936873628096    0.998728656592      -0.025648672247     0.998728656592      -0.025648672247     0.00112237291771    0.00936873628096    
3600000000.0        0.00113706111591    0.00963623430637    0.998705832206      -0.0263819738465    0.998705832206      -0.0263819738465    0.00113706111591    0.00963623430637    
3700000000.0        0.00115213504522    0.00990371976158    0.998682404127      -0.0271153071148    0.998682404127      -0.0271153071148    0.00115213504522    0.00990371976158    
3800000000.0        0.00116759532179    0.0101711924865     0.998658371663      -0.027848672258     0.998658371663      -0.027848672258     0.00116759532179    0.0101711924865     
3900000000.0        0.00118344252089    0.0104386523264     0.998633734166      -0.0285820694707    0.998633734166      -0.0285820694707    0.00118344252089    0.0104386523264     
4000000000.0        0.00119967718093    0.0107060991323     0.99860849102       -0.0293154989365    0.99860849102       -0.0293154989365    0.00119967718093    0.0107060991323     
4100000000.0        0.00121629980685    0.0109735327605     0.998582641645      -0.0300489608285    0.998582641645      -0.0300489608285    0.00121629980685    0.0109735327605     
4200000000.0        0.00123331087326    0.0112409530727     0.99855618549       -0.0307824553095    0.99855618549       -0.0307824553095    0.00123331087326    0.0112409530727     
4300000000.0        0.00125071082719    0.011508359936      0.998529122031      -0.0315159825329    0.998529122031      -0.0315159825329    0.00125071082719    0.011508359936      
4400000000.0        0.00126850009057    0.0117757532226     0.998501450769      -0.0322495426423    0.998501450769      -0.0322495426423    0.00126850009057    0.0117757532226     
4500000000.0        0.00128667906242    0.01204313281       0.998473171227      -0.0329831357728    0.998473171227      -0.0329831357728    0.00128667906242    0.01204313281       
4600000000.0        0.00130524812083    0.0123104985807     0.99844428295       -0.0337167620504    0.99844428295       -0.0337167620504    0.00130524812083    0.0123104985807     
4700000000.0        0.0013242076248     0.0125778504222     0.998414785499      -0.0344504215931    0.998414785499      -0.0344504215931    0.0013242076248     0.0125778504222     
4800000000.0        0.00134355791578    0.0128451882272     0.998384678457      -0.0351841145107    0.998384678457      -0.0351841145107    0.00134355791578    0.0128451882272     
4900000000.0        0.0013632993192     0.0131125118932     0.998353961417      -0.0359178409052    0.998353961417      -0.0359178409052    0.0013632993192     0.0131125118932     
5000000000.0        0.00138343214575    0.0133798213223     0.998322633991      -0.0366516008714    0.998322633991      -0.0366516008714    0.00138343214575    0.0133798213223     
5100000000.0        0.00140395669261    0.0136471164218     0.998290695802      -0.0373853944965    0.998290695802      -0.0373853944965    0.00140395669261    0.0136471164218     
5200000000.0        0.00142487324451    0.0139143971033     0.998258146486      -0.038119221861     0.998258146486      -0.038119221861     0.00142487324451    0.0139143971033     
5300000000.0        0.0014461820748     0.0141816632834     0.99822498569       -0.0388530830384    0.99822498569       -0.0388530830384    0.0014461820748     0.0141816632834     
5400000000.0        0.00146788344626    0.0144489148829     0.998191213072      -0.0395869780958    0.998191213072      -0.0395869780958    0.00146788344626    0.0144489148829     
5500000000.0        0.00148997761205    0.0147161518273     0.9981568283        -0.040320907094     0.9981568283        -0.040320907094     0.00148997761205    0.0147161518273     
5600000000.0        0.00151246481637    0.0149833740467     0.998121831047      -0.0410548700876    0.998121831047      -0.0410548700876    0.00151246481637    0.0149833740467     
5700000000.0        0.00153534529525    0.0152505814753     0.998086221         -0.0417888671252    0.998086221         -0.0417888671252    0.00153534529525    0.0152505814753     
5800000000.0        0.00155861927713    0.0155177740517     0.998049997848      -0.0425228982497    0.998049997848      -0.0425228982497    0.00155861927713    0.0155177740517     
5900000000.0        0.00158228698351    0.0157849517188     0.998013161291      -0.0432569634984    0.998013161291      -0.0432569634984    0.00158228698351    0.0157849517188     
6000000000.0        0.00160634862946    0.0160521144238     0.997975711032      -0.0439910629031    0.997975711032      -0.0439910629031    0.00160634862946    0.0160521144238     
6100000000.0        0.00163080442415    0.0163192621178     0.997937646784      -0.0447251964904    0.997937646784      -0.0447251964904    0.00163080442415    0.0163192621178     
6200000000.0        0.0016556545713     0.016586394756      0.997898968261      -0.0454593642818    0.997898968261      -0.0454593642818    0.0016556545713     0.016586394756      
6300000000.0        0.00168089926964    0.0168535122978     0.997859675184      -0.0461935662937    0.997859675184      -0.0461935662937    0.00168089926964    0.0168535122978     
6400000000.0        0.0017065387133     0.0171206147064     0.997819767279      -0.0469278025376    0.997819767279      -0.0469278025376    0.0017065387133     0.0171206147064     
6500000000.0        0.00173257309217    0.0173877019489     0.997779244276      -0.0476620730204    0.997779244276      -0.0476620730204    0.00173257309217    0.0173877019489     
6600000000.0        0.00175900259228    0.0176547739963     0.997738105908      -0.0483963777445    0.997738105908      -0.0483963777445    0.00175900259227    0.0176547739963     
6700000000.0        0.00178582739609    0.0179218308234     0.997696351914      -0.0491307167076    0.997696351914      -0.0491307167076    0.00178582739609    0.0179218308234     
6800000000.0        0.00181304768282    0.0181888724086     0.997653982032      -0.0498650899032    0.997653982032      -0.0498650899032    0.00181304768282    0.0181888724086     
6900000000.0        0.00184066362873    0.018455898734      0.997610996008      -0.0505994973204    0.997610996008      -0.0505994973204    0.00184066362873    0.018455898734      
7000000000.0        0.00186867540735    0.0187229097854     0.997567393588      -0.0513339389443    0.997567393588      -0.0513339389443    0.00186867540735    0.0187229097854     
7100000000.0        0.00189708318976    0.0189899055522     0.99752317452       -0.052068414756     0.99752317452       -0.052068414756     0.00189708318976    0.0189899055522     
7200000000.0        0.0019258871448     0.0192568860271     0.997478338556      -0.0528029247324    0.997478338556      -0.0528029247324    0.0019258871448     0.0192568860271     
7300000000.0        0.00195508743932    0.0195238512064     0.99743288545       -0.0535374688469    0.99743288545       -0.0535374688469    0.00195508743932    0.0195238512064     
7400000000.0        0.00198468423833    0.0197908010899     0.997386814957      -0.0542720470688    0.997386814957      -0.0542720470688    0.00198468423833    0.0197908010899     
7500000000.0        0.00201467770522    0.0200577356806     0.997340126834      -0.055006659364     0.997340126834      -0.055006659364     0.00201467770522    0.0200577356806     
7600000000.0        0.00204506800195    0.0203246549849     0.997292820841      -0.0557413056946    0.997292820841      -0.0557413056946    0.00204506800195    0.0203246549849     
7700000000.0        0.00207585528917    0.0205915590123     0.997244896737      -0.0564759860194    0.997244896737      -0.0564759860194    0.00207585528917    0.0205915590123     
7800000000.0        0.00210703972643    0.0208584477757     0.997196354283      -0.0572107002936    0.997196354283      -0.0572107002936    0.00210703972643    0.0208584477757     
7900000000.0        0.00213862147231    0.0211253212911     0.997147193244      -0.0579454484691    0.997147193244      -0.0579454484691    0.00213862147231    0.0211253212911     
8000000000.0        0.00217060068455    0.0213921795776     0.997097413383      -0.0586802304946    0.997097413383      -0.0586802304946    0.00217060068455    0.0213921795776     
8100000000.0        0.00220297752018    0.0216590226574     0.997047014464      -0.0594150463155    0.997047014464      -0.0594150463155    0.00220297752018    0.0216590226574     
8200000000.0        0.00223575213567    0.0219258505556     0.996995996253      -0.060149895874     0.996995996253      -0.060149895874     0.00223575213567    0.0219258505556     
8300000000.0        0.00226892468701    0.0221926633004     0.996944358516      -0.0608847791094    0.996944358516      -0.0608847791094    0.00226892468701    0.0221926633004     
8400000000.0        0.00230249532985    0.0224594609229     0.99689210102       -0.0616196959578    0.99689210102       -0.0616196959578    0.00230249532985    0.0224594609229     
8500000000.0        0.00233646421961    0.0227262434572     0.996839223533      -0.0623546463524    0.996839223533      -0.0623546463524    0.00233646421961    0.0227262434572     
8600000000.0        0.00237083151154    0.02299301094       0.996785725822      -0.0630896302235    0.996785725822      -0.0630896302235    0.00237083151154    0.02299301094       
8700000000.0        0.00240559736086    0.023259763411      0.996731607655      -0.0638246474986    0.996731607655      -0.0638246474986    0.00240559736086    0.023259763411      
8800000000.0        0.00244076192284    0.0235265009127     0.996676868801      -0.0645596981024    0.996676868801      -0.0645596981024    0.00244076192284    0.0235265009127     
8900000000.0        0.00247632535283    0.02379322349       0.996621509027      -0.0652947819567    0.996621509027      -0.0652947819567    0.00247632535283    0.02379322349       
9000000000.0        0.00251228780644    0.0240599311909     0.996565528104      -0.0660298989807    0.996565528104      -0.0660298989807    0.00251228780644    0.0240599311909     
9100000000.0        0.00254864943953    0.0243266240657     0.996508925798      -0.0667650490912    0.996508925798      -0.0667650490912    0.00254864943953    0.0243266240657     
9200000000.0        0.00258541040831    0.0245933021676     0.996451701879      -0.067500232202     0.996451701879      -0.067500232202     0.00258541040831    0.0245933021676     
9300000000.0        0.00262257086945    0.024859965552      0.996393856116      -0.0682354482246    0.996393856116      -0.0682354482246    0.00262257086945    0.024859965552      
9400000000.0        0.00266013098007    0.0251266142772     0.996335388275      -0.0689706970679    0.996335388275      -0.0689706970679    0.00266013098007    0.0251266142772     
9500000000.0        0.00269809089786    0.0253932484037     0.996276298127      -0.0697059786383    0.996276298127      -0.0697059786383    0.00269809089786    0.0253932484037     
9600000000.0        0.00273645078113    0.0256598679945     0.996216585438      -0.0704412928399    0.996216585438      -0.0704412928399    0.00273645078113    0.0256598679945     
9700000000.0        0.00277521078885    0.0259264731151     0.996156249976      -0.0711766395744    0.996156249976      -0.0711766395744    0.00277521078885    0.0259264731151     
9800000000.0        0.00281437108071    0.0261930638333     0.996095291508      -0.0719120187408    0.996095291508      -0.0719120187408    0.00281437108071    0.0261930638333     
9900000000.0        0.0028539318172     0.0264596402193     0.996033709801      -0.0726474302364    0.996033709801      -0.0726474302364    0.0028539318172     0.0264596402193     
10000000000.0       0.00289389315962    0.0267262023454     0.995971504621      -0.0733828739556    0.995971504621      -0.0733828739556    0.00289389315962    0.0267262023454     
