# Hz S RI R 50.00 
100000000.0         -0.000198443394353  -0.013985087379     0.999775826855      -0.0140742084548    0.999775826855      -0.0140742084548    -0.000198443394353  -0.013985087379     
200000000.0         -0.000802366322052  -0.0279521120908    0.999171716453      -0.028130369519     0.999171716453      -0.028130369519     -0.000802366322052  -0.0279521120908    
300000000.0         -0.00179798551788   -0.0418842317849    0.998175946136      -0.0421516486824    0.998175946136      -0.0421516486824    -0.00179798551788   -0.0418842317849    
400000000.0         -0.0031828132216    -0.0557648375998    0.996790981537      -0.0561214430583    0.996790981537      -0.0561214430583    -0.00318281322161   -0.0557648375998    
500000000.0         -0.00495344362058   -0.069577576627     0.995020219982      -0.0700234047432    0.995020219982      -0.0700234047432    -0.00495344362058   -0.069577576627     
600000000.0         -0.00710557250496   -0.0833064001031    0.99286796137       -0.0838414893233    0.99286796137       -0.0838414893233    -0.00710557250496   -0.0833064001031    
700000000.0         -0.00963402448236   -0.0969356164181    0.990339378553      -0.0975600090436    0.990339378553      -0.0975600090436    -0.00963402448236   -0.0969356164181    
800000000.0         -0.0125327851479    -0.110449944217     0.987440484294      -0.111163686007     0.987440484294      -0.111163686007     -0.0125327851479    -0.110449944217     
900000000.0         -0.015795037557     -0.123834563704     0.984178094404      -0.124637703539     0.984178094404      -0.124637703539     -0.015795037557     -0.123834563704     
1000000000.0        -0.0194132025792    -0.137075165108     0.980559787193      -0.137967754709     0.980559787193      -0.137967754709     -0.0194132025792    -0.137075165108     
1100000000.0        -0.0233789827328    -0.150157993693     0.976593859525      -0.151140087364     0.976593859525      -0.151140087364     -0.0233789827328    -0.150157993693     
1200000000.0        -0.0276834090745    -0.163069890834     0.972289279866      -0.164141545239     0.972289279866      -0.164141545239     -0.0276834090745    -0.163069890834     
1300000000.0        -0.0323168906977    -0.175798330853     0.967655638741      -0.17695960481      0.967655638741      -0.17695960481      -0.0323168906977    -0.175798330853     
1400000000.0        -0.0372692663789    -0.188331453376     0.962703097066      -0.189582407674     0.962703097066      -0.189582407674     -0.0372692663789    -0.188331453376     
1500000000.0        -0.0425298578999    -0.200658091071     0.957442332803      -0.201998788298     0.957442332803      -0.201998788298     -0.0425298578999    -0.200658091071     
1600000000.0        -0.0480875245727    -0.212767792673     0.951884486428      -0.21419829706      0.951884486428      -0.21419829706      -0.0480875245727    -0.212767792673     
1700000000.0        -0.0539307185006    -0.224650841275     0.946041105654      -0.226171218549     0.946041105654      -0.226171218549     -0.0539307185006    -0.224650841275     
1800000000.0        -0.0600475401194    -0.23629826793      0.939924089888      -0.237908585179     0.939924089888      -0.237908585179     -0.0600475401194    -0.23629826793      
1900000000.0        -0.0664257935819    -0.247701860636     0.933545634841      -0.249402186183     0.933545634841      -0.249402186183     -0.0664257935819    -0.247701860636     
2000000000.0        -0.0730530415673    -0.258854168837     0.926918177713      -0.26064457212      0.926918177713      -0.26064457212      -0.0730530415673    -0.258854168837     
2100000000.0        -0.0799166591319    -0.269748503615     0.920054343341      -0.27162905508      0.920054343341      -0.27162905508      -0.0799166591319    -0.269748503615     
2200000000.0        -0.0870038862381    -0.280378933775     0.912966891665      -0.282349704768     0.912966891665      -0.282349704768     -0.0870038862381    -0.280378933775     
2300000000.0        -0.0943018786408    -0.290740278056     0.905668666845      -0.292801340728     0.905668666845      -0.292801340728     -0.0943018786408    -0.290740278056     
2400000000.0        -0.10179775684      -0.300828093739     0.898172548301      -0.302979520954     0.898172548301      -0.302979520954     -0.10179775684      -0.300828093739     
2500000000.0        -0.109478652846     -0.310638661921     0.890491403951      -0.31288052717      0.890491403951      -0.31288052717      -0.109478652846     -0.310638661921     
2600000000.0        -0.117331754545     -0.32016896976      0.882638045842      -0.322501347078     0.882638045842      -0.322501347078     -0.117331754545     -0.32016896976      
2700000000.0        -0.125344347484     -0.329416689991     0.874625188367      -0.331839653883     0.874625188367      -0.331839653883     -0.125344347484     -0.329416689991     
2800000000.0        -0.133503853929     -0.338380158027     0.866465409201      -0.340893783396     0.866465409201      -0.340893783396     -0.133503853929     -0.338380158027     
2900000000.0        -0.141797869102     -0.347058346958     0.858171113068      -0.349662709037     0.858171113068      -0.349662709037     -0.141797869102     -0.347058346958     
3000000000.0        -0.150214194518     -0.355450840756     0.849754498404      -0.358146015046     0.849754498404      -0.358146015046     -0.150214194518     -0.355450840756     
3100000000.0        -0.158740868371     -0.363557805988     0.841227526968      -0.366343868197     0.841227526968      -0.366343868197     -0.158740868371     -0.363557805988     
3200000000.0        -0.167366192984     -0.371379962336     0.832601896392      -0.374256988322     0.832601896392      -0.374256988322     -0.167366192984     -0.371379962336     
3300000000.0        -0.176078759316     -0.378918552202     0.823889015675      -0.381886617924     0.823889015675      -0.381886617924     -0.176078759316     -0.378918552202     
3400000000.0        -0.18486746858      -0.386175309668     0.815099983563      -0.389234491133     0.815099983563      -0.389234491133     -0.18486746858      -0.386175309668     
3500000000.0        -0.193721551039     -0.393152429064     0.806245569755      -0.396302802283     0.806245569755      -0.396302802283     -0.193721551039     -0.393152429064     
3600000000.0        -0.202630582053     -0.399852533376     0.797336198852      -0.40309417432      0.797336198852      -0.40309417432      -0.202630582053     -0.399852533376     
3700000000.0        -0.21158449549      -0.406278642717     0.788381936955      -0.409611627275     0.788381936955      -0.409611627275     -0.21158449549      -0.406278642717     
3800000000.0        -0.2205735946       -0.412434143046     0.779392480778      -0.415858546988     0.779392480778      -0.415858546988     -0.2205735946       -0.412434143046     
3900000000.0        -0.229588560495     -0.418322755333     0.770377149175      -0.421838654276     0.770377149175      -0.421838654276     -0.229588560495     -0.418322755333     
4000000000.0        -0.238620458362     -0.423948505306     0.761344876929      -0.427555974679     0.761344876929      -0.427555974679     -0.238620458362     -0.423948505306     
4100000000.0        -0.247660741542     -0.429315693944     0.75230421067       -0.433014808956     0.75230421067       -0.433014808956     -0.247660741542     -0.429315693944     
4200000000.0        -0.256701253637     -0.434428868811     0.743263306767      -0.438219704425     0.743263306767      -0.438219704425     -0.256701253637     -0.434428868811     
4300000000.0        -0.265734228779     -0.43929279636      0.734229931057      -0.443175427267     0.734229931057      -0.443175427267     -0.265734228779     -0.43929279636      
4400000000.0        -0.274752290224     -0.443912435279     0.725211460258      -0.447886935869     0.725211460258      -0.447886935869     -0.274752290224     -0.443912435279     
4500000000.0        -0.283748447405     -0.448292910943     0.71621488491       -0.452359355284     0.71621488491       -0.452359355284     -0.283748447405     -0.448292910943     
4600000000.0        -0.2927160916       -0.452439491045     0.70724681371       -0.456597952865     0.70724681371       -0.456597952865     -0.2927160916       -0.452439491045     
4700000000.0        -0.301648990354     -0.456357562431     0.698313479087      -0.460608115093     0.698313479087      -0.460608115093     -0.301648990354     -0.456357562431     
4800000000.0        -0.310541280795     -0.460052609172     0.68942074389       -0.46439532566      0.68942074389       -0.46439532566      -0.310541280795     -0.460052609172     
4900000000.0        -0.319387461973     -0.463530191891     0.680574109044      -0.467965144793     0.680574109044      -0.467965144793     -0.319387461973     -0.463530191891     
5000000000.0        -0.328182386355     -0.466795928342     0.671778722059      -0.471323189832     0.671778722059      -0.471323189832     -0.328182386355     -0.466795928342     
5100000000.0        -0.336921250592     -0.469855475242     0.663039386262      -0.474475117071     0.663039386262      -0.474475117071     -0.336921250592     -0.469855475242     
5200000000.0        -0.345599585672     -0.47271451135      0.654360570642      -0.47742660483      0.654360570642      -0.47742660483      -0.345599585672     -0.47271451135      
5300000000.0        -0.354213246573     -0.475378721751     0.6457464202        -0.480183337746     0.6457464202        -0.480183337746     -0.354213246573     -0.475378721751     
5400000000.0        -0.362758401497     -0.477853783343     0.637200766713      -0.482750992257     0.637200766713      -0.482750992257     -0.362758401497     -0.477853783343     
5500000000.0        -0.371231520801     -0.480145351477     0.628727139804      -0.485135223246     0.628727139804      -0.485135223246     -0.371231520801     -0.480145351477     
5600000000.0        -0.37962936569      -0.482259047717     0.620328778246      -0.487341651801     0.620328778246      -0.487341651801     -0.37962936569      -0.482259047717     
5700000000.0        -0.387948976763     -0.484200448689     0.612008641422      -0.489375854064     0.612008641422      -0.489375854064     -0.387948976763     -0.484200448689     
5800000000.0        -0.396187662472     -0.485975075957     0.603769420861      -0.491243351114     0.603769420861      -0.491243351114     -0.396187662472     -0.485975075957     
5900000000.0        -0.404342987563     -0.487588386905     0.595613551797      -0.492949599836     0.595613551797      -0.492949599836     -0.404342987563     -0.487588386905     
6000000000.0        -0.41241276156      -0.489045766548     0.587543224687      -0.494499984749     0.587543224687      -0.494499984749     -0.41241276156      -0.489045766548     
6100000000.0        -0.420395027334     -0.490352520248     0.579560396644      -0.495899810713     0.579560396644      -0.495899810713     -0.420395027334     -0.490352520248     
6200000000.0        -0.428288049807     -0.491513867281     0.571666802726      -0.497154296498     0.571666802726      -0.497154296498     -0.428288049807     -0.491513867281     
6300000000.0        -0.436090304836     -0.492534935192     0.563863967061      -0.498268569143     0.563863967061      -0.498268569143     -0.436090304836     -0.492534935192     
6400000000.0        -0.443800468294     -0.493420754908     0.556153213755      -0.499247659065     0.556153213755      -0.499247659065     -0.443800468294     -0.493420754908     
6500000000.0        -0.451417405406     -0.494176256548     0.548535677571      -0.500096495874     0.548535677571      -0.500096495874     -0.451417405406     -0.494176256548     
6600000000.0        -0.458940160329     -0.494806265894     0.541012314332      -0.500819904842     0.541012314332      -0.500819904842     -0.458940160329     -0.494806265894     
6700000000.0        -0.46636794603      -0.495315501462     0.533583911056      -0.501422603976     0.533583911056      -0.501422603976     -0.46636794603      -0.495315501462     
6800000000.0        -0.473700134457     -0.495708572146     0.526251095778      -0.501909201661     0.526251095778      -0.501909201661     -0.473700134457     -0.495708572146     
6900000000.0        -0.48093624703      -0.495989975381     0.519014347065      -0.502284194822     0.519014347065      -0.502284194822     -0.48093624703      -0.495989975381     
7000000000.0        -0.488075945446     -0.496164095782     0.511874003201      -0.50255196757      0.511874003201      -0.50255196757      -0.488075945446     -0.496164095782     
7100000000.0        -0.495119022831     -0.496235204232     0.504830271048      -0.502716790284     0.504830271048      -0.502716790284     -0.495119022831     -0.496235204232     
7200000000.0        -0.502065395211     -0.496207457368     0.497883234564      -0.502782819096     0.497883234564      -0.502782819096     -0.502065395211     -0.496207457368     
7300000000.0        -0.508915093335     -0.496084897432     0.491032862984      -0.502754095753     0.491032862984      -0.502754095753     -0.508915093335     -0.496084897432     
7400000000.0        -0.515668254836     -0.495871452465     0.484279018662      -0.502634547798     0.484279018662      -0.502634547798     -0.515668254836     -0.495871452465     
7500000000.0        -0.522325116719     -0.495570936794     0.477621464578      -0.502427989066     0.477621464578      -0.502427989066     -0.522325116719     -0.495570936794     
7600000000.0        -0.528886008199     -0.495187051792     0.471059871504      -0.50213812044      0.471059871504      -0.50213812044      -0.528886008199     -0.495187051792     
7700000000.0        -0.53535134386      -0.494723386885     0.464593824842      -0.501768530863     0.464593824842      -0.501768530863     -0.53535134386      -0.494723386885     
7800000000.0        -0.541721617141     -0.494183420771     0.458222831137      -0.501322698551     0.458222831137      -0.501322698551     -0.541721617141     -0.494183420771     
7900000000.0        -0.547997394146     -0.493570522833     0.451946324275      -0.500803992412     0.451946324275      -0.500803992412     -0.547997394146     -0.493570522833     
8000000000.0        -0.554179307755     -0.492887954721     0.44576367136       -0.500215673624     0.44576367136       -0.500215673624     -0.554179307755     -0.492887954721     
8100000000.0        -0.56026805205      -0.492138872081     0.439674178299      -0.499560897366     0.439674178299      -0.499560897366     -0.56026805205      -0.492138872081     
8200000000.0        -0.566264377026     -0.491326326411     0.433677095083      -0.498842714676     0.433677095083      -0.498842714676     -0.566264377026     -0.491326326411     
8300000000.0        -0.572169083596     -0.490453267026     0.427771620786      -0.49806407441      0.427771620786      -0.49806407441      -0.572169083596     -0.490453267026     
8400000000.0        -0.577983018864     -0.489522543116     0.421956908292      -0.49722782531      0.421956908292      -0.49722782531      -0.577983018864     -0.489522543116     
8500000000.0        -0.58370707167      -0.488536905882     0.416232068748      -0.49633671813      0.416232068748      -0.49633671813      -0.58370707167      -0.488536905882     
8600000000.0        -0.58934216839      -0.487499010732     0.410596175767      -0.495393407838     0.410596175767      -0.495393407838     -0.58934216839      -0.487499010732     
8700000000.0        -0.594889268983     -0.486411419527     0.405048269376      -0.494400455861     0.405048269376      -0.494400455861     -0.594889268983     -0.486411419527     
8800000000.0        -0.600349363273     -0.485276602867     0.39958735974       -0.493360332372     0.39958735974       -0.493360332372     -0.600349363273     -0.485276602867     
8900000000.0        -0.605723467462     -0.484096942402     0.394212430644      -0.492275418597     0.394212430644      -0.492275418597     -0.605723467462     -0.484096942402     
9000000000.0        -0.611012620856     -0.482874733161     0.388922442773      -0.491148009148     0.388922442773      -0.491148009148     -0.611012620856     -0.482874733161     
9100000000.0        -0.616217882796     -0.481612185885     0.383716336771      -0.489980314357     0.383716336771      -0.489980314357     -0.616217882796     -0.481612185885     
9200000000.0        -0.621340329798     -0.480311429369     0.378593036113      -0.488774462616     0.378593036113      -0.488774462616     -0.621340329798     -0.480311429369     
9300000000.0        -0.626381052865     -0.478974512793     0.373551449783      -0.487532502703     0.373551449783      -0.487532502703     -0.626381052865     -0.478974512793     
9400000000.0        -0.631341154993     -0.477603408034     0.368590474775      -0.486256406106     0.368590474775      -0.486256406106     -0.631341154993     -0.477603408034     
9500000000.0        -0.636221748838     -0.47620001197      0.36370899842       -0.484948069316     0.36370899842       -0.484948069316     -0.636221748838     -0.47620001197      
9600000000.0        -0.641023954549     -0.474766148751     0.35890590056       -0.483609316105     0.35890590056       -0.483609316105     -0.641023954549     -0.474766148751     
9700000000.0        -0.645748897751     -0.473303572052     0.354180055557      -0.482241899772     0.354180055557      -0.482241899772     -0.645748897751     -0.473303572052     
9800000000.0        -0.650397707679     -0.471813967281     0.349530334166      -0.480847505361     0.349530334166      -0.480847505361     -0.650397707679     -0.471813967281     
9900000000.0        -0.654971515442     -0.470298953763     0.344955605269      -0.479427751835     0.344955605269      -0.479427751835     -0.654971515442     -0.470298953763     
10000000000.0       -0.65947145242      -0.468760086882     0.340454737472      -0.477984194224     0.340454737472      -0.477984194224     -0.65947145242      -0.468760086882     
