# Hz S RI R 50.00 
100000000.0         5.99235153171e-05   -0.000797120331779  0.999935246659      -0.00116438669981   0.999935246659      -0.00116438669981   5.99235153171e-05   -0.000797120331779  
200000000.0         5.66066451848e-05   -0.00159429187749   0.999930885458      -0.0023288395197    0.999930885458      -0.0023288395197    5.6606645185e-05    -0.00159429187749   
300000000.0         5.13239784938e-05   -0.00239153939778   0.999924640621      -0.00349339149127   0.999924640621      -0.00349339149127   5.13239784941e-05   -0.00239153939778   
400000000.0         4.4128574707e-05    -0.00318888031343   0.999916457551      -0.00465806635792   0.999916457551      -0.00465806635792   4.4128574707e-05    -0.00318888031343   
500000000.0         3.50402129115e-05   -0.003986328219     0.999906314656      -0.00582288310963   0.999906314656      -0.00582288310963   3.50402129115e-05   -0.003986328219     
600000000.0         2.40684066184e-05   -0.00478389413773   0.999894200385      -0.00698785757321   0.999894200385      -0.00698785757321   2.40684066184e-05   -0.00478389413773   
700000000.0         1.1218257439e-05    -0.00558158717136   0.999880107406      -0.00815300322964   0.999880107406      -0.00815300322964   1.12182574392e-05   -0.00558158717136   
800000000.0         -3.5074042819e-06   -0.00637941489322   0.999864030494      -0.00931833170591   0.999864030494      -0.00931833170591   -3.5074042819e-06   -0.00637941489322   
900000000.0         -2.01070626406e-05  -0.00717738361071   0.999845965593      -0.0104838531022    0.999845965593      -0.0104838531022    -2.01070626406e-05  -0.00717738361071   
1000000000.0        -3.85800281476e-05  -0.00797549855261   0.99982590935       -0.0116495762241    0.99982590935       -0.0116495762241    -3.85800281475e-05  -0.00797549855261   
1100000000.0        -5.89261639143e-05  -0.00877376400826   0.999803858855      -0.0128155087551    0.999803858855      -0.0128155087551    -5.89261639143e-05  -0.00877376400826   
1200000000.0        -8.1145720512e-05   -0.00957218343665   0.99977981149       -0.0139816573901    0.99977981149       -0.0139816573901    -8.11457205119e-05  -0.00957218343665   
1300000000.0        -0.000105239230334  -0.0103707595522    0.999753764838      -0.0151480279416    0.999753764838      -0.0151480279416    -0.000105239230334  -0.0103707595522    
1400000000.0        -0.000131207436768  -0.011169494396     0.99972571662       -0.0163146254263    0.99972571662       -0.0163146254263    -0.000131207436768  -0.011169494396     
1500000000.0        -0.000159051244696  -0.0119683893944    0.999695664659      -0.0174814541361    0.999695664659      -0.0174814541361    -0.000159051244696  -0.0119683893944    
1600000000.0        -0.000188771684713  -0.0127674454087    0.999663606854      -0.0186485176991    0.999663606854      -0.0186485176991    -0.000188771684713  -0.0127674454087    
1700000000.0        -0.000220369886436  -0.0135666627787    0.999629541156      -0.0198158191317    0.999629541156      -0.0198158191317    -0.000220369886436  -0.0135666627787    
1800000000.0        -0.000253847058053  -0.014366041359     0.999593465565      -0.0209833608828    0.999593465565      -0.0209833608828    -0.000253847058053  -0.014366041359     
1900000000.0        -0.00028920447029   -0.0151655805524    0.999555378112      -0.0221511448736    0.999555378112      -0.0221511448736    -0.00028920447029   -0.0151655805524    
2000000000.0        -0.000326443443549  -0.0159652793387    0.999515276861      -0.0233191725321    0.999515276861      -0.0233191725321    -0.000326443443549  -0.0159652793387    
2100000000.0        -0.000365565337402  -0.0167651363007    0.999473159899      -0.024487444824     0.999473159899      -0.024487444824     -0.000365565337402  -0.0167651363007    
2200000000.0        -0.00040657154186   -0.0175651496472    0.999429025337      -0.0256559622808    0.999429025337      -0.0256559622808    -0.00040657154186   -0.0175651496472    
2300000000.0        -0.000449463470006  -0.0183653172347    0.999382871306      -0.0268247250242    0.999382871306      -0.0268247250242    -0.000449463470006  -0.0183653172347    
2400000000.0        -0.000494242551682  -0.0191656365863    0.999334695958      -0.0279937327896    0.999334695958      -0.0279937327896    -0.000494242551683  -0.0191656365863    
2500000000.0        -0.000540910228037  -0.0199661049092    0.999284497464      -0.0291629849466    0.999284497464      -0.0291629849466    -0.000540910228036  -0.0199661049092    
2600000000.0        -0.000589467946733  -0.0207667191115    0.999232274014      -0.0303324805178    0.999232274014      -0.0303324805178    -0.000589467946733  -0.0207667191115    
2700000000.0        -0.000639917157729  -0.0215674758166    0.99917802382       -0.0315022181969    0.99917802382       -0.0315022181969    -0.000639917157729  -0.0215674758166    
2800000000.0        -0.000692259309507  -0.0223683713775    0.999121745113      -0.0326721963647    0.999121745113      -0.0326721963647    -0.000692259309507  -0.0223683713775    
2900000000.0        -0.000746495845678  -0.0231694018893    0.999063436145      -0.033842413104     0.999063436145      -0.033842413104     -0.000746495845679  -0.0231694018893    
3000000000.0        -0.000802628201933  -0.0239705632021    0.99900309519       -0.0350128662141    0.99900309519       -0.0350128662141    -0.000802628201933  -0.0239705632021    
3100000000.0        -0.00086065780324   -0.0247718509311    0.998940720545      -0.0361835532237    0.998940720545      -0.0361835532237    -0.00086065780324   -0.0247718509311    
3200000000.0        -0.000920586061317  -0.0255732604686    0.998876310529      -0.0373544714031    0.998876310529      -0.0373544714031    -0.000920586061317  -0.0255732604686    
3300000000.0        -0.000982414372267  -0.0263747869927    0.998809863488      -0.0385256177759    0.998809863488      -0.0385256177759    -0.000982414372267  -0.0263747869927    
3400000000.0        -0.00104614411444   -0.0271764254776    0.998741377792      -0.0396969891297    0.998741377792      -0.0396969891297    -0.00104614411444   -0.0271764254776    
3500000000.0        -0.00111177664644   -0.027978170702     0.998670851836      -0.0408685820267    0.998670851836      -0.0408685820267    -0.00111177664644   -0.027978170702     
3600000000.0        -0.00117931330523   -0.0287800172579    0.998598284045      -0.0420403928129    0.998598284045      -0.0420403928129    -0.00117931330523   -0.0287800172579    
3700000000.0        -0.00124875540445   -0.0295819595581    0.998523672871      -0.0432124176276    0.998523672871      -0.0432124176276    -0.00124875540445   -0.0295819595581    
3800000000.0        -0.00132010423281   -0.0303839918443    0.998447016794      -0.044384652412     0.998447016794      -0.044384652412     -0.00132010423281   -0.0303839918443    
3900000000.0        -0.00139336105253   -0.031186108194     0.998368314325      -0.0455570929174    0.998368314325      -0.0455570929174    -0.00139336105253   -0.031186108194     
4000000000.0        -0.00146852709801   -0.0319883025272    0.998287564007      -0.0467297347131    0.998287564007      -0.0467297347131    -0.00146852709801   -0.0319883025272    
4100000000.0        -0.00154560357442   -0.0327905686134    0.998204764413      -0.0479025731936    0.998204764413      -0.0479025731936    -0.00154560357442   -0.0327905686134    
4200000000.0        -0.00162459165653   -0.0335929000775    0.99811991415       -0.0490756035863    0.99811991415       -0.0490756035863    -0.00162459165653   -0.0335929000775    
4300000000.0        -0.00170549248752   -0.0343952904059    0.998033011858      -0.0502488209576    0.998033011858      -0.0502488209576    -0.00170549248752   -0.0343952904059    
4400000000.0        -0.00178830717785   -0.035197732952     0.99794405621       -0.05142222022      0.99794405621       -0.05142222022      -0.00178830717785   -0.035197732952     
4500000000.0        -0.00187303680428   -0.0360002209421    0.997853045915      -0.0525957961379    0.997853045915      -0.0525957961379    -0.00187303680428   -0.0360002209421    
4600000000.0        -0.00195968240887   -0.0368027474802    0.997759979719      -0.0537695433335    0.997759979719      -0.0537695433335    -0.00195968240887   -0.0368027474802    
4700000000.0        -0.00204824499801   -0.0376053055533    0.997664856402      -0.0549434562929    0.997664856402      -0.0549434562929    -0.00204824499801   -0.0376053055533    
4800000000.0        -0.00213872554167   -0.0384078880359    0.997567674782      -0.0561175293712    0.997567674782      -0.0561175293712    -0.00213872554167   -0.0384078880359    
4900000000.0        -0.00223112497246   -0.0392104876952    0.997468433715      -0.0572917567978    0.997468433715      -0.0572917567978    -0.00223112497246   -0.0392104876952    
5000000000.0        -0.00232544418493   -0.0400130971949    0.997367132095      -0.0584661326815    0.997367132095      -0.0584661326815    -0.00232544418493   -0.0400130971949    
5100000000.0        -0.00242168403483   -0.0408157090999    0.997263768855      -0.0596406510152    0.997263768855      -0.0596406510152    -0.00242168403483   -0.0408157090999    
5200000000.0        -0.0025198453384    -0.0416183158802    0.997158342967      -0.0608153056809    0.997158342967      -0.0608153056809    -0.0025198453384    -0.0416183158802    
5300000000.0        -0.00261992887174   -0.042420909915     0.997050853443      -0.0619900904536    0.997050853443      -0.0619900904536    -0.00261992887174   -0.042420909915     
5400000000.0        -0.00272193537021   -0.0432234834967    0.996941299336      -0.0631649990061    0.996941299336      -0.0631649990061    -0.00272193537021   -0.0432234834967    
5500000000.0        -0.00282586552783   -0.044026028834     0.996829679739      -0.0643400249129    0.996829679739      -0.0643400249129    -0.00282586552783   -0.044026028834     
5600000000.0        -0.00293171999674   -0.0448285380561    0.996715993787      -0.0655151616542    0.996715993787      -0.0655151616542    -0.00293171999674   -0.0448285380561    
5700000000.0        -0.0030394993867    -0.0456310032157    0.996600240657      -0.0666904026198    0.996600240657      -0.0666904026198    -0.0030394993867    -0.0456310032157    
5800000000.0        -0.00314920426461   -0.0464334162925    0.996482419568      -0.0678657411128    0.996482419568      -0.0678657411128    -0.00314920426461   -0.0464334162925    
5900000000.0        -0.00326083515404   -0.0472357691964    0.996362529781      -0.0690411703532    0.996362529781      -0.0690411703532    -0.00326083515404   -0.0472357691964    
6000000000.0        -0.00337439253482   -0.0480380537705    0.996240570601      -0.0702166834815    0.996240570601      -0.0702166834815    -0.00337439253482   -0.0480380537705    
6100000000.0        -0.00348987684265   -0.048840261794     0.996116541375      -0.0713922735615    0.996116541375      -0.0713922735615    -0.00348987684265   -0.048840261794     
6200000000.0        -0.00360728846869   -0.0496423849854    0.995990441495      -0.0725679335843    0.995990441495      -0.0725679335843    -0.00360728846869   -0.0496423849854    
6300000000.0        -0.00372662775925   -0.0504444150049    0.995862270396      -0.0737436564708    0.995862270396      -0.0737436564708    -0.00372662775925   -0.0504444150049    
6400000000.0        -0.00384789501543   -0.0512463434575    0.995732027558      -0.0749194350751    0.995732027558      -0.0749194350751    -0.00384789501543   -0.0512463434575    
6500000000.0        -0.00397109049285   -0.0520481618952    0.995599712505      -0.0760952621871    0.995599712505      -0.0760952621871    -0.00397109049285   -0.0520481618952    
6600000000.0        -0.00409621440133   -0.0528498618197    0.995465324805      -0.0772711305356    0.995465324805      -0.0772711305356    -0.00409621440133   -0.0528498618197    
6700000000.0        -0.00422326690464   -0.053651434685     0.995328864073      -0.0784470327907    0.995328864073      -0.0784470327907    -0.00422326690464   -0.053651434685     
6800000000.0        -0.00435224812027   -0.0544528718996    0.995190329966      -0.0796229615671    0.995190329966      -0.0796229615671    -0.00435224812027   -0.0544528718996    
6900000000.0        -0.00448315811918   -0.0552541648288    0.99504972219       -0.0807989094257    0.99504972219       -0.0807989094257    -0.00448315811918   -0.0552541648288    
7000000000.0        -0.00461599692561   -0.0560553047968    0.994907040495      -0.0819748688769    0.994907040495      -0.0819748688769    -0.00461599692561   -0.0560553047968    
7100000000.0        -0.00475076451686   -0.0568562830893    0.994762284675      -0.0831508323825    0.994762284675      -0.0831508323825    -0.00475076451686   -0.0568562830893    
7200000000.0        -0.00488746082314   -0.057657090955     0.994615454573      -0.0843267923584    0.994615454573      -0.0843267923584    -0.00488746082314   -0.057657090955     
7300000000.0        -0.00502608572743   -0.0584577196081    0.994466550076      -0.0855027411765    0.994466550076      -0.0855027411765    -0.00502608572743   -0.0584577196081    
7400000000.0        -0.00516663906527   -0.0592581602299    0.994315571118      -0.0866786711671    0.994315571118      -0.0866786711671    -0.00516663906527   -0.0592581602299    
7500000000.0        -0.0053091206247    -0.0600584039711    0.994162517678      -0.087854574621     0.994162517678      -0.087854574621     -0.0053091206247    -0.0600584039711    
7600000000.0        -0.0054535301461    -0.0608584419531    0.994007389784      -0.0890304437915    0.994007389784      -0.0890304437915    -0.0054535301461    -0.0608584419531    
7700000000.0        -0.0055998673221    -0.0616582652705    0.993850187507      -0.0902062708963    0.993850187507      -0.0902062708963    -0.0055998673221    -0.0616582652705    
7800000000.0        -0.00574813179749   -0.0624578649921    0.993690910968      -0.0913820481197    0.993690910968      -0.0913820481197    -0.00574813179749   -0.0624578649921    
7900000000.0        -0.00589832316915   -0.0632572321633    0.993529560332      -0.0925577676142    0.993529560332      -0.0925577676142    -0.00589832316915   -0.0632572321633    
8000000000.0        -0.00605044098599   -0.0640563578069    0.993366135812      -0.0937334215024    0.993366135812      -0.0937334215024    -0.00605044098599   -0.0640563578069    
8100000000.0        -0.00620448474885   -0.0648552329257    0.993200637668      -0.0949090018791    0.993200637668      -0.0949090018791    -0.00620448474885   -0.0648552329257    
8200000000.0        -0.00636045391053   -0.0656538485031    0.993033066205      -0.0960845008122    0.993033066205      -0.0960845008122    -0.00636045391053   -0.0656538485031    
8300000000.0        -0.00651834787569   -0.0664521955054    0.992863421776      -0.0972599103454    0.992863421776      -0.0972599103454    -0.00651834787569   -0.0664521955054    
8400000000.0        -0.00667816600089   -0.0672502648826    0.992691704782      -0.0984352224989    0.992691704782      -0.0984352224989    -0.00667816600089   -0.0672502648826    
8500000000.0        -0.00683990759452   -0.0680480475701    0.992517915668      -0.0996104292716    0.992517915668      -0.0996104292716    -0.00683990759452   -0.0680480475701    
8600000000.0        -0.00700357191683   -0.0688455344903    0.992342054928      -0.100785522642     0.992342054928      -0.100785522642     -0.00700357191683   -0.0688455344903    
8700000000.0        -0.00716915817996   -0.0696427165536    0.992164123101      -0.101960494571     0.992164123101      -0.101960494571     -0.00716915817996   -0.0696427165536    
8800000000.0        -0.00733666554788   -0.0704395846598    0.991984120775      -0.103135337001     0.991984120775      -0.103135337001     -0.00733666554788   -0.0704395846598    
8900000000.0        -0.00750609313652   -0.0712361296995    0.991802048584      -0.104310041861     0.991802048584      -0.104310041861     -0.00750609313652   -0.0712361296995    
9000000000.0        -0.00767744001371   -0.072032342555     0.991617907206      -0.105484601062     0.991617907206      -0.105484601062     -0.00767744001371   -0.072032342555     
9100000000.0        -0.00785070519925   -0.072828214102     0.99143169737       -0.106659006506     0.99143169737       -0.106659006506     -0.00785070519925   -0.072828214102     
9200000000.0        -0.00802588766501   -0.0736237352103    0.991243419849      -0.107833250081     0.991243419849      -0.107833250081     -0.00802588766501   -0.0736237352103    
9300000000.0        -0.00820298633491   -0.0744188967453    0.991053075461      -0.109007323664     0.991053075461      -0.109007323664     -0.00820298633491   -0.0744188967453    
9400000000.0        -0.00838200008501   -0.0752136895687    0.990860665075      -0.110181219125     0.990860665075      -0.110181219125     -0.00838200008501   -0.0752136895687    
9500000000.0        -0.00856292774362   -0.0760081045402    0.990666189603      -0.111354928323     0.990666189603      -0.111354928323     -0.00856292774362   -0.0760081045402    
9600000000.0        -0.00874576809132   -0.0768021325176    0.990469650003      -0.112528443114     0.990469650003      -0.112528443114     -0.00874576809132   -0.0768021325176    
9700000000.0        -0.00893051986107   -0.0775957643589    0.990271047282      -0.113701755345     0.990271047282      -0.113701755345     -0.00893051986107   -0.0775957643589    
9800000000.0        -0.00911718173831   -0.0783889909224    0.99007038249       -0.114874856859     0.99007038249       -0.114874856859     -0.00911718173831   -0.0783889909224    
9900000000.0        -0.00930575236104   -0.0791818030683    0.989867656725      -0.116047739495     0.989867656725      -0.116047739495     -0.00930575236104   -0.0791818030683    
10000000000.0       -0.00949623031991   -0.0799741916591    0.989662871131      -0.117220395092     0.989662871131      -0.117220395092     -0.00949623031991   -0.0799741916591    
