# Hz S RI R 50.00 
100000000.0         0.0346645375598     0.00293868440288    0.965332861173      -0.0040182810023    0.965332861173      -0.0040182810023    0.0346645375598     0.00293868440288    
200000000.0         0.0349215177368     0.00587394337804    0.965073099997      -0.00803315465273   0.965073099997      -0.00803315465273   0.0349215177368     0.00587394337804    
300000000.0         0.0351430931399     0.00880682607991    0.964847563575      -0.0120456816824    0.964847563575      -0.0120456816824    0.0351430931399     0.00880682607991    
400000000.0         0.0353584694788     0.011737535532      0.96462704592       -0.0160560745762    0.96462704592       -0.0160560745762    0.0353584694788     0.011737535532      
500000000.0         0.0355789055734     0.0146660778846     0.964400287917      -0.0200643478735    0.964400287917      -0.0200643478735    0.0355789055734     0.0146660778846     
600000000.0         0.0358101431198     0.017592372219      0.964161547557      -0.0240704283396    0.964161547557      -0.0240704283396    0.0358101431198     0.017592372219      
700000000.0         0.0360555691888     0.0205162900357     0.963907437431      -0.0280741946406    0.963907437431      -0.0280741946406    0.0360555691888     0.0205162900357     
800000000.0         0.0363173713147     0.0234376736001     0.963635769642      -0.0320754958016    0.963635769642      -0.0320754958016    0.0363173713147     0.0234376736001     
900000000.0         0.0365970521641     0.02635634582       0.963345041137      -0.0360741611581    0.963345041137      -0.0360741611581    0.0365970521641     0.02635634582       
1000000000.0        0.0368956905863     0.029272116113      0.963034172656      -0.0400700062761    0.963034172656      -0.0400700062761    0.0368956905863     0.029272116113      
1100000000.0        0.037214086824      0.0321847841507     0.962702363519      -0.0440628367342    0.962702363519      -0.0440628367342    0.037214086824      0.0321847841507     
1200000000.0        0.0375528490965     0.0350941423813     0.962349005049      -0.0480524506757    0.962349005049      -0.0480524506757    0.0375528490965     0.0350941423813     
1300000000.0        0.0379124481093     0.0379999778051     0.961973626054      -0.0520386406077    0.961973626054      -0.0520386406077    0.0379124481093     0.0379999778051     
1400000000.0        0.0382932529078     0.0409020732699     0.961575856982      -0.0560211947155    0.961575856982      -0.0560211947155    0.0382932529078     0.0409020732699     
1500000000.0        0.0386955553269     0.0438002084449     0.961155405467      -0.0599998978511    0.961155405467      -0.0599998978511    0.0386955553269     0.0438002084449     
1600000000.0        0.0391195871763     0.0466941605726     0.960712039146      -0.0639745322986    0.960712039146      -0.0639745322986    0.0391195871763     0.0466941605726     
1700000000.0        0.0395655326369     0.0495837050613     0.960245573261      -0.0679448783774    0.960245573261      -0.0679448783774    0.0395655326369     0.0495837050613     
1800000000.0        0.0400335374035     0.0524686159635     0.959755861518      -0.0719107149302    0.959755861518      -0.0719107149302    0.0400335374035     0.0524686159635     
1900000000.0        0.0405237155612     0.0553486663672     0.959242789212      -0.0758718197219    0.959242789212      -0.0758718197219    0.0405237155612     0.0553486663672     
2000000000.0        0.0410361548476     0.0582236287227     0.958706267963      -0.079827969774     0.958706267963      -0.079827969774     0.0410361548476     0.0582236287227     
2100000000.0        0.0415709207402     0.0610932751183     0.958146231629      -0.0837789416465    0.958146231629      -0.0837789416465    0.0415709207402     0.0610932751183     
2200000000.0        0.0421280596778     0.0639573775174     0.957562633088      -0.0877245116801    0.957562633088      -0.0877245116801    0.0421280596778     0.0639573775174     
2300000000.0        0.0427076016289     0.0668157079634     0.956955441665      -0.0916644562066    0.956955441665      -0.0916644562066    0.0427076016289     0.0668157079634     
2400000000.0        0.0433095621644     0.0696680387603     0.956324641064      -0.0955985517336    0.956324641064      -0.0955985517336    0.0433095621644     0.0696680387603     
2500000000.0        0.0439339441472     0.0725141426321     0.955670227674      -0.0995265751081    0.955670227674      -0.0995265751081    0.0439339441472     0.0725141426321     
2600000000.0        0.0445807391232     0.0753537928658     0.954992209186      -0.103448303663     0.954992209186      -0.103448303663     0.0445807391232     0.0753537928658     
2700000000.0        0.0452499284768     0.0781867634403     0.954290603428      -0.10736351535      0.954290603428      -0.10736351535      0.0452499284768     0.0781867634403     
2800000000.0        0.0459414843988     0.0810128291436     0.953565437404      -0.111271988858     0.953565437404      -0.111271988858     0.0459414843988     0.0810128291436     
2900000000.0        0.0466553707035     0.0838317656802     0.952816746477      -0.115173503727     0.952816746477      -0.115173503727     0.0466553707035     0.0838317656802     
3000000000.0        0.047391543524      0.0866433497699     0.952044573669      -0.119067840445     0.952044573669      -0.119067840445     0.047391543524      0.0866433497699     
3100000000.0        0.0481499519086     0.0894473592397     0.951248969069      -0.122954780545     0.951248969069      -0.122954780545     0.0481499519086     0.0894473592397     
3200000000.0        0.0489305383346     0.0922435731085     0.950429989321      -0.126834106691     0.950429989321      -0.126834106691     0.0489305383346     0.0922435731085     
3300000000.0        0.0497332391552     0.0950317716677     0.949587697172      -0.130705602763     0.949587697172      -0.130705602763     0.0497332391552     0.0950317716677     
3400000000.0        0.05055798499       0.0978117365553     0.948722161085      -0.134569053928     0.948722161085      -0.134569053928     0.05055798499       0.0978117365553     
3500000000.0        0.0514047010689     0.100583250827      0.947833454896      -0.13842424672      0.947833454896      -0.13842424672      0.0514047010689     0.100583250827      
3600000000.0        0.0522733075358     0.103346099024      0.946921657506      -0.142270969101     0.946921657506      -0.142270969101     0.0522733075358     0.103346099024      
3700000000.0        0.0531637197201     0.106100067235      0.945986852618      -0.146109010531     0.945986852618      -0.146109010531     0.0531637197201     0.106100067235      
3800000000.0        0.0540758483786     0.108844943154      0.945029128486      -0.149938162029     0.945029128486      -0.149938162029     0.0540758483786     0.108844943154      
3900000000.0        0.0550095999146     0.111580516145      0.944048577702      -0.15375821623      0.944048577702      -0.15375821623      0.0550095999146     0.111580516145      
4000000000.0        0.0559648765757     0.114306577288      0.943045296997      -0.157568967441     0.943045296997      -0.157568967441     0.0559648765757     0.114306577288      
4100000000.0        0.0569415766337     0.117022919438      0.942019387059      -0.161370211697     0.942019387059      -0.161370211697     0.0569415766337     0.117022919438      
4200000000.0        0.0579395945499     0.11972933727       0.940970952372      -0.165161746809     0.940970952372      -0.165161746809     0.0579395945499     0.11972933727       
4300000000.0        0.0589588211268     0.12242562733       0.939900101061      -0.168943372416     0.939900101061      -0.168943372416     0.0589588211268     0.12242562733       
4400000000.0        0.0599991436487     0.125111588081      0.938806944754      -0.17271489003      0.938806944754      -0.17271489003      0.0599991436487     0.125111588081      
4500000000.0        0.0610604460117     0.127787019944      0.937691598449      -0.176476103082     0.937691598449      -0.176476103082     0.0610604460117     0.127787019944      
4600000000.0        0.0621426088458     0.130451725344      0.936554180395      -0.180226816965     0.936554180395      -0.180226816965     0.0621426088458     0.130451725344      
4700000000.0        0.0632455096291     0.133105508747      0.935394811977      -0.183966839073     0.935394811977      -0.183966839073     0.0632455096291     0.133105508747      
4800000000.0        0.064369022795      0.135748176701      0.93421361761       -0.187695978846     0.93421361761       -0.187695978846     0.064369022795      0.135748176701      
4900000000.0        0.0655130198343     0.138379537874      0.933010724633      -0.191414047804     0.933010724633      -0.191414047804     0.0655130198343     0.138379537874      
5000000000.0        0.0666773693915     0.140999403086      0.931786263218      -0.195120859584     0.931786263218      -0.195120859584     0.0666773693915     0.140999403086      
5100000000.0        0.0678619373563     0.143607585349      0.930540366276      -0.198816229977     0.930540366276      -0.198816229977     0.0678619373563     0.143607585349      
5200000000.0        0.0690665869524     0.146203899896      0.929273169368      -0.202499976961     0.929273169368      -0.202499976961     0.0690665869524     0.146203899896      
5300000000.0        0.0702911788209     0.148788164211      0.927984810623      -0.206171920732     0.927984810623      -0.206171920732     0.0702911788209     0.148788164211      
5400000000.0        0.0715355711018     0.151360198066      0.926675430655      -0.209831883737     0.926675430655      -0.209831883737     0.0715355711018     0.151360198066      
5500000000.0        0.0727996195123     0.153919823542      0.925345172488      -0.213479690702     0.925345172488      -0.213479690702     0.0727996195123     0.153919823542      
5600000000.0        0.0740831774222     0.156466865063      0.923994181475      -0.21711516866      0.923994181475      -0.21711516866      0.0740831774222     0.156466865063      
5700000000.0        0.0753860959273     0.159001149418      0.922622605232      -0.220738146981     0.922622605232      -0.220738146981     0.0753860959273     0.159001149418      
5800000000.0        0.0767082239209     0.161522505789      0.921230593561      -0.224348457395     0.921230593561      -0.224348457395     0.0767082239209     0.161522505789      
5900000000.0        0.0780494081627     0.164030765774      0.919818298382      -0.227945934016     0.919818298382      -0.227945934016     0.0780494081627     0.164030765774      
6000000000.0        0.0794094933473     0.16652576341       0.918385873668      -0.231530413368     0.918385873668      -0.231530413368     0.0794094933473     0.16652576341       
6100000000.0        0.0807883221696     0.169007335193      0.916933475375      -0.235101734406     0.916933475375      -0.235101734406     0.0807883221696     0.169007335193      
6200000000.0        0.0821857353899     0.171475320101      0.915461261381      -0.238659738537     0.915461261381      -0.238659738537     0.0821857353899     0.171475320101      
6300000000.0        0.0836015718975     0.173929559614      0.91396939142       -0.242204269639     0.91396939142       -0.242204269639     0.0836015718975     0.173929559614      
6400000000.0        0.0850356687728     0.176369897728      0.912458027021      -0.245735174083     0.912458027021      -0.245735174083     0.0850356687728     0.176369897728      
6500000000.0        0.0864878613484     0.178796180977      0.910927331447      -0.249252300744     0.910927331447      -0.249252300744     0.0864878613484     0.178796180977      
6600000000.0        0.0879579832697     0.181208258446      0.909377469634      -0.252755501028     0.909377469634      -0.252755501028     0.0879579832697     0.181208258446      
6700000000.0        0.0894458665538     0.183605981787      0.907808608133      -0.256244628875     0.907808608133      -0.256244628875     0.0894458665538     0.183605981787      
6800000000.0        0.090951341648      0.185989205234      0.90622091505       -0.259719540785     0.90622091505       -0.259719540785     0.090951341648      0.185989205234      
6900000000.0        0.0924742374875     0.188357785614      0.904614559991      -0.263180095824     0.904614559991      -0.263180095824     0.0924742374875     0.188357785614      
7000000000.0        0.0940143815519     0.190711582361      0.902989714001      -0.266626155638     0.902989714001      -0.266626155638     0.0940143815519     0.190711582361      
7100000000.0        0.0955715999216     0.193050457525      0.901346549515      -0.270057584467     0.901346549515      -0.270057584467     0.0955715999216     0.193050457525      
7200000000.0        0.0971457173329     0.195374275784      0.899685240296      -0.27347424915      0.899685240296      -0.27347424915      0.0971457173329     0.195374275784      
7300000000.0        0.0987365572329     0.19768290445       0.898005961382      -0.276876019142     0.898005961382      -0.276876019142     0.0987365572329     0.19768290445       
7400000000.0        0.100343941833      0.199976213482      0.896308889036      -0.280262766514     0.896308889036      -0.280262766514     0.100343941833      0.199976213482      
7500000000.0        0.101967692165      0.202254075485      0.894594200686      -0.283634365966     0.894594200686      -0.283634365966     0.101967692165      0.202254075485      
7600000000.0        0.103607628128      0.204516365726      0.892862074879      -0.28699069483      0.892862074879      -0.28699069483      0.103607628128      0.204516365726      
7700000000.0        0.105263568547      0.20676296213       0.891112691223      -0.290331633081     0.891112691223      -0.290331633081     0.105263568547      0.20676296213       
7800000000.0        0.106935331222      0.208993745291      0.88934623034       -0.293657063332     0.88934623034       -0.293657063332     0.106935331222      0.208993745291      
7900000000.0        0.108622732979      0.211208598469      0.887562873811      -0.296966870848     0.887562873811      -0.296966870848     0.108622732979      0.211208598469      
8000000000.0        0.11032558972       0.213407407601      0.885762804129      -0.300260943542     0.885762804129      -0.300260943542     0.11032558972       0.213407407601      
8100000000.0        0.112043716475      0.215590061292      0.883946204645      -0.303539171977     0.883946204645      -0.303539171977     0.112043716475      0.215590061292      
8200000000.0        0.113776927451      0.217756450825      0.882113259524      -0.306801449371     0.882113259524      -0.306801449371     0.113776927451      0.217756450825      
8300000000.0        0.115525036078      0.219906470154      0.880264153688      -0.310047671594     0.880264153688      -0.310047671594     0.115525036078      0.219906470154      
8400000000.0        0.117287855063      0.222040015906      0.878399072777      -0.313277737167     0.878399072777      -0.313277737167     0.117287855063      0.222040015906      
8500000000.0        0.119065196433      0.224156987382      0.876518203095      -0.316491547261     0.876518203095      -0.316491547261     0.119065196433      0.224156987382      
8600000000.0        0.120856871586      0.226257286546      0.874621731562      -0.319689005697     0.874621731562      -0.319689005697     0.120856871586      0.226257286546      
8700000000.0        0.122662691335      0.228340818031      0.872709845671      -0.322870018938     0.872709845671      -0.322870018938     0.122662691335      0.228340818031      
8800000000.0        0.124482465957      0.230407489127      0.87078273344       -0.326034496087     0.87078273344       -0.326034496087     0.124482465957      0.230407489127      
8900000000.0        0.126316005238      0.23245720978       0.868840583364      -0.329182348884     0.868840583364      -0.329182348884     0.126316005238      0.23245720978       
9000000000.0        0.128163118515      0.234489892586      0.866883584373      -0.332313491697     0.866883584373      -0.332313491697     0.128163118515      0.234489892586      
9100000000.0        0.13002361473       0.236505452783      0.864911925785      -0.33542784152      0.864911925785      -0.33542784152      0.13002361473       0.236505452783      
9200000000.0        0.131897302463      0.238503808243      0.862925797263      -0.33852531796      0.862925797263      -0.33852531796      0.131897302463      0.238503808243      
9300000000.0        0.133783989983      0.240484879466      0.86092538877       -0.341605843234     0.86092538877       -0.341605843234     0.133783989983      0.240484879466      
9400000000.0        0.135683485292      0.242448589571      0.858910890526      -0.344669342158     0.858910890526      -0.344669342158     0.135683485292      0.242448589571      
9500000000.0        0.137595596161      0.244394864284      0.856882492966      -0.347715742138     0.856882492966      -0.347715742138     0.137595596161      0.244394864284      
9600000000.0        0.139520130179      0.246323631931      0.854840386698      -0.350744973163     0.854840386698      -0.350744973163     0.139520130179      0.246323631931      
9700000000.0        0.141456894793      0.248234823425      0.852784762461      -0.353756967787     0.852784762461      -0.353756967787     0.141456894793      0.248234823425      
9800000000.0        0.143405697346      0.250128372256      0.850715811082      -0.356751661126     0.850715811082      -0.356751661126     0.143405697346      0.250128372256      
9900000000.0        0.145366345121      0.252004214476      0.84863372344       -0.35972899084      0.84863372344       -0.35972899084      0.145366345121      0.252004214476      
10000000000.0       0.14733864538       0.25386228869       0.84653869042       -0.362688897126     0.84653869042       -0.362688897126     0.14733864538       0.25386228869       
