# Hz S RI R 50.00 
100000000.0         0.00114830563189    0.000795467165914   0.998849313128      -0.00177192502502   0.998849313128      -0.00177192502502   0.00114830563189    0.000795467165914   
200000000.0         0.00115975482678    0.00159088762862    0.998835528774      -0.00354382541022   0.998835528774      -0.00354382541022   0.00115975482678    0.00159088762862    
300000000.0         0.00117200570294    0.00238626764768    0.998819988696      -0.00531571939175   0.998819988696      -0.00531571939175   0.00117200570294    0.00238626764768    
400000000.0         0.0011860532454     0.00318160307099    0.998801697748      -0.00708761186613   0.998801697748      -0.00708761186613   0.0011860532454     0.00318160307099    
500000000.0         0.00120228042723    0.00397688734191    0.998780272768      -0.00885950382093   0.998780272768      -0.00885950382093   0.00120228042723    0.00397688734191    
600000000.0         0.00122088243656    0.00477211286637    0.998755518355      -0.0106313942066    0.998755518355      -0.0106313942066    0.00122088243656    0.00477211286637    
700000000.0         0.00124197448412    0.00556727150619    0.998727319064      -0.0124032806894    0.998727319064      -0.0124032806894    0.00124197448412    0.00556727150619    
800000000.0         0.00126563113671    0.00636235480842    0.998695600072      -0.0141751600375    0.998695600072      -0.0141751600375    0.00126563113671    0.00636235480842    
900000000.0         0.00129190382464    0.00715735412802    0.998660309675      -0.0159470283477    0.998660309675      -0.0159470283477    0.00129190382464    0.00715735412802    
1000000000.0        0.00132082971289    0.00795226070013    0.998621410419      -0.0177188811918    0.998621410419      -0.0177188811918    0.00132082971289    0.00795226070013    
1100000000.0        0.00135243663072    0.00874706568546    0.998578874168      -0.0194907137173    0.998578874168      -0.0194907137173    0.00135243663072    0.00874706568546    
1200000000.0        0.00138674600809    0.00954176020025    0.998532679172      -0.0212625207199    0.998532679172      -0.0212625207199    0.00138674600809    0.00954176020025    
1300000000.0        0.00142377472241    0.0103363353367     0.998482808221      -0.0230342966973    0.998482808221      -0.0230342966973    0.00142377472241    0.0103363353367     
1400000000.0        0.00146353631202    0.0111307821776     0.99842924743       -0.024806035892     0.99842924743       -0.024806035892     0.00146353631202    0.0111307821776     
1500000000.0        0.00150604180274    0.0119250918064     0.998371985416      -0.0265777323234    0.998371985416      -0.0265777323234    0.00150604180274    0.0119250918064     
1600000000.0        0.00155130028824    0.012719255315      0.998311012717      -0.0283493798156    0.998311012717      -0.0283493798156    0.00155130028824    0.012719255315      
1700000000.0        0.00159931934805    0.0135132638096     0.998246321375      -0.0301209720186    0.998246321375      -0.0301209720186    0.00159931934805    0.0135132638096     
1800000000.0        0.00165010535561    0.0143071084142     0.99817790463       -0.0318925024268    0.99817790463       -0.0318925024268    0.00165010535561    0.0143071084142     
1900000000.0        0.00170366370942    0.0151007802746     0.998105756685      -0.033663964395     0.998105756685      -0.033663964395     0.00170366370942    0.0151007802746     
2000000000.0        0.00175999900977    0.0158942705602     0.998029872535      -0.0354353511506    0.998029872535      -0.0354353511506    0.00175999900977    0.0158942705602     
2100000000.0        0.00181911519569    0.0166875704658     0.997950247829      -0.0372066558062    0.997950247829      -0.0372066558062    0.00181911519569    0.0166875704658     
2200000000.0        0.00188101565261    0.0174806712132     0.997866878761      -0.0389778713683    0.997866878761      -0.0389778713683    0.00188101565261    0.0174806712132     
2300000000.0        0.00194570329805    0.018273564052      0.997779761987      -0.040748990747     0.997779761987      -0.040748990747     0.00194570329805    0.018273564052      
2400000000.0        0.0020131806505     0.0190662402602     0.997688894553      -0.0425200067628    0.997688894553      -0.0425200067628    0.0020131806505     0.0190662402602     
2500000000.0        0.00208344988538    0.0198586911446     0.997594273846      -0.044290912154     0.997594273846      -0.044290912154     0.00208344988538    0.0198586911446     
2600000000.0        0.00215651288097    0.0206509080415     0.997495897541      -0.0460616995826    0.997495897541      -0.0460616995826    0.00215651288097    0.0206509080415     
2700000000.0        0.0022323712563     0.0214428823162     0.997393763569      -0.0478323616395    0.997393763569      -0.0478323616395    0.0022323712563     0.0214428823162     
2800000000.0        0.00231102640277    0.0222346053637     0.997287870084      -0.0496028908497    0.997287870084      -0.0496028908497    0.00231102640277    0.0222346053637     
2900000000.0        0.00239247951066    0.0230260686081     0.997178215435      -0.0513732796767    0.997178215435      -0.0513732796767    0.00239247951066    0.0230260686081     
3000000000.0        0.00247673159153    0.023817263503      0.997064798145      -0.0531435205262    0.997064798145      -0.0531435205262    0.00247673159153    0.023817263503      
3100000000.0        0.00256378349723    0.0246081815307     0.996947616895      -0.0549136057504    0.996947616895      -0.0549136057504    0.00256378349723    0.0246081815307     
3200000000.0        0.00265363593616    0.0253988142026     0.996826670505      -0.0566835276506    0.996826670505      -0.0566835276506    0.00265363593616    0.0253988142026     
3300000000.0        0.00274628948727    0.0261891530585     0.996701957918      -0.0584532784809    0.996701957918      -0.0584532784809    0.00274628948727    0.0261891530585     
3400000000.0        0.00284174461207    0.0269791896665     0.996573478196      -0.0602228504509    0.996573478196      -0.0602228504509    0.00284174461207    0.0269791896665     
3500000000.0        0.00294000166515    0.0277689156226     0.996441230502      -0.0619922357281    0.996441230502      -0.0619922357281    0.00294000166515    0.0277689156226     
3600000000.0        0.00304106090327    0.0285583225506     0.996305214095      -0.0637614264403    0.996305214095      -0.0637614264403    0.00304106090327    0.0285583225506     
3700000000.0        0.00314492249333    0.0293474021014     0.99616542832       -0.0655304146784    0.99616542832       -0.0655304146784    0.00314492249333    0.0293474021014     
3800000000.0        0.00325158651943    0.0301361459529     0.996021872604      -0.0672991924976    0.996021872604      -0.0672991924976    0.00325158651943    0.0301361459529     
3900000000.0        0.00336105298899    0.0309245458095     0.995874546449      -0.0690677519202    0.995874546449      -0.0690677519202    0.00336105298899    0.0309245458095     
4000000000.0        0.0034733218383     0.0317125934021     0.995723449426      -0.0708360849368    0.995723449426      -0.0708360849368    0.0034733218383     0.0317125934021     
4100000000.0        0.00358839293732    0.032500280487      0.995568581168      -0.0726041835082    0.995568581168      -0.0726041835082    0.00358839293732    0.032500280487      
4200000000.0        0.00370626609403    0.0332875988463     0.995409941373      -0.074372039567     0.995409941373      -0.074372039567     0.00370626609403    0.0332875988463     
4300000000.0        0.00382694105834    0.0340745402872     0.995247529792      -0.0761396450189    0.995247529792      -0.0761396450189    0.00382694105834    0.0340745402872     
4400000000.0        0.0039504175255     0.0348610966414     0.995081346232      -0.0779069917446    0.995081346232      -0.0779069917446    0.0039504175255     0.0348610966414     
4500000000.0        0.00407669513927    0.0356472597652     0.994911390548      -0.0796740716001    0.994911390548      -0.0796740716001    0.00407669513927    0.0356472597652     
4600000000.0        0.00420577349472    0.0364330215387     0.994737662646      -0.0814408764191    0.994737662646      -0.0814408764191    0.00420577349472    0.0364330215387     
4700000000.0        0.00433765214078    0.037218373866      0.994560162475      -0.0832073980133    0.994560162475      -0.0832073980133    0.00433765214078    0.037218373866      
4800000000.0        0.00447233058253    0.0380033086742     0.994378890029      -0.0849736281735    0.994378890029      -0.0849736281735    0.00447233058253    0.0380033086742     
4900000000.0        0.00460980828329    0.0387878179133     0.994193845341      -0.0867395586713    0.994193845341      -0.0867395586713    0.00460980828329    0.0387878179133     
5000000000.0        0.00475008466658    0.0395718935562     0.994005028487      -0.0885051812593    0.994005028487      -0.0885051812593    0.00475008466658    0.0395718935562     
5100000000.0        0.0048931591178     0.0403555275977     0.993812439578      -0.0902704876724    0.993812439578      -0.0902704876724    0.0048931591178     0.0403555275977     
5200000000.0        0.00503903098584    0.0411387120548     0.993616078763      -0.0920354696284    0.993616078763      -0.0920354696284    0.00503903098584    0.0411387120548     
5300000000.0        0.00518769958454    0.041921438966      0.993415946227      -0.0938001188293    0.993415946227      -0.0938001188293    0.00518769958454    0.041921438966      
5400000000.0        0.00533916419406    0.0427037003909     0.993212042186      -0.0955644269613    0.993212042186      -0.0955644269613    0.00533916419406    0.0427037003909     
5500000000.0        0.00549342406207    0.0434854884103     0.993004366892      -0.0973283856961    0.993004366892      -0.0973283856961    0.00549342406207    0.0434854884103     
5600000000.0        0.0056504784049     0.0442667951253     0.992792920628      -0.0990919866916    0.992792920628      -0.0990919866916    0.0056504784049     0.0442667951253     
5700000000.0        0.00581032640859    0.0450476126576     0.992577703708      -0.100855221592     0.992577703708      -0.100855221592     0.00581032640859    0.0450476126576     
5800000000.0        0.00597296722987    0.0458279331486     0.992358716474      -0.102618082029     0.992358716474      -0.102618082029     0.00597296722987    0.0458279331486     
5900000000.0        0.00613839999707    0.0466077487597     0.9921359593        -0.104380559622     0.9921359593        -0.104380559622     0.00613839999707    0.0466077487597     
6000000000.0        0.00630662381091    0.0473870516713     0.991909432588      -0.106142645979     0.991909432588      -0.106142645979     0.00630662381091    0.0473870516713     
6100000000.0        0.00647763774532    0.0481658340833     0.991679136767      -0.107904332697     0.991679136767      -0.107904332697     0.00647763774532    0.0481658340833     
6200000000.0        0.00665144084814    0.0489440882141     0.991445072293      -0.109665611362     0.991445072293      -0.109665611362     0.00665144084814    0.0489440882141     
6300000000.0        0.00682803214183    0.0497218063008     0.991207239649      -0.111426473549     0.991207239649      -0.111426473549     0.00682803214183    0.0497218063008     
6400000000.0        0.00700741062404    0.0504989805986     0.990965639346      -0.113186910826     0.990965639346      -0.113186910826     0.00700741062404    0.0504989805986     
6500000000.0        0.00718957526823    0.0512756033807     0.990720271917      -0.114946914749     0.990720271917      -0.114946914749     0.00718957526823    0.0512756033807     
6600000000.0        0.00737452502425    0.052051666938      0.990471137924      -0.116706476866     0.990471137924      -0.116706476866     0.00737452502425    0.052051666938      
6700000000.0        0.0075622588188     0.0528271635788     0.99021823795       -0.118465588717     0.99021823795       -0.118465588717     0.0075622588188     0.0528271635788     
6800000000.0        0.00775277555596    0.0536020856286     0.989961572606      -0.120224241834     0.989961572606      -0.120224241834     0.00775277555596    0.0536020856286     
6900000000.0        0.00794607411761    0.0543764254297     0.989701142523      -0.12198242774      0.989701142523      -0.12198242774      0.0079460741176     0.0543764254297     
7000000000.0        0.00814215336387    0.0551501753412     0.989436948359      -0.123740137952     0.989436948359      -0.123740137952     0.00814215336387    0.0551501753412     
7100000000.0        0.00834101213354    0.0559233277384     0.989168990794      -0.125497363979     0.989168990794      -0.125497363979     0.00834101213354    0.0559233277384     
7200000000.0        0.00854264924441    0.0566958750129     0.98889727053       -0.127254097322     0.98889727053       -0.127254097322     0.00854264924441    0.0566958750129     
7300000000.0        0.00874706349368    0.0574678095719     0.988621788293      -0.129010329478     0.988621788293      -0.129010329478     0.00874706349368    0.0574678095719     
7400000000.0        0.00895425365824    0.0582391238387     0.988342544831      -0.130766051935     0.988342544831      -0.130766051935     0.00895425365824    0.0582391238387     
7500000000.0        0.00916421849506    0.0590098102517     0.988059540914      -0.132521256177     0.988059540914      -0.132521256177     0.00916421849506    0.0590098102517     
7600000000.0        0.00937695674142    0.0597798612645     0.987772777334      -0.134275933682     0.987772777334      -0.134275933682     0.00937695674142    0.0597798612645     
7700000000.0        0.00959246711524    0.0605492693456     0.987482254904      -0.136030075919     0.987482254904      -0.136030075919     0.00959246711524    0.0605492693456     
7800000000.0        0.00981074831534    0.0613180269784     0.987187974461      -0.137783674357     0.987187974461      -0.137783674357     0.00981074831534    0.0613180269784     
7900000000.0        0.0100317990217     0.0620861266607     0.98688993686       -0.139536720456     0.98688993686       -0.139536720456     0.0100317990217     0.0620861266607     
8000000000.0        0.0102556178956     0.0628535609046     0.98658814298       -0.141289205671     0.98658814298       -0.141289205671     0.0102556178956     0.0628535609046     
8100000000.0        0.0104822035802     0.063620322236      0.986282593718      -0.143041121454     0.986282593718      -0.143041121454     0.0104822035802     0.063620322236      
8200000000.0        0.0107115547001     0.0643864031949     0.985973289994      -0.144792459251     0.985973289994      -0.144792459251     0.0107115547001     0.0643864031949     
8300000000.0        0.0109436698624     0.0651517963349     0.985660232749      -0.146543210504     0.985660232749      -0.146543210504     0.0109436698624     0.0651517963349     
8400000000.0        0.0111785476561     0.0659164942228     0.985343422942      -0.14829336665      0.985343422942      -0.14829336665      0.0111785476561     0.0659164942228     
8500000000.0        0.0114161866527     0.0666804894388     0.985022861555      -0.150042919123     0.985022861555      -0.150042919123     0.0114161866527     0.0666804894388     
8600000000.0        0.0116565854064     0.0674437745759     0.984698549589      -0.151791859351     0.984698549589      -0.151791859351     0.0116565854064     0.0674437745759     
8700000000.0        0.0118997424542     0.0682063422401     0.984370488065      -0.153540178759     0.984370488065      -0.153540178759     0.0118997424542     0.0682063422401     
8800000000.0        0.0121456563158     0.0689681850497     0.984038678025      -0.155287868769     0.984038678025      -0.155287868769     0.0121456563158     0.0689681850497     
8900000000.0        0.0123943254942     0.0697292956356     0.98370312053       -0.157034920798     0.98370312053       -0.157034920798     0.0123943254942     0.0697292956356     
9000000000.0        0.0126457484757     0.0704896666406     0.983363816662      -0.15878132626      0.983363816662      -0.15878132626      0.0126457484757     0.0704896666406     
9100000000.0        0.0128999237296     0.0712492907199     0.983020767521      -0.160527076564     0.983020767521      -0.160527076564     0.0128999237296     0.0712492907199     
9200000000.0        0.013156849709      0.07200816054       0.982673974227      -0.162272163118     0.982673974227      -0.162272163118     0.013156849709      0.07200816054       
9300000000.0        0.0134165248505     0.0727662687793     0.982323437922      -0.164016577325     0.982323437922      -0.164016577325     0.0134165248505     0.0727662687793     
9400000000.0        0.0136789475744     0.0735236081275     0.981969159765      -0.165760310585     0.981969159765      -0.165760310585     0.0136789475744     0.0735236081275     
9500000000.0        0.0139441162849     0.0742801712855     0.981611140936      -0.167503354293     0.981611140936      -0.167503354293     0.0139441162849     0.0742801712855     
9600000000.0        0.0142120293702     0.0750359509652     0.981249382632      -0.169245699845     0.981249382632      -0.169245699845     0.0142120293702     0.0750359509652     
9700000000.0        0.0144826852023     0.0757909398894     0.980883886073      -0.17098733863      0.980883886073      -0.17098733863      0.0144826852023     0.0757909398894     
9800000000.0        0.0147560821375     0.0765451307915     0.980514652495      -0.172728262036     0.980514652495      -0.172728262036     0.0147560821375     0.0765451307915     
9900000000.0        0.0150322185163     0.0772985164154     0.980141683156      -0.174468461447     0.980141683156      -0.174468461447     0.0150322185163     0.0772985164154     
10000000000.0       0.0153110926634     0.0780510895153     0.979764979331      -0.176207928244     0.979764979331      -0.176207928244     0.0153110926634     0.0780510895153     
