# Hz S RI R 50.00 
100000000.0         0.000388854674984   -0.00387820713589   0.999559554767      -0.00525527664315   0.999559554767      -0.00525527664315   0.000388854674984   -0.00387820713589   
200000000.0         0.00032606789385    -0.00775589415087   0.999488323964      -0.0105100442444    0.999488323964      -0.0105100442444    0.00032606789385    -0.00775589415087   
300000000.0         0.00022180739887    -0.0116325633389    0.999375161907      -0.0157638270543    0.999375161907      -0.0157638270543    0.000221807398869   -0.0116325633389    
400000000.0         7.6449858077e-05    -0.0155077075634    0.999219729686      -0.0210161334401    0.999219729686      -0.0210161334401    7.64498580768e-05   -0.0155077075634    
500000000.0         -0.000109840200254  -0.0193808146637    0.999021916771      -0.0262664645918    0.999021916771      -0.0262664645918    -0.000109840200254  -0.0193808146637    
600000000.0         -0.000336957431719  -0.0232513693961    0.998781688371      -0.0315143174155    0.998781688371      -0.0315143174155    -0.000336957431719  -0.0232513693961    
700000000.0         -0.000604816782876  -0.0271188545507    0.998499046747      -0.0367591860552    0.998499046747      -0.0367591860552    -0.000604816782876  -0.0271188545507    
800000000.0         -0.000913339282023  -0.030982751705     0.998174017143      -0.0420005628658    0.998174017143      -0.0420005628658    -0.000913339282023  -0.030982751705     
900000000.0         -0.00126244570386   -0.0348425417885    0.997806641546      -0.0472379391096    0.997806641546      -0.0472379391096    -0.00126244570386   -0.0348425417885    
1000000000.0        -0.00165205335536   -0.0386977055364    0.997396975538      -0.0524708054982    0.997396975538      -0.0524708054982    -0.00165205335536   -0.0386977055364    
1100000000.0        -0.00208207429083   -0.0425477238733    0.996945086546      -0.0576986526386    0.996945086546      -0.0576986526386    -0.00208207429083   -0.0425477238733    
1200000000.0        -0.00255241425373   -0.0463920782515    0.996451052798      -0.0629209714163    0.996451052798      -0.0629209714163    -0.00255241425373   -0.0463920782515    
1300000000.0        -0.00306297201907   -0.0502302509546    0.995914962658      -0.0681372533347    0.995914962658      -0.0681372533347    -0.00306297201907   -0.0502302509546    
1400000000.0        -0.00361363897161   -0.054061725379     0.995336914183      -0.0733469908231    0.995336914183      -0.0733469908231    -0.00361363897161   -0.054061725379     
1500000000.0        -0.00420429883054   -0.0578859862964    0.994717014809      -0.078549677521     0.994717014809      -0.078549677521     -0.00420429883054   -0.0578859862964    
1600000000.0        -0.00483482746972   -0.0617025201023    0.994055381113      -0.083744808545     0.994055381113      -0.083744808545     -0.00483482746972   -0.0617025201023    
1700000000.0        -0.00550509280279   -0.0655108150533    0.993352138637      -0.0889318807402    0.993352138637      -0.0889318807402    -0.00550509280279   -0.0655108150533    
1800000000.0        -0.00621495471427   -0.0693103614947    0.99260742173       -0.0941103929208    0.99260742173       -0.0941103929208    -0.00621495471427   -0.0693103614947    
1900000000.0        -0.00696426502419   -0.0731006520806    0.991821373428      -0.0992798461004    0.991821373428      -0.0992798461004    -0.00696426502419   -0.0731006520806    
2000000000.0        -0.00775286747817   -0.0768811819869    0.990994145332      -0.104439743714     0.990994145332      -0.104439743714     -0.00775286747817   -0.0768811819869    
2100000000.0        -0.0085805977574    -0.0806514491183    0.990125897502      -0.109589591835     0.990125897502      -0.109589591835     -0.0085805977574    -0.0806514491183    
2200000000.0        -0.00944728350449   -0.0844109543093    0.98921679836       -0.114728899378     0.98921679836       -0.114728899378     -0.00944728350449   -0.0844109543093    
2300000000.0        -0.0103527443626    -0.0881592015209    0.988267024586      -0.119857178308     0.988267024586      -0.119857178308     -0.0103527443626    -0.0881592015209    
2400000000.0        -0.0112967920254    -0.091895698032     0.987276761019      -0.124973943832     0.987276761019      -0.124973943832     -0.0112967920254    -0.091895698032     
2500000000.0        -0.0122792302971    -0.0956199546264    0.986246200561      -0.130078714594     0.986246200561      -0.130078714594     -0.0122792302971    -0.0956199546264    
2600000000.0        -0.0132998551604    -0.0993314857756    0.985175544077      -0.135171012862     0.985175544077      -0.135171012862     -0.0132998551604    -0.0993314857756    
2700000000.0        -0.014358454852     -0.103029809817     0.984065000288      -0.140250364708     0.984065000288      -0.140250364708     -0.014358454852     -0.103029809817     
2800000000.0        -0.0154548099452    -0.106714449128     0.982914785674      -0.145316300187     0.982914785674      -0.145316300187     -0.0154548099452    -0.106714449128     
2900000000.0        -0.0165886934384    -0.110384930298     0.981725124358      -0.150368353512     0.981725124358      -0.150368353512     -0.0165886934384    -0.110384930298     
3000000000.0        -0.0177598708493    -0.114040784291     0.980496248006      -0.155406063221     0.980496248006      -0.155406063221     -0.0177598708493    -0.114040784291     
3100000000.0        -0.0189681003149    -0.117681546612     0.979228395706      -0.160428972343     0.979228395706      -0.160428972343     -0.0189681003149    -0.117681546612     
3200000000.0        -0.0202131326952    -0.121306757462     0.977921813858      -0.165436628558     0.977921813858      -0.165436628558     -0.0202131326952    -0.121306757462     
3300000000.0        -0.0214947116832    -0.124915961892     0.976576756053      -0.170428584354     0.976576756053      -0.170428584354     -0.0214947116832    -0.124915961892     
3400000000.0        -0.022812573918     -0.128508709957     0.975193482949      -0.175404397179     0.975193482949      -0.175404397179     -0.022812573918     -0.128508709957     
3500000000.0        -0.0241664491024    -0.132084556856     0.97377226215       -0.180363629589     0.97377226215       -0.180363629589     -0.0241664491024    -0.132084556856     
3600000000.0        -0.0255560601249    -0.135643063079     0.972313368077      -0.185305849391     0.972313368077      -0.185305849391     -0.0255560601249    -0.135643063079     
3700000000.0        -0.0269811231844    -0.139183794542     0.970817081838      -0.190230629783     0.970817081838      -0.190230629783     -0.0269811231844    -0.139183794542     
3800000000.0        -0.0284413479192    -0.142706322721     0.969283691091      -0.195137549488     0.969283691091      -0.195137549488     -0.0284413479192    -0.142706322721     
3900000000.0        -0.0299364375389    -0.146210224781     0.967713489913      -0.200026192888     0.967713489913      -0.200026192888     -0.0299364375389    -0.146210224781     
4000000000.0        -0.0314660889597    -0.149695083703     0.966106778657      -0.204896150145     0.966106778657      -0.204896150145     -0.0314660889597    -0.149695083703     
4100000000.0        -0.0330299929422    -0.1531604884       0.964463863815      -0.20974701733      0.964463863815      -0.20974701733      -0.0330299929422    -0.1531604884       
4200000000.0        -0.0346278342325    -0.156606033841     0.962785057867      -0.214578396533     0.962785057867      -0.214578396533     -0.0346278342325    -0.156606033841     
4300000000.0        -0.0362592917056    -0.160031321154     0.961070679146      -0.219389895983     0.961070679146      -0.219389895983     -0.0362592917056    -0.160031321154     
4400000000.0        -0.0379240385111    -0.163435957742     0.959321051678      -0.224181130154     0.959321051678      -0.224181130154     -0.0379240385111    -0.163435957742     
4500000000.0        -0.0396217422217    -0.166819557383     0.95753650504       -0.228951719868     0.95753650504       -0.228951719868     -0.0396217422217    -0.166819557383     
4600000000.0        -0.0413520649833    -0.170181740325     0.955717374205      -0.233701292397     0.955717374205      -0.233701292397     -0.0413520649833    -0.170181740325     
4700000000.0        -0.0431146636672    -0.173522133388     0.953863999388      -0.238429481558     0.953863999388      -0.238429481558     -0.0431146636672    -0.173522133388     
4800000000.0        -0.0449091900245    -0.176840370049     0.951976725889      -0.243135927804     0.951976725889      -0.243135927804     -0.0449091900245    -0.176840370049     
4900000000.0        -0.0467352908419    -0.180136090528     0.95005590394       -0.247820278308     0.95005590394       -0.247820278308     -0.0467352908419    -0.180136090528     
5000000000.0        -0.0485926080985    -0.183408941871     0.948101888542      -0.25248218705      0.948101888542      -0.25248218705      -0.0485926080985    -0.183408941871     
5100000000.0        -0.0504807791254    -0.186658578024     0.946115039308      -0.257121314888     0.946115039308      -0.257121314888     -0.0504807791254    -0.186658578024     
5200000000.0        -0.0523994367646    -0.189884659909     0.944095720299      -0.261737329638     0.944095720299      -0.261737329638     -0.0523994367646    -0.189884659909     
5300000000.0        -0.0543482095309    -0.193086855487     0.942044299867      -0.266329906135     0.942044299867      -0.266329906135     -0.0543482095309    -0.193086855487     
5400000000.0        -0.0563267217733    -0.196264839822     0.939961150488      -0.270898726301     0.939961150488      -0.270898726301     -0.0563267217733    -0.196264839822     
5500000000.0        -0.0583345938383    -0.199418295144     0.937846648599      -0.275443479205     0.937846648599      -0.275443479205     -0.0583345938383    -0.199418295144     
5600000000.0        -0.0603714422327    -0.202546910899     0.935701174434      -0.279963861113     0.935701174434      -0.279963861113     -0.0603714422327    -0.202546910899     
5700000000.0        -0.0624368797883    -0.205650383797     0.933525111862      -0.284459575545     0.933525111862      -0.284459575545     -0.0624368797883    -0.205650383797     
5800000000.0        -0.0645305158256    -0.208728417863     0.931318848216      -0.288930333314     0.931318848216      -0.288930333314     -0.0645305158256    -0.208728417863     
5900000000.0        -0.0666519563189    -0.211780724474     0.929082774136      -0.293375852573     0.929082774136      -0.293375852573     -0.0666519563189    -0.211780724474     
6000000000.0        -0.0688008040611    -0.214807022396     0.926817283396      -0.29779585885      0.926817283396      -0.29779585885      -0.0688008040611    -0.214807022396     
6100000000.0        -0.0709766588282    -0.217807037816     0.924522772743      -0.302190085077     0.924522772743      -0.302190085077     -0.0709766588282    -0.217807037816     
6200000000.0        -0.0731791175441    -0.220780504372     0.922199641729      -0.306558271626     0.922199641729      -0.306558271626     -0.0731791175441    -0.220780504372     
6300000000.0        -0.0754077744451    -0.223727163172     0.919848292551      -0.310900166325     0.919848292551      -0.310900166325     -0.0754077744451    -0.223727163172     
6400000000.0        -0.0776622212438    -0.226646762819     0.91746912988       -0.315215524484     0.91746912988       -0.315215524484     -0.0776622212438    -0.226646762819     
6500000000.0        -0.079942047293     -0.229539059421     0.915062560701      -0.319504108906     0.915062560701      -0.319504108906     -0.079942047293     -0.229539059421     
6600000000.0        -0.082246839748     -0.232403816606     0.912628994152      -0.323765689901     0.912628994152      -0.323765689901     -0.082246839748     -0.232403816606     
6700000000.0        -0.0845761837295    -0.235240805525     0.910168841353      -0.328000045293     0.910168841353      -0.328000045293     -0.0845761837295    -0.235240805525     
6800000000.0        -0.0869296624848    -0.238049804859     0.907682515254      -0.332206960422     0.907682515254      -0.332206960422     -0.0869296624848    -0.238049804859     
6900000000.0        -0.0893068575479    -0.240830600814     0.905170430468      -0.336386228145     0.905170430468      -0.336386228145     -0.0893068575479    -0.240830600814     
7000000000.0        -0.0917073488997    -0.24358298712      0.902633003113      -0.340537648828     0.902633003113      -0.340537648828     -0.0917073488997    -0.24358298712      
7100000000.0        -0.0941307151254    -0.246306765017     0.900070650653      -0.344661030343     0.900070650653      -0.344661030343     -0.0941307151254    -0.246306765017     
7200000000.0        -0.0965765335721    -0.249001743247     0.897483791742      -0.348756188051     0.897483791742      -0.348756188051     -0.0965765335721    -0.249001743247     
7300000000.0        -0.0990443805044    -0.251667738035     0.894872846067      -0.352822944784     0.894872846067      -0.352822944784     -0.0990443805044    -0.251667738035     
7400000000.0        -0.101533831258     -0.254304573069     0.892238234192      -0.356861130834     0.892238234192      -0.356861130834     -0.101533831258     -0.254304573069     
7500000000.0        -0.104044460394     -0.256912079478     0.889580377408      -0.360870583919     0.889580377408      -0.360870583919     -0.104044460394     -0.256912079478     
7600000000.0        -0.106575841848     -0.259490095803     0.88689969758       -0.364851149164     0.88689969758       -0.364851149164     -0.106575841848     -0.259490095803     
7700000000.0        -0.109127549081     -0.262038467966     0.884196616997      -0.368802679066     0.884196616997      -0.368802679066     -0.109127549081     -0.262038467966     
7800000000.0        -0.111699155226     -0.264557049237     0.881471558225      -0.372725033462     0.881471558225      -0.372725033462     -0.111699155226     -0.264557049237     
7900000000.0        -0.114290233234     -0.267045700199     0.878724943961      -0.376618079493     0.878724943961      -0.376618079493     -0.114290233234     -0.267045700199     
8000000000.0        -0.116900356018     -0.269504288702     0.875957196888      -0.380481691562     0.875957196888      -0.380481691562     -0.116900356018     -0.269504288702     
8100000000.0        -0.119529096595     -0.271932689823     0.873168739533      -0.384315751289     0.873168739533      -0.384315751289     -0.119529096595     -0.271932689823     
8200000000.0        -0.122176028226     -0.274330785821     0.87035999413       -0.38812014747      0.87035999413       -0.38812014747      -0.122176028226     -0.274330785821     
8300000000.0        -0.124840724551     -0.276698466084     0.867531382476      -0.391894776023     0.867531382476      -0.391894776023     -0.124840724551     -0.276698466084     
8400000000.0        -0.127522759728     -0.279035627076     0.864683325803      -0.395639539936     0.864683325803      -0.395639539936     -0.127522759728     -0.279035627076     
8500000000.0        -0.130221708565     -0.281342172286     0.861816244639      -0.399354349216     0.861816244639      -0.399354349216     -0.130221708565     -0.281342172286     
8600000000.0        -0.132937146648     -0.283618012167     0.858930558679      -0.403039120825     0.858930558679      -0.403039120825     -0.132937146648     -0.283618012167     
8700000000.0        -0.135668650472     -0.285863064075     0.856026686656      -0.406693778626     0.856026686656      -0.406693778626     -0.135668650472     -0.285863064075     
8800000000.0        -0.138415797569     -0.288077252208     0.853105046216      -0.410318253314     0.853105046216      -0.410318253314     -0.138415797569     -0.288077252208     
8900000000.0        -0.141178166627     -0.290260507539     0.85016605379       -0.413912482357     0.85016605379       -0.413912482357     -0.141178166627     -0.290260507539     
9000000000.0        -0.143955337613     -0.292412767749     0.847210124481      -0.417476409924     0.847210124481      -0.417476409924     -0.143955337613     -0.292412767749     
9100000000.0        -0.146746891892     -0.294533977158     0.844237671936      -0.421009986815     0.844237671936      -0.421009986815     -0.146746891892     -0.294533977158     
9200000000.0        -0.149552412343     -0.29662408665      0.841249108236      -0.424513170394     0.841249108236      -0.424513170394     -0.149552412343     -0.29662408665      
9300000000.0        -0.152371483472     -0.2986830536       0.83824484378       -0.427985924508     0.83824484378       -0.427985924508     -0.152371483472     -0.2986830536       
9400000000.0        -0.155203691521     -0.3007108418       0.835225287175      -0.431428219416     0.835225287175      -0.431428219416     -0.155203691521     -0.3007108418       
9500000000.0        -0.158048624579     -0.302707421377     0.832190845126      -0.434840031708     0.832190845126      -0.434840031708     -0.158048624579     -0.302707421377     
9600000000.0        -0.160905872685     -0.304672768717     0.829141922334      -0.438221344228     0.829141922334      -0.438221344228     -0.160905872685     -0.304672768717     
9700000000.0        -0.163775027931     -0.306606866381     0.826078921389      -0.441572145991     0.826078921389      -0.441572145991     -0.163775027931     -0.306606866381     
9800000000.0        -0.166655684563     -0.30850970302      0.823002242673      -0.444892432098     0.823002242673      -0.444892432098     -0.166655684563     -0.30850970302      
9900000000.0        -0.169547439076     -0.310381273297     0.819912284262      -0.448182203658     0.819912284262      -0.448182203658     -0.169547439076     -0.310381273297     
10000000000.0       -0.172449890313     -0.312221577794     0.81680944183       -0.451441467692     0.81680944183       -0.451441467692     -0.172449890313     -0.312221577794     
