# Hz S RI R 50.00 
100000000.0         3.22800403831e-05   -7.52975174265e-05  0.999966434711      -0.000185124817745  0.999966434711      -0.000185124817745  3.22800403834e-05   -7.52975174263e-05  
200000000.0         3.23340360351e-05   -0.000150598541246  0.999966027627      -0.000370255141044  0.999966027627      -0.000370255141044  3.23340360349e-05   -0.000150598541246  
300000000.0         3.23025019053e-05   -0.000225904832637  0.999965638224      -0.000555393854277  0.999965638224      -0.000555393854277  3.23025019056e-05   -0.000225904832637  
400000000.0         3.22139155475e-05   -0.000301217736826  0.999965238002      -0.000740543160953  0.999965238002      -0.000740543160953  3.22139155473e-05   -0.000301217736826  
500000000.0         3.20792172575e-05   -0.000376538380571  0.999964816001      -0.000925704921866  0.999964816001      -0.000925704921866  3.20792172575e-05   -0.000376538380571  
600000000.0         3.19039704855e-05   -0.000451867745181  0.999964366634      -0.00111088077379   0.999964366634      -0.00111088077379   3.19039704855e-05   -0.000451867745181  
700000000.0         3.16914495733e-05   -0.000527206704179  0.999963886603      -0.00129607218983   0.999963886603      -0.00129607218983   3.16914495733e-05   -0.000527206704179  
800000000.0         3.14437672044e-05   -0.00060255604541   0.999963373767      -0.00148128051492   0.999963373767      -0.00148128051492   3.14437672047e-05   -0.00060255604541   
900000000.0         3.11623747518e-05   -0.000677916486126  0.999962826647      -0.0016665069896    0.999962826647      -0.0016665069896    3.11623747518e-05   -0.000677916486126  
1000000000.0        3.08483164433e-05   -0.000753288683968  0.999962244169      -0.00185175276704   0.999962244169      -0.00185175276704   3.08483164431e-05   -0.000753288683968  
1100000000.0        3.05023702452e-05   -0.000828673245156  0.999961625524      -0.00203701892569   0.999961625524      -0.00203701892569   3.05023702454e-05   -0.000828673245156  
1200000000.0        3.01251317476e-05   -0.000904070728793  0.999960970084      -0.00222230647688   0.999960970084      -0.00222230647688   3.01251317476e-05   -0.000904070728793  
1300000000.0        2.97170670596e-05   -0.000979481654825  0.999960277348      -0.00240761637543   0.999960277348      -0.00240761637543   2.97170670593e-05   -0.000979481654825  
1400000000.0        2.92785473657e-05   -0.0010549065053    0.999959546911      -0.00259294952302   0.999959546911      -0.00259294952302   2.92785473655e-05   -0.0010549065053    
1500000000.0        2.88098726065e-05   -0.0011303457289    0.999958778437      -0.00277830677434   0.999958778437      -0.00277830677434   2.88098726062e-05   -0.0011303457289    
1600000000.0        2.83112880561e-05   -0.00120579974368   0.999957971644      -0.00296368894134   0.999957971644      -0.00296368894134   2.83112880559e-05   -0.00120579974368   
1700000000.0        2.77829962292e-05   -0.0012812689387    0.99995712629       -0.00314909679596   0.99995712629       -0.00314909679596   2.77829962292e-05   -0.0012812689387    
1800000000.0        2.72251657032e-05   -0.00135675367709   0.99995624217       -0.0033345310742    0.99995624217       -0.0033345310742    2.7225165703e-05    -0.00135675367709   
1900000000.0        2.66379377218e-05   -0.00143225429686   0.999955319102      -0.00351999247785   0.999955319102      -0.00351999247785   2.66379377218e-05   -0.00143225429686   
2000000000.0        2.60214312313e-05   -0.00150777111303   0.999954356927      -0.00370548167729   0.999954356927      -0.00370548167729   2.60214312313e-05   -0.00150777111303   
2100000000.0        2.53757468263e-05   -0.00158330441915   0.999953355503      -0.00389099931371   0.999953355503      -0.00389099931371   2.53757468263e-05   -0.00158330441915   
2200000000.0        2.47009697611e-05   -0.00165885448769   0.999952314704      -0.00407654600003   0.999952314704      -0.00407654600003   2.47009697611e-05   -0.00165885448769   
2300000000.0        2.39971724869e-05   -0.00173442157242   0.999951234415      -0.00426212232382   0.999951234415      -0.00426212232382   2.39971724867e-05   -0.00173442157242   
2400000000.0        2.32644165525e-05   -0.00181000590815   0.999950114531      -0.00444772884746   0.999950114531      -0.00444772884746   2.32644165523e-05   -0.00181000590815   
2500000000.0        2.25027542478e-05   -0.00188560771234   0.999948954956      -0.00463336611018   0.999948954956      -0.00463336611018   2.25027542478e-05   -0.00188560771234   
2600000000.0        2.17122298984e-05   -0.00196122718647   0.999947755603      -0.00481903462972   0.999947755603      -0.00481903462972   2.17122298982e-05   -0.00196122718647   
2700000000.0        2.0892880962e-05    -0.00203686451529   0.99994651639       -0.00500473490202   0.99994651639       -0.00500473490202   2.08928809617e-05   -0.00203686451529   
2800000000.0        2.00447389289e-05   -0.00211251986882   0.99994523724       -0.00519046740343   0.99994523724       -0.00519046740343   2.00447389289e-05   -0.00211251986882   
2900000000.0        1.91678300954e-05   -0.00218819340295   0.999943918081      -0.00537623259157   0.999943918081      -0.00537623259157   1.91678300951e-05   -0.00218819340295   
3000000000.0        1.82621761999e-05   -0.00226388525908   0.999942558847      -0.00556203090529   0.999942558847      -0.00556203090529   1.82621761999e-05   -0.00226388525908   
3100000000.0        1.73277949551e-05   -0.00233959556584   0.999941159474      -0.00574786276653   0.999941159474      -0.00574786276653   1.73277949551e-05   -0.00233959556584   
3200000000.0        1.63647005547e-05   -0.00241532443886   0.9999397199        -0.00593372858037   0.9999397199        -0.00593372858037   1.63647005544e-05   -0.00241532443886   
3300000000.0        1.53729040391e-05   -0.00249107198161   0.99993824007       -0.00611962873601   0.99993824007       -0.00611962873601   1.53729040389e-05   -0.00249107198161   
3400000000.0        1.435241366e-05     -0.0025668382859    0.999936719927      -0.00630556360745   0.999936719927      -0.00630556360745   1.435241366e-05     -0.0025668382859    
3500000000.0        1.33032351848e-05   -0.0026426234319    0.999935159418      -0.00649153355371   0.999935159418      -0.00649153355371   1.33032351846e-05   -0.0026426234319    
3600000000.0        1.22253721564e-05   -0.00271842748914   0.999933558494      -0.00667753891993   0.999933558494      -0.00667753891993   1.22253721564e-05   -0.00271842748914   
3700000000.0        1.11188261305e-05   -0.00279425051663   0.999931917104      -0.00686358003769   0.999931917104      -0.00686358003769   1.11188261305e-05   -0.00279425051663   
3800000000.0        9.98359686588e-06   -0.00287009256301   0.999930235201      -0.00704965722521   0.999930235201      -0.00704965722521   9.9835968661e-06    -0.00287009256301   
3900000000.0        8.81968252076e-06   -0.00294595366725   0.99992851274       -0.00723577078827   0.99992851274       -0.00723577078827   8.81968252098e-06   -0.00294595366725   
4000000000.0        7.62707980262e-06   -0.00302183385895   0.999926749676      -0.00742192102054   0.999926749676      -0.00742192102054   7.62707980284e-06   -0.00302183385895   
4100000000.0        6.40578411404e-06   -0.00309773315842   0.999924945964      -0.0076081082038    0.999924945964      -0.0076081082038    6.40578411382e-06   -0.00309773315842   
4200000000.0        5.15578967475e-06   -0.00317365157708   0.999923101564      -0.00779433260847   0.999923101564      -0.00779433260847   5.15578967453e-06   -0.00317365157708   
4300000000.0        3.87708963867e-06   -0.00324958911803   0.999921216432      -0.00798059449422   0.999921216432      -0.00798059449422   3.87708963889e-06   -0.00324958911803   
4400000000.0        2.56967620116e-06   -0.00332554577592   0.99991929053       -0.00816689410997   0.99991929053       -0.00816689410997   2.56967620116e-06   -0.00332554577592   
4500000000.0        1.23354067694e-06   -0.00340152153739   0.999917323816      -0.00835323169441   0.999917323816      -0.00835323169441   1.23354067694e-06   -0.00340152153739   
4600000000.0        -1.31326403863e-07  -0.00347751638143   0.999915316253      -0.00853960747641   0.999915316253      -0.00853960747641   -1.31326403974e-07  -0.00347751638143   
4700000000.0        -1.52493523009e-06  -0.00355353027928   0.999913267802      -0.008726021675     0.999913267802      -0.008726021675     -1.52493523009e-06  -0.00355353027928   
4800000000.0        -2.94729663242e-06  -0.00362956319515   0.999911178425      -0.00891247450025   0.999911178425      -0.00891247450025   -2.94729663253e-06  -0.00362956319515   
4900000000.0        -4.39842203181e-06  -0.00370561508613   0.999909048086      -0.00909896615309   0.999909048086      -0.00909896615309   -4.39842203181e-06  -0.00370561508613   
5000000000.0        -5.87832337307e-06  -0.00378168590226   0.999906876748      -0.00928549682558   0.999906876748      -0.00928549682558   -5.87832337307e-06  -0.00378168590226   
5100000000.0        -7.387013083e-06    -0.00385777558724   0.999904664374      -0.00947206670162   0.999904664374      -0.00947206670162   -7.38701308267e-06  -0.00385777558724   
5200000000.0        -8.9245040128e-06   -0.00393388407804   0.999902410931      -0.00965867595661   0.999902410931      -0.00965867595661   -8.9245040128e-06   -0.00393388407804   
5300000000.0        -1.04908094021e-05  -0.00401001130547   0.999900116382      -0.00984532475812   0.999900116382      -0.00984532475812   -1.04908094021e-05  -0.00401001130547   
5400000000.0        -1.20859428402e-05  -0.00408615719438   0.999897780693      -0.0100320132661    0.999897780693      -0.0100320132661    -1.20859428401e-05  -0.00408615719438   
5500000000.0        -1.370991822e-05    -0.00416232166355   0.999895403831      -0.0102187416328    0.999895403831      -0.0102187416328    -1.37099182203e-05  -0.00416232166355   
5600000000.0        -1.53627497173e-05  -0.00423850462607   0.999892985761      -0.0104055100034    0.999892985761      -0.0104055100034    -1.53627497173e-05  -0.00423850462607   
5700000000.0        -1.70444517466e-05  -0.00431470598953   0.999890526449      -0.0105923185158    0.999890526449      -0.0105923185158    -1.70444517466e-05  -0.00431470598953   
5800000000.0        -1.87550389404e-05  -0.00439092565601   0.999888025864      -0.0107791673011    0.999888025864      -0.0107791673011    -1.87550389403e-05  -0.00439092565601   
5900000000.0        -2.04945261204e-05  -0.00446716352248   0.999885483972      -0.010966056484     0.999885483972      -0.010966056484     -2.04945261206e-05  -0.00446716352248   
6000000000.0        -2.22629282708e-05  -0.00454341948062   0.99988290074       -0.0111529861822    0.99988290074       -0.0111529861822    -2.22629282708e-05  -0.00454341948062   
6100000000.0        -2.40602605179e-05  -0.00461969341723   0.999880276137      -0.0113399565076    0.999880276137      -0.0113399565076    -2.40602605183e-05  -0.00461969341723   
6200000000.0        -2.58865381056e-05  -0.00469598521431   0.999877610131      -0.0115269675656    0.999877610131      -0.0115269675656    -2.5886538106e-05   -0.00469598521431   
6300000000.0        -2.77417763778e-05  -0.0047722947491    0.99987490269       -0.0117140194558    0.99987490269       -0.0117140194558    -2.77417763774e-05  -0.0047722947491    
6400000000.0        -2.96259907546e-05  -0.00484862189436   0.999872153783      -0.0119011122721    0.999872153783      -0.0119011122721    -2.96259907548e-05  -0.00484862189436   
6500000000.0        -3.15391967228e-05  -0.00492496651826   0.999869363379      -0.0120882461026    0.999869363379      -0.0120882461026    -3.15391967231e-05  -0.00492496651826   
6600000000.0        -3.34814098144e-05  -0.00500132848488   0.999866531447      -0.01227542103      0.999866531447      -0.01227542103      -3.34814098144e-05  -0.00500132848488   
6700000000.0        -3.54526455868e-05  -0.00507770765382   0.999863657957      -0.0124626371315    0.999863657957      -0.0124626371315    -3.54526455869e-05  -0.00507770765382   
6800000000.0        -3.74529196198e-05  -0.00515410388083   0.999860742878      -0.0126498944794    0.999860742878      -0.0126498944794    -3.74529196199e-05  -0.00515410388083   
6900000000.0        -3.9482247491e-05   -0.00523051701755   0.99985778618       -0.0128371931407    0.99985778618       -0.0128371931407    -3.94822474908e-05  -0.00523051701755   
7000000000.0        -4.1540644768e-05   -0.00530694691179   0.999854787833      -0.0130245331775    0.999854787833      -0.0130245331775    -4.15406447679e-05  -0.00530694691179   
7100000000.0        -4.36281269948e-05  -0.00538339340753   0.999851747808      -0.0132119146473    0.999851747808      -0.0132119146473    -4.36281269951e-05  -0.00538339340753   
7200000000.0        -4.57447096843e-05  -0.00545985634526   0.999848666076      -0.0133993376028    0.999848666076      -0.0133993376028    -4.57447096843e-05  -0.00545985634526   
7300000000.0        -4.78904083012e-05  -0.00553633556168   0.999845542606      -0.013586802092     0.999845542606      -0.013586802092     -4.78904083012e-05  -0.00553633556168   
7400000000.0        -5.00652382563e-05  -0.00561283089016   0.999842377369      -0.0137743081587    0.999842377369      -0.0137743081587    -5.00652382562e-05  -0.00561283089016   
7500000000.0        -5.22692148955e-05  -0.00568934216064   0.999839170338      -0.0139618558424    0.999839170338      -0.0139618558424    -5.22692148959e-05  -0.00568934216064   
7600000000.0        -5.45023534911e-05  -0.00576586919979   0.999835921484      -0.0141494451782    0.999835921484      -0.0141494451782    -5.45023534911e-05  -0.00576586919979   
7700000000.0        -5.67646692345e-05  -0.00584241183107   0.999832630777      -0.0143370761974    0.999832630777      -0.0143370761974    -5.67646692343e-05  -0.00584241183107   
7800000000.0        -5.90561772225e-05  -0.00591896987478   0.99982929819       -0.014524748927     0.99982929819       -0.014524748927     -5.90561772223e-05  -0.00591896987478   
7900000000.0        -6.13768924587e-05  -0.00599554314827   0.999825923694      -0.0147124633902    0.999825923694      -0.0147124633902    -6.1376892459e-05   -0.00599554314827   
8000000000.0        -6.37268298389e-05  -0.00607213146586   0.999822507262      -0.0149002196067    0.999822507262      -0.0149002196067    -6.37268298389e-05  -0.00607213146586   
8100000000.0        -6.6106004146e-05   -0.00614873463904   0.999819048866      -0.0150880175922    0.999819048866      -0.0150880175922    -6.61060041461e-05  -0.00614873463904   
8200000000.0        -6.85144300454e-05  -0.00622535247642   0.999815548479      -0.0152758573588    0.999815548479      -0.0152758573588    -6.85144300454e-05  -0.00622535247642   
8300000000.0        -7.09521220764e-05  -0.00630198478399   0.999812006072      -0.0154637389152    0.999812006072      -0.0154637389152    -7.09521220765e-05  -0.00630198478399   
8400000000.0        -7.3419094649e-05   -0.00637863136503   0.99980842162       -0.0156516622669    0.99980842162       -0.0156516622669    -7.3419094649e-05   -0.00637863136503   
8500000000.0        -7.59153620338e-05  -0.00645529202021   0.999804795094      -0.0158396274156    0.999804795094      -0.0158396274156    -7.59153620338e-05  -0.00645529202021   
8600000000.0        -7.84409383615e-05  -0.00653196654774   0.999801126469      -0.0160276343602    0.999801126469      -0.0160276343602    -7.84409383612e-05  -0.00653196654774   
8700000000.0        -8.09958376136e-05  -0.00660865474333   0.999797415717      -0.0162156830961    0.999797415717      -0.0162156830961    -8.09958376138e-05  -0.00660865474333   
8800000000.0        -8.35800736226e-05  -0.00668535640036   0.999793662812      -0.0164037736159    0.999793662812      -0.0164037736159    -8.35800736231e-05  -0.00668535640036   
8900000000.0        -8.61936600616e-05  -0.00676207130977   0.999789867728      -0.016591905909     0.999789867728      -0.016591905909     -8.61936600616e-05  -0.00676207130977   
9000000000.0        -8.88366104429e-05  -0.00683879926037   0.999786030439      -0.0167800799619    0.999786030439      -0.0167800799619    -8.88366104429e-05  -0.00683879926037   
9100000000.0        -9.1508938113e-05   -0.00691554003864   0.999782150918      -0.0169682957583    0.999782150918      -0.0169682957583    -9.15089381132e-05  -0.00691554003864   
9200000000.0        -9.42106562527e-05  -0.00699229342908   0.99977822914       -0.0171565532791    0.99977822914       -0.0171565532791    -9.42106562527e-05  -0.00699229342908   
9300000000.0        -9.69417778639e-05  -0.00706905921394   0.99977426508       -0.0173448525025    0.99977426508       -0.0173448525025    -9.69417778635e-05  -0.00706905921394   
9400000000.0        -9.97023157746e-05  -0.00714583717352   0.999770258712      -0.0175331934039    0.999770258712      -0.0175331934039    -9.97023157747e-05  -0.00714583717352   
9500000000.0        -0.000102492282634  -0.00722262708612   0.99976621001       -0.0177215759564    0.99976621001       -0.0177215759564    -0.000102492282634  -0.00722262708612   
9600000000.0        -0.000105311690904  -0.00729942872812   0.999762118951      -0.0179100001303    0.999762118951      -0.0179100001303    -0.000105311690904  -0.00729942872812   
9700000000.0        -0.000108160552862  -0.00737624187401   0.999757985508      -0.0180984658937    0.999757985508      -0.0180984658937    -0.000108160552862  -0.00737624187401   
9800000000.0        -0.000111038880594  -0.00745306629645   0.999753809657      -0.018286973212     0.999753809657      -0.018286973212     -0.000111038880594  -0.00745306629645   
9900000000.0        -0.000113946685993  -0.00752990176633   0.999749591373      -0.0184755220485    0.999749591373      -0.0184755220485    -0.000113946685993  -0.00752990176633   
10000000000.0       -0.000116883980757  -0.00760674805286   0.999745330633      -0.0186641123643    0.999745330633      -0.0186641123643    -0.000116883980758  -0.00760674805286   
