# Hz S RI R 50.00 
100000000.0         0.00103883128869    -0.000243274279239  0.998951029145      -0.00317995416531   0.998951029145      -0.00317995416531   0.00103883128869    -0.000243274279239  
200000000.0         0.00104185924032    -0.000486601573149  0.998927138197      -0.00635990641706   0.998927138197      -0.00635990641706   0.00104185924032    -0.000486601573149  
300000000.0         0.00104151617747    -0.000729972407231  0.998894893316      -0.00953988245208   0.998894893316      -0.00953988245208   0.00104151617747    -0.000729972407231  
400000000.0         0.00103870336929    -0.000973383731649  0.998853391301      -0.0127198874515    0.998853391301      -0.0127198874515    0.0010387033693     -0.000973383731649  
500000000.0         0.00103376703983    -0.00121683274159   0.998802283696      -0.0158999191385    0.998802283696      -0.0158999191385    0.00103376703983    -0.00121683274159   
600000000.0         0.00102688315783    -0.00146031621175   0.998741392063      -0.0190799708718    0.998741392063      -0.0190799708718    0.00102688315783    -0.00146031621175   
700000000.0         0.00101815520441    -0.00170383037088   0.998670610262      -0.0222600330165    0.998670610262      -0.0222600330165    0.00101815520441    -0.00170383037088   
800000000.0         0.00100764984093    -0.00194737089697   0.998589868826      -0.025440093698     0.998589868826      -0.025440093698     0.00100764984093    -0.00194737089697   
900000000.0         0.000995412786029   -0.00219093294442   0.998499119114      -0.0286201392717    0.998499119114      -0.0286201392717    0.000995412786028   -0.00219093294442   
1000000000.0        0.000981476862366   -0.00243451117872   0.998398325285      -0.0318001546395    0.998398325285      -0.0318001546395    0.000981476862366   -0.00243451117872   
1100000000.0        0.000965866470164   -0.00267809981076   0.998287459855      -0.0349801234766    0.998287459855      -0.0349801234766    0.000965866470164   -0.00267809981076   
1200000000.0        0.00094860025367    -0.00292169262863   0.998166501045      -0.0381600284002    0.998166501045      -0.0381600284002    0.000948600253669   -0.00292169262863   
1300000000.0        0.000929692779766   -0.00316528302626   0.998035431122      -0.0413398510998    0.998035431122      -0.0413398510998    0.000929692779766   -0.00316528302626   
1400000000.0        0.000909155642335   -0.00340886402909   0.997894235307      -0.0445195724409    0.997894235307      -0.0445195724409    0.000909155642335   -0.00340886402909   
1500000000.0        0.000886998215763   -0.00365242831686   0.997742901044      -0.0476991725484    0.997742901044      -0.0476991725484    0.000886998215763   -0.00365242831686   
1600000000.0        0.000863228185053   -0.00389596824428   0.997581417472      -0.0508786308759    0.997581417472      -0.0508786308759    0.000863228185053   -0.00389596824428   
1700000000.0        0.000837851928679   -0.00413947585947   0.997409775065      -0.0540579262634    0.997409775065      -0.0540579262634    0.00083785192868    -0.00413947585947   
1800000000.0        0.000810874801449   -0.00438294292064   0.997227965351      -0.0572370369868    0.997227965351      -0.0572370369868    0.000810874801449   -0.00438294292064   
1900000000.0        0.000782301347659   -0.00462636091139   0.997035980716      -0.0604159408001    0.997035980716      -0.0604159408001    0.000782301347659   -0.00462636091139   
2000000000.0        0.000752135464603   -0.00486972105452   0.996833814248      -0.063594614972     0.996833814248      -0.063594614972     0.000752135464603   -0.00486972105452   
2100000000.0        0.00072038052996    -0.00511301432487   0.996621459616      -0.0667730363184    0.996621459616      -0.0667730363184    0.00072038052996    -0.00511301432487   
2200000000.0        0.000687039502464   -0.00535623146105   0.996398910984      -0.0699511812307    0.996398910984      -0.0699511812307    0.000687039502464   -0.00535623146105   
2300000000.0        0.000652115002482   -0.00559936297635   0.996166162931      -0.0731290257009    0.996166162931      -0.0731290257009    0.000652115002482   -0.00559936297635   
2400000000.0        0.000615609377269   -0.0058423991689    0.9959232104        -0.0763065453448    0.9959232104        -0.0763065453449    0.000615609377269   -0.0058423991689    
2500000000.0        0.000577524754374   -0.00608533013117   0.995670048648      -0.0794837154221    0.995670048648      -0.0794837154221    0.000577524754374   -0.00608533013117   
2600000000.0        0.00053786308579    -0.00632814575881   0.995406673209      -0.0826605108548    0.995406673209      -0.0826605108548    0.000537863085791   -0.00632814575881   
2700000000.0        0.000496626184781   -0.00657083575898   0.995133079865      -0.0858369062443    0.995133079865      -0.0858369062443    0.000496626184782   -0.00657083575898   
2800000000.0        0.000453815756856   -0.00681338965832   0.99484926462       -0.0890128758866    0.99484926462       -0.0890128758866    0.000453815756856   -0.00681338965832   
2900000000.0        0.000409433426033   -0.00705579681028   0.994555223682      -0.0921883937869    0.994555223682      -0.0921883937869    0.000409433426033   -0.00705579681028   
3000000000.0        0.000363480757281   -0.00729804640226   0.994250953441      -0.0953634336719    0.994250953441      -0.0953634336719    0.000363480757281   -0.00729804640226   
3100000000.0        0.000315959275795   -0.00754012746228   0.993936450461      -0.0985379690025    0.993936450461      -0.0985379690025    0.000315959275795   -0.00754012746228   
3200000000.0        0.000266870483704   -0.00778202886541   0.993611711465      -0.101711972985     0.993611711465      -0.101711972985     0.000266870483704   -0.00778202886541   
3300000000.0        0.0002162158746     -0.00802373933986   0.993276733325      -0.10488541858      0.993276733325      -0.10488541858      0.0002162158746     -0.00802373933986   
3400000000.0        0.000163996946271   -0.0082652474728    0.992931513058      -0.108058278516     0.992931513058      -0.108058278516     0.000163996946271   -0.0082652474728    
3500000000.0        0.000110215211905   -0.008506541716     0.992576047813      -0.111230525293     0.992576047813      -0.111230525293     0.000110215211905   -0.008506541716     
3600000000.0        5.48722100029e-05   -0.0087476103912    0.99221033487       -0.114402131197     0.99221033487       -0.114402131197     5.48722100029e-05   -0.0087476103912    
3700000000.0        -2.03048680369e-06  -0.00898844169527   0.991834371636      -0.117573068301     0.991834371636      -0.117573068301     -2.03048680369e-06  -0.00898844169527   
3800000000.0        -6.04912638926e-05  -0.00922902370522   0.991448155635      -0.120743308481     0.991448155635      -0.120743308481     -6.04912638927e-05  -0.00922902370522   
3900000000.0        -0.000120508457594  -0.00946934438299   0.991051684512      -0.123912823416     0.991051684512      -0.123912823416     -0.000120508457593  -0.00946934438299   
4000000000.0        -0.000182080348835  -0.00970939158011   0.990644956026      -0.127081584598     0.990644956026      -0.127081584598     -0.000182080348835  -0.00970939158011   
4100000000.0        -0.000245205157419  -0.0099491530422    0.990227968049      -0.130249563339     0.990227968049      -0.130249563339     -0.000245205157419  -0.0099491530422    
4200000000.0        -0.000309881036813  -0.0101886164133    0.989800718565      -0.133416730774     0.989800718565      -0.133416730774     -0.000309881036813  -0.0101886164133    
4300000000.0        -0.000376106069429  -0.0104277692402    0.989363205665      -0.136583057871     0.989363205665      -0.136583057871     -0.00037610606943   -0.0104277692402    
4400000000.0        -0.000443878262317  -0.0106665989763    0.988915427551      -0.139748515434     0.988915427551      -0.139748515434     -0.000443878262317  -0.0106665989763    
4500000000.0        -0.00051319554321   -0.0109050929858    0.988457382531      -0.142913074107     0.988457382531      -0.142913074107     -0.000513195543209  -0.0109050929858    
4600000000.0        -0.000584055756921  -0.0111432385478    0.987989069019      -0.146076704383     0.987989069019      -0.146076704383     -0.000584055756921  -0.0111432385478    
4700000000.0        -0.000656456662014  -0.0113810228594    0.987510485536      -0.149239376605     0.987510485536      -0.149239376605     -0.000656456662015  -0.0113810228594    
4800000000.0        -0.000730395927754  -0.01161843304      0.987021630709      -0.152401060973     0.987021630709      -0.152401060973     -0.000730395927754  -0.01161843304      
4900000000.0        -0.000805871131265  -0.0118554561347    0.986522503269      -0.155561727547     0.986522503269      -0.155561727547     -0.000805871131265  -0.0118554561347    
5000000000.0        -0.000882879754941  -0.0120920791177    0.986013102052      -0.158721346251     0.986013102052      -0.158721346251     -0.000882879754941  -0.0120920791177    
5100000000.0        -0.000961419184008  -0.0123282888958    0.985493426         -0.161879886881     0.985493426         -0.161879886881     -0.000961419184008  -0.0123282888958    
5200000000.0        -0.00104148670429   -0.0125640723118    0.984963474159      -0.165037319103     0.984963474159      -0.165037319103     -0.00104148670429   -0.0125640723118    
5300000000.0        -0.00112307950013   -0.0127994161477    0.984423245683      -0.16819361246      0.984423245683      -0.16819361246      -0.00112307950013   -0.0127994161477    
5400000000.0        -0.00120619465245   -0.0130343071277    0.983872739826      -0.171348736378     0.983872739826      -0.171348736378     -0.00120619465245   -0.0130343071277    
5500000000.0        -0.00129082913694   -0.013268731922     0.983311955952      -0.174502660162     0.983311955952      -0.174502660162     -0.00129082913694   -0.013268731922     
5600000000.0        -0.00137697982238   -0.013502677149     0.982740893529      -0.17765535301      0.982740893529      -0.17765535301      -0.00137697982238   -0.013502677149     
5700000000.0        -0.00146464346909   -0.0137361293789    0.98215955213       -0.180806784006     0.98215955213       -0.180806784006     -0.00146464346909   -0.0137361293789    
5800000000.0        -0.00155381672746   -0.0139690751365    0.981567931435      -0.18395692213      0.981567931435      -0.18395692213      -0.00155381672746   -0.0139690751365    
5900000000.0        -0.00164449613659   -0.0142015009041    0.980966031231      -0.187105736258     0.980966031231      -0.187105736258     -0.00164449613659   -0.0142015009041    
6000000000.0        -0.001736678123     -0.0144333931243    0.980353851412      -0.190253195168     0.980353851412      -0.190253195168     -0.001736678123     -0.0144333931243    
6100000000.0        -0.00183035899947   -0.0146647382028    0.979731391977      -0.193399267537     0.979731391977      -0.193399267537     -0.00183035899947   -0.0146647382028    
6200000000.0        -0.00192553496392   -0.0148955225112    0.979098653035      -0.19654392195      0.979098653035      -0.19654392195      -0.00192553496392   -0.0148955225112    
6300000000.0        -0.0020222020984    -0.0151257323899    0.978455634803      -0.199687126901     0.978455634803      -0.199687126901     -0.0020222020984    -0.0151257323899    
6400000000.0        -0.00212035636808   -0.0153553541501    0.977802337604      -0.202828850793     0.977802337604      -0.202828850793     -0.00212035636808   -0.0153553541501    
6500000000.0        -0.0022199936204    -0.0155843740773    0.977138761871      -0.205969061944     0.977138761871      -0.205969061944     -0.0022199936204    -0.0155843740773    
6600000000.0        -0.00232110958422   -0.0158127784332    0.976464908147      -0.209107728587     0.976464908147      -0.209107728587     -0.00232110958422   -0.0158127784332    
6700000000.0        -0.00242369986903   -0.0160405534585    0.975780777084      -0.212244818875     0.975780777084      -0.212244818875     -0.00242369986903   -0.0160405534585    
6800000000.0        -0.00252775996425   -0.0162676853754    0.975086369442      -0.215380300879     0.975086369442      -0.215380300879     -0.00252775996425   -0.0162676853754    
6900000000.0        -0.00263328523858   -0.0164941603901    0.974381686094      -0.218514142596     0.974381686094      -0.218514142596     -0.00263328523858   -0.0164941603901    
7000000000.0        -0.00274027093932   -0.016719964695     0.973666728023      -0.221646311947     0.973666728023      -0.221646311947     -0.00274027093932   -0.016719964695     
7100000000.0        -0.00284871219186   -0.0169450844714    0.972941496321      -0.224776776782     0.972941496321      -0.224776776782     -0.00284871219186   -0.0169450844714    
7200000000.0        -0.00295860399916   -0.0171695058916    0.972205992195      -0.227905504879     0.972205992195      -0.227905504879     -0.00295860399916   -0.0171695058916    
7300000000.0        -0.00306994124122   -0.0173932151214    0.971460216959      -0.231032463949     0.971460216959      -0.231032463949     -0.00306994124122   -0.0173932151214    
7400000000.0        -0.00318271867469   -0.0176161983223    0.970704172044      -0.234157621636     0.970704172044      -0.234157621636     -0.00318271867469   -0.0176161983223    
7500000000.0        -0.00329693093246   -0.0178384416537    0.96993785899       -0.237280945522     0.96993785899       -0.237280945522     -0.00329693093246   -0.0178384416537    
7600000000.0        -0.0034125725233    -0.0180599312755    0.969161279451      -0.240402403124     0.969161279451      -0.240402403124     -0.0034125725233    -0.0180599312755    
7700000000.0        -0.00352963783152   -0.0182806533497    0.968374435195      -0.2435219619       0.968374435195      -0.2435219619       -0.00352963783152   -0.0182806533497    
7800000000.0        -0.00364812111673   -0.0185005940432    0.967577328103      -0.246639589251     0.967577328103      -0.246639589251     -0.00364812111674   -0.0185005940432    
7900000000.0        -0.00376801651356   -0.0187197395294    0.966769960169      -0.249755252519     0.966769960169      -0.249755252519     -0.00376801651356   -0.0187197395294    
8000000000.0        -0.00388931803144   -0.0189380759909    0.965952333501      -0.252868918992     0.965952333501      -0.252868918992     -0.00388931803144   -0.0189380759909    
8100000000.0        -0.00401201955441   -0.0191555896212    0.965124450323      -0.255980555907     0.965124450323      -0.255980555907     -0.00401201955441   -0.0191555896212    
8200000000.0        -0.00413611484101   -0.0193722666266    0.964286312972      -0.259090130446     0.964286312972      -0.259090130446     -0.00413611484101   -0.0193722666266    
8300000000.0        -0.0042615975241    -0.019588093229     0.963437923901      -0.262197609744     0.963437923901      -0.262197609744     -0.0042615975241    -0.019588093229     
8400000000.0        -0.0043884611108    -0.0198030556672    0.962579285678      -0.265302960888     0.962579285678      -0.265302960888     -0.0043884611108    -0.0198030556672    
8500000000.0        -0.00451669898242   -0.0200171401991    0.961710400986      -0.268406150916     0.961710400986      -0.268406150916     -0.00451669898242   -0.0200171401991    
8600000000.0        -0.00464630439441   -0.0202303331041    0.960831272626      -0.271507146825     0.960831272626      -0.271507146825     -0.00464630439441   -0.0202303331041    
8700000000.0        -0.00477727047637   -0.0204426206843    0.959941903511      -0.274605915565     0.959941903511      -0.274605915565     -0.00477727047637   -0.0204426206843    
8800000000.0        -0.00490959023204   -0.0206539892672    0.959042296673      -0.277702424046     0.959042296673      -0.277702424046     -0.00490959023204   -0.0206539892672    
8900000000.0        -0.00504325653936   -0.0208644252072    0.95813245526       -0.280796639139     0.95813245526       -0.280796639139     -0.00504325653936   -0.0208644252072    
9000000000.0        -0.00517826215054   -0.0210739148875    0.957212382538      -0.283888527672     0.957212382538      -0.283888527672     -0.00517826215054   -0.0210739148875    
9100000000.0        -0.00531459969213   -0.0212824447223    0.956282081886      -0.28697805644      0.956282081886      -0.28697805644      -0.00531459969213   -0.0212824447223    
9200000000.0        -0.00545226166515   -0.0214900011582    0.955341556804      -0.290065192199     0.955341556804      -0.290065192199     -0.00545226166515   -0.0214900011582    
9300000000.0        -0.00559124044521   -0.0216965706766    0.954390810907      -0.293149901671     0.954390810907      -0.293149901671     -0.00559124044521   -0.0216965706766    
9400000000.0        -0.0057315282827    -0.0219021397949    0.953429847928      -0.296232151546     0.953429847928      -0.296232151546     -0.0057315282827    -0.0219021397949    
9500000000.0        -0.00587311730295   -0.0221066950688    0.952458671718      -0.29931190848      0.952458671718      -0.29931190848      -0.00587311730295   -0.0221066950688    
9600000000.0        -0.00601599950642   -0.0223102230939    0.951477286246      -0.302389139099     0.951477286246      -0.302389139099     -0.00601599950642   -0.0223102230939    
9700000000.0        -0.00616016676898   -0.0225127105075    0.950485695597      -0.30546381         0.950485695597      -0.30546381         -0.00616016676898   -0.0225127105075    
9800000000.0        -0.00630561084209   -0.0227141439905    0.949483903976      -0.308535887752     0.949483903976      -0.308535887752     -0.00630561084209   -0.0227141439905    
9900000000.0        -0.00645232335311   -0.0229145102686    0.948471915704      -0.311605338896     0.948471915704      -0.311605338896     -0.00645232335311   -0.0229145102686    
10000000000.0       -0.00660029580558   -0.0231137961149    0.947449735224      -0.314672129947     0.947449735224      -0.314672129947     -0.00660029580558   -0.0231137961149    
