# Hz S RI R 50.00 
100000000.0         0.0382593934593     0.00393636891136    0.96173609968       -0.00580065016803   0.96173609968       -0.00580065016803   0.0382593934593     0.00393636891136    
200000000.0         0.0385731495645     0.00786711131468    0.961415314336      -0.011595694443     0.961415314336      -0.011595694443     0.0385731495645     0.00786711131468    
300000000.0         0.0388687930888     0.0117935275832     0.961109118322      -0.0173864512251    0.961109118322      -0.0173864512251    0.0388687930888     0.0117935275832     
400000000.0         0.0391783606105     0.0157156139325     0.960785474201      -0.0231729325385    0.960785474201      -0.0231729325385    0.0391783606105     0.0157156139325     
500000000.0         0.0395141638704     0.0196330645656     0.960432069309      -0.0289548472772    0.960432069309      -0.0289548472772    0.0395141638704     0.0196330645656     
600000000.0         0.0398824473949     0.0235454410455     0.960042658101      -0.0347317709642    0.960042658101      -0.0347317709642    0.0398824473949     0.0235454410455     
700000000.0         0.0402868623146     0.0274522332575     0.959613588325      -0.0405032069108    0.959613588325      -0.0405032069108    0.0402868623146     0.0274522332575     
800000000.0         0.0407297347686     0.0313528878089     0.959142532613      -0.0462686147336    0.959142532613      -0.0462686147336    0.0407297347686     0.0313528878089     
900000000.0         0.0412126308948     0.0352468233962     0.958627923483      -0.0520274258003    0.958627923483      -0.0520274258003    0.0412126308948     0.0352468233962     
1000000000.0        0.0417366433294     0.0391334400085     0.958068666842      -0.0577790524871    0.958068666842      -0.0577790524871    0.0417366433294     0.0391334400085     
1100000000.0        0.0423025505423     0.0430121248672     0.957463982646      -0.0635228941591    0.957463982646      -0.0635228941591    0.0423025505423     0.0430121248672     
1200000000.0        0.0429109118353     0.0468822564906     0.956813309906      -0.0692583412651    0.956813309906      -0.0692583412651    0.0429109118353     0.0468822564906     
1300000000.0        0.0435621271581     0.0507432076112     0.956116246866      -0.0749847782798    0.956116246866      -0.0749847782798    0.0435621271581     0.0507432076112     
1400000000.0        0.044256476466      0.0545943473558     0.955372511648      -0.0807015859025    0.955372511648      -0.0807015859025    0.044256476466      0.0545943473558     
1500000000.0        0.0449941465814     0.0584350429304     0.954581915392      -0.0864081427589    0.954581915392      -0.0864081427589    0.0449941465814     0.0584350429304     
1600000000.0        0.045775250099      0.0622646609629     0.953744343349      -0.0921038267565    0.953744343349      -0.0921038267565    0.045775250099      0.0622646609629     
1700000000.0        0.0465998390486     0.0660825686008     0.952859741216      -0.0977880161937    0.952859741216      -0.0977880161937    0.0465998390486     0.0660825686008     
1800000000.0        0.0474679150021     0.0698881344296     0.951928105036      -0.103460090688     0.951928105036      -0.103460090688     0.0474679150021     0.0698881344296     
1900000000.0        0.0483794367047     0.0736807292563     0.950949473559      -0.109119431967     0.950949473559      -0.109119431967     0.0483794367047     0.0736807292563     
2000000000.0        0.0493343259439     0.0774597267899     0.949923922379      -0.114765424557     0.949923922379      -0.114765424557     0.0493343259439     0.0774597267899     
2100000000.0        0.0503324721417     0.0812245042411     0.94885155934       -0.120397456389     0.94885155934       -0.120397456389     0.0503324721417     0.0812245042411     
2200000000.0        0.0513737360026     0.0849744428584     0.947732520888      -0.126014919341     0.947732520888      -0.126014919341     0.0513737360026     0.0849744428584     
2300000000.0        0.0524579524555     0.0887089284117     0.946566969128      -0.131617209724     0.946566969128      -0.131617209724     0.0524579524555     0.0887089284117     
2400000000.0        0.053584933058      0.0924273516335     0.945355089424      -0.137203728731     0.945355089424      -0.137203728731     0.053584933058      0.0924273516335     
2500000000.0        0.0547544679885     0.0961291086244     0.944097088402      -0.142773882844     0.944097088402      -0.142773882844     0.0547544679885     0.0961291086244     
2600000000.0        0.0559663277161     0.0998136012281     0.942793192286      -0.148327084214     0.942793192286      -0.148327084214     0.0559663277161     0.0998136012281     
2700000000.0        0.0572202644193     0.10348023738       0.941443645472      -0.153862751013     0.941443645472      -0.153862751013     0.0572202644193     0.10348023738       
2800000000.0        0.0585160132043     0.107128431435      0.940048709317      -0.159380307764     0.940048709317      -0.159380307764     0.0585160132043     0.107128431435      
2900000000.0        0.0598532931634     0.11075760447       0.938608661078      -0.164879185648     0.938608661078      -0.164879185648     0.0598532931634     0.11075760447       
3000000000.0        0.0612318083051     0.114367184575      0.937123792981      -0.170358822794     0.937123792981      -0.170358822794     0.0612318083051     0.114367184575      
3100000000.0        0.0626512483795     0.117956607124      0.935594411396      -0.175818664556     0.935594411396      -0.175818664556     0.0626512483795     0.117956607124      
3200000000.0        0.0641112896189     0.121525315027      0.934020836097      -0.181258163766     0.934020836097      -0.181258163766     0.0641112896189     0.121525315027      
3300000000.0        0.0656115954083     0.125072758978      0.932403399594      -0.186676780984     0.932403399594      -0.186676780984     0.0656115954083     0.125072758978      
3400000000.0        0.0671518168985     0.128598397682      0.930742446516      -0.192073984723     0.930742446516      -0.192073984723     0.0671518168985     0.128598397682      
3500000000.0        0.0687315935702     0.132101698068      0.929038333047      -0.197449251674     0.929038333047      -0.197449251674     0.0687315935702     0.132101698068      
3600000000.0        0.07035055376       0.135582135498      0.927291426405      -0.202802066905     0.927291426405      -0.202802066905     0.07035055376       0.135582135498      
3700000000.0        0.0720083151508     0.139039193962      0.925502104346      -0.208131924063     0.925502104346      -0.208131924063     0.0720083151508     0.139039193962      
3800000000.0        0.0737044852357     0.142472366255      0.923670754704      -0.213438325553     0.923670754704      -0.213438325553     0.0737044852357     0.142472366255      
3900000000.0        0.0754386617567     0.145881154156      0.921797774949      -0.218720782718     0.921797774949      -0.218720782718     0.0754386617567     0.145881154156      
4000000000.0        0.0772104331239     0.149265068585      0.919883571771      -0.223978815994     0.919883571771      -0.223978815994     0.0772104331239     0.149265068585      
4100000000.0        0.0790193788166     0.152623629759      0.917928560676      -0.229211955073     0.917928560676      -0.229211955073     0.0790193788166     0.152623629759      
4200000000.0        0.0808650697704     0.155956367336      0.915933165603      -0.234419739041     0.915933165603      -0.234419739041     0.0808650697704     0.155956367336      
4300000000.0        0.0827470687497     0.159262820543      0.913897818547      -0.239601716514     0.913897818547      -0.239601716514     0.0827470687497     0.159262820543      
4400000000.0        0.0846649307108     0.162542538309      0.911822959196      -0.244757445767     0.911822959196      -0.244757445767     0.0846649307108     0.162542538309      
4500000000.0        0.0866182031536     0.165795079373      0.909709034584      -0.249886494845     0.909709034584      -0.249886494845     0.0866182031536     0.165795079373      
4600000000.0        0.0886064264654     0.169020012396      0.907556498743      -0.254988441675     0.907556498743      -0.254988441675     0.0886064264654     0.169020012396      
4700000000.0        0.0906291342564     0.172216916054      0.905365812368      -0.260062874163     0.905365812368      -0.260062874163     0.0906291342564     0.172216916054      
4800000000.0        0.0926858536888     0.175385379135      0.903137442488      -0.265109390286     0.903137442488      -0.265109390286     0.0926858536888     0.175385379135      
4900000000.0        0.0947761057986     0.178525000611      0.900871862145      -0.270127598171     0.900871862145      -0.270127598171     0.0947761057986     0.178525000611      
5000000000.0        0.0968994058127     0.181635389721      0.898569550077      -0.275117116172     0.898569550077      -0.275117116172     0.0968994058127     0.181635389721      
5100000000.0        0.0990552634597     0.184716166028      0.896230990405      -0.280077572935     0.896230990405      -0.280077572935     0.0990552634597     0.184716166028      
5200000000.0        0.101243183276      0.187766959478      0.893856672327      -0.285008607451     0.893856672327      -0.285008607451     0.101243183276      0.187766959478      
5300000000.0        0.103462664909      0.190787410453      0.891447089819      -0.289909869115     0.891447089819      -0.289909869115     0.103462664909      0.190787410453      
5400000000.0        0.10571320341       0.193777169807      0.889002741335      -0.294781017759     0.889002741335      -0.294781017759     0.10571320341       0.193777169807      
5500000000.0        0.107994289531      0.196735898903      0.886524129516      -0.299621723691     0.886524129516      -0.299621723691     0.107994289531      0.196735898903      
5600000000.0        0.110305410013      0.199663269638      0.884011760899      -0.304431667719     0.884011760899      -0.304431667719     0.110305410013      0.199663269638      
5700000000.0        0.112646047865      0.202558964464      0.881466145636      -0.309210541175     0.881466145636      -0.309210541175     0.112646047865      0.202558964464      
5800000000.0        0.115015682653      0.205422676397      0.87888779721       -0.313958045924     0.87888779721       -0.313958045924     0.115015682653      0.205422676397      
5900000000.0        0.117413790768      0.208254109023      0.87627723216       -0.318673894369     0.87627723216       -0.318673894369     0.117413790768      0.208254109023      
6000000000.0        0.119839845706      0.211052976498      0.873634969809      -0.32335780945      0.873634969809      -0.32335780945      0.119839845706      0.211052976498      
6100000000.0        0.122293318329      0.213819003536      0.870961531992      -0.328009524637     0.870961531992      -0.328009524637     0.122293318329      0.213819003536      
6200000000.0        0.124773677139      0.216551925396      0.868257442795      -0.332628783915     0.868257442795      -0.332628783915     0.124773677139      0.216551925396      
6300000000.0        0.127280388528      0.219251487859      0.865523228291      -0.337215341758     0.865523228291      -0.337215341758     0.127280388528      0.219251487859      
6400000000.0        0.129812917043      0.221917447198      0.862759416286      -0.341768963107     0.862759416286      -0.341768963107     0.129812917043      0.221917447198      
6500000000.0        0.132370725637      0.224549570149      0.859966536062      -0.346289423333     0.859966536062      -0.346289423333     0.132370725637      0.224549570149      
6600000000.0        0.134953275915      0.227147633865      0.857145118131      -0.350776508199     0.857145118131      -0.350776508199     0.134953275915      0.227147633865      
6700000000.0        0.13756002838       0.229711425872      0.85429569399       -0.355230013809     0.85429569399       -0.355230013809     0.13756002838       0.229711425872      
6800000000.0        0.140190442675      0.232240744018      0.851418795879      -0.359649746564     0.851418795879      -0.359649746564     0.140190442675      0.232240744018      
6900000000.0        0.142843977818      0.234735396416      0.848514956545      -0.364035523098     0.848514956545      -0.364035523098     0.142843977818      0.234735396416      
7000000000.0        0.145520092433      0.237195201378      0.84558470901       -0.36838717022      0.84558470901       -0.36838717022      0.145520092433      0.237195201378      
7100000000.0        0.14821824498       0.23961998735       0.842628586341      -0.372704524844     0.842628586341      -0.372704524844     0.14821824498       0.23961998735       
7200000000.0        0.150937893977      0.242009592838      0.83964712143       -0.376987433918     0.83964712143       -0.376987433918     0.150937893977      0.242009592838      
7300000000.0        0.153678498217      0.244363866332      0.836640846773      -0.381235754345     0.836640846773      -0.381235754345     0.153678498217      0.244363866332      
7400000000.0        0.156439516987      0.246682666221      0.833610294253      -0.3854493529       0.833610294253      -0.3854493529       0.156439516987      0.246682666221      
7500000000.0        0.159220410274      0.248965860705      0.830555994933      -0.389628106146     0.830555994933      -0.389628106146     0.159220410274      0.248965860705      
7600000000.0        0.162020638972      0.25121332771       0.827478478849      -0.393771900341     0.827478478849      -0.393771900341     0.162020638972      0.25121332771       
7700000000.0        0.164839665082      0.253424954784      0.824378274807      -0.397880631342     0.824378274807      -0.397880631342     0.164839665082      0.253424954784      
7800000000.0        0.167676951911      0.255600639003      0.821255910191      -0.401954204507     0.821255910191      -0.401954204507     0.167676951911      0.255600639003      
7900000000.0        0.170531964259      0.257740286866      0.818111910765      -0.40599253459      0.818111910765      -0.40599253459      0.170531964259      0.257740286866      
8000000000.0        0.173404168608      0.25984381419       0.814946800494      -0.409995545636     0.814946800494      -0.409995545636     0.173404168608      0.25984381419       
8100000000.0        0.176293033305      0.261911145993      0.811761101351      -0.41396317087      0.811761101351      -0.41396317087      0.176293033305      0.261911145993      
8200000000.0        0.179198028737      0.26394221639       0.808555333149      -0.417895352582     0.808555333149      -0.417895352582     0.179198028737      0.26394221639       
8300000000.0        0.182118627506      0.265936968467      0.805330013364      -0.421792042013     0.805330013364      -0.421792042013     0.182118627506      0.265936968467      
8400000000.0        0.185054304594      0.267895354165      0.802085656965      -0.42565319923      0.802085656965      -0.42565319923      0.185054304594      0.267895354165      
8500000000.0        0.188004537527      0.269817334158      0.798822776255      -0.429478793009     0.798822776255      -0.429478793009     0.188004537527      0.269817334158      
8600000000.0        0.190968806536      0.271702877724      0.795541880709      -0.433268800704     0.795541880709      -0.433268800704     0.190968806536      0.271702877724      
8700000000.0        0.193946594705      0.273551962621      0.792243476822      -0.437023208126     0.792243476822      -0.437023208126     0.193946594705      0.273551962621      
8800000000.0        0.196937388121      0.275364574954      0.788928067959      -0.440742009403     0.788928067959      -0.440742009403     0.196937388121      0.275364574954      
8900000000.0        0.199940676021      0.277140709043      0.785596154214      -0.444425206856     0.785596154214      -0.444425206856     0.199940676021      0.277140709043      
9000000000.0        0.202955950925      0.278880367288      0.782248232266      -0.448072810861     0.782248232266      -0.448072810861     0.202955950925      0.278880367288      
9100000000.0        0.205982708777      0.280583560033      0.778884795248      -0.451684839713     0.778884795248      -0.451684839713     0.205982708777      0.280583560033      
9200000000.0        0.209020449066      0.282250305429      0.775506332618      -0.455261319486     0.775506332618      -0.455261319486     0.209020449066      0.282250305429      
9300000000.0        0.212068674958      0.283880629291      0.77211333003       -0.458802283897     0.77211333003       -0.458802283897     0.212068674958      0.283880629291      
9400000000.0        0.215126893409      0.28547456496       0.768706269217      -0.462307774159     0.768706269217      -0.462307774159     0.215126893409      0.28547456496       
9500000000.0        0.218194615286      0.28703215316       0.765285627877      -0.465777838847     0.765285627877      -0.465777838847     0.218194615286      0.28703215316       
9600000000.0        0.221271355473      0.288553441852      0.761851879557      -0.469212533745     0.761851879557      -0.469212533745     0.221271355473      0.288553441852      
9700000000.0        0.224356632978      0.290038486092      0.758405493552      -0.472611921709     0.758405493552      -0.472611921709     0.224356632978      0.290038486092      
9800000000.0        0.227449971034      0.291487347884      0.7549469348        -0.475976072515     0.7549469348        -0.475976072515     0.227449971034      0.291487347884      
9900000000.0        0.230550897196      0.292900096036      0.751476663789      -0.47930506272      0.751476663789      -0.47930506272      0.230550897196      0.292900096036      
10000000000.0       0.233658943431      0.294276806009      0.747995136458      -0.482598975508     0.747995136458      -0.482598975508     0.233658943431      0.294276806009      
