# Hz S RI R 50.00 
100000000.0         0.000668604239631   0.000335369511908   0.999329752642      -0.000872765956877  0.999329752642      -0.000872765956877  0.000668604239631   0.000335369511908   
200000000.0         0.000673703100274   0.000670727624324   0.999323721784      -0.00174552820674   0.999323721784      -0.00174552820674   0.000673703100274   0.000670727624324   
300000000.0         0.000678208567861   0.00100607768616    0.999317995414      -0.00261829426551   0.999317995414      -0.00261829426551   0.000678208567861   0.00100607768616    
400000000.0         0.000682700983174   0.00134142024329    0.999311993159      -0.00349106785534   0.999311993159      -0.00349106785534   0.000682700983174   0.00134142024329    
500000000.0         0.000687403756647   0.00167675520567    0.999305491573      -0.00436385155757   0.999305491573      -0.00436385155757   0.000687403756647   0.00167675520567    
600000000.0         0.000692430781547   0.00201208221188    0.99929837672       -0.00523664734989   0.99929837672       -0.00523664734989   0.000692430781548   0.00201208221188    
700000000.0         0.000697849311628   0.00234740075956    0.999290581303      -0.00610945682475   0.999290581303      -0.00610945682475   0.000697849311628   0.00234740075956    
800000000.0         0.00070370290338    0.00268271026551    0.999282061716      -0.00698228130224   0.999282061716      -0.00698228130224   0.00070370290338    0.00268271026551    
900000000.0         0.0007100216283     0.00301801009759    0.999272787835      -0.00785512189702   0.999272787835      -0.00785512189702   0.000710021628299   0.00301801009759    
1000000000.0        0.000716827247861   0.00335329959328    0.999262737843      -0.00872797956177   0.999262737843      -0.00872797956177   0.000716827247861   0.00335329959328    
1100000000.0        0.000724136089389   0.00368857807139    0.999251895356      -0.00960085511705   0.999251895356      -0.00960085511705   0.000724136089389   0.00368857807139    
1200000000.0        0.000731960759276   0.00402384483963    0.999240247705      -0.0104737492731    0.999240247705      -0.0104737492731    0.000731960759276   0.00402384483963    
1300000000.0        0.000740311220484   0.00435909919987    0.999227784864      -0.011346662646     0.999227784864      -0.011346662646     0.000740311220484   0.00435909919987    
1400000000.0        0.000749195500633   0.00469434045163    0.99921449874       -0.0122195957705    0.99921449874       -0.0122195957705    0.000749195500633   0.00469434045163    
1500000000.0        0.000758620174308   0.00502956789482    0.99920038269       -0.0130925491101    0.99920038269       -0.0130925491101    0.000758620174308   0.00502956789482    
1600000000.0        0.000768590701739   0.00536478083154    0.999185431183      -0.0139655230647    0.999185431183      -0.0139655230647    0.000768590701739   0.00536478083154    
1700000000.0        0.000779111672772   0.00569997856752    0.999169639559      -0.014838517978     0.999169639559      -0.014838517978     0.000779111672772   0.00569997856752    
1800000000.0        0.000790186986572   0.00603516041316    0.999153003842      -0.0157115341423    0.999153003842      -0.0157115341423    0.000790186986572   0.00603516041316    
1900000000.0        0.000801819986586   0.00637032568427    0.999135520614      -0.0165845718039    0.999135520614      -0.0165845718039    0.000801819986586   0.00637032568427    
2000000000.0        0.000814013563615   0.00670547370266    0.999117186907      -0.0174576311666    0.999117186907      -0.0174576311666    0.000814013563615   0.00670547370266    
2100000000.0        0.000826770235734   0.00704060379654    0.999098000124      -0.0183307123958    0.999098000124      -0.0183307123958    0.000826770235734   0.00704060379654    
2200000000.0        0.00084009221111    0.00737571530091    0.999077957975      -0.0192038156208    0.999077957975      -0.0192038156208    0.00084009221111    0.00737571530091    
2300000000.0        0.00085398143796    0.00771080755771    0.99905705843       -0.0200769409381    0.99905705843       -0.0200769409381    0.00085398143796    0.00771080755771    
2400000000.0        0.000868439644724   0.00804587991604    0.999035299678      -0.0209500884134    0.999035299678      -0.0209500884134    0.000868439644725   0.00804587991604    
2500000000.0        0.000883468372699   0.00838093173217    0.999012680092      -0.0218232580838    0.999012680092      -0.0218232580838    0.000883468372699   0.00838093173217    
2600000000.0        0.000899069002766   0.00871596236972    0.998989198206      -0.0226964499596    0.998989198206      -0.0226964499596    0.000899069002766   0.00871596236972    
2700000000.0        0.000915242777492   0.00905097119963    0.99896485269       -0.0235696640262    0.99896485269       -0.0235696640262    0.000915242777493   0.00905097119963    
2800000000.0        0.000931990819519   0.00938595760016    0.998939642333      -0.0244429002454    0.998939642333      -0.0244429002454    0.000931990819519   0.00938595760016    
2900000000.0        0.000949314146988   0.00972092095684    0.998913566027      -0.025316158557     0.998913566027      -0.025316158557     0.000949314146988   0.00972092095684    
3000000000.0        0.00096721368655    0.0100558606625     0.998886622757      -0.0261894388795    0.998886622757      -0.0261894388795    0.00096721368655    0.0100558606625     
3100000000.0        0.00098569028442    0.0103907761172     0.998858811585      -0.0270627411122    0.998858811585      -0.0270627411122    0.00098569028442    0.0103907761172     
3200000000.0        0.00100474471581    0.0107256667281     0.998830131644      -0.0279360651353    0.998830131644      -0.0279360651353    0.00100474471581    0.0107256667281     
3300000000.0        0.001024377693      0.0110605319095     0.998800582128      -0.0288094108116    0.998800582128      -0.0288094108116    0.001024377693      0.0110605319095     
3400000000.0        0.00104458987238    0.0113953710827     0.998770162288      -0.0296827779867    0.998770162288      -0.0296827779867    0.00104458987238    0.0113953710827     
3500000000.0        0.00106538186042    0.0117301836758     0.998738871423      -0.0305561664904    0.998738871423      -0.0305561664904    0.00106538186042    0.0117301836758     
3600000000.0        0.00108675421899    0.0120649691238     0.998706708876      -0.0314295761374    0.998706708876      -0.0314295761374    0.00108675421899    0.0120649691238     
3700000000.0        0.00110870746995    0.0123997268686     0.99867367403       -0.0323030067276    0.99867367403       -0.0323030067276    0.00110870746995    0.0123997268686     
3800000000.0        0.00113124209916    0.0127344563584     0.998639766303      -0.0331764580471    0.998639766303      -0.0331764580471    0.00113124209916    0.0127344563584     
3900000000.0        0.00115435856005    0.0130691570483     0.998604985145      -0.034049929869     0.998604985145      -0.034049929869     0.00115435856005    0.0130691570483     
4000000000.0        0.00117805727674    0.0134038283996     0.998569330034      -0.0349234219532    0.998569330034      -0.0349234219532    0.00117805727674    0.0134038283996     
4100000000.0        0.00120233864683    0.0137384698801     0.998532800475      -0.0357969340479    0.998532800475      -0.0357969340479    0.00120233864683    0.0137384698801     
4200000000.0        0.00122720304387    0.0140730809637     0.998495395997      -0.0366704658896    0.998495395997      -0.0366704658896    0.00122720304387    0.0140730809637     
4300000000.0        0.00125265081954    0.0144076611305     0.998457116149      -0.0375440172034    0.998457116149      -0.0375440172034    0.00125265081954    0.0144076611305     
4400000000.0        0.00127868230566    0.0147422098669     0.9984179605        -0.038417587704     0.9984179605        -0.038417587704     0.00127868230566    0.0147422098669     
4500000000.0        0.0013052978159     0.0150767266648     0.998377928638      -0.0392911770955    0.998377928638      -0.0392911770955    0.0013052978159     0.0150767266648     
4600000000.0        0.0013324976474     0.0154112110224     0.998337020165      -0.0401647850723    0.998337020165      -0.0401647850723    0.0013324976474     0.0154112110224     
4700000000.0        0.00136028208218    0.0157456624434     0.9982952347        -0.0410384113193    0.9982952347        -0.0410384113193    0.00136028208218    0.0157456624434     
4800000000.0        0.00138865138845    0.0160800804372     0.998252571875      -0.0419120555121    0.998252571875      -0.0419120555121    0.00138865138844    0.0160800804372     
4900000000.0        0.00141760582174    0.0164144645188     0.998209031333      -0.0427857173176    0.998209031333      -0.0427857173176    0.00141760582174    0.0164144645188     
5000000000.0        0.00144714562601    0.0167488142088     0.99816461273       -0.043659396394     0.99816461273       -0.043659396394     0.00144714562601    0.0167488142088     
5100000000.0        0.00147727103455    0.0170831290329     0.998119315731      -0.0445330923914    0.998119315731      -0.0445330923914    0.00147727103455    0.0170831290329     
5200000000.0        0.00150798227089    0.0174174085224     0.998073140013      -0.0454068049521    0.998073140013      -0.0454068049521    0.00150798227089    0.0174174085224     
5300000000.0        0.00153927954961    0.0177516522136     0.998026085259      -0.0462805337106    0.998026085259      -0.0462805337106    0.00153927954961    0.0177516522136     
5400000000.0        0.00157116307702    0.0180858596481     0.997978151163      -0.0471542782939    0.997978151163      -0.0471542782939    0.00157116307702    0.0180858596481     
5500000000.0        0.00160363305188    0.0184200303722     0.997929337424      -0.0480280383221    0.997929337424      -0.0480280383221    0.00160363305188    0.0184200303722     
5600000000.0        0.00163668966597    0.0187541639376     0.997879643749      -0.0489018134082    0.997879643749      -0.0489018134082    0.00163668966597    0.0187541639376     
5700000000.0        0.00167033310471    0.0190882599005     0.997829069851      -0.0497756031586    0.997829069851      -0.0497756031586    0.00167033310471    0.0190882599005     
5800000000.0        0.00170456354759    0.019422317822      0.997777615449      -0.0506494071732    0.997777615449      -0.0506494071732    0.00170456354759    0.019422317822      
5900000000.0        0.00173938116873    0.0197563372679     0.997725280268      -0.0515232250455    0.997725280268      -0.0515232250455    0.00173938116873    0.0197563372679     
6000000000.0        0.00177478613726    0.0200903178087     0.997672064038      -0.0523970563633    0.997672064038      -0.0523970563633    0.00177478613726    0.0200903178087     
6100000000.0        0.00181077861778    0.0204242590192     0.997617966492      -0.0532709007079    0.997617966492      -0.0532709007079    0.00181077861778    0.0204242590192     
6200000000.0        0.00184735877066    0.020758160479      0.997562987369      -0.0541447576555    0.997562987369      -0.0541447576555    0.00184735877066    0.020758160479      
6300000000.0        0.00188452675249    0.0210920217717     0.997507126411      -0.0550186267764    0.997507126411      -0.0550186267764    0.00188452675249    0.0210920217717     
6400000000.0        0.0019222827163     0.0214258424854     0.997450383364      -0.0558925076355    0.997450383364      -0.0558925076355    0.0019222827163     0.0214258424854     
6500000000.0        0.00196062681195    0.0217596222125     0.997392757976      -0.0567663997926    0.997392757976      -0.0567663997926    0.00196062681195    0.0217596222125     
6600000000.0        0.00199955918632    0.0220933605495     0.997334250002      -0.0576403028025    0.997334250002      -0.0576403028025    0.00199955918632    0.0220933605495     
6700000000.0        0.00203907998366    0.022427057097      0.997274859194      -0.0585142162148    0.997274859194      -0.0585142162148    0.00203907998366    0.022427057097      
6800000000.0        0.00207918934576    0.0227607114594     0.997214585312      -0.0593881395745    0.997214585312      -0.0593881395745    0.00207918934576    0.0227607114594     
6900000000.0        0.00211988741223    0.0230943232454     0.997153428115      -0.0602620724219    0.997153428115      -0.0602620724219    0.00211988741223    0.0230943232454     
7000000000.0        0.00216117432065    0.0234278920674     0.997091387366      -0.0611360142926    0.997091387366      -0.0611360142926    0.00216117432065    0.0234278920674     
7100000000.0        0.00220305020684    0.0237614175415     0.997028462828      -0.0620099647181    0.997028462828      -0.0620099647181    0.00220305020684    0.0237614175415     
7200000000.0        0.002245515205      0.0240948992879     0.996964654268      -0.0628839232254    0.996964654268      -0.0628839232254    0.002245515205      0.0240948992879     
7300000000.0        0.00228856944788    0.0244283369301     0.996899961454      -0.0637578893371    0.996899961454      -0.0637578893371    0.00228856944788    0.0244283369301     
7400000000.0        0.00233221306697    0.0247617300954     0.996834384155      -0.0646318625721    0.996834384155      -0.0646318625721    0.00233221306697    0.0247617300954     
7500000000.0        0.00237644619262    0.0250950784146     0.996767922141      -0.0655058424451    0.996767922141      -0.0655058424451    0.00237644619262    0.0250950784146     
7600000000.0        0.00242126895423    0.0254283815222     0.996700575185      -0.066379828467     0.996700575185      -0.066379828467     0.00242126895423    0.0254283815222     
7700000000.0        0.00246668148033    0.0257616390558     0.99663234306       -0.0672538201447    0.99663234306       -0.0672538201447    0.00246668148033    0.0257616390558     
7800000000.0        0.00251268389875    0.0260948506566     0.996563225539      -0.0681278169816    0.996563225539      -0.0681278169816    0.00251268389875    0.0260948506566     
7900000000.0        0.00255927633671    0.026428015969      0.996493222398      -0.0690018184776    0.996493222398      -0.0690018184776    0.00255927633671    0.026428015969      
8000000000.0        0.00260645892097    0.0267611346408     0.996422333413      -0.0698758241288    0.996422333413      -0.0698758241288    0.00260645892097    0.0267611346408     
8100000000.0        0.0026542317779     0.0270942063228     0.996350558361      -0.070749833428     0.996350558361      -0.070749833428     0.0026542317779     0.0270942063228     
8200000000.0        0.00270259503359    0.0274272306692     0.996277897017      -0.0716238458645    0.996277897017      -0.0716238458645    0.00270259503359    0.0274272306692     
8300000000.0        0.00275154881396    0.0277602073371     0.996204349161      -0.0724978609246    0.996204349161      -0.0724978609246    0.00275154881396    0.0277602073371     
8400000000.0        0.00280109324485    0.0280931359867     0.996129914571      -0.073371878091     0.996129914571      -0.073371878091     0.00280109324484    0.0280931359867     
8500000000.0        0.00285122845206    0.0284260162811     0.996054593025      -0.0742458968435    0.996054593025      -0.0742458968435    0.00285122845206    0.0284260162811     
8600000000.0        0.00290195456152    0.0287588478865     0.995978384302      -0.0751199166588    0.995978384302      -0.0751199166588    0.00290195456152    0.0287588478865     
8700000000.0        0.00295327169927    0.0290916304718     0.995901288181      -0.0759939370104    0.995901288181      -0.0759939370104    0.00295327169927    0.0290916304718     
8800000000.0        0.0030051799916     0.0294243637088     0.995823304442      -0.0768679573691    0.995823304442      -0.0768679573691    0.0030051799916     0.0294243637088     
8900000000.0        0.0030576795651     0.0297570472722     0.995744432864      -0.0777419772026    0.995744432864      -0.0777419772026    0.0030576795651     0.0297570472722     
9000000000.0        0.00311077054671    0.0300896808392     0.995664673226      -0.0786159959757    0.995664673226      -0.0786159959757    0.0031107705467     0.0300896808392     
9100000000.0        0.00316445306379    0.0304222640897     0.99558402531       -0.0794900131507    0.99558402531       -0.0794900131507    0.00316445306379    0.0304222640897     
9200000000.0        0.00321872724421    0.0307547967065     0.995502488893      -0.0803640281869    0.995502488893      -0.0803640281869    0.00321872724421    0.0307547967065     
9300000000.0        0.00327359321637    0.0310872783748     0.995420063757      -0.0812380405411    0.995420063757      -0.0812380405411    0.00327359321637    0.0310872783748     
9400000000.0        0.00332905110925    0.0314197087822     0.995336749679      -0.0821120496672    0.995336749679      -0.0821120496672    0.00332905110925    0.0314197087822     
9500000000.0        0.00338510105251    0.0317520876189     0.995252546439      -0.0829860550168    0.995252546439      -0.0829860550168    0.00338510105251    0.0317520876189     
9600000000.0        0.00344174317647    0.0320844145777     0.995167453818      -0.0838600560388    0.995167453818      -0.0838600560388    0.00344174317647    0.0320844145777     
9700000000.0        0.00349897761222    0.0324166893536     0.995081471592      -0.0847340521797    0.995081471592      -0.0847340521797    0.00349897761222    0.0324166893536     
9800000000.0        0.00355680449163    0.0327489116439     0.994994599541      -0.0856080428833    0.994994599541      -0.0856080428833    0.00355680449163    0.0327489116439     
9900000000.0        0.0036152239474     0.0330810811485     0.994906837444      -0.0864820275913    0.994906837444      -0.0864820275913    0.0036152239474     0.0330810811485     
10000000000.0       0.0036742361131     0.0334131975693     0.994818185078      -0.0873560057428    0.994818185078      -0.0873560057428    0.0036742361131     0.0334131975693     
