# Hz S RI R 50.00 
100000000.0         4.55483175867e-05   -0.00307682697342   0.999925964817      -0.00342195028197   0.999925964817      -0.00342195028197   4.55483175867e-05   -0.00307682697342   
200000000.0         1.1181543653e-05    -0.00615353612119   0.999890608771      -0.00684379873194   0.999890608771      -0.00684379873194   1.11815436532e-05   -0.00615353612119   
300000000.0         -4.43468445548e-05  -0.00922998867886   0.99983417928       -0.0102654154604    0.99983417928       -0.0102654154604    -4.43468445547e-05  -0.00922998867886   
400000000.0         -0.000120983589468  -0.0123060306625    0.999756626504      -0.013686653312     0.999756626504      -0.013686653312     -0.000120983589468  -0.0123060306625    
500000000.0         -0.000218705668848  -0.0153815002458    0.999657933876      -0.0171073562979    0.999657933876      -0.0171073562979    -0.000218705668848  -0.0153815002458    
600000000.0         -0.000337498103136  -0.0184562303934    0.999538096235      -0.02052736258      0.999538096235      -0.02052736258      -0.000337498103137  -0.0184562303934    
700000000.0         -0.000477348250772  -0.0215300502251    0.99939711434       -0.0239465060099    0.99939711434       -0.0239465060099    -0.000477348250772  -0.0215300502251    
800000000.0         -0.000638243683379  -0.024602785851     0.999234992928      -0.0273646170689    0.999234992928      -0.0273646170689    -0.000638243683379  -0.024602785851     
900000000.0         -0.000820171209569  -0.0276742609365    0.999051739872      -0.0307815235009    0.999051739872      -0.0307815235009    -0.000820171209569  -0.0276742609365    
1000000000.0        -0.00102311635764   -0.0307442971123    0.998847365787      -0.0341970507702    0.998847365787      -0.0341970507702    -0.00102311635764   -0.0307442971123    
1100000000.0        -0.00124706307102   -0.0338127142884    0.998621883826      -0.0376110224107    0.998621883826      -0.0376110224107    -0.00124706307102   -0.0338127142884    
1200000000.0        -0.00149199351364   -0.0368793309048    0.998375309567      -0.041023260303     0.998375309567      -0.041023260303     -0.00149199351364   -0.0368793309048    
1300000000.0        -0.00175788793708   -0.0399439641382    0.998107660962      -0.0444335849027    0.998107660962      -0.0444335849027    -0.00175788793708   -0.0399439641382    
1400000000.0        -0.00204472458506   -0.0430064300767    0.997818958307      -0.047841815432     0.997818958307      -0.047841815432     -0.00204472458506   -0.0430064300767    
1500000000.0        -0.00235247962175   -0.0460665438718    0.997509224225      -0.0512477700451    0.997509224225      -0.0512477700451    -0.00235247962175   -0.0460665438718    
1600000000.0        -0.00268112707637   -0.0491241198728    0.997178483665      -0.0546512659749    0.997178483665      -0.0546512659749    -0.00268112707637   -0.0491241198728    
1700000000.0        -0.00303063879903   -0.0521789717469    0.996826763905      -0.0580521196619    0.996826763905      -0.0580521196619    -0.00303063879903   -0.0521789717469    
1800000000.0        -0.00340098442508   -0.0552309125886    0.996454094552      -0.0614501468735    0.996454094552      -0.0614501468735    -0.00340098442508   -0.0552309125886    
1900000000.0        -0.00379213134596   -0.0582797550211    0.996060507552      -0.0648451628115    0.996060507552      -0.0648451628115    -0.00379213134596   -0.0582797550211    
2000000000.0        -0.00420404468512   -0.0613253112901    0.995646037193      -0.0682369822126    0.995646037193      -0.0682369822126    -0.00420404468512   -0.0613253112901    
2100000000.0        -0.00463668727807   -0.0643673933515    0.995210720113      -0.0716254194419    0.995210720113      -0.0716254194419    -0.00463668727807   -0.0643673933515    
2200000000.0        -0.00509001965614   -0.0674058129551    0.994754595305      -0.0750102885815    0.994754595305      -0.0750102885815    -0.00509001965614   -0.0674058129551    
2300000000.0        -0.00556400003313   -0.0704403817234    0.994277704121      -0.0783914035135    0.994277704121      -0.0783914035135    -0.00556400003313   -0.0704403817234    
2400000000.0        -0.00605858429465   -0.0734709112268    0.993780090276      -0.0817685780001    0.993780090276      -0.0817685780001    -0.00605858429465   -0.0734709112268    
2500000000.0        -0.00657372598984   -0.0764972130566    0.993261799852      -0.0851416257592    0.993261799852      -0.0851416257592    -0.00657372598984   -0.0764972130566    
2600000000.0        -0.00710937632541   -0.0795190988945    0.992722881297      -0.0885103605379    0.992722881297      -0.0885103605379    -0.00710937632541   -0.0795190988945    
2700000000.0        -0.00766548416138   -0.0825363805799    0.992163385429      -0.0918745961824    0.992163385429      -0.0918745961824    -0.00766548416138   -0.0825363805799    
2800000000.0        -0.00824199600902   -0.0855488701758    0.991583365431      -0.0952341467072    0.991583365431      -0.0952341467072    -0.00824199600902   -0.0855488701758    
2900000000.0        -0.00883885603017   -0.0885563800313    0.990982876853      -0.0985888263598    0.990982876853      -0.0985888263598    -0.00883885603017   -0.0885563800313    
3000000000.0        -0.00945600603852   -0.0915587228443    0.990361977603      -0.101938449686     0.990361977603      -0.101938449686     -0.00945600603852   -0.0915587228443    
3100000000.0        -0.0100933855022    -0.0945557117209    0.989720727949      -0.105282831591     0.989720727949      -0.105282831591     -0.0100933855022    -0.0945557117209    
3200000000.0        -0.010750931548     -0.0975471602348    0.989059190511      -0.108621787401     0.989059190511      -0.108621787401     -0.010750931548     -0.0975471602348    
3300000000.0        -0.011428578967     -0.100532882484     0.98837743025       -0.111955132924     0.98837743025       -0.111955132924     -0.011428578967     -0.100532882484     
3400000000.0        -0.0121262602214    -0.103512693147     0.987675514467      -0.115282684503     0.987675514467      -0.115282684503     -0.0121262602214    -0.103512693147     
3500000000.0        -0.0128439054529    -0.106486407537     0.986953512788      -0.118604259078     0.986953512788      -0.118604259078     -0.0128439054529    -0.106486407537     
3600000000.0        -0.0135814424923    -0.10945384166      0.986211497155      -0.121919674239     0.986211497155      -0.121919674239     -0.0135814424923    -0.10945384166      
3700000000.0        -0.0143387968701    -0.112414812259     0.985449541818      -0.125228748278     0.985449541818      -0.125228748278     -0.0143387968701    -0.112414812259     
3800000000.0        -0.0151158918285    -0.115369136874     0.984667723316      -0.128531300246     0.984667723316      -0.128531300246     -0.0151158918285    -0.115369136874     
3900000000.0        -0.0159126483347    -0.118316633888     0.98386612047       -0.131827150002     0.98386612047       -0.131827150002     -0.0159126483347    -0.118316633888     
4000000000.0        -0.0167289850949    -0.121257122578     0.983044814363      -0.135116118267     0.983044814363      -0.135116118267     -0.0167289850949    -0.121257122578     
4100000000.0        -0.0175648185699    -0.124190423164     0.982203888328      -0.138398026668     0.982203888328      -0.138398026668     -0.0175648185699    -0.124190423164     
4200000000.0        -0.018420062991     -0.127116356853     0.981343427929      -0.141672697794     0.981343427929      -0.141672697794     -0.018420062991     -0.127116356853     
4300000000.0        -0.019294630378     -0.130034745893     0.980463520943      -0.14493995524      0.980463520943      -0.14493995524      -0.019294630378     -0.130034745893     
4400000000.0        -0.0201884305573    -0.132945413612     0.979564257343      -0.148199623653     0.979564257343      -0.148199623653     -0.0201884305573    -0.132945413612     
4500000000.0        -0.0211013711812    -0.135848184466     0.978645729279      -0.151451528779     0.978645729279      -0.151451528779     -0.0211013711812    -0.135848184466     
4600000000.0        -0.0220333577484    -0.138742884084     0.977708031054      -0.154695497511     0.977708031054      -0.154695497511     -0.0220333577484    -0.138742884084     
4700000000.0        -0.0229842936251    -0.141629339308     0.976751259104      -0.157931357927     0.976751259104      -0.157931357927     -0.0229842936251    -0.141629339308     
4800000000.0        -0.0239540800672    -0.144507378239     0.975775511979      -0.161158939339     0.975775511979      -0.161158939339     -0.0239540800672    -0.144507378239     
4900000000.0        -0.0249426162434    -0.147376830273     0.974780890316      -0.16437807233      0.974780890316      -0.16437807233      -0.0249426162434    -0.147376830273     
5000000000.0        -0.0259497992587    -0.150237526148     0.973767496814      -0.167588588801     0.973767496814      -0.167588588801     -0.0259497992587    -0.150237526148     
5100000000.0        -0.0269755241794    -0.153089297979     0.972735436215      -0.170790322006     0.972735436215      -0.170790322006     -0.0269755241794    -0.153089297979     
5200000000.0        -0.0280196840582    -0.155931979299     0.971684815273      -0.173983106594     0.971684815273      -0.173983106594     -0.0280196840582    -0.155931979299     
5300000000.0        -0.0290821699606    -0.158765405095     0.970615742728      -0.177166778648     0.970615742728      -0.177166778648     -0.0290821699606    -0.158765405095     
5400000000.0        -0.0301628709918    -0.161589411845     0.969528329283      -0.18034117572      0.969528329283      -0.18034117572      -0.0301628709918    -0.161589411845     
5500000000.0        -0.0312616743242    -0.164403837556     0.968422687574      -0.183506136871     0.968422687574      -0.183506136871     -0.0312616743242    -0.164403837556     
5600000000.0        -0.0323784652258    -0.167208521798     0.96729893214       -0.186661502706     0.96729893214       -0.186661502706     -0.0323784652258    -0.167208521798     
5700000000.0        -0.0335131270892    -0.170003305738     0.966157179395      -0.189807115405     0.966157179395      -0.189807115405     -0.0335131270892    -0.170003305738     
5800000000.0        -0.0346655414611    -0.172788032174     0.964997547601      -0.192942818762     0.964997547601      -0.192942818762     -0.0346655414611    -0.172788032174     
5900000000.0        -0.0358355880728    -0.175562545565     0.963820156833      -0.196068458217     0.963820156833      -0.196068458217     -0.0358355880728    -0.175562545565     
6000000000.0        -0.0370231448704    -0.178326692067     0.962625128952      -0.199183880885     0.962625128952      -0.199183880885     -0.0370231448704    -0.178326692067     
6100000000.0        -0.0382280880471    -0.18108031956      0.961412587572      -0.20228893559      0.961412587572      -0.20228893559      -0.0382280880471    -0.18108031956      
6200000000.0        -0.0394502920743    -0.183823277677     0.960182658029      -0.205383472895     0.960182658029      -0.205383472895     -0.0394502920743    -0.183823277677     
6300000000.0        -0.0406896297344    -0.18655541784      0.958935467345      -0.208467345131     0.958935467345      -0.208467345131     -0.0406896297344    -0.18655541784      
6400000000.0        -0.0419459721537    -0.189276593276     0.957671144201      -0.211540406424     0.957671144201      -0.211540406424     -0.0419459721537    -0.189276593276     
6500000000.0        -0.0432191888357    -0.191986659057     0.956389818898      -0.214602512725     0.956389818898      -0.214602512725     -0.0432191888357    -0.191986659057     
6600000000.0        -0.0445091476951    -0.194685472116     0.955091623327      -0.217653521837     0.955091623327      -0.217653521837     -0.0445091476951    -0.194685472116     
6700000000.0        -0.045815715092     -0.197372891276     0.953776690933      -0.220693293434     0.953776690933      -0.220693293434     -0.045815715092     -0.197372891276     
6800000000.0        -0.0471387558663    -0.200048777277     0.952445156679      -0.223721689097     0.952445156679      -0.223721689097     -0.0471387558663    -0.200048777277     
6900000000.0        -0.0484781333731    -0.202712992795     0.951097157015      -0.226738572327     0.951097157015      -0.226738572327     -0.0484781333731    -0.202712992795     
7000000000.0        -0.0498337095181    -0.205365402467     0.949732829837      -0.229743808574     0.949732829837      -0.229743808574     -0.0498337095181    -0.205365402467     
7100000000.0        -0.0512053447928    -0.20800587291      0.948352314457      -0.232737265258     0.948352314457      -0.232737265258     -0.0512053447928    -0.20800587291      
7200000000.0        -0.0525928983113    -0.210634272747     0.946955751562      -0.23571881179      0.946955751562      -0.23571881179      -0.0525928983113    -0.210634272747     
7300000000.0        -0.0539962278459    -0.213250472621     0.945543283183      -0.23868831959      0.945543283183      -0.23868831959      -0.0539962278459    -0.213250472621     
7400000000.0        -0.0554151898639    -0.215854345217     0.944115052652      -0.241645662109     0.944115052652      -0.241645662109     -0.0554151898639    -0.215854345217     
7500000000.0        -0.0568496395646    -0.218445765279     0.942671204572      -0.244590714847     0.942671204572      -0.244590714847     -0.0568496395646    -0.218445765279     
7600000000.0        -0.0582994309162    -0.221024609628     0.941211884772      -0.247523355367     0.941211884772      -0.247523355367     -0.0582994309162    -0.221024609628     
7700000000.0        -0.0597644166928    -0.223590757176     0.939737240279      -0.250443463319     0.939737240279      -0.250443463319     -0.0597644166928    -0.223590757176     
7800000000.0        -0.0612444485121    -0.226144088946     0.938247419273      -0.253350920446     0.938247419273      -0.253350920446     -0.0612444485121    -0.226144088946     
7900000000.0        -0.0627393768727    -0.228684488081     0.936742571054      -0.256245610607     0.936742571054      -0.256245610607     -0.0627393768727    -0.228684488081     
8000000000.0        -0.0642490511919    -0.231211839859     0.935222846001      -0.259127419785     0.935222846001      -0.259127419785     -0.0642490511919    -0.231211839859     
8100000000.0        -0.0657733198436    -0.23372603171      0.933688395538      -0.261996236104     0.933688395538      -0.261996236104     -0.0657733198436    -0.23372603171      
8200000000.0        -0.0673120301957    -0.236226953222     0.932139372092      -0.26485194984      0.932139372092      -0.26485194984      -0.0673120301957    -0.236226953222     
8300000000.0        -0.0688650286487    -0.238714496154     0.930575929059      -0.267694453431     0.930575929059      -0.267694453431     -0.0688650286487    -0.238714496154     
8400000000.0        -0.070432160673     -0.241188554448     0.928998220762      -0.270523641487     0.928998220762      -0.270523641487     -0.070432160673     -0.241188554448     
8500000000.0        -0.0720132708474    -0.243649024235     0.927406402417      -0.273339410802     0.927406402417      -0.273339410802     -0.0720132708474    -0.243649024235     
8600000000.0        -0.0736082028971    -0.246095803848     0.925800630092      -0.27614166036      0.925800630092      -0.27614166036      -0.0736082028971    -0.246095803848     
8700000000.0        -0.0752167997313    -0.248528793822     0.924181060671      -0.278930291346     0.924181060671      -0.278930291346     -0.0752167997313    -0.248528793822     
8800000000.0        -0.0768389034816    -0.250947896909     0.922547851813      -0.281705207149     0.922547851813      -0.281705207149     -0.0768389034816    -0.250947896909     
8900000000.0        -0.0784743555397    -0.25335301808      0.920901161919      -0.284466313371     0.920901161919      -0.284466313371     -0.0784743555397    -0.25335301808      
9000000000.0        -0.0801229965956    -0.255744064527     0.919241150089      -0.287213517831     0.919241150089      -0.287213517831     -0.0801229965956    -0.255744064527     
9100000000.0        -0.0817846666749    -0.258120945676     0.917567976087      -0.289946730569     0.917567976087      -0.289946730569     -0.0817846666749    -0.258120945676     
9200000000.0        -0.0834592051767    -0.260483573179     0.915881800304      -0.292665863852     0.915881800304      -0.292665863852     -0.0834592051767    -0.260483573179     
9300000000.0        -0.0851464509113    -0.262831860926     0.914182783718      -0.295370832174     0.914182783718      -0.295370832174     -0.0851464509113    -0.262831860926     
9400000000.0        -0.0868462421377    -0.265165725044     0.912471087857      -0.298061552261     0.912471087857      -0.298061552261     -0.0868462421377    -0.265165725044     
9500000000.0        -0.0885584166002    -0.267485083897     0.910746874764      -0.300737943069     0.910746874764      -0.300737943069     -0.0885584166002    -0.267485083897     
9600000000.0        -0.0902828115665    -0.269789858085     0.909010306958      -0.303399925787     0.909010306958      -0.303399925787     -0.0902828115665    -0.269789858085     
9700000000.0        -0.0920192638639    -0.272079970449     0.907261547398      -0.306047423836     0.907261547398      -0.306047423836     -0.0920192638639    -0.272079970449     
9800000000.0        -0.0937676099162    -0.274355346064     0.905500759444      -0.308680362869     0.905500759444      -0.308680362869     -0.0937676099162    -0.274355346064     
9900000000.0        -0.0955276857804    -0.27661591224      0.903728106824      -0.311298670766     0.903728106824      -0.311298670766     -0.0955276857804    -0.27661591224      
10000000000.0       -0.0972993271829    -0.278861598521     0.901943753595      -0.313902277637     0.901943753595      -0.313902277637     -0.0972993271829    -0.278861598521     
