# Hz S RI R 50.00 
100000000.0         -0.000145563137484  -0.0124081444745    0.999809185075      -0.0125148128453    0.999809185075      -0.0125148128453    -0.000145563137484  -0.0124081444745    
200000000.0         -0.000623394237005  -0.0248037832089    0.99933102842       -0.0250171302319    0.99933102842       -0.0250171302319    -0.000623394237006  -0.0248037832089    
300000000.0         -0.00141063170644   -0.0371752131285    0.998543532015      -0.0374952544795    0.998543532015      -0.0374952544795    -0.00141063170644   -0.0371752131285    
400000000.0         -0.00250574177974   -0.0495108436983    0.997448190696      -0.049937599218     0.997448190696      -0.049937599218     -0.00250574177974   -0.0495108436983    
500000000.0         -0.00390662954404   -0.0617992154712    0.996047084452      -0.0623327085431    0.996047084452      -0.0623327085431    -0.00390662954404   -0.0617992154712    
600000000.0         -0.00561064171234   -0.0740290290414    0.994342858992      -0.0746692861795    0.994342858992      -0.0746692861795    -0.00561064171234   -0.0740290290414    
700000000.0         -0.00761457777178   -0.0861891759343    0.992338710368      -0.0869362264786    0.992338710368      -0.0869362264786    -0.00761457777178   -0.0861891759343    
800000000.0         -0.00991470468615   -0.0982687694929    0.990038368738      -0.0991226453682    0.990038368738      -0.0991226453682    -0.00991470468615   -0.0982687694929    
900000000.0         -0.0125067741846    -0.110257174968     0.987446080389      -0.111217910485     0.987446080389      -0.111217910485     -0.0125067741846    -0.110257174968     
1000000000.0        -0.0153860422709    -0.122144038369     0.984566587885      -0.123211670055     0.984566587885      -0.123211670055     -0.0153860422709    -0.122144038369     
1100000000.0        -0.0185472907223    -0.133919313778     0.981405108378      -0.135093880231     0.981405108378      -0.135093880231     -0.0185472907223    -0.133919313778     
1200000000.0        -0.0219848503817    -0.145573288919     0.977967310194      -0.146854830674     0.977967310194      -0.146854830674     -0.0219848503817    -0.145573288919     
1300000000.0        -0.025692626046     -0.157096608796     0.974259287884      -0.15848516821      0.974259287884      -0.15848516821      -0.025692626046     -0.157096608796     
1400000000.0        -0.0296641227557    -0.168480297287     0.970287535878      -0.169975918435     0.970287535878      -0.169975918435     -0.0296641227557    -0.168480297287     
1500000000.0        -0.0338924732842    -0.179715776588     0.966058920971      -0.181318505161     0.966058920971      -0.181318505161     -0.0338924732842    -0.179715776588     
1600000000.0        -0.0383704666195    -0.190794884415     0.961580653812      -0.192504767633     0.961580653812      -0.192504767633     -0.0383704666195    -0.190794884415     
1700000000.0        -0.0430905772354    -0.201709888939     0.956860259623      -0.203526975467     0.956860259623      -0.203526975467     -0.0430905772354    -0.201709888939     
1800000000.0        -0.0480449949444    -0.212453501406     0.951905548332      -0.214377841276     0.951905548332      -0.214377841276     -0.0480449949444    -0.212453501406     
1900000000.0        -0.0532256551297    -0.223018886451     0.94672458433       -0.22505053099      0.94672458433       -0.22505053099      -0.0532256551297    -0.223018886451     
2000000000.0        -0.0586242691578    -0.233399670106     0.941325656054      -0.235538671866     0.941325656054      -0.235538671866     -0.0586242691578    -0.233399670106     
2100000000.0        -0.0642323547797    -0.243589945546     0.935717245582      -0.245836358241     0.935717245582      -0.245836358241     -0.0642323547797    -0.243589945546     
2200000000.0        -0.070041266338     -0.253584276621     0.929907998417      -0.255938155065     0.929907998417      -0.255938155065     -0.070041266338     -0.253584276621     
2300000000.0        -0.0760422246033    -0.263377699235     0.923906693653      -0.265839099283     0.923906693653      -0.265839099283     -0.0760422246033    -0.263377699235     
2400000000.0        -0.082226346081     -0.272965720662     0.917722214661      -0.275534699156     0.917722214661      -0.275534699156     -0.082226346081     -0.272965720662     
2500000000.0        -0.0885846716333    -0.282344316886     0.911363520468      -0.285020931603     0.911363520468      -0.285020931603     -0.0885846716333    -0.282344316886     
2600000000.0        -0.095108194282     -0.291509928071     0.904839617951      -0.294294237673     0.904839617951      -0.294294237673     -0.095108194282     -0.291509928071     
2700000000.0        -0.101787886066     -0.30045945228      0.898159534979      -0.303351516265     0.898159534979      -0.303351516265     -0.101787886066     -0.30045945228      
2800000000.0        -0.108614723844     -0.30919023755      0.891332294606      -0.312190116207     0.891332294606      -0.312190116207     -0.108614723844     -0.30919023755      
2900000000.0        -0.115579713947     -0.317700072472     0.884366890425      -0.320807826839     0.884366890425      -0.320807826839     -0.115579713947     -0.317700072472     
3000000000.0        -0.122673915595     -0.325987175388     0.877272263141      -0.329202867207     0.877272263141      -0.329202867207     -0.122673915595     -0.325987175388     
3100000000.0        -0.129888463021     -0.334050182345     0.870057278451      -0.337373874026     0.870057278451      -0.337373874026     -0.129888463021     -0.334050182345     
3200000000.0        -0.137214586234     -0.341888133951     0.862730706285      -0.345319888531     0.862730706285      -0.345319888531     -0.137214586234     -0.341888133951     
3300000000.0        -0.144643630393     -0.349500461254     0.855301201421      -0.353040342361     0.855301201421      -0.353040342361     -0.144643630393     -0.349500461254     
3400000000.0        -0.152167073756     -0.35688697078      0.847777285545      -0.360535042597     0.847777285545      -0.360535042597     -0.152167073756     -0.35688697078      
3500000000.0        -0.159776544202     -0.364047828871     0.840167330723      -0.367804156106     0.840167330723      -0.367804156106     -0.159776544202     -0.364047828871     
3600000000.0        -0.167463834301     -0.370983545441     0.832479544334      -0.374848193288     0.832479544334      -0.374848193288     -0.167463834301     -0.370983545441     
3700000000.0        -0.175220914961     -0.37769495727      0.824721955422      -0.381667991384     0.824721955422      -0.381667991384     -0.175220914961     -0.37769495727      
3800000000.0        -0.183039947651     -0.384183210966     0.816902402469      -0.388264697431     0.816902402469      -0.388264697431     -0.183039947651     -0.384183210966     
3900000000.0        -0.190913295243     -0.390449745694     0.80902852256       -0.394639750992     0.80902852256       -0.394639750992     -0.190913295243     -0.390449745694     
4000000000.0        -0.198833531483     -0.396496275778     0.801107741904      -0.400794866765     0.801107741904      -0.400794866765     -0.198833531483     -0.396496275778     
4100000000.0        -0.206793449157     -0.402324773284     0.793147267674      -0.406732017161     0.793147267674      -0.406732017161     -0.206793449157     -0.402324773284     
4200000000.0        -0.214786066975     -0.407937450663     0.78515408112       -0.412453414953     0.78515408112       -0.412453414953     -0.214786066975     -0.407937450663     
4300000000.0        -0.22280463524      -0.413336743547     0.777134931901      -0.417961496067     0.777134931901      -0.417961496067     -0.22280463524      -0.413336743547     
4400000000.0        -0.230842640347     -0.41852529376      0.769096333582      -0.423258902602     0.769096333582      -0.423258902602     -0.230842640347     -0.41852529376      
4500000000.0        -0.238893808182     -0.423505932635     0.761044560242      -0.428348466139     0.761044560242      -0.428348466139     -0.238893808182     -0.423505932635     
4600000000.0        -0.246952106469     -0.428281664673     0.75298564412       -0.433233191408     0.75298564412       -0.433233191408     -0.246952106469     -0.428281664673     
4700000000.0        -0.255011746136     -0.432855651619     0.744925374256      -0.437916240361     0.744925374256      -0.437916240361     -0.255011746136     -0.432855651619     
4800000000.0        -0.263067181761     -0.437231196983     0.736869296035      -0.442400916698     0.736869296035      -0.442400916698     -0.263067181761     -0.437231196983     
4900000000.0        -0.27111311117      -0.44141173107      0.728822711599      -0.446690650891     0.728822711599      -0.446690650891     -0.27111311117      -0.44141173107      
5000000000.0        -0.27914447424      -0.445400796526     0.72079068104       -0.450788985737     0.72079068104       -0.450788985737     -0.27914447424      -0.445400796526     
5100000000.0        -0.287156450979     -0.449202034447     0.712778024316      -0.454699562464     0.712778024316      -0.454699562464     -0.287156450979     -0.449202034447     
5200000000.0        -0.295144458946     -0.452819171068     0.704789323839      -0.458426107423     0.704789323839      -0.458426107423     -0.295144458946     -0.452819171068     
5300000000.0        -0.303104150066     -0.456256005042     0.696828927653      -0.461972419367     0.696828927653      -0.461972419367     -0.303104150066     -0.456256005042     
5400000000.0        -0.311031406912     -0.459516395331     0.688900953155      -0.465342357341     0.688900953155      -0.465342357341     -0.311031406912     -0.459516395331     
5500000000.0        -0.318922338497     -0.462604249706     0.681009291303      -0.468539829186     0.681009291303      -0.468539829186     -0.318922338497     -0.462604249706     
5600000000.0        -0.326773275647     -0.465523513872     0.673157611241      -0.471568780663     0.673157611241      -0.471568780663     -0.326773275647     -0.465523513872     
5700000000.0        -0.334580765995     -0.468278161197     0.665349365309      -0.474433185179     0.665349365309      -0.474433185179     -0.334580765995     -0.468278161197     
5800000000.0        -0.342341568657     -0.470872183062     0.657587794362      -0.477137034145     0.657587794362      -0.477137034145     -0.342341568657     -0.470872183062     
5900000000.0        -0.350052648628     -0.473309579809     0.649875933378      -0.47968432792      0.649875933378      -0.47968432792      -0.350052648628     -0.473309579809     
6000000000.0        -0.357711170954     -0.475594352289     0.642216617285      -0.482079067358     0.642216617285      -0.482079067358     -0.357711170954     -0.475594352289     
6100000000.0        -0.365314494712     -0.477730493984     0.634612486976      -0.484325245932     0.634612486976      -0.484325245932     -0.365314494712     -0.477730493984     
6200000000.0        -0.372860166848     -0.479721983696     0.627065995482      -0.486426842429     0.627065995482      -0.486426842429     -0.372860166848     -0.479721983696     
6300000000.0        -0.380345915898     -0.481572778799     0.619579414239      -0.488387814192     0.619579414239      -0.488387814192     -0.380345915898     -0.481572778799     
6400000000.0        -0.387769645634     -0.483286809003     0.612154839449      -0.490212090895     0.612154839449      -0.490212090895     -0.387769645634     -0.483286809003     
6500000000.0        -0.395129428669     -0.484867970651     0.604794198475      -0.491903568831     0.604794198475      -0.491903568831     -0.395129428669     -0.484867970651     
6600000000.0        -0.402423500035     -0.4863201215       0.597499256258      -0.493466105701     0.597499256258      -0.493466105701     -0.402423500035     -0.4863201215       
6700000000.0        -0.409650250781     -0.487647075977     0.590271621726      -0.494903515868     0.590271621726      -0.494903515868     -0.409650250781     -0.487647075977     
6800000000.0        -0.41680822159      -0.488852600891     0.583112754169      -0.496219566067     0.583112754169      -0.496219566067     -0.41680822159      -0.488852600891     
6900000000.0        -0.423896096464     -0.489940411576     0.576023969561      -0.497417971551     0.576023969561      -0.497417971551     -0.423896096464     -0.489940411576     
7000000000.0        -0.430912696472     -0.490914168441     0.569006446811      -0.498502392639     0.569006446811      -0.498502392639     -0.430912696472     -0.490914168441     
7100000000.0        -0.437856973586     -0.49177747391      0.562061233921      -0.499476431664     0.562061233921      -0.499476431664     -0.437856973586     -0.49177747391      
7200000000.0        -0.444728004629     -0.492533869737     0.555189254046      -0.500343630275     0.555189254046      -0.500343630275     -0.444728004629     -0.492533869737     
7300000000.0        -0.451524985329     -0.493186834655     0.548391311432      -0.501107467099     0.548391311432      -0.501107467099     -0.451524985329     -0.493186834655     
7400000000.0        -0.458247224516     -0.493739782363     0.541668097227      -0.50177135572      0.541668097227      -0.50177135572      -0.458247224516     -0.493739782363     
7500000000.0        -0.464894138438     -0.494196059811     0.53502019516       -0.50233864297      0.53502019516       -0.50233864297      -0.464894138438     -0.494196059811     
7600000000.0        -0.471465245238     -0.494558945776     0.528448087065      -0.502812607501     0.528448087065      -0.502812607501     -0.471465245238     -0.494558945776     
7700000000.0        -0.477960159575     -0.494831649704     0.521952158261      -0.50319645863      0.521952158261      -0.50319645863      -0.477960159575     -0.494831649704     
7800000000.0        -0.484378587404     -0.495017310799     0.515532702768      -0.503493335428     0.515532702768      -0.503493335428     -0.484378587404     -0.495017310799     
7900000000.0        -0.490720320919     -0.495118997346     0.509189928372      -0.503706306042     0.509189928372      -0.503706306042     -0.490720320919     -0.495118997346     
8000000000.0        -0.496985233658     -0.495139706247     0.502923961512      -0.50383836723      0.502923961512      -0.50383836723      -0.496985233658     -0.495139706247     
8100000000.0        -0.503173275775     -0.495082362751     0.496734852012      -0.503892444099     0.496734852012      -0.503892444099     -0.503173275775     -0.495082362751     
8200000000.0        -0.50928446948      -0.494949820374     0.49062257764       -0.503871390012     0.49062257764       -0.503871390012     -0.50928446948      -0.494949820374     
8300000000.0        -0.515318904646     -0.494744860976     0.484587048501      -0.503777986678     0.484587048501      -0.503777986678     -0.515318904646     -0.494744860976     
8400000000.0        -0.521276734588     -0.494470194995     0.478628111259      -0.503614944382     0.478628111259      -0.503614944382     -0.521276734588     -0.494470194995     
8500000000.0        -0.527158171995     -0.494128461828     0.472745553203      -0.50338490236      0.472745553203      -0.50338490236      -0.527158171995     -0.494128461828     
8600000000.0        -0.532963485044     -0.493722230319     0.466939106133      -0.503090429298     0.466939106133      -0.503090429298     -0.532963485044     -0.493722230319     
8700000000.0        -0.538692993665     -0.493253999386     0.461208450101      -0.502734023947     0.461208450101      -0.502734023947     -0.538692993665     -0.493253999386     
8800000000.0        -0.544347065969     -0.492726198726     0.455553216974      -0.502318115844     0.455553216974      -0.502318115844     -0.544347065969     -0.492726198726     
8900000000.0        -0.54992611483      -0.492141189634     0.449972993855      -0.501845066115     0.449972993855      -0.501845066115     -0.54992611483      -0.492141189634     
9000000000.0        -0.55543059463      -0.491501265889     0.444467326344      -0.50131716837      0.444467326344      -0.50131716837      -0.55543059463      -0.491501265889     
9100000000.0        -0.56086099814      -0.490808654721     0.439035721648      -0.50073664967      0.439035721648      -0.50073664967      -0.56086099814      -0.490808654721     
9200000000.0        -0.566217853561     -0.490065517839     0.433677651544      -0.500105671552     0.433677651544      -0.500105671552     -0.566217853561     -0.490065517839     
9300000000.0        -0.571501721699     -0.489273952515     0.428392555209      -0.499426331117     0.428392555209      -0.499426331117     -0.571501721699     -0.489273952515     
9400000000.0        -0.576713193278     -0.488435992717     0.423179841894      -0.498700662158     0.423179841894      -0.498700662158     -0.576713193278     -0.488435992717     
9500000000.0        -0.581852886396     -0.487553610284     0.418038893485      -0.49793063634      0.418038893485      -0.49793063634      -0.581852886396     -0.487553610284     
9600000000.0        -0.586921444098     -0.486628716132     0.412969066915      -0.497118164406     0.412969066915      -0.497118164406     -0.586921444098     -0.486628716132     
9700000000.0        -0.591919532084     -0.485663161495     0.407969696463      -0.496265097412     0.407969696463      -0.496265097412     -0.591919532084     -0.485663161495     
9800000000.0        -0.596847836536     -0.484658739182     0.403040095929      -0.495373227994     0.403040095929      -0.495373227994     -0.596847836536     -0.484658739182     
9900000000.0        -0.601707062057     -0.483617184858     0.398179560688      -0.494444291638     0.398179560688      -0.494444291638     -0.601707062057     -0.483617184858     
10000000000.0       -0.606497929731     -0.482540178332     0.393387369638      -0.493479967981     0.393387369638      -0.493479967981     -0.606497929731     -0.482540178332     
