# Hz S RI R 50.00 
100000000.0         0.00232298448623    0.00105817216463    0.997673215975      -0.00266274068196   0.997673215975      -0.00266274068196   0.00232298448623    0.00105817216463    
200000000.0         0.00234617317502    0.00211620119577    0.99764465092       -0.00532536806927   0.99764465092       -0.00532536806927   0.00234617317502    0.00211620119577    
300000000.0         0.00237092479097    0.00317410180522    0.997611945795      -0.00798791383837   0.997611945795      -0.00798791383837   0.00237092479097    0.00317410180522    
400000000.0         0.00239925015778    0.00423185859252    0.997573089372      -0.0106503752066    0.997573089372      -0.0106503752066    0.00239925015778    0.00423185859252    
500000000.0         0.0024319231188     0.00528944922811    0.997527307325      -0.0133127402428    0.997527307325      -0.0133127402428    0.0024319231188     0.00528944922811    
600000000.0         0.00246933782274    0.00634684836849    0.997474204955      -0.0159749925338    0.997474204955      -0.0159749925338    0.00246933782274    0.00634684836849    
700000000.0         0.00251172661279    0.0074040290603     0.997413549305      -0.0186371129735    0.997413549305      -0.0186371129735    0.00251172661279    0.0074040290603     
800000000.0         0.00255923953306    0.00846096339008    0.99734518966       -0.0212990806447    0.99734518966       -0.0212990806447    0.00255923953306    0.00846096339008    
900000000.0         0.00261197972131    0.00951762283176    0.997269022157      -0.0239608733203    0.997269022157      -0.0239608733203    0.00261197972131    0.00951762283176    
1000000000.0        0.00267002134471    0.0105739784516     0.997184971855      -0.0266224677771    0.997184971855      -0.0266224677771    0.00267002134471    0.0105739784516     
1100000000.0        0.00273341956776    0.0116300010377     0.997092982767      -0.0292838400053    0.997092982767      -0.0292838400053    0.00273341956776    0.0116300010377     
1200000000.0        0.00280221649049    0.0126856611856     0.996993011928      -0.031944965357     0.996993011928      -0.031944965357     0.00280221649049    0.0126856611856     
1300000000.0        0.00287644488352    0.0137409293586     0.99688502566       -0.0346058186549    0.99688502566       -0.0346058186549    0.00287644488352    0.0137409293586     
1400000000.0        0.00295613064256    0.0147957759296     0.996768997121      -0.0372663742748    0.996768997121      -0.0372663742748    0.00295613064256    0.0147957759296     
1500000000.0        0.00304129446049    0.0158501712133     0.996644904633      -0.0399266062095    0.996644904633      -0.0399266062095    0.00304129446049    0.0158501712133     
1600000000.0        0.00313195300155    0.0169040854894     0.996512730511      -0.0425864881207    0.996512730511      -0.0425864881207    0.00313195300155    0.0169040854894     
1700000000.0        0.00322811974729    0.0179574890209     0.996372460219      -0.0452459933797    0.996372460219      -0.0452459933797    0.00322811974729    0.0179574890209     
1800000000.0        0.00332980561978    0.019010352068      0.996224081749      -0.0479050951026    0.996224081749      -0.0479050951026    0.00332980561978    0.019010352068      
1900000000.0        0.00343701944966    0.0200626448997     0.99606758515       -0.0505637661785    0.99606758515       -0.0505637661785    0.00343701944966    0.0200626448997     
2000000000.0        0.00354976833381    0.0211143378025     0.995902962179      -0.0532219792941    0.995902962179      -0.0532219792941    0.00354976833381    0.0211143378025     
2100000000.0        0.00366805791266    0.022165401088      0.995730206016      -0.0558797069547    0.995730206016      -0.0558797069547    0.00366805791266    0.022165401088      
2200000000.0        0.00379189258827    0.0232158050984     0.995549311056      -0.058536921502     0.995549311056      -0.058536921502     0.00379189258827    0.0232158050984     
2300000000.0        0.00392127569786    0.0242655202119     0.995360272731      -0.0611935951305    0.995360272731      -0.0611935951305    0.00392127569786    0.0242655202119     
2400000000.0        0.00405620965342    0.0253145168469     0.995163087373      -0.0638496999012    0.995163087373      -0.0638496999012    0.00405620965342    0.0253145168469     
2500000000.0        0.00419669605514    0.0263627654653     0.994957752099      -0.0665052077537    0.994957752099      -0.0665052077537    0.00419669605514    0.0263627654653     
2600000000.0        0.00434273578455    0.0274102365753     0.994744264726      -0.0691600905181    0.994744264726      -0.0691600905181    0.00434273578455    0.0274102365753     
2700000000.0        0.00449432908137    0.0284569007345     0.994522623686      -0.071814319924     0.994522623686      -0.071814319924     0.00449432908137    0.0284569007345     
2800000000.0        0.00465147560773    0.0295027285516     0.994292827969      -0.0744678676102    0.994292827969      -0.0744678676102    0.00465147560773    0.0295027285516     
2900000000.0        0.00481417450203    0.0305476906889     0.994054877067      -0.0771207051329    0.994054877067      -0.0771207051329    0.00481417450203    0.0305476906889     
3000000000.0        0.00498242442439    0.0315917578633     0.99380877093       -0.0797728039728    0.99380877093       -0.0797728039728    0.00498242442439    0.0315917578633     
3100000000.0        0.00515622359542    0.0326349008484     0.993554509929      -0.0824241355422    0.993554509929      -0.0824241355422    0.00515622359542    0.0326349008484     
3200000000.0        0.00533556982933    0.0336770904756     0.993292094821      -0.0850746711915    0.993292094821      -0.0850746711915    0.00533556982933    0.0336770904756     
3300000000.0        0.00552046056237    0.0347182976352     0.993021526725      -0.0877243822146    0.993021526725      -0.0877243822146    0.00552046056237    0.0347182976352     
3400000000.0        0.00571089287749    0.0357584932777     0.992742807093      -0.090373239855     0.992742807093      -0.090373239855     0.00571089287749    0.0357584932777     
3500000000.0        0.00590686352574    0.0367976484148     0.992455937696      -0.0930212153103    0.992455937696      -0.0930212153103    0.00590686352574    0.0367976484148     
3600000000.0        0.00610836894494    0.0378357341201     0.992160920598      -0.0956682797372    0.992160920598      -0.0956682797372    0.00610836894494    0.0378357341201     
3700000000.0        0.00631540527607    0.03887272153       0.991857758146      -0.0983144042559    0.991857758146      -0.0983144042559    0.00631540527607    0.03887272153       
3800000000.0        0.0065279683777     0.0399085818447     0.991546452954      -0.100959559954     0.991546452954      -0.100959559954     0.0065279683777     0.0399085818447     
3900000000.0        0.00674605383872    0.0409432863287     0.991227007892      -0.103603717892     0.991227007892      -0.103603717892     0.00674605383872    0.0409432863287     
4000000000.0        0.00696965698969    0.0419768063115     0.990899426073      -0.106246849103     0.990899426073      -0.106246849103     0.00696965698969    0.0419768063115     
4100000000.0        0.00719877291291    0.0430091131884     0.990563710844      -0.108888924601     0.990563710844      -0.108888924601     0.00719877291291    0.0430091131884     
4200000000.0        0.00743339645145    0.0440401784211     0.990219865779      -0.111529915383     0.990219865779      -0.111529915383     0.00743339645145    0.0440401784211     
4300000000.0        0.00767352221725    0.045069973538      0.989867894671      -0.114169792428     0.989867894671      -0.114169792428     0.00767352221725    0.045069973538      
4400000000.0        0.00791914459838    0.0460984701351     0.989507801524      -0.116808526707     0.989507801524      -0.116808526707     0.00791914459838    0.0460984701351     
4500000000.0        0.00817025776567    0.0471256398767     0.989139590547      -0.119446089179     0.989139590547      -0.119446089179     0.00817025776567    0.0471256398767     
4600000000.0        0.00842685567864    0.0481514544952     0.988763266149      -0.1220824508       0.988763266149      -0.1220824508       0.00842685567864    0.0481514544952     
4700000000.0        0.00868893209094    0.0491758857926     0.988378832933      -0.12471758252      0.988378832933      -0.12471758252      0.00868893209094    0.0491758857926     
4800000000.0        0.00895648055533    0.0501989056402     0.987986295695      -0.127351455289     0.987986295695      -0.127351455289     0.00895648055533    0.0501989056402     
4900000000.0        0.00922949442813    0.0512204859794     0.987585659413      -0.129984040059     0.987585659413      -0.129984040059     0.00922949442813    0.0512204859794     
5000000000.0        0.00950796687347    0.0522405988224     0.987176929251      -0.132615307785     0.987176929251      -0.132615307785     0.00950796687347    0.0522405988224     
5100000000.0        0.00979189086702    0.0532592162523     0.986760110549      -0.13524522943      0.986760110549      -0.13524522943      0.00979189086702    0.0532592162523     
5200000000.0        0.0100812591996     0.0542763104238     0.986335208825      -0.137873775962     0.986335208825      -0.137873775962     0.0100812591996     0.0542763104238     
5300000000.0        0.0103760644804     0.0552918535637     0.985902229767      -0.140500918361     0.985902229767      -0.140500918361     0.0103760644804     0.0552918535637     
5400000000.0        0.0106762991399     0.056305817971      0.985461179234      -0.143126627621     0.985461179234      -0.143126627621     0.0106762991399     0.056305817971      
5500000000.0        0.0109819554329     0.0573181760181     0.985012063254      -0.145750874748     0.985012063254      -0.145750874748     0.0109819554329     0.0573181760181     
5600000000.0        0.0112930254412     0.0583289001503     0.984554888019      -0.148373630765     0.984554888019      -0.148373630765     0.0112930254412     0.0583289001503     
5700000000.0        0.0116095010754     0.059337962887      0.984089659882      -0.150994866712     0.984089659882      -0.150994866712     0.0116095010754     0.059337962887      
5800000000.0        0.0119313740783     0.0603453368219     0.98361638536       -0.15361455365      0.98361638536       -0.15361455365      0.0119313740783     0.0603453368219     
5900000000.0        0.0122586360261     0.0613509946235     0.983135071127      -0.156232662662     0.983135071127      -0.156232662662     0.0122586360261     0.0613509946235     
6000000000.0        0.0125912783308     0.0623549090352     0.982645724014      -0.158849164852     0.982645724014      -0.158849164852     0.0125912783308     0.0623549090352     
6100000000.0        0.0129292922422     0.0633570528763     0.98214835101       -0.161464031351     0.98214835101       -0.161464031351     0.0129292922422     0.0633570528763     
6200000000.0        0.0132726688497     0.064357399042      0.981642959255      -0.164077233314     0.981642959255      -0.164077233314     0.0132726688497     0.064357399042      
6300000000.0        0.0136213990839     0.0653559205042     0.981129556044      -0.166688741926     0.981129556044      -0.166688741926     0.0136213990839     0.0653559205042     
6400000000.0        0.0139754737183     0.0663525903116     0.980608148821      -0.169298528401     0.980608148821      -0.169298528401     0.0139754737183     0.0663525903116     
6500000000.0        0.014334883371      0.0673473815904     0.98007874518       -0.171906563982     0.98007874518       -0.171906563982     0.014334883371      0.0673473815904     
6600000000.0        0.014699618506      0.0683402675445     0.979541352866      -0.174512819947     0.979541352866      -0.174512819947     0.014699618506      0.0683402675445     
6700000000.0        0.0150696694346     0.0693312214562     0.978995979767      -0.177117267605     0.978995979767      -0.177117267605     0.0150696694346     0.0693312214562     
6800000000.0        0.0154450263171     0.0703202166863     0.978442633921      -0.179719878302     0.978442633921      -0.179719878302     0.0154450263171     0.0703202166863     
6900000000.0        0.0158256791637     0.0713072266752     0.977881323509      -0.182320623419     0.977881323509      -0.182320623419     0.0158256791637     0.0713072266752     
7000000000.0        0.0162116178362     0.0722922249423     0.977312056856      -0.184919474376     0.977312056856      -0.184919474376     0.0162116178362     0.0722922249423     
7100000000.0        0.0166028320487     0.0732751850874     0.97673484243       -0.18751640263      0.97673484243       -0.18751640263      0.0166028320487     0.0732751850874     
7200000000.0        0.0169993113693     0.0742560807907     0.976149688842      -0.19011137968      0.976149688842      -0.19011137968      0.0169993113693     0.0742560807907     
7300000000.0        0.017401045221      0.0752348858132     0.975556604842      -0.192704377064     0.975556604842      -0.192704377064     0.017401045221      0.0752348858132     
7400000000.0        0.0178080228826     0.0762115739972     0.974955599322      -0.195295366365     0.974955599322      -0.195295366365     0.0178080228826     0.0762115739972     
7500000000.0        0.0182202334904     0.0771861192669     0.97434668131       -0.197884319209     0.97434668131       -0.197884319209     0.0182202334904     0.0771861192669     
7600000000.0        0.0186376660384     0.0781584956286     0.973729859977      -0.200471207266     0.973729859977      -0.200471207266     0.0186376660384     0.0781584956286     
7700000000.0        0.01906030938       0.0791286771712     0.973105144627      -0.203056002252     0.973105144627      -0.203056002252     0.01906030938       0.0791286771712     
7800000000.0        0.0194881522289     0.0800966380667     0.972472544703      -0.20563867593      0.972472544703      -0.20563867593      0.0194881522289     0.0800966380667     
7900000000.0        0.0199211831595     0.0810623525705     0.971832069782      -0.208219200113     0.971832069782      -0.208219200113     0.0199211831595     0.0810623525705     
8000000000.0        0.0203593906087     0.082025795022      0.971183729577      -0.21079754666      0.971183729577      -0.21079754666      0.0203593906087     0.082025795022      
8100000000.0        0.020802762876      0.082986939845      0.970527533936      -0.213373687483     0.970527533936      -0.213373687483     0.020802762876      0.082986939845      
8200000000.0        0.0212512881252     0.0839457615478     0.969863492839      -0.215947594543     0.969863492839      -0.215947594543     0.0212512881252     0.0839457615478     
8300000000.0        0.0217049543847     0.0849022347243     0.969191616399      -0.218519239855     0.969191616399      -0.218519239855     0.0217049543847     0.0849022347243     
8400000000.0        0.0221637495484     0.0858563340537     0.968511914861      -0.221088595486     0.968511914861      -0.221088595486     0.0221637495484     0.0858563340537     
8500000000.0        0.0226276613769     0.0868080343013     0.967824398602      -0.223655633558     0.967824398602      -0.223655633558     0.0226276613769     0.0868080343013     
8600000000.0        0.0230966774982     0.087757310319      0.967129078129      -0.226220326248     0.967129078129      -0.226220326248     0.0230966774982     0.087757310319      
8700000000.0        0.0235707854085     0.0887041370455     0.966425964077      -0.228782645788     0.966425964077      -0.228782645788     0.0235707854085     0.0887041370455     
8800000000.0        0.0240499724729     0.0896484895069     0.965715067213      -0.231342564468     0.965715067213      -0.231342564468     0.0240499724729     0.0896484895069     
8900000000.0        0.0245342259263     0.0905903428169     0.96499639843       -0.233900054635     0.96499639843       -0.233900054635     0.0245342259263     0.0905903428169     
9000000000.0        0.0250235328745     0.0915296721774     0.964269968752      -0.236455088697     0.964269968752      -0.236455088697     0.0250235328745     0.0915296721774     
9100000000.0        0.0255178802943     0.0924664528791     0.963535789327      -0.239007639118     0.963535789327      -0.239007639118     0.0255178802943     0.0924664528791     
9200000000.0        0.0260172550351     0.0934006603013     0.962793871429      -0.241557678426     0.962793871429      -0.241557678426     0.0260172550351     0.0934006603013     
9300000000.0        0.0265216438189     0.0943322699129     0.962044226462      -0.244105179208     0.962044226462      -0.244105179208     0.0265216438189     0.0943322699129     
9400000000.0        0.0270310332417     0.0952612572728     0.96128686595       -0.246650114115     0.96128686595       -0.246650114115     0.0270310332417     0.0952612572728     
9500000000.0        0.0275454097738     0.0961875980299     0.960521801546      -0.249192455859     0.960521801546      -0.249192455859     0.0275454097738     0.0961875980299     
9600000000.0        0.0280647597607     0.0971112679238     0.959749045022      -0.251732177217     0.959749045022      -0.251732177217     0.0280647597607     0.0971112679238     
9700000000.0        0.0285890694242     0.0980322427851     0.958968608279      -0.254269251031     0.958968608279      -0.254269251031     0.0285890694242     0.0980322427851     
9800000000.0        0.0291183248623     0.0989504985359     0.958180503335      -0.256803650207     0.958180503335      -0.256803650207     0.0291183248623     0.0989504985359     
9900000000.0        0.0296525120508     0.0998660111902     0.957384742333      -0.25933534772      0.957384742333      -0.25933534772      0.0296525120508     0.0998660111902     
10000000000.0       0.0301916168435     0.100778756854      0.956581337538      -0.261864316607     0.956581337538      -0.261864316607     0.0301916168435     0.100778756854      
