# Hz S RI R 50.00 
100000000.0         6.01912693674e-05   -5.8084827127e-05   0.999938427326      -0.000281124112971  0.999938427326      -0.000281124112971  6.01912693672e-05   -5.80848271269e-05  
200000000.0         6.03895933753e-05   -0.000116173722419  0.999937732509      -0.00056225617647   0.999937732509      -0.00056225617647   6.03895933753e-05   -0.000116173722419  
300000000.0         6.04485876048e-05   -0.000174268612094  0.999937061908      -0.000843400454694  0.999937061908      -0.000843400454694  6.04485876046e-05   -0.000174268612094  
400000000.0         6.04209285846e-05   -0.000232370969564  0.999936362816      -0.00112456017888   0.999936362816      -0.00112456017888   6.04209285846e-05   -0.000232370969564  
500000000.0         6.0326857658e-05    -0.000290482017338  0.999935614956      -0.00140573806813   0.999935614956      -0.00140573806813   6.03268576578e-05   -0.000290482017338  
600000000.0         6.01766715964e-05   -0.000348602808869  0.999934807994      -0.00168693650954   0.999934807994      -0.00168693650954   6.01766715962e-05   -0.000348602808869  
700000000.0         5.99764343552e-05   -0.000406734267834  0.999933935823      -0.00196815764567   0.999933935823      -0.00196815764567   5.9976434355e-05    -0.000406734267834  
800000000.0         5.97300605716e-05   -0.000464877216087  0.999932994483      -0.00224940343047   0.999932994483      -0.00224940343047   5.97300605714e-05   -0.000464877216087  
900000000.0         5.94402421632e-05   -0.000523032388873  0.999931981235      -0.00253067566273   0.999931981235      -0.00253067566273   5.94402421628e-05   -0.000523032388873  
1000000000.0        5.91089179554e-05   -0.00058120044844   0.999930894088      -0.00281197601224   0.999930894088      -0.00281197601224   5.91089179549e-05   -0.00058120044844   
1100000000.0        5.87375344001e-05   -0.000639381992899  0.999929731544      -0.00309330603779   0.999929731544      -0.00309330603779   5.87375344003e-05   -0.000639381992899  
1200000000.0        5.83272008627e-05   -0.000697577564019  0.999928492439      -0.00337466720195   0.999928492439      -0.00337466720195   5.8327200863e-05    -0.000697577564019  
1300000000.0        5.78787872745e-05   -0.000755787652019  0.999927175845      -0.00365606088116   0.999927175845      -0.00365606088116   5.78787872745e-05   -0.000755787652019  
1400000000.0        5.73929882686e-05   -0.000814012701065  0.999925781008      -0.0039374883756    0.999925781008      -0.0039374883756    5.73929882686e-05   -0.000814012701065  
1500000000.0        5.68703669117e-05   -0.000872253113016  0.999924307305      -0.00421895091637   0.999924307305      -0.00421895091637   5.68703669117e-05   -0.000872253113016  
1600000000.0        5.63113852978e-05   -0.000930509250582  0.999922754212      -0.00450044967156   0.999922754212      -0.00450044967156   5.63113852978e-05   -0.000930509250582  
1700000000.0        5.57164267223e-05   -0.000988781440417  0.999921121281      -0.00478198575173   0.999921121281      -0.00478198575173   5.57164267221e-05   -0.000988781440417  
1800000000.0        5.50858118982e-05   -0.00104706997566   0.999919408127      -0.0050635602145    0.999919408127      -0.0050635602145    5.50858118982e-05   -0.00104706997566   
1900000000.0        5.44198112165e-05   -0.00110537511778   0.999917614413      -0.00534517406817   0.999917614413      -0.00534517406817   5.44198112165e-05   -0.00110537511778   
2000000000.0        5.37186540668e-05   -0.00116369709917   0.999915739842      -0.00562682827579   0.999915739842      -0.00562682827579   5.37186540668e-05   -0.00116369709917   
2100000000.0        5.298253608e-05     -0.00122203612377   0.99991378415       -0.00590852375712   0.99991378415       -0.00590852375712   5.298253608e-05     -0.00122203612377   
2200000000.0        5.22116248232e-05   -0.00128039237001   0.999911747099      -0.00619026139273   0.999911747099      -0.00619026139273   5.22116248232e-05   -0.00128039237001   
2300000000.0        5.14060643466e-05   -0.00133876599119   0.999909628474      -0.00647204202541   0.999909628474      -0.00647204202541   5.14060643466e-05   -0.00133876599119   
2400000000.0        5.05659788066e-05   -0.00139715711698   0.999907428081      -0.00675386646254   0.999907428081      -0.00675386646254   5.05659788068e-05   -0.00139715711698   
2500000000.0        4.96914754511e-05   -0.001455565855     0.99990514574       -0.00703573547856   0.99990514574       -0.00703573547856   4.96914754509e-05   -0.001455565855     
2600000000.0        4.87826470366e-05   -0.00151399229139   0.999902781284      -0.00731764981616   0.999902781284      -0.00731764981616   4.87826470361e-05   -0.00151399229139   
2700000000.0        4.78395738484e-05   -0.00157243649211   0.99990033456       -0.00759961018832   0.99990033456       -0.00759961018832   4.78395738484e-05   -0.00157243649211   
2800000000.0        4.68623253729e-05   -0.00163089850369   0.999897805425      -0.00788161727965   0.999897805425      -0.00788161727965   4.68623253729e-05   -0.00163089850369   
2900000000.0        4.58509617047e-05   -0.00168937835417   0.999895193742      -0.00816367174781   0.999895193742      -0.00816367174781   4.5850961705e-05    -0.00168937835417   
3000000000.0        4.48055347408e-05   -0.00174787605398   0.999892499386      -0.00844577422497   0.999892499386      -0.00844577422497   4.48055347408e-05   -0.00174787605398   
3100000000.0        4.37260891843e-05   -0.0018063915964    0.999889722235      -0.00872792531861   0.999889722235      -0.00872792531861   4.37260891843e-05   -0.0018063915964    
3200000000.0        4.2612663419e-05    -0.00186492495856   0.999886862176      -0.00901012561306   0.999886862176      -0.00901012561306   4.26126634192e-05   -0.00186492495856   
3300000000.0        4.14652902481e-05   -0.00192347610195   0.999883919098      -0.00929237567028   0.999883919098      -0.00929237567028   4.14652902478e-05   -0.00192347610195   
3400000000.0        4.02839975358e-05   -0.00198204497295   0.999880892897      -0.00957467603083   0.999880892897      -0.00957467603083   4.02839975355e-05   -0.00198204497295   
3500000000.0        3.90688087704e-05   -0.00204063150355   0.999877783473      -0.00985702721483   0.999877783473      -0.00985702721483   3.90688087704e-05   -0.00204063150355   
3600000000.0        3.78197435502e-05   -0.00209923561194   0.999874590728      -0.0101394297229    0.999874590728      -0.0101394297229    3.78197435502e-05   -0.00209923561194   
3700000000.0        3.65368180089e-05   -0.00215785720281   0.999871314569      -0.0104218840369    0.999871314569      -0.0104218840369    3.65368180086e-05   -0.00215785720281   
3800000000.0        3.52200451905e-05   -0.00221649616804   0.999867954906      -0.0107043906203    0.999867954906      -0.0107043906203    3.52200451907e-05   -0.00221649616804   
3900000000.0        3.38694353836e-05   -0.00227515238703   0.999864511649      -0.0109869499197    0.999864511649      -0.0109869499197    3.38694353836e-05   -0.00227515238703   
4000000000.0        3.24849964115e-05   -0.00233382572723   0.999860984715      -0.0112695623647    0.999860984715      -0.0112695623647    3.24849964115e-05   -0.00233382572723   
4100000000.0        3.1066733895e-05    -0.00239251604458   0.999857374018      -0.0115522283689    0.999857374018      -0.0115522283689    3.10667338945e-05   -0.00239251604458   
4200000000.0        2.96146514835e-05   -0.00245122318367   0.999853679478      -0.0118349483305    0.999853679478      -0.0118349483305    2.96146514838e-05   -0.00245122318367   
4300000000.0        2.81287510679e-05   -0.00250994697854   0.999849901014      -0.0121177226328    0.999849901014      -0.0121177226328    2.81287510677e-05   -0.00250994697854   
4400000000.0        2.6609032961e-05    -0.00256868725268   0.999846038549      -0.0124005516449    0.999846038549      -0.0124005516449    2.6609032961e-05    -0.00256868725268   
4500000000.0        2.50554960686e-05   -0.00262744381951   0.999842092006      -0.0126834357219    0.999842092006      -0.0126834357219    2.50554960686e-05   -0.00262744381951   
4600000000.0        2.3468138042e-05    -0.00268621648282   0.99983806131       -0.0129663752056    0.99983806131       -0.0129663752056    2.3468138042e-05    -0.00268621648282   
4700000000.0        2.18469554136e-05   -0.00274500503683   0.999833946386      -0.0132493704249    0.999833946386      -0.0132493704249    2.18469554141e-05   -0.00274500503683   
4800000000.0        2.0191943723e-05    -0.00280380926676   0.999829747161      -0.0135324216965    0.999829747161      -0.0135324216965    2.0191943723e-05    -0.00280380926676   
4900000000.0        1.85030976256e-05   -0.00286262894895   0.999825463564      -0.0138155293248    0.999825463564      -0.0138155293248    1.85030976256e-05   -0.00286262894895   
5000000000.0        1.67804110012e-05   -0.00292146385125   0.999821095524      -0.0140986936027    0.999821095524      -0.0140986936027    1.67804110014e-05   -0.00292146385125   
5100000000.0        1.50238770456e-05   -0.00298031373313   0.999816642971      -0.014381914812     0.999816642971      -0.014381914812     1.50238770456e-05   -0.00298031373313   
5200000000.0        1.3233488352e-05    -0.00303917834623   0.999812105835      -0.0146651932237    0.999812105835      -0.0146651932237    1.32334883522e-05   -0.00303917834623   
5300000000.0        1.14092369996e-05   -0.00309805743427   0.999807484048      -0.014948529098     0.999807484048      -0.014948529098     1.14092369996e-05   -0.00309805743427   
5400000000.0        9.55111461542e-06   -0.00315695073353   0.999802777543      -0.0152319226853    0.999802777543      -0.0152319226853    9.5511146152e-06    -0.00315695073353   
5500000000.0        7.65911244871e-06   -0.00321585797294   0.999797986252      -0.015515374226     0.999797986252      -0.015515374226     7.65911244871e-06   -0.00321585797294   
5600000000.0        5.73322142627e-06   -0.00327477887443   0.99979311011       -0.0157988839512    0.99979311011       -0.0157988839512    5.73322142627e-06   -0.00327477887443   
5700000000.0        3.77343221336e-06   -0.00333371315301   0.99978814905       -0.0160824520826    0.99978814905       -0.0160824520826    3.77343221336e-06   -0.00333371315301   
5800000000.0        1.77973526383e-06   -0.00339266051711   0.999783103007      -0.0163660788331    0.999783103007      -0.0163660788331    1.77973526361e-06   -0.00339266051711   
5900000000.0        -2.47879132775e-07  -0.00345162066866   0.999777971917      -0.016649764407     0.999777971917      -0.016649764407     -2.47879133108e-07  -0.00345162066866   
6000000000.0        -2.30942080115e-06  -0.00351059330332   0.999772755715      -0.0169335090001    0.999772755715      -0.0169335090001    -2.30942080115e-06  -0.00351059330332   
6100000000.0        -4.40489964459e-06  -0.00356957811073   0.999767454337      -0.0172173128002    0.999767454337      -0.0172173128002    -4.40489964459e-06  -0.00356957811073   
6200000000.0        -6.53432560316e-06  -0.0036285747746    0.999762067722      -0.0175011759874    0.999762067722      -0.0175011759874    -6.53432560316e-06  -0.0036285747746    
6300000000.0        -8.69770861855e-06  -0.00368758297295   0.999756595804      -0.0177850987339    0.999756595804      -0.0177850987339    -8.69770861889e-06  -0.00368758297295   
6400000000.0        -1.08950585989e-05  -0.0037466023782    0.999751038524      -0.0180690812048    0.999751038524      -0.0180690812048    -1.08950585991e-05  -0.0037466023782    
6500000000.0        -1.31263853907e-05  -0.00380563265744   0.999745395817      -0.0183531235578    0.999745395817      -0.0183531235578    -1.31263853907e-05  -0.00380563265744   
6600000000.0        -1.53916987436e-05  -0.00386467347246   0.999739667623      -0.0186372259438    0.999739667623      -0.0186372259438    -1.53916987438e-05  -0.00386467347246   
6700000000.0        -1.76910082896e-05  -0.00392372447999   0.999733853881      -0.018921388507     0.999733853881      -0.018921388507     -1.76910082896e-05  -0.00392372447999   
6800000000.0        -2.00243235147e-05  -0.00398278533185   0.999727954529      -0.0192056113849    0.999727954529      -0.0192056113849    -2.00243235147e-05  -0.00398278533185   
6900000000.0        -2.23916537313e-05  -0.00404185567505   0.999721969506      -0.0194898947088    0.999721969506      -0.0194898947088    -2.23916537315e-05  -0.00404185567505   
7000000000.0        -2.47930080615e-05  -0.0041009351519    0.999715898754      -0.0197742386039    0.999715898754      -0.0197742386039    -2.47930080614e-05  -0.0041009351519    
7100000000.0        -2.72283954116e-05  -0.00416002340024   0.999709742211      -0.0200586431893    0.999709742211      -0.0200586431893    -2.72283954115e-05  -0.00416002340024   
7200000000.0        -2.96978244528e-05  -0.00421912005343   0.999703499818      -0.0203431085783    0.999703499818      -0.0203431085783    -2.96978244525e-05  -0.00421912005343   
7300000000.0        -3.22013036048e-05  -0.00427822474071   0.999697171516      -0.0206276348787    0.999697171516      -0.0206276348787    -3.22013036045e-05  -0.00427822474071   
7400000000.0        -3.47388410145e-05  -0.00433733708695   0.999690757245      -0.0209122221927    0.999690757245      -0.0209122221927    -3.47388410143e-05  -0.00433733708695   
7500000000.0        -3.73104445417e-05  -0.00439645671319   0.999684256947      -0.0211968706172    0.999684256947      -0.0211968706172    -3.73104445418e-05  -0.00439645671319   
7600000000.0        -3.99161217423e-05  -0.00445558323637   0.999677670564      -0.021481580244     0.999677670564      -0.021481580244     -3.99161217419e-05  -0.00445558323637   
7700000000.0        -4.25558798527e-05  -0.0045147162697    0.999670998036      -0.0217663511599    0.999670998036      -0.0217663511599    -4.25558798528e-05  -0.0045147162697    
7800000000.0        -4.52297257779e-05  -0.00457385542274   0.999664239306      -0.0220511834468    0.999664239306      -0.0220511834468    -4.52297257777e-05  -0.00457385542274   
7900000000.0        -4.79376660757e-05  -0.00463300030129   0.999657394317      -0.0223360771819    0.999657394317      -0.0223360771819    -4.79376660756e-05  -0.00463300030129   
8000000000.0        -5.06797069451e-05  -0.0046921505078    0.99965046301       -0.0226210324377    0.99965046301       -0.0226210324377    -5.06797069451e-05  -0.0046921505078    
8100000000.0        -5.34558542143e-05  -0.00475130564118   0.999643445329      -0.0229060492824    0.999643445329      -0.0229060492824    -5.34558542143e-05  -0.00475130564118   
8200000000.0        -5.62661133301e-05  -0.00481046529711   0.999636341216      -0.0231911277797    0.999636341216      -0.0231911277797    -5.62661133303e-05  -0.00481046529711   
8300000000.0        -5.91104893456e-05  -0.00486962906803   0.999629150615      -0.0234762679892    0.999629150615      -0.0234762679892    -5.91104893457e-05  -0.00486962906803   
8400000000.0        -6.19889869096e-05  -0.00492879654324   0.999621873469      -0.0237614699664    0.999621873469      -0.0237614699664    -6.19889869096e-05  -0.00492879654324   
8500000000.0        -6.4901610259e-05   -0.00498796730894   0.999614509722      -0.0240467337627    0.999614509722      -0.0240467337627    -6.4901610259e-05   -0.00498796730894   
8600000000.0        -6.78483632089e-05  -0.00504714094844   0.999607059317      -0.0243320594257    0.999607059317      -0.0243320594257    -6.78483632087e-05  -0.00504714094844   
8700000000.0        -7.08292491426e-05  -0.00510631704214   0.9995995222        -0.0246174469992    0.9995995222        -0.0246174469992    -7.08292491424e-05  -0.00510631704214   
8800000000.0        -7.38442710025e-05  -0.00516549516759   0.999591898313      -0.0249028965235    0.999591898313      -0.0249028965235    -7.38442710024e-05  -0.00516549516759   
8900000000.0        -7.68934312871e-05  -0.00522467489971   0.999584187602      -0.025188408035     0.999584187602      -0.025188408035     -7.68934312871e-05  -0.00522467489971   
9000000000.0        -7.99767320353e-05  -0.00528385581064   0.999576390012      -0.025473981567     0.999576390012      -0.025473981567     -7.99767320352e-05  -0.00528385581064   
9100000000.0        -8.30941748277e-05  -0.00534303747002   0.999568505488      -0.0257596171492    0.999568505488      -0.0257596171492    -8.30941748275e-05  -0.00534303747002   
9200000000.0        -8.62457607738e-05  -0.00540221944497   0.999560533974      -0.026045314808     0.999560533974      -0.026045314808     -8.62457607738e-05  -0.00540221944497   
9300000000.0        -8.94314905069e-05  -0.00546140130016   0.999552475416      -0.0263310745668    0.999552475416      -0.0263310745668    -8.94314905069e-05  -0.00546140130016   
9400000000.0        -9.2651364179e-05   -0.00552058259783   0.999544329761      -0.0266168964457    0.999544329761      -0.0266168964457    -9.26513641787e-05  -0.00552058259783   
9500000000.0        -9.5905381454e-05   -0.005579762898     0.999536096953      -0.0269027804619    0.999536096953      -0.0269027804619    -9.59053814537e-05  -0.005579762898     
9600000000.0        -9.91935415018e-05  -0.00563894175836   0.999527776938      -0.0271887266296    0.999527776938      -0.0271887266296    -9.91935415015e-05  -0.00563894175836   
9700000000.0        -0.000102515842991  -0.00569811873447   0.999519369664      -0.0274747349603    0.999519369664      -0.0274747349603    -0.000102515842991  -0.00569811873447   
9800000000.0        -0.00010587228409   -0.0057572933797    0.999510875076      -0.0277608054624    0.999510875076      -0.0277608054624    -0.00010587228409   -0.0057572933797    
9900000000.0        -0.000109262862453  -0.0058164652454    0.999502293122      -0.0280469381418    0.999502293122      -0.0280469381418    -0.000109262862453  -0.0058164652454    
10000000000.0       -0.000112687575222  -0.00587563388086   0.999493623748      -0.0283331330019    0.999493623748      -0.0283331330019    -0.000112687575222  -0.00587563388086   
