# Hz S RI R 50.00 
100000000.0         -6.15975687377e-05  -0.0102717844435    0.99982597429       -0.0104209025882    0.99982597429       -0.0104209025882    -6.15975687376e-05  -0.0102717844435    
200000000.0         -0.000392480437069  -0.0205364647375    0.999494292518      -0.0208347056481    0.999494292518      -0.0208347056481    -0.000392480437069  -0.0205364647375    
300000000.0         -0.000936985510893  -0.0307874013483    0.99894916035       -0.0312347723446    0.99894916035       -0.0312347723446    -0.000936985510893  -0.0307874013483    
400000000.0         -0.00169435658642   -0.0410179904087    0.99819123723       -0.0416145009145    0.99819123723       -0.0416145009145    -0.00169435658642   -0.0410179904087    
500000000.0         -0.00266359642807   -0.0512216747036    0.997221483301      -0.0519673359644    0.997221483301      -0.0519673359644    -0.00266359642807   -0.0512216747036    
600000000.0         -0.00384344937166   -0.0613919564131    0.996041135393      -0.0622867813154    0.996041135393      -0.0622867813154    -0.00384344937166   -0.0613919564131    
700000000.0         -0.00523240016045   -0.0715224101128    0.994651697687      -0.0725664130531    0.994651697687      -0.0725664130531    -0.00523240016045   -0.0715224101128    
800000000.0         -0.00682867690356   -0.0816066956678    0.993054934928      -0.0827998924522    0.993054934928      -0.0827998924522    -0.00682867690356   -0.0816066956678    
900000000.0         -0.00863025586247   -0.0916385708594    0.991252865942      -0.0929809786219    0.991252865942      -0.0929809786219    -0.00863025586247   -0.0916385708594    
1000000000.0        -0.0106348673965    -0.101611903648     0.989247756827      -0.103103540782     0.989247756827      -0.103103540782     -0.0106348673965    -0.101611903648     
1100000000.0        -0.012840002805     -0.111520683992     0.987042113635      -0.113161570093     0.987042113635      -0.113161570093     -0.012840002805     -0.111520683992     
1200000000.0        -0.0152429219336    -0.121359035178     0.984638674486      -0.123149190992     0.984638674486      -0.123149190992     -0.0152429219336    -0.121359035178     
1300000000.0        -0.0178406614584    -0.131121224588     0.982040401097      -0.133060671968     0.982040401097      -0.133060671968     -0.0178406614584    -0.131121224588     
1400000000.0        -0.0206300437801    -0.140801673889     0.979250469782      -0.142890435752     0.979250469782      -0.142890435752     -0.0206300437801    -0.140801673889     
1500000000.0        -0.0236076864683    -0.150394968583     0.976272261917      -0.152633068878     0.976272261917      -0.152633068878     -0.0236076864683    -0.150394968583     
1600000000.0        -0.0267700121979    -0.1598958669       0.973109353959      -0.162283330569     0.973109353959      -0.162283330569     -0.0267700121979    -0.1598958669       
1700000000.0        -0.0301132591209    -0.169299307996     0.969765507024      -0.17183616095      0.969765507024      -0.17183616095      -0.0301132591209    -0.169299307996     
1800000000.0        -0.0336334916182    -0.178600419451     0.966244656112      -0.181286688539     0.966244656112      -0.181286688539     -0.0336334916182    -0.178600419451     
1900000000.0        -0.0373266113745    -0.187794524028     0.962550899011      -0.190630237009     0.962550899011      -0.190630237009     -0.0373266113745    -0.187794524028     
2000000000.0        -0.041188368719     -0.196877145699     0.958688484932      -0.19986233122      0.958688484932      -0.19986233122      -0.041188368719     -0.196877145699     
2100000000.0        -0.0452143741787    -0.205844014918     0.954661802952      -0.208978702491     0.954661802952      -0.208978702491     -0.0452143741787    -0.205844014918     
2200000000.0        -0.0494001101867    -0.21469107315      0.950475370288      -0.217975293129     0.950475370288      -0.217975293129     -0.0494001101867    -0.21469107315      
2300000000.0        -0.0537409428921    -0.223414476643     0.946133820485      -0.226848260206     0.946133820485      -0.226848260206     -0.0537409428921    -0.223414476643     
2400000000.0        -0.0582321340187    -0.232010599464     0.941641891545      -0.23559397859      0.941641891545      -0.23559397859      -0.0582321340187    -0.232010599464     
2500000000.0        -0.0628688527209    -0.240476035798     0.937004414072      -0.244209043252     0.937004414072      -0.244209043252     -0.0628688527209    -0.240476035798     
2600000000.0        -0.0676461873873    -0.248807601523     0.932226299457      -0.252690270837     0.932226299457      -0.252690270837     -0.0676461873873    -0.248807601523     
2700000000.0        -0.0725591573443    -0.257002335091     0.927312528178      -0.261034700548     0.927312528178      -0.261034700548     -0.0725591573443    -0.257002335091     
2800000000.0        -0.0776027244156    -0.265057497715     0.922268138233      -0.269239594333     0.922268138233      -0.269239594333     -0.0776027244156    -0.265057497715     
2900000000.0        -0.0827718042937    -0.272970572908     0.917098213767      -0.277302436423     0.917098213767      -0.277302436423     -0.0827718042937    -0.272970572908     
3000000000.0        -0.0880612776848    -0.280739265377     0.911807873925      -0.28522093223      0.911807873925      -0.28522093223      -0.0880612776848    -0.280739265377     
3100000000.0        -0.0934660011902    -0.288361499315     0.906402261971      -0.292993006639     0.906402261971      -0.292993006639     -0.0934660011902    -0.288361499315     
3200000000.0        -0.0989808178904    -0.295835416126     0.900886534698      -0.300616801729     0.900886534698      -0.300616801729     -0.0989808178904    -0.295835416126     
3300000000.0        -0.1046005676       -0.303159371592     0.895265852177      -0.308090673947     0.895265852177      -0.308090673947     -0.1046005676       -0.303159371592     
3400000000.0        -0.11032009677      -0.310331932542     0.889545367849      -0.315413190773     0.889545367849      -0.315413190773     -0.11032009677      -0.310331932542     
3500000000.0        -0.116134268004     -0.317351873037     0.88373021901       -0.322583126906     0.88373021901       -0.322583126906     -0.116134268004     -0.317351873037     
3600000000.0        -0.122037969183     -0.324218170123     0.877825517688      -0.329599460021     0.877825517688      -0.329599460021     -0.122037969183     -0.324218170123     
3700000000.0        -0.128026122159     -0.330929999174     0.871836341941      -0.336461366107     0.871836341941      -0.336461366107     -0.128026122159     -0.330929999174     
3800000000.0        -0.134093691026     -0.337486728868     0.865767727593      -0.343168214446     0.865767727593      -0.343168214446     -0.134093691026     -0.337486728868     
3900000000.0        -0.14023568994      -0.343887915835     0.859624660414      -0.349719562262     0.859624660414      -0.349719562262     -0.14023568994      -0.343887915835     
4000000000.0        -0.146447190479     -0.350133299002     0.853412068749      -0.356115149066     0.853412068749      -0.356115149066     -0.146447190479     -0.350133299002     
4100000000.0        -0.152723328554     -0.356222793686     0.84713481662       -0.36235489075      0.84713481662       -0.36235489075      -0.152723328554     -0.356222793686     
4200000000.0        -0.15905931084      -0.36215648546      0.840797697285      -0.368438873447     0.840797697285      -0.368438873447     -0.15905931084      -0.36215648546      
4300000000.0        -0.165450420756     -0.367934623819     0.834405427263      -0.37436734721      0.834405427263      -0.37436734721      -0.165450420756     -0.367934623819     
4400000000.0        -0.17189202397      -0.373557615703     0.827962640825      -0.38014071952      0.827962640825      -0.38014071952      -0.17189202397      -0.373557615703     
4500000000.0        -0.178379573448     -0.379026018881     0.82147388495       -0.385759548685     0.82147388495       -0.385759548685     -0.178379573448     -0.379026018881     
4600000000.0        -0.184908614042     -0.384340535246     0.814943614728      -0.391224537124     0.814943614728      -0.391224537124     -0.184908614042     -0.384340535246     
4700000000.0        -0.19147478664      -0.389502004045     0.808376189219      -0.396536524602     0.808376189219      -0.396536524602     -0.19147478664      -0.389502004045     
4800000000.0        -0.198073831865     -0.394511395066     0.80177586775       -0.401696481416     0.80177586775       -0.401696481416     -0.198073831865     -0.394511395066     
4900000000.0        -0.204701593353     -0.399369801816     0.795146806634      -0.406705501577     0.795146806634      -0.406705501577     -0.204701593353     -0.399369801816     
5000000000.0        -0.211354020616     -0.404078434713     0.788493056311      -0.411564795996     0.788493056311      -0.411564795996     -0.211354020616     -0.404078434713     
5100000000.0        -0.218027171495     -0.408638614312     0.781818558896      -0.416275685715     0.781818558896      -0.416275685715     -0.218027171495     -0.408638614312     
5200000000.0        -0.22471721423      -0.413051764592     0.775127146102      -0.420839595191     0.775127146102      -0.420839595191     -0.22471721423      -0.413051764592     
5300000000.0        -0.231420429151     -0.417319406314     0.768422537554      -0.425258045657     0.768422537554      -0.425258045657     -0.231420429151     -0.417319406314     
5400000000.0        -0.238133210018     -0.421443150481     0.761708339451      -0.42953264858      0.761708339451      -0.42953264858      -0.238133210018     -0.421443150481     
5500000000.0        -0.244852065015     -0.42542469191      0.754988043567      -0.433665099233     0.754988043567      -0.433665099233     -0.244852065015     -0.42542469191      
5600000000.0        -0.251573617414     -0.429265802924     0.748265026589      -0.437657170391     0.748265026589      -0.437657170391     -0.251573617414     -0.429265802924     
5700000000.0        -0.258294605942     -0.432968327193     0.741542549749      -0.441510706168     0.741542549749      -0.441510706168     -0.258294605942     -0.432968327193     
5800000000.0        -0.265011884851     -0.436534173725     0.734823758755      -0.445227616007     0.734823758755      -0.445227616007     -0.265011884851     -0.436534173725     
5900000000.0        -0.271722423714     -0.439965311014     0.728111683997      -0.448809868836     0.728111683997      -0.448809868836     -0.271722423714     -0.439965311014     
6000000000.0        -0.27842330697      -0.443263761372     0.721409240999      -0.452259487388     0.721409240999      -0.452259487388     -0.27842330697      -0.443263761372     
6100000000.0        -0.285111733223     -0.446431595425     0.714719231115      -0.455578542709     0.714719231115      -0.455578542709     -0.285111733223     -0.446431595425     
6200000000.0        -0.291785014331     -0.449470926806     0.708044342454      -0.458769148846     0.708044342454      -0.458769148846     -0.291785014331     -0.449470926806     
6300000000.0        -0.298440574279     -0.452383907037     0.701387150993      -0.461833457725     0.701387150993      -0.461833457725     -0.298440574279     -0.452383907037     
6400000000.0        -0.305075947866     -0.455172720601     0.694750121896      -0.464773654232     0.694750121896      -0.464773654232     -0.305075947866     -0.455172720601     
6500000000.0        -0.311688779229     -0.457839580215     0.688135610992      -0.467591951478     0.688135610992      -0.467591951478     -0.311688779229     -0.457839580215     
6600000000.0        -0.318276820198     -0.460386722302     0.681545866416      -0.470290586278     0.681545866416      -0.470290586278     -0.318276820198     -0.460386722302     
6700000000.0        -0.324837928512     -0.462816402663     0.674983030391      -0.472871814815     0.674983030391      -0.472871814815     -0.324837928512     -0.462816402663     
6800000000.0        -0.331370065917     -0.465130892349     0.668449141138      -0.475337908521     0.668449141138      -0.475337908521     -0.331370065917     -0.465130892349     
6900000000.0        -0.337871296139     -0.467332473732     0.661946134897      -0.47769115014      0.661946134897      -0.47769115014      -0.337871296139     -0.467332473732     
7000000000.0        -0.344339782761     -0.469423436773     0.655475848049      -0.479933830006     0.655475848049      -0.479933830006     -0.344339782761     -0.469423436773     
7100000000.0        -0.350773787019     -0.471406075492     0.649040019327      -0.482068242501     0.649040019327      -0.482068242501     -0.350773787019     -0.471406075492     
7200000000.0        -0.35717166551      -0.47328268462      0.642640292097      -0.484096682717     0.642640292097      -0.484096682717     -0.35717166551      -0.47328268462      
7300000000.0        -0.36353186785      -0.475055556455     0.63627821671       -0.486021443305     0.63627821671       -0.486021443305     -0.36353186785      -0.475055556455     
7400000000.0        -0.36985293427      -0.476726977887     0.629955252902      -0.487844811507     0.629955252902      -0.487844811507     -0.36985293427      -0.476726977887     
7500000000.0        -0.376133493175     -0.478299227622     0.623672772234      -0.489569066376     0.623672772234      -0.489569066376     -0.376133493175     -0.478299227622     
7600000000.0        -0.382372258665     -0.479774573573     0.617432060573      -0.491196476163     0.617432060573      -0.491196476163     -0.382372258665     -0.479774573573     
7700000000.0        -0.388568028037     -0.481155270423     0.61123432059       -0.492729295893     0.61123432059       -0.492729295893     -0.388568028037     -0.481155270423     
7800000000.0        -0.394719679268     -0.482443557366     0.605080674272      -0.494169765089     0.605080674272      -0.494169765089     -0.394719679268     -0.482443557366     
7900000000.0        -0.400826168494     -0.483641655996     0.598972165451      -0.495520105676     0.598972165451      -0.495520105676     -0.400826168494     -0.483641655996     
8000000000.0        -0.406886527484     -0.484751768363     0.592909762325      -0.496782520029     0.592909762325      -0.496782520029     -0.406886527484     -0.484751768363     
8100000000.0        -0.412899861125     -0.485776075177     0.586894359975      -0.497959189179     0.586894359975      -0.497959189179     -0.412899861125     -0.485776075177     
8200000000.0        -0.418865344915     -0.486716734161     0.580926782869      -0.499052271165     0.580926782869      -0.499052271165     -0.418865344915     -0.486716734161     
8300000000.0        -0.424782222475     -0.487575878533     0.575007787353      -0.50006389952      0.575007787353      -0.50006389952      -0.424782222475     -0.487575878533     
8400000000.0        -0.430649803089     -0.488355615637     0.56913806411       -0.500996181898     0.56913806411       -0.500996181898     -0.430649803089     -0.488355615637     
8500000000.0        -0.436467459265     -0.489058025693     0.563318240599      -0.501851198824     0.563318240599      -0.501851198824     -0.436467459265     -0.489058025693     
8600000000.0        -0.442234624331     -0.489685160671     0.557548883459      -0.502631002572     0.557548883459      -0.502631002572     -0.442234624331     -0.489685160671     
8700000000.0        -0.447950790066     -0.490239043284     0.551830500878      -0.503337616154     0.551830500878      -0.503337616154     -0.447950790066     -0.490239043284     
8800000000.0        -0.453615504372     -0.49072166609      0.546163544922      -0.503973032423     0.546163544922      -0.503973032423     -0.453615504372     -0.49072166609      
8900000000.0        -0.459228368986     -0.491134990703     0.54054841382       -0.504539213286     0.54054841382       -0.504539213286     -0.459228368986     -0.491134990703     
9000000000.0        -0.464789037234     -0.491480947099     0.534985454212      -0.50503808901      0.534985454212      -0.50503808901      -0.464789037234     -0.491480947099     
9100000000.0        -0.470297211839     -0.491761433026     0.529474963344      -0.505471557626     0.529474963344      -0.505471557626     -0.470297211839     -0.491761433026     
9200000000.0        -0.475752642769     -0.49197831349      0.524017191212      -0.505841484427     0.524017191212      -0.505841484427     -0.475752642769     -0.49197831349      
9300000000.0        -0.481155125145     -0.492133420343     0.518612342666      -0.506149701544     0.518612342666      -0.506149701544     -0.481155125145     -0.492133420343     
9400000000.0        -0.486504497188     -0.492228551935     0.513260579447      -0.506398007603     0.513260579447      -0.506398007603     -0.486504497188     -0.492228551935     
9500000000.0        -0.491800638232     -0.492265472851     0.507962022191      -0.506588167464     0.507962022191      -0.506588167464     -0.491800638232     -0.492265472851     
9600000000.0        -0.497043466782     -0.492245913715     0.502716752357      -0.506721912023     0.502716752357      -0.506721912023     -0.497043466782     -0.492245913715     
9700000000.0        -0.502232938629     -0.492171571058     0.497524814124      -0.506800938081     0.497524814124      -0.506800938081     -0.502232938629     -0.492171571058     
9800000000.0        -0.507369045018     -0.492044107253     0.492386216211      -0.506826908275     0.492386216211      -0.506826908275     -0.507369045018     -0.492044107253     
9900000000.0        -0.512451810871     -0.491865150502     0.487300933662      -0.506801451071     0.487300933662      -0.506801451071     -0.512451810871     -0.491865150502     
10000000000.0       -0.517481293069     -0.491636294878     0.482268909563      -0.506726160805     0.482268909563      -0.506726160805     -0.517481293069     -0.491636294878     
