# Hz S RI R 50.00 
100000000.0         0.00304155201282    0.00149107300843    0.996953053867      -0.00366530608112   0.996953053867      -0.00366530608112   0.00304155201282    0.00149107300843    
200000000.0         0.0030772355785     0.00298185615379    0.996908243788      -0.00733034906744   0.996908243788      -0.00733034906744   0.0030772355785     0.00298185615379    
300000000.0         0.00311854941829    0.00447234652919    0.99685307054       -0.0109951426209    0.99685307054       -0.0109951426209    0.00311854941829    0.00447234652919    
400000000.0         0.00316812053509    0.00596248669767    0.996784906469      -0.0146596412174    0.996784906469      -0.0146596412174    0.00316812053509    0.00596248669767    
500000000.0         0.00322695832936    0.00745220665453    0.996702741388      -0.0183237843921    0.996702741388      -0.0183237843921    0.00322695832936    0.00745220665453    
600000000.0         0.00329557538969    0.00894143090762    0.996606061801      -0.0219875046255    0.996606061801      -0.0219875046255    0.00329557538969    0.00894143090762    
700000000.0         0.0033742723296     0.0104300810188     0.996494566069      -0.025650730297     0.996494566069      -0.025650730297     0.00337427232961    0.0104300810188     
800000000.0         0.00346324171328    0.0119180767829     0.996368060497      -0.0293133871121    0.996368060497      -0.0293133871121    0.00346324171328    0.0119180767829     
900000000.0         0.0035626143144     0.0134053368613     0.996226413077      -0.0329753989002    0.996226413077      -0.0329753989002    0.0035626143144     0.0134053368613     
1000000000.0        0.00367248255616    0.0148917791588     0.996069530056      -0.0366366881071    0.996069530056      -0.0366366881071    0.00367248255616    0.0148917791588     
1100000000.0        0.00379291353711    0.0163773210629     0.995897342912      -0.0402971761207    0.995897342912      -0.0402971761207    0.00379291353711    0.0163773210629     
1200000000.0        0.0039239567903     0.0178618796069     0.995709800599      -0.0439567834995    0.995709800599      -0.0439567834995    0.0039239567903     0.0178618796069     
1300000000.0        0.00406564916345    0.0193453715833     0.995506864671      -0.0476154301389    0.995506864671      -0.0476154301389    0.00406564916345    0.0193453715833     
1400000000.0        0.00421801802578    0.0208277136284     0.995288506079      -0.0512730353969    0.995288506079      -0.0512730353969    0.00421801802578    0.0208277136284     
1500000000.0        0.00438108345272    0.022308822285      0.995054702987      -0.0549295181929    0.995054702987      -0.0549295181929    0.00438108345272    0.022308822285      
1600000000.0        0.00455485976001    0.0237886140525     0.994805439241      -0.0585847970855    0.994805439241      -0.0585847970855    0.00455485976001    0.0237886140525     
1700000000.0        0.00473935660926    0.0252670054258     0.994540703268      -0.0622387903369    0.994540703268      -0.0622387903369    0.00473935660926    0.0252670054258     
1800000000.0        0.00493457982254    0.0267439129277     0.994260487261      -0.0658914159666    0.994260487261      -0.0658914159666    0.00493457982254    0.0267439129277     
1900000000.0        0.0051405319945     0.0282192531355     0.993964786568      -0.0695425917959    0.993964786568      -0.0695425917959    0.0051405319945     0.0282192531355     
2000000000.0        0.00535721296023    0.029692942704      0.99365359923       -0.0731922354875    0.99365359923       -0.0731922354875    0.00535721296023    0.029692942704      
2100000000.0        0.00558462015849    0.031164898385      0.993326925615      -0.0768402645789    0.993326925615      -0.0768402645789    0.00558462015849    0.031164898385      
2200000000.0        0.0058227489175     0.0326350370444     0.992984768139      -0.0804865965125    0.992984768139      -0.0804865965125    0.0058227489175     0.0326350370444     
2300000000.0        0.00607159268277    0.0341032756778     0.992627131034      -0.0841311486622    0.992627131034      -0.0841311486622    0.00607159268277    0.0341032756778     
2400000000.0        0.00633114320062    0.0355695314241     0.992254020169      -0.0877738383573    0.992254020169      -0.0877738383573    0.00633114320062    0.0355695314241     
2500000000.0        0.00660139066777    0.0370337215781     0.991865442903      -0.0914145829045    0.991865442903      -0.0914145829045    0.00660139066777    0.0370337215781     
2600000000.0        0.00688232385429    0.0384957636021     0.991461407961      -0.0950532996074    0.991461407961      -0.0950532996074    0.00688232385429    0.0384957636021     
2700000000.0        0.00717393020562    0.0399555751366     0.991041925332      -0.0986899057854    0.991041925332      -0.0986899057854    0.00717393020562    0.0399555751366     
2800000000.0        0.00747619592802    0.0414130740104     0.99060700619       -0.10232431879      0.99060700619       -0.10232431879      0.00747619592802    0.0414130740104     
2900000000.0        0.0077891060606     0.04286817825       0.990156662818      -0.105956456023     0.990156662818      -0.105956456023     0.0077891060606     0.04286817825       
3000000000.0        0.00811264453655    0.0443208060889     0.989690908549      -0.109586234947     0.989690908549      -0.109586234947     0.00811264453655    0.0443208060889     
3100000000.0        0.00844679423563    0.0457708759757     0.989209757718      -0.113213573104     0.989209757718      -0.113213573104     0.00844679423563    0.0457708759757     
3200000000.0        0.00879153702933    0.0472183065829     0.988713225611      -0.116838388127     0.988713225611      -0.116838388127     0.00879153702933    0.0472183065829     
3300000000.0        0.00914685382019    0.0486630168143     0.988201328433      -0.120460597751     0.988201328433      -0.120460597751     0.00914685382019    0.0486630168143     
3400000000.0        0.00951272457604    0.0501049258132     0.987674083272      -0.124080119828     0.987674083272      -0.124080119828     0.00951272457604    0.0501049258132     
3500000000.0        0.0098891283602     0.0515439529696     0.987131508069      -0.127696872337     0.987131508069      -0.127696872337     0.0098891283602     0.0515439529696     
3600000000.0        0.0102760433581     0.0529800179273     0.986573621595      -0.131310773395     0.986573621595      -0.131310773395     0.0102760433581     0.0529800179273     
3700000000.0        0.0106734469013     0.0544130405911     0.986000443423      -0.134921741269     0.986000443423      -0.134921741269     0.0106734469013     0.0544130405911     
3800000000.0        0.0110813154882     0.055842941134      0.985411993912      -0.138529694383     0.985411993912      -0.138529694383     0.0110813154882     0.055842941134      
3900000000.0        0.0114996248038     0.0572696400034     0.984808294188      -0.142134551333     0.984808294188      -0.142134551333     0.0114996248038     0.0572696400034     
4000000000.0        0.0119283497369     0.0586930579281     0.984189366124      -0.145736230891     0.984189366124      -0.145736230891     0.0119283497369     0.0586930579281     
4100000000.0        0.0123674643958     0.0601131159247     0.983555232329      -0.149334652021     0.983555232329      -0.149334652021     0.0123674643958     0.0601131159247     
4200000000.0        0.0128169421227     0.0615297353038     0.982905916133      -0.15292973388      0.982905916133      -0.15292973388      0.0128169421227     0.0615297353038     
4300000000.0        0.0132767555074     0.0629428376767     0.98224144157       -0.156521395834     0.98224144157       -0.156521395834     0.0132767555074     0.0629428376767     
4400000000.0        0.0137468763995     0.064352344961      0.981561833374      -0.160109557463     0.981561833374      -0.160109557463     0.0137468763995     0.064352344961      
4500000000.0        0.0142272759199     0.0657581793873     0.98086711696       -0.163694138569     0.98086711696       -0.163694138569     0.0142272759199     0.0657581793873     
4600000000.0        0.0147179244716     0.0671602635046     0.980157318422      -0.167275059186     0.980157318422      -0.167275059186     0.0147179244716     0.0671602635046     
4700000000.0        0.0152187917498     0.0685585201868     0.979432464514      -0.170852239587     0.979432464514      -0.170852239587     0.0152187917498     0.0685585201868     
4800000000.0        0.0157298467516     0.0699528726381     0.978692582649      -0.174425600292     0.978692582649      -0.174425600292     0.0157298467516     0.0699528726381     
4900000000.0        0.0162510577849     0.0713432443987     0.977937700888      -0.177995062075     0.977937700888      -0.177995062075     0.0162510577849     0.0713432443987     
5000000000.0        0.0167823924771     0.0727295593509     0.977167847929      -0.181560545973     0.977167847929      -0.181560545973     0.0167823924771     0.0727295593509     
5100000000.0        0.0173238177838     0.0741117417244     0.976383053101      -0.185121973291     0.976383053101      -0.185121973291     0.0173238177838     0.0741117417244     
5200000000.0        0.0178752999958     0.0754897161017     0.975583346359      -0.188679265612     0.975583346359      -0.188679265612     0.0178752999958     0.0754897161017     
5300000000.0        0.018436804748      0.0768634074242     0.974768758274      -0.1922323448       0.974768758274      -0.1922323448       0.018436804748      0.0768634074242     
5400000000.0        0.0190082970257     0.0782327409966     0.973939320024      -0.195781133012     0.973939320024      -0.195781133012     0.0190082970257     0.0782327409966     
5500000000.0        0.0195897411724     0.0795976424931     0.973095063394      -0.199325552701     0.973095063394      -0.199325552701     0.0195897411724     0.0795976424931     
5600000000.0        0.0201811008967     0.0809580379623     0.972236020763      -0.202865526621     0.972236020763      -0.202865526621     0.0201811008967     0.0809580379623     
5700000000.0        0.0207823392792     0.0823138538323     0.971362225098      -0.20640097784      0.971362225098      -0.20640097784      0.0207823392792     0.0823138538323     
5800000000.0        0.0213934187789     0.0836650169162     0.970473709952      -0.20993182974      0.970473709952      -0.20993182974      0.0213934187789     0.0836650169162     
5900000000.0        0.0220143012401     0.0850114544165     0.969570509454      -0.213458006027     0.969570509454      -0.213458006027     0.0220143012401     0.0850114544165     
6000000000.0        0.0226449478985     0.0863530939308     0.968652658305      -0.216979430735     0.968652658305      -0.216979430735     0.0226449478985     0.0863530939308     
6100000000.0        0.0232853193878     0.0876898634565     0.96772019177       -0.220496028232     0.96772019177       -0.220496028232     0.0232853193878     0.0876898634565     
6200000000.0        0.023935375746      0.0890216913954     0.966773145673      -0.224007723229     0.966773145673      -0.224007723229     0.023935375746      0.0890216913954     
6300000000.0        0.0245950764214     0.0903485065587     0.965811556392      -0.227514440781     0.965811556392      -0.227514440781     0.0245950764214     0.0903485065587     
6400000000.0        0.0252643802785     0.0916702381719     0.964835460852      -0.231016106296     0.964835460852      -0.231016106296     0.0252643802785     0.0916702381719     
6500000000.0        0.0259432456048     0.0929868158793     0.963844896521      -0.234512645541     0.963844896521      -0.234512645541     0.0259432456048     0.0929868158793     
6600000000.0        0.026631630116      0.0942981697484     0.9628399014        -0.238003984644     0.9628399014        -0.238003984644     0.026631630116      0.0942981697484     
6700000000.0        0.0273294909625     0.0956042302749     0.961820514024      -0.241490050103     0.961820514024      -0.241490050103     0.0273294909625     0.0956042302749     
6800000000.0        0.0280367847349     0.0969049283868     0.960786773449      -0.24497076879      0.960786773449      -0.24497076879      0.0280367847349     0.0969049283868     
6900000000.0        0.0287534674705     0.0982001954491     0.959738719251      -0.248446067955     0.959738719251      -0.248446067955     0.0287534674705     0.0982001954491     
7000000000.0        0.0294794946585     0.0994899632679     0.958676391522      -0.251915875234     0.958676391522      -0.251915875234     0.0294794946585     0.0994899632679     
7100000000.0        0.0302148212465     0.100774164095      0.957599830858      -0.25538011865      0.957599830858      -0.25538011865      0.0302148212465     0.100774164095      
7200000000.0        0.0309594016459     0.102052730631      0.956509078359      -0.258838726621     0.956509078359      -0.258838726621     0.0309594016459     0.102052730631      
7300000000.0        0.0317131897378     0.103325596032      0.95540417562       -0.262291627964     0.95540417562       -0.262291627964     0.0317131897378     0.103325596032      
7400000000.0        0.032476138879      0.10459269391       0.954285164728      -0.265738751901     0.954285164728      -0.265738751901     0.032476138879      0.10459269391       
7500000000.0        0.0332482019077     0.105853958341      0.953152088256      -0.269180028058     0.953152088256      -0.269180028058     0.0332482019077     0.105853958341      
7600000000.0        0.0340293311494     0.107109323866      0.952004989254      -0.272615386478     0.952004989254      -0.272615386478     0.0340293311494     0.107109323866      
7700000000.0        0.0348194784226     0.108358725495      0.950843911248      -0.276044757619     0.950843911248      -0.276044757619     0.0348194784226     0.108358725495      
7800000000.0        0.0356185950444     0.109602098713      0.949668898233      -0.279468072361     0.949668898233      -0.279468072361     0.0356185950444     0.109602098713      
7900000000.0        0.0364266318369     0.110839379481      0.948479994665      -0.282885262011     0.948479994665      -0.282885262011     0.0364266318369     0.110839379481      
8000000000.0        0.0372435391325     0.112070504242      0.947277245457      -0.286296258303     0.947277245457      -0.286296258303     0.0372435391325     0.112070504242      
8100000000.0        0.0380692667797     0.113295409924      0.946060695975      -0.289700993408     0.946060695975      -0.289700993408     0.0380692667797     0.113295409924      
8200000000.0        0.0389037641495     0.114514033942      0.944830392031      -0.293099399934     0.944830392031      -0.293099399934     0.0389037641495     0.114514033942      
8300000000.0        0.0397469801403     0.115726314202      0.943586379876      -0.29649141093      0.943586379876      -0.29649141093      0.0397469801403     0.115726314202      
8400000000.0        0.0405988631845     0.116932189109      0.942328706196      -0.299876959892     0.942328706196      -0.299876959892     0.0405988631845     0.116932189109      
8500000000.0        0.0414593612541     0.118131597562      0.941057418106      -0.303255980765     0.941057418106      -0.303255980765     0.0414593612541     0.118131597562      
8600000000.0        0.0423284218663     0.119324478963      0.939772563143      -0.306628407948     0.939772563143      -0.306628407948     0.0423284218663     0.119324478963      
8700000000.0        0.0432059920895     0.120510773221      0.938474189264      -0.309994176295     0.938474189264      -0.309994176295     0.0432059920895     0.120510773221      
8800000000.0        0.0440920185494     0.12169042075       0.937162344836      -0.313353221122     0.937162344836      -0.313353221122     0.0440920185494     0.12169042075       
8900000000.0        0.0449864474344     0.122863362477      0.935837078633      -0.316705478208     0.935837078633      -0.316705478208     0.0449864474344     0.122863362477      
9000000000.0        0.0458892245018     0.124029539842      0.934498439828      -0.320050883799     0.934498439828      -0.320050883799     0.0458892245018     0.124029539842      
9100000000.0        0.0468002950834     0.125188894804      0.93314647799       -0.323389374611     0.93314647799       -0.323389374611     0.0468002950834     0.125188894804      
9200000000.0        0.0477196040916     0.126341369839      0.931781243076      -0.326720887834     0.931781243076      -0.326720887834     0.0477196040916     0.126341369839      
9300000000.0        0.0486470960253     0.127486907948      0.930402785427      -0.330045361133     0.930402785427      -0.330045361133     0.0486470960253     0.127486907948      
9400000000.0        0.0495827149756     0.128625452656      0.92901115576       -0.333362732654     0.92901115576       -0.333362732654     0.0495827149756     0.128625452656      
9500000000.0        0.0505264046315     0.129756948017      0.927606405165      -0.336672941025     0.927606405165      -0.336672941025     0.0505264046315     0.129756948017      
9600000000.0        0.0514781082865     0.130881338615      0.926188585097      -0.339975925358     0.926188585097      -0.339975925358     0.0514781082865     0.130881338615      
9700000000.0        0.0524377688437     0.131998569568      0.924757747372      -0.343271625254     0.924757747372      -0.343271625254     0.0524377688437     0.131998569568      
9800000000.0        0.0534053288222     0.133108586528      0.923313944159      -0.346559980805     0.923313944159      -0.346559980805     0.0534053288222     0.133108586528      
9900000000.0        0.0543807303628     0.134211335685      0.921857227975      -0.349840932596     0.921857227975      -0.349840932596     0.0543807303628     0.134211335685      
10000000000.0       0.0553639152341     0.135306763773      0.920387651682      -0.353114421705     0.920387651682      -0.353114421705     0.0553639152341     0.135306763773      
