# Hz S RI R 50.00 
100000000.0         0.000369421683708   -0.000149403243328  0.999628637875      -0.000564945065669  0.999628637875      -0.000564945065669  0.000369421683708   -0.000149403243328  
200000000.0         0.000371306193639   -0.00029880946154   0.999625302557      -0.00112989034374   0.999625302557      -0.00112989034374   0.000371306193639   -0.00029880946154   
300000000.0         0.00037237057744    -0.000448218467844  0.999622276979      -0.00169483795696   0.999622276979      -0.00169483795696   0.00037237057744    -0.000448218467844  
400000000.0         0.000372935827324   -0.000597630422958  0.999619240131      -0.00225978914714   0.999619240131      -0.00225978914714   0.000372935827324   -0.000597630422958  
500000000.0         0.000373125439358   -0.000747045516825  0.999616068492      -0.00282474485929   0.999616068492      -0.00282474485929   0.000373125439358   -0.000747045516825  
600000000.0         0.00037300232966    -0.000896463932656  0.999612699119      -0.00338970587214   0.999612699119      -0.00338970587214   0.00037300232966    -0.000896463932656  
700000000.0         0.000372603622028   -0.00104588583894   0.999609094859      -0.00395467285396   0.999609094859      -0.00395467285396   0.000372603622028   -0.00104588583894   
800000000.0         0.000371953338365   -0.00119531138737   0.999605231658      -0.00451964639181   0.999605231658      -0.00451964639181   0.000371953338365   -0.00119531138737   
900000000.0         0.000371068046553   -0.00134474071421   0.999601092914      -0.00508462701083   0.999601092914      -0.00508462701083   0.000371068046553   -0.00134474071421   
1000000000.0        0.000369959721864   -0.0014941739404    0.999596666615      -0.00564961518543   0.999596666615      -0.00564961518543   0.000369959721864   -0.0014941739404    
1100000000.0        0.000368637336791   -0.00164361117288   0.999591943751      -0.00621461134805   0.999591943751      -0.00621461134805   0.000368637336791   -0.00164361117288   
1200000000.0        0.000367107808099   -0.00179305250622   0.999586917365      -0.00677961589606   0.999586917365      -0.00677961589606   0.000367107808099   -0.00179305250622   
1300000000.0        0.000365376592183   -0.00194249802281   0.999581581957      -0.00734462919569   0.999581581957      -0.00734462919569   0.000365376592183   -0.00194249802281   
1400000000.0        0.000363448076396   -0.00209194779421   0.999575933098      -0.00790965158636   0.999575933098      -0.00790965158636   0.000363448076396   -0.00209194779421   
1500000000.0        0.000361325845473   -0.00224140188183   0.999569967158      -0.00847468338355   0.999569967158      -0.00847468338355   0.000361325845473   -0.00224140188183   
1600000000.0        0.000359012868605   -0.00239086033749   0.99956368112       -0.00903972488113   0.99956368112       -0.00903972488113   0.000359012868605   -0.00239086033749   
1700000000.0        0.000356511634181   -0.00254032320412   0.999557072449      -0.00960477635354   0.999557072449      -0.00960477635354   0.000356511634181   -0.00254032320412   
1800000000.0        0.000353824249009   -0.00268979051641   0.999550138987      -0.0101698380575    0.999550138987      -0.0101698380575    0.000353824249009   -0.00268979051641   
1900000000.0        0.000350952512851   -0.00283926230103   0.999542878886      -0.0107349102335    0.999542878886      -0.0107349102335    0.000350952512851   -0.00283926230103   
2000000000.0        0.000347897975291   -0.00298873857734   0.999535290543      -0.0112999931068    0.999535290543      -0.0112999931068    0.000347897975291   -0.00298873857734   
2100000000.0        0.000344661979891   -0.0031382193577    0.999527372562      -0.011865086889     0.999527372562      -0.011865086889     0.000344661979891   -0.0031382193577    
2200000000.0        0.000341245698809   -0.00328770464766   0.999519123717      -0.0124301917785    0.999519123717      -0.0124301917785    0.00034124569881    -0.00328770464766   
2300000000.0        0.000337650160395   -0.00343719444649   0.999510542925      -0.0129953079616    0.999510542925      -0.0129953079616    0.000337650160395   -0.00343719444649   
2400000000.0        0.000333876271353   -0.00358668874746   0.999501629222      -0.0135604356134    0.999501629222      -0.0135604356134    0.000333876271353   -0.00358668874746   
2500000000.0        0.000329924834725   -0.00373618753796   0.999492381749      -0.0141255748981    0.999492381749      -0.0141255748981    0.000329924834725   -0.00373618753796   
2600000000.0        0.000325796564661   -0.00388569079987   0.999482799734      -0.0146907259698    0.999482799734      -0.0146907259698    0.000325796564661   -0.00388569079987   
2700000000.0        0.000321492098583   -0.0040351985098    0.99947288248       -0.0152558889731    0.99947288248       -0.0152558889731    0.000321492098583   -0.0040351985098    
2800000000.0        0.000317012007334   -0.00418471063918   0.999462629357      -0.0158210640434    0.999462629357      -0.0158210640434    0.000317012007334   -0.00418471063918   
2900000000.0        0.000312356803686   -0.00433422715457   0.999452039792      -0.0163862513076    0.999452039792      -0.0163862513076    0.000312356803686   -0.00433422715457   
3000000000.0        0.000307526949512   -0.00448374801784   0.999441113262      -0.0169514508841    0.999441113262      -0.0169514508841    0.000307526949512   -0.00448374801784   
3100000000.0        0.000302522861863   -0.00463327318629   0.999429849287      -0.0175166628838    0.999429849287      -0.0175166628838    0.000302522861863   -0.00463327318629   
3200000000.0        0.000297344918186   -0.00478280261272   0.999418247428      -0.0180818874098    0.999418247428      -0.0180818874098    0.000297344918186   -0.00478280261272   
3300000000.0        0.000291993460773   -0.00493233624582   0.99940630728       -0.0186471245581    0.99940630728       -0.0186471245581    0.000291993460773   -0.00493233624582   
3400000000.0        0.000286468800607   -0.00508187403005   0.999394028466      -0.0192123744178    0.999394028466      -0.0192123744178    0.000286468800607   -0.00508187403005   
3500000000.0        0.000280771220702   -0.00523141590596   0.99938141064       -0.0197776370712    0.99938141064       -0.0197776370712    0.000280771220703   -0.00523141590596   
3600000000.0        0.00027490097899    -0.00538096181017   0.999368453478      -0.0203429125945    0.999368453478      -0.0203429125945    0.00027490097899    -0.00538096181017   
3700000000.0        0.000268858310864   -0.00553051167555   0.999355156681      -0.0209082010574    0.999355156681      -0.0209082010574    0.000268858310864   -0.00553051167555   
3800000000.0        0.000262643431388   -0.00568006543138   0.999341519965      -0.021473502524     0.999341519965      -0.021473502524     0.000262643431387   -0.00568006543138   
3900000000.0        0.000256256537262   -0.00582962300334   0.999327543068      -0.0220388170524    0.999327543068      -0.0220388170524    0.000256256537263   -0.00582962300334   
4000000000.0        0.000249697808538   -0.00597918431369   0.999313225743      -0.0226041446952    0.999313225743      -0.0226041446952    0.000249697808538   -0.00597918431369   
4100000000.0        0.000242967410152   -0.00612874928132   0.999298567757      -0.0231694854999    0.999298567757      -0.0231694854999    0.000242967410152   -0.00612874928132   
4200000000.0        0.000236065493281   -0.00627831782186   0.99928356889       -0.0237348395084    0.99928356889       -0.0237348395084    0.000236065493281   -0.00627831782186   
4300000000.0        0.000228992196553   -0.00642788984776   0.999268228936      -0.0243002067578    0.999268228936      -0.0243002067578    0.000228992196554   -0.00642788984776   
4400000000.0        0.000221747647135   -0.00657746526831   0.999252547699      -0.0248655872805    0.999252547699      -0.0248655872805    0.000221747647135   -0.00657746526831   
4500000000.0        0.000214331961688   -0.00672704398983   0.999236524992      -0.0254309811037    0.999236524992      -0.0254309811037    0.000214331961688   -0.00672704398983   
4600000000.0        0.000206745247252   -0.00687662591564   0.999220160639      -0.0259963882504    0.999220160639      -0.0259963882504    0.000206745247252   -0.00687662591564   
4700000000.0        0.000198987602024   -0.00702621094618   0.999203454472      -0.026561808739     0.999203454472      -0.026561808739     0.000198987602024   -0.00702621094618   
4800000000.0        0.000191059116063   -0.0071757989791    0.999186406331      -0.0271272425836    0.999186406331      -0.0271272425836    0.000191059116063   -0.0071757989791    
4900000000.0        0.000182959871936   -0.00732538990918   0.999169016062      -0.0276926897938    0.999169016062      -0.0276926897938    0.000182959871936   -0.00732538990918   
5000000000.0        0.000174689945293   -0.00747498362859   0.999151283519      -0.0282581503755    0.999151283519      -0.0282581503755    0.000174689945292   -0.00747498362859   
5100000000.0        0.000166249405395   -0.00762458002683   0.999133208562      -0.0288236243302    0.999133208562      -0.0288236243302    0.000166249405395   -0.00762458002683   
5200000000.0        0.000157638315599   -0.00777417899075   0.999114791055      -0.0293891116558    0.999114791055      -0.0293891116558    0.000157638315599   -0.00777417899075   
5300000000.0        0.000148856733786   -0.00792378040476   0.99909603087       -0.0299546123461    0.99909603087       -0.0299546123461    0.000148856733786   -0.00792378040476   
5400000000.0        0.000139904712769   -0.0080733841507    0.999076927882      -0.0305201263914    0.999076927882      -0.0305201263914    0.000139904712769   -0.0080733841507    
5500000000.0        0.000130782300652   -0.00822299010797   0.999057481971      -0.0310856537782    0.999057481971      -0.0310856537782    0.000130782300652   -0.00822299010797   
5600000000.0        0.000121489541167   -0.00837259815364   0.999037693021      -0.0316511944895    0.999037693021      -0.0316511944895    0.000121489541167   -0.00837259815364   
5700000000.0        0.000112026473988   -0.00852220816239   0.99901756092       -0.0322167485048    0.99901756092       -0.0322167485048    0.000112026473988   -0.00852220816239   
5800000000.0        0.000102393135002   -0.00867182000659   0.998997085561      -0.0327823158002    0.998997085561      -0.0327823158002    0.000102393135002   -0.00867182000659   
5900000000.0        9.25895565793e-05   -0.00882143355636   0.998976266837      -0.0333478963486    0.998976266837      -0.0333478963486    9.25895565793e-05   -0.00882143355636   
6000000000.0        8.26157678073e-05   -0.00897104867964   0.998955104647      -0.0339134901196    0.998955104647      -0.0339134901196    8.26157678073e-05   -0.00897104867964   
6100000000.0        7.24717947171e-05   -0.00912066524211   0.998933598893      -0.0344790970793    0.998933598893      -0.0344790970793    7.24717947171e-05   -0.00912066524211   
6200000000.0        6.21576604853e-05   -0.00927028310739   0.998911749478      -0.0350447171911    0.998911749478      -0.0350447171911    6.21576604853e-05   -0.00927028310739   
6300000000.0        5.16733856248e-05   -0.00941990213694   0.998889556309      -0.0356103504152    0.998889556309      -0.0356103504152    5.16733856248e-05   -0.00941990213694   
6400000000.0        4.1018988161e-05    -0.00956952219018   0.998867019296      -0.0361759967087    0.998867019296      -0.0361759967087    4.10189881612e-05   -0.00956952219018   
6500000000.0        3.01944837955e-05   -0.0097191431245    0.998844138349      -0.0367416560259    0.998844138349      -0.0367416560259    3.01944837957e-05   -0.0097191431245    
6600000000.0        1.91998860588e-05   -0.00986876479528   0.998820913382      -0.0373073283182    0.998820913382      -0.0373073283182    1.91998860588e-05   -0.00986876479528   
6700000000.0        8.03520644865e-06   -0.0100183870559    0.99879734431       -0.0378730135341    0.99879734431       -0.0378730135341    8.03520644865e-06   -0.0100183870559    
6800000000.0        -3.29954543488e-06  -0.010168009758     0.998773431051      -0.0384387116194    0.998773431051      -0.0384387116194    -3.29954543454e-06  -0.010168009758     
6900000000.0        -1.48043617686e-05  -0.0103176327509    0.998749173523      -0.0390044225172    0.998749173523      -0.0390044225172    -1.48043617685e-05  -0.0103176327509    
7000000000.0        -2.6479236389e-05   -0.0104672558826    0.998724571649      -0.0395701461677    0.998724571649      -0.0395701461677    -2.64792363889e-05  -0.0104672558826    
7100000000.0        -3.832416469e-05    -0.0106168789987    0.998699625349      -0.040135882509     0.998699625349      -0.040135882509     -3.832416469e-05    -0.0106168789987    
7200000000.0        -5.03391435177e-05  -0.0107665019435    0.998674334549      -0.040701631476     0.998674334549      -0.040701631476     -5.03391435177e-05  -0.0107665019435    
7300000000.0        -6.25241710778e-05  -0.0109161245592    0.998648699173      -0.0412673930015    0.998648699173      -0.0412673930015    -6.25241710775e-05  -0.0109161245592    
7400000000.0        -7.48792468497e-05  -0.0110657466862    0.998622719148      -0.0418331670158    0.998622719148      -0.0418331670158    -7.48792468497e-05  -0.0110657466862    
7500000000.0        -8.74043715021e-05  -0.0112153681633    0.998596394402      -0.0423989534464    0.998596394402      -0.0423989534464    -8.74043715021e-05  -0.0112153681633    
7600000000.0        -0.000100099546814  -0.0113649888278    0.998569724863      -0.0429647522189    0.998569724863      -0.0429647522189    -0.000100099546814  -0.0113649888278    
7700000000.0        -0.000112964775606  -0.0115146085148    0.998542710464      -0.0435305632561    0.998542710464      -0.0435305632561    -0.000112964775606  -0.0115146085148    
7800000000.0        -0.000126000061668  -0.0116642270582    0.998515351134      -0.0440963864788    0.998515351134      -0.0440963864788    -0.000126000061668  -0.0116642270582    
7900000000.0        -0.000139205409694  -0.0118138442902    0.998487646806      -0.0446622218053    0.998487646806      -0.0446622218053    -0.000139205409694  -0.0118138442902    
8000000000.0        -0.000152580825226  -0.011963460041     0.998459597413      -0.0452280691518    0.998459597413      -0.0452280691518    -0.000152580825227  -0.011963460041     
8100000000.0        -0.000166126314594  -0.0121130741398    0.99843120289       -0.0457939284322    0.99843120289       -0.0457939284322    -0.000166126314594  -0.0121130741398    
8200000000.0        -0.000179841884857  -0.0122626864138    0.998402463172      -0.0463597995582    0.998402463172      -0.0463597995582    -0.000179841884857  -0.0122626864138    
8300000000.0        -0.000193727543759  -0.0124122966888    0.998373378195      -0.0469256824396    0.998373378195      -0.0469256824396    -0.000193727543758  -0.0124122966888    
8400000000.0        -0.00020778329968   -0.0125619047892    0.998343947896      -0.0474915769838    0.998343947896      -0.0474915769838    -0.00020778329968   -0.0125619047892    
8500000000.0        -0.000222009161584  -0.0127115105377    0.998314172212      -0.0480574830962    0.998314172212      -0.0480574830962    -0.000222009161584  -0.0127115105377    
8600000000.0        -0.000236405138982  -0.0128611137555    0.998284051081      -0.0486234006803    0.998284051081      -0.0486234006803    -0.000236405138982  -0.0128611137555    
8700000000.0        -0.000250971241888  -0.0130107142627    0.998253584443      -0.0491893296374    0.998253584443      -0.0491893296374    -0.000250971241888  -0.0130107142627    
8800000000.0        -0.000265707480779  -0.0131603118775    0.998222772237      -0.0497552698669    0.998222772237      -0.0497552698669    -0.000265707480778  -0.0131603118775    
8900000000.0        -0.000280613866562  -0.0133099064169    0.998191614404      -0.0503212212664    0.998191614404      -0.0503212212664    -0.000280613866562  -0.0133099064169    
9000000000.0        -0.000295690410536  -0.0134594976966    0.998160110884      -0.0508871837312    0.998160110884      -0.0508871837312    -0.000295690410536  -0.0134594976966    
9100000000.0        -0.000310937124357  -0.0136090855306    0.99812826162       -0.051453157155     0.99812826162       -0.051453157155     -0.000310937124358  -0.0136090855306    
9200000000.0        -0.000326354020012  -0.013758669732     0.998096066552      -0.0520191414297    0.998096066552      -0.0520191414297    -0.000326354020012  -0.013758669732     
9300000000.0        -0.000341941109782  -0.013908250112     0.998063525624      -0.052585136445     0.998063525624      -0.052585136445     -0.000341941109782  -0.013908250112     
9400000000.0        -0.000357698406218  -0.014057826481     0.99803063878       -0.0531511420891    0.99803063878       -0.0531511420891    -0.000357698406218  -0.014057826481     
9500000000.0        -0.000373625922112  -0.0142073986476    0.997997405961      -0.0537171582484    0.997997405961      -0.0537171582484    -0.000373625922112  -0.0142073986476    
9600000000.0        -0.000389723670472  -0.0143569664196    0.997963827114      -0.0542831848073    0.997963827114      -0.0542831848073    -0.000389723670472  -0.0143569664196    
9700000000.0        -0.000405991664494  -0.014506529603     0.997929902182      -0.0548492216487    0.997929902182      -0.0548492216487    -0.000405991664494  -0.014506529603     
9800000000.0        -0.000422429917542  -0.014656088003     0.997895631111      -0.0554152686535    0.997895631111      -0.0554152686535    -0.000422429917542  -0.014656088003     
9900000000.0        -0.000439038443124  -0.0148056414232    0.997861013845      -0.0559813257013    0.997861013845      -0.0559813257013    -0.000439038443124  -0.0148056414232    
10000000000.0       -0.00045581725487   -0.0149551896662    0.997826050332      -0.0565473926697    0.997826050332      -0.0565473926697    -0.00045581725487   -0.0149551896662    
