# Hz S RI R 50.00 
100000000.0         0.00222026853774    0.00119901633687    0.997770108251      -0.00451843482233   0.997770108251      -0.00451843482233   0.00222026853774    0.00119901633686    
200000000.0         0.00224984526927    0.00239776350191    0.997720880782      -0.00903664455308   0.997720880782      -0.00903664455308   0.00224984526927    0.00239776350191    
300000000.0         0.00228640525913    0.0035962030339     0.997653641065      -0.0135546120536    0.997653641065      -0.0135546120536    0.00228640525913    0.0035962030339     
400000000.0         0.00233186411904    0.00479425375486    0.997566471561      -0.0180722667626    0.997566471561      -0.0180722667626    0.00233186411904    0.00479425375486    
500000000.0         0.00238695642704    0.00599182510126    0.997458635369      -0.0225895232382    0.997458635369      -0.0225895232382    0.00238695642704    0.00599182510126    
600000000.0         0.0024520538731     0.00718882262847    0.997329758127      -0.0271062885057    0.997329758127      -0.0271062885057    0.0024520538731     0.00718882262847    
700000000.0         0.00252737313187    0.0083851499501     0.997179620172      -0.0316224649419    0.997179620172      -0.0316224649419    0.00252737313187    0.0083851499501     
800000000.0         0.00261305169083    0.0095807096205     0.997008080743      -0.0361379517275    0.997008080743      -0.0361379517275    0.00261305169083    0.0095807096205     
900000000.0         0.00270918159593    0.0107754035999     0.996815044255      -0.0406526456902    0.996815044255      -0.0406526456902    0.00270918159593    0.0107754035999     
1000000000.0        0.0028158265482     0.0119691335248     0.99660044322       -0.0451664418429    0.99660044322       -0.0451664418429    0.0028158265482     0.0119691335248     
1100000000.0        0.0029330314032     0.0131618008772     0.996364228767      -0.0496792337509    0.996364228767      -0.0496792337509    0.0029330314032     0.0131618008772     
1200000000.0        0.00306082782929    0.0143533070965     0.996106364997      -0.0541909137967    0.996106364997      -0.0541909137967    0.00306082782929    0.0143533070965     
1300000000.0        0.00319923786632    0.0155435536563     0.995826825435      -0.0587013733785    0.995826825435      -0.0587013733785    0.00319923786632    0.0155435536563     
1400000000.0        0.00334827626433    0.0167324421208     0.995525590706      -0.0632105030631    0.995525590706      -0.0632105030631    0.00334827626433    0.0167324421208     
1500000000.0        0.00350795207712    0.0179198741855     0.995202646948      -0.067718192709     0.995202646948      -0.067718192709     0.00350795207712    0.0179198741855     
1600000000.0        0.00367826978161    0.0191057517094     0.994857984707      -0.0722243315656    0.994857984707      -0.0722243315656    0.00367826978161    0.0191057517094     
1700000000.0        0.00385923008488    0.02028997674       0.994491598134      -0.0767288083561    0.994491598134      -0.0767288083561    0.00385923008488    0.02028997674       
1800000000.0        0.00405083051923    0.0214724515339     0.994103484402      -0.0812315113479    0.994103484402      -0.0812315113479    0.00405083051923    0.0214724515339     
1900000000.0        0.00425306588971    0.0226530785737     0.993693643261      -0.0857323284124    0.993693643261      -0.0857323284124    0.00425306588971    0.0226530785737     
2000000000.0        0.00446592861659    0.0238317605823     0.993262076707      -0.0902311470775    0.993262076707      -0.0902311470775    0.00446592861659    0.0238317605823     
2100000000.0        0.00468940900156    0.0250084005356     0.992808788721      -0.0947278545737    0.992808788721      -0.0947278545737    0.00468940900156    0.0250084005356     
2200000000.0        0.00492349543764    0.0261829016738     0.992333785066      -0.0992223378747    0.992333785066      -0.0992223378747    0.00492349543764    0.0261829016738     
2300000000.0        0.00516817457682    0.0273551675116     0.991837073121      -0.103714483735     0.991837073121      -0.103714483735     0.00516817457682    0.0273551675116     
2400000000.0        0.00542343146544    0.0285251018469     0.991318661757      -0.108204178722     0.991318661757      -0.108204178722     0.00542343146544    0.0285251018469     
2500000000.0        0.00568924965491    0.0296926087701     0.990778561227      -0.112691309248     0.990778561227      -0.112691309248     0.00568924965491    0.0296926087701     
2600000000.0        0.00596561129298    0.0308575926717     0.990216783081      -0.117175761596     0.990216783081      -0.117175761596     0.00596561129298    0.0308575926717     
2700000000.0        0.00625249719987    0.0320199582504     0.989633340095      -0.121657421947     0.989633340095      -0.121657421947     0.00625249719987    0.0320199582504     
2800000000.0        0.00654988693224    0.0331796105201     0.989028246212      -0.126136176404     0.989028246212      -0.126136176404     0.00654988693224    0.0331796105201     
2900000000.0        0.0068577588375     0.0343364548176     0.988401516488      -0.130611911014     0.988401516488      -0.130611911014     0.0068577588375     0.0343364548176     
3000000000.0        0.00717609010017    0.0354903968089     0.987753167056      -0.135084511788     0.987753167056      -0.135084511788     0.00717609010017    0.0354903968089     
3100000000.0        0.00750485678195    0.0366413424964     0.987083215082      -0.139553864723     0.987083215082      -0.139553864723     0.00750485678195    0.0366413424964     
3200000000.0        0.00784403385647    0.0377891982256     0.986391678742      -0.144019855818     0.986391678742      -0.144019855818     0.00784403385647    0.0377891982256     
3300000000.0        0.0081935952397     0.0389338706912     0.985678577188      -0.148482371094     0.985678577188      -0.148482371094     0.0081935952397     0.0389338706912     
3400000000.0        0.00855351381682    0.040075266944      0.984943930529      -0.15294129661      0.984943930529      -0.15294129661      0.00855351381682    0.040075266944      
3500000000.0        0.00892376146601    0.0412132943972     0.984187759807      -0.157396518479     0.984187759807      -0.157396518479     0.00892376146601    0.0412132943972     
3600000000.0        0.00930430907979    0.0423478608325     0.983410086984      -0.161847922884     0.983410086984      -0.161847922884     0.00930430907979    0.0423478608325     
3700000000.0        0.00969512658418    0.0434788744064     0.982610934917      -0.166295396091     0.982610934917      -0.166295396091     0.00969512658418    0.0434788744064     
3800000000.0        0.0100961829561     0.0446062436568     0.981790327354      -0.170738824467     0.981790327354      -0.170738824467     0.0100961829561     0.0446062436568     
3900000000.0        0.0105074462393     0.0457298775085     0.980948288912      -0.175178094491     0.980948288912      -0.175178094491     0.0105074462393     0.0457298775085     
4000000000.0        0.0109288835587     0.0468496852801     0.980084845069      -0.179613092764     0.980084845069      -0.179613092764     0.0109288835587     0.0468496852801     
4100000000.0        0.0113604611341     0.0479655766893     0.979200022154      -0.184043706031     0.979200022154      -0.184043706031     0.0113604611341     0.0479655766893     
4200000000.0        0.0118021442925     0.0490774618597     0.978293847332      -0.188469821185     0.978293847332      -0.188469821185     0.0118021442925     0.0490774618597     
4300000000.0        0.01225389748       0.0501852513263     0.977366348603      -0.19289132528      0.977366348603      -0.19289132528      0.01225389748       0.0501852513263     
4400000000.0        0.0127156842725     0.0512888560419     0.976417554784      -0.197308105549     0.976417554784      -0.197308105549     0.0127156842725     0.0512888560419     
4500000000.0        0.013187467386      0.0523881873829     0.975447495506      -0.201720049407     0.975447495506      -0.201720049407     0.013187467386      0.0523881873829     
4600000000.0        0.0136692086867     0.053483157155      0.974456201208      -0.206127044468     0.974456201208      -0.206127044468     0.0136692086867     0.053483157155      
4700000000.0        0.0141608692004     0.0545736775998     0.973443703123      -0.210528978552     0.973443703123      -0.210528978552     0.0141608692004     0.0545736775998     
4800000000.0        0.0146624091209     0.0556596614        0.972410033277      -0.2149257397       0.972410033277      -0.2149257397       0.0146624091209     0.0556596614        
4900000000.0        0.0151737878196     0.0567410216857     0.971355224481      -0.219317216179     0.971355224481      -0.219317216179     0.0151737878196     0.0567410216857     
5000000000.0        0.0156949638526     0.0578176720399     0.970279310322      -0.223703296494     0.970279310322      -0.223703296494     0.0156949638526     0.0578176720399     
5100000000.0        0.01622589497       0.0588895265049     0.969182325158      -0.228083869399     0.969182325158      -0.228083869399     0.01622589497       0.0588895265049     
5200000000.0        0.0167665381227     0.0599564995873     0.968064304116      -0.232458823907     0.968064304116      -0.232458823907     0.0167665381227     0.0599564995873     
5300000000.0        0.0173168494706     0.0610185062644     0.966925283076      -0.236828049294     0.966925283076      -0.236828049294     0.0173168494706     0.0610185062644     
5400000000.0        0.0178767843901     0.0620754619895     0.965765298678      -0.241191435115     0.965765298678      -0.241191435115     0.0178767843901     0.0620754619895     
5500000000.0        0.018446297481      0.0631272826977     0.964584388305      -0.24554887121      0.964584388305      -0.24554887121      0.018446297481      0.0631272826977     
5600000000.0        0.019025342574      0.0641738848119     0.963382590084      -0.249900247711     0.963382590084      -0.249900247711     0.019025342574      0.0641738848119     
5700000000.0        0.0196138727378     0.0652151852475     0.962159942877      -0.254245455052     0.962159942877      -0.254245455052     0.0196138727378     0.0652151852475     
5800000000.0        0.0202118402858     0.0662511014191     0.960916486278      -0.25858438398      0.960916486278      -0.25858438398      0.0202118402858     0.0662511014191     
5900000000.0        0.0208191967832     0.0672815512452     0.959652260606      -0.262916925557     0.959652260606      -0.262916925557     0.0208191967832     0.0672815512452     
6000000000.0        0.0214358930539     0.0683064531539     0.958367306899      -0.267242971174     0.958367306899      -0.267242971174     0.0214358930539     0.0683064531539     
6100000000.0        0.022061879187      0.0693257260885     0.957061666911      -0.271562412557     0.957061666911      -0.271562412557     0.022061879187      0.0693257260885     
6200000000.0        0.0226971045436     0.0703392895129     0.955735383103      -0.275875141773     0.955735383103      -0.275875141773     0.0226971045436     0.0703392895129     
6300000000.0        0.0233415177637     0.0713470634168     0.954388498641      -0.280181051239     0.954388498641      -0.280181051239     0.0233415177637     0.0713470634168     
6400000000.0        0.0239950667726     0.0723489683209     0.953021057387      -0.28448003373      0.953021057387      -0.28448003373      0.0239950667726     0.0723489683209     
6500000000.0        0.0246576987872     0.0733449252826     0.951633103899      -0.288771982386     0.951633103899      -0.288771982386     0.0246576987872     0.0733449252826     
6600000000.0        0.0253293603234     0.0743348559009     0.950224683418      -0.293056790716     0.950224683418      -0.293056790716     0.0253293603234     0.0743348559009     
6700000000.0        0.0260099972018     0.0753186823216     0.948795841871      -0.29733435261      0.948795841871      -0.29733435261      0.0260099972018     0.0753186823216     
6800000000.0        0.0266995545549     0.0762963272426     0.947346625857      -0.301604562345     0.947346625857      -0.301604562345     0.0266995545549     0.0762963272426     
6900000000.0        0.0273979768332     0.0772677139185     0.945877082649      -0.305867314587     0.945877082649      -0.305867314587     0.0273979768332     0.0772677139185     
7000000000.0        0.0281052078117     0.0782327661664     0.944387260185      -0.310122504404     0.944387260185      -0.310122504404     0.0281052078117     0.0782327661664     
7100000000.0        0.0288211905971     0.0791914083702     0.942877207061      -0.314370027267     0.942877207061      -0.314370027267     0.0288211905971     0.0791914083702     
7200000000.0        0.0295458676332     0.0801435654859     0.941346972528      -0.318609779061     0.941346972528      -0.318609779061     0.0295458676332     0.0801435654859     
7300000000.0        0.0302791807086     0.081089163046      0.939796606488      -0.322841656087     0.939796606488      -0.322841656087     0.0302791807086     0.081089163046      
7400000000.0        0.0310210709623     0.0820281271651     0.938226159482      -0.327065555073     0.938226159482      -0.327065555073     0.0310210709623     0.0820281271651     
7500000000.0        0.0317714788909     0.0829603845438     0.936635682691      -0.331281373174     0.936635682691      -0.331281373174     0.0317714788909     0.0829603845438     
7600000000.0        0.0325303443546     0.083885862474      0.935025227929      -0.335489007984     0.935025227929      -0.335489007984     0.0325303443546     0.083885862474      
7700000000.0        0.0332976065842     0.0848044888433     0.933394847634      -0.339688357537     0.933394847634      -0.339688357537     0.0332976065842     0.0848044888433     
7800000000.0        0.0340732041873     0.0857161921394     0.931744594866      -0.343879320317     0.931744594866      -0.343879320317     0.0340732041873     0.0857161921394     
7900000000.0        0.0348570751552     0.0866209014552     0.930074523298      -0.348061795258     0.930074523298      -0.348061795258     0.0348570751552     0.0866209014552     
8000000000.0        0.0356491568693     0.0875185464927     0.928384687215      -0.352235681755     0.928384687215      -0.352235681755     0.0356491568693     0.0875185464927     
8100000000.0        0.0364493861075     0.0884090575675     0.926675141502      -0.356400879666     0.926675141502      -0.356400879666     0.0364493861075     0.0884090575675     
8200000000.0        0.0372576990513     0.0892923656133     0.924945941645      -0.360557289319     0.924945941645      -0.360557289319     0.0372576990513     0.0892923656133     
8300000000.0        0.0380740312919     0.0901684021864     0.923197143718      -0.364704811515     0.923197143718      -0.364704811515     0.0380740312919     0.0901684021864     
8400000000.0        0.0388983178373     0.0910370994694     0.921428804384      -0.368843347536     0.921428804384      -0.368843347536     0.0388983178373     0.0910370994694     
8500000000.0        0.0397304931185     0.0918983902756     0.919640980885      -0.372972799147     0.919640980885      -0.372972799147     0.0397304931185     0.0918983902756     
8600000000.0        0.0405704909966     0.0927522080533     0.917833731036      -0.377093068602     0.917833731036      -0.377093068602     0.0405704909966     0.0927522080533     
8700000000.0        0.0414182447689     0.0935984868895     0.916007113222      -0.381204058651     0.916007113222      -0.381204058651     0.0414182447689     0.0935984868895     
8800000000.0        0.0422736871764     0.0944371615141     0.914161186388      -0.385305672539     0.914161186388      -0.385305672539     0.0422736871764     0.0944371615141     
8900000000.0        0.0431367504097     0.0952681673038     0.912296010037      -0.389397814017     0.912296010037      -0.389397814017     0.0431367504097     0.0952681673038     
9000000000.0        0.0440073661162     0.0960914402858     0.910411644221      -0.393480387341     0.910411644221      -0.393480387341     0.0440073661162     0.0960914402858     
9100000000.0        0.0448854654066     0.0969069171416     0.908508149538      -0.39755329728      0.908508149538      -0.39755329728      0.0448854654066     0.0969069171416     
9200000000.0        0.0457709788618     0.0977145352109     0.906585587121      -0.401616449119     0.906585587121      -0.401616449119     0.0457709788618     0.0977145352109     
9300000000.0        0.0466638365395     0.098514232495      0.904644018639      -0.405669748662     0.904644018639      -0.405669748662     0.0466638365395     0.098514232495      
9400000000.0        0.0475639679812     0.0993059476607     0.902683506284      -0.409713102237     0.902683506284      -0.409713102237     0.0475639679812     0.0993059476607     
9500000000.0        0.0484713022186     0.100089620044      0.900704112768      -0.413746416701     0.900704112768      -0.413746416701     0.0484713022186     0.100089620044      
9600000000.0        0.0493857677809     0.100865189651      0.898705901318      -0.417769599441     0.898705901318      -0.417769599441     0.0493857677809     0.100865189651      
9700000000.0        0.050307292701      0.101632597167      0.896688935668      -0.421782558381     0.896688935668      -0.421782558381     0.050307292701      0.101632597167      
9800000000.0        0.0512358045228     0.102391783954      0.894653280054      -0.425785201983     0.894653280054      -0.425785201983     0.0512358045228     0.102391783954      
9900000000.0        0.0521712303079     0.103142692056      0.892598999206      -0.429777439253     0.892598999206      -0.429777439253     0.0521712303079     0.103142692056      
10000000000.0       0.0531134966423     0.103885264204      0.890526158343      -0.433759179741     0.890526158343      -0.433759179741     0.0531134966423     0.103885264204      
