# Hz S RI R 50.00 
100000000.0         0.00237754907875    0.00032286360412    0.997621225306      -0.000541041587372  0.997621225306      -0.000541041587372  0.00237754907875    0.00032286360412    
200000000.0         0.00239370447251    0.000645699862254   0.997604796655      -0.00108205645739   0.997604796655      -0.00108205645739   0.00239370447251    0.000645699862254   
300000000.0         0.00240598832633    0.000968519458951   0.997592191901      -0.00162305566724   0.997592191901      -0.00162305566724   0.00240598832633    0.000968519458951   
400000000.0         0.00241646721166    0.00129132588537    0.997581344471      -0.00216404299806   0.997581344471      -0.00216404299806   0.00241646721166    0.00129132588537    
500000000.0         0.00242593809675    0.00161412095497    0.997571457396      -0.00270502051242   0.997571457396      -0.00270502051242   0.00242593809675    0.00161412095497    
600000000.0         0.00243480796527    0.00193690573687    0.997562123689      -0.00324598950166   0.997562123689      -0.00324598950166   0.00243480796527    0.00193690573687    
700000000.0         0.00244331754425    0.00225968089121    0.997553102621      -0.00378695082894   0.997553102621      -0.00378695082894   0.00244331754425    0.00225968089121    
800000000.0         0.00245162299722    0.00258244682502    0.997544238028      -0.00432790508926   0.997544238028      -0.00432790508926   0.00245162299722    0.00258244682502    
900000000.0         0.00245983231536    0.0029052037759     0.997535421915      -0.00486885269608   0.997535421915      -0.00486885269608   0.00245983231536    0.0029052037759     
1000000000.0        0.00246802377193    0.00322795186154    0.997526576008      -0.00540979393306   0.997526576008      -0.00540979393306   0.00246802377193    0.00322795186154    
1100000000.0        0.00247625618553    0.00355069111138    0.997517641484      -0.00595072898687   0.997517641484      -0.00595072898687   0.00247625618553    0.00355069111138    
1200000000.0        0.00248457503832    0.00387342148762    0.99750857286       -0.00649165796958   0.99750857286       -0.00649165796958   0.00248457503832    0.00387342148762    
1300000000.0        0.00249301632725    0.00419614289995    0.997499334135      -0.00703258093424   0.997499334135      -0.00703258093424   0.00249301632725    0.00419614289995    
1400000000.0        0.00250160909635    0.00451885521625    0.997489896263      -0.00757349788621   0.997489896263      -0.00757349788621   0.00250160909635    0.00451885521625    
1500000000.0        0.00251037716315    0.00484155827045    0.997480235423      -0.00811440879172   0.997480235423      -0.00811440879172   0.00251037716315    0.00484155827045    
1600000000.0        0.00251934033179    0.00516425186854    0.997470331809      -0.00865531358427   0.997470331809      -0.00865531358427   0.00251934033179    0.00516425186854    
1700000000.0        0.0025285152675     0.0054869357933     0.997460168752      -0.00919621216972   0.997460168752      -0.00919621216972   0.0025285152675     0.0054869357933     
1800000000.0        0.00253791614131    0.00580960980779    0.997449732078      -0.00973710443043   0.997449732078      -0.00973710443043   0.00253791614131    0.00580960980779    
1900000000.0        0.00254755511443    0.00613227365857    0.997439009623      -0.0102779902282    0.997439009623      -0.0102779902282    0.00254755511443    0.00613227365857    
2000000000.0        0.0025574427087     0.0064549270777     0.997427990861      -0.0108188694074    0.997427990861      -0.0108188694074    0.0025574427087     0.0064549270777     
2100000000.0        0.0025675880938     0.00677756978511    0.997416666619      -0.0113597417966    0.997416666619      -0.0113597417966    0.0025675880938     0.00677756978511    
2200000000.0        0.0025779993133     0.00710020148988    0.99740502885       -0.0119006072107    0.99740502885       -0.0119006072107    0.0025779993133     0.00710020148988    
2300000000.0        0.00258868346453    0.00742282189178    0.997393070454      -0.0124414654524    0.997393070454      -0.0124414654524    0.00258868346453    0.00742282189178    
2400000000.0        0.00259964684334    0.00774543068237    0.99738078513       -0.0129823163137    0.99738078513       -0.0129823163137    0.00259964684334    0.00774543068237    
2500000000.0        0.00261089506174    0.00806802754593    0.997368167264      -0.0135231595766    0.997368167264      -0.0135231595766    0.00261089506174    0.00806802754593    
2600000000.0        0.00262243314438    0.00839061216031    0.997355211826      -0.0140639950143    0.997355211826      -0.0140639950143    0.00262243314438    0.00839061216031    
2700000000.0        0.0026342656083     0.00871318419769    0.997341914296      -0.0146048223923    0.997341914296      -0.0146048223923    0.0026342656083     0.00871318419769    
2800000000.0        0.00264639652942    0.00903574332513    0.997328270594      -0.0151456414685    0.997328270594      -0.0151456414685    0.00264639652942    0.00903574332513    
2900000000.0        0.00265882959828    0.00935828920516    0.997314277026      -0.0156864519943    0.997314277026      -0.0156864519943    0.00265882959828    0.00935828920516    
3000000000.0        0.00267156816712    0.00968082149624    0.997299930234      -0.0162272537151    0.997299930234      -0.0162272537151    0.00267156816712    0.00968082149624    
3100000000.0        0.00268461528991    0.0100033398532     0.997285227161      -0.0167680463707    0.997285227161      -0.0167680463707    0.00268461528991    0.0100033398532     
3200000000.0        0.00269797375647    0.0103258439274     0.997270165013      -0.0173088296959    0.997270165013      -0.0173088296959    0.00269797375647    0.0103258439274     
3300000000.0        0.00271164612188    0.0106483333674     0.997254741231      -0.0178496034207    0.997254741231      -0.0178496034207    0.00271164612188    0.0106483333674     
3400000000.0        0.00272563473174    0.0109708078191     0.997238953464      -0.0183903672705    0.997238953464      -0.0183903672705    0.00272563473174    0.0109708078191     
3500000000.0        0.00273994174414    0.0112932669259     0.997222799551      -0.0189311209671    0.997222799551      -0.0189311209671    0.00273994174414    0.0112932669259     
3600000000.0        0.00275456914877    0.0116157103289     0.997206277496      -0.0194718642283    0.997206277496      -0.0194718642283    0.00275456914877    0.0116157103289     
3700000000.0        0.00276951878364    0.0119381376673     0.997189385458      -0.0200125967683    0.997189385458      -0.0200125967683    0.00276951878364    0.0119381376673     
3800000000.0        0.00278479234969    0.0122605485787     0.99717212173       -0.0205533182983    0.99717212173       -0.0205533182983    0.00278479234969    0.0122605485787     
3900000000.0        0.00280039142374    0.0125829426987     0.997154484733      -0.0210940285262    0.997154484733      -0.0210940285262    0.00280039142374    0.0125829426987     
4000000000.0        0.00281631746987    0.0129053196616     0.997136472995      -0.0216347271573    0.997136472995      -0.0216347271573    0.00281631746987    0.0129053196616     
4100000000.0        0.00283257184951    0.0132276791005     0.997118085152      -0.022175413894     0.997118085152      -0.022175413894     0.00283257184951    0.0132276791005     
4200000000.0        0.00284915583046    0.0135500206469     0.997099319931      -0.0227160884364    0.997099319931      -0.0227160884364    0.00284915583046    0.0135500206469     
4300000000.0        0.00286607059489    0.0138723439315     0.997080176145      -0.023256750482     0.997080176145      -0.023256750482     0.00286607059489    0.0138723439315     
4400000000.0        0.00288331724646    0.014194648584      0.997060652685      -0.0237973997263    0.997060652685      -0.0237973997263    0.00288331724646    0.014194648584      
4500000000.0        0.00290089681682    0.0145169342329     0.997040748515      -0.0243380358628    0.997040748515      -0.0243380358628    0.00290089681682    0.0145169342329     
4600000000.0        0.0029188102713     0.0148392005063     0.997020462664      -0.0248786585827    0.997020462664      -0.0248786585827    0.0029188102713     0.0148392005063     
4700000000.0        0.00293705851416    0.0151614470313     0.996999794223      -0.0254192675755    0.996999794223      -0.0254192675755    0.00293705851416    0.0151614470313     
4800000000.0        0.00295564239328    0.0154836734343     0.996978742339      -0.0259598625292    0.996978742339      -0.0259598625292    0.00295564239328    0.0154836734343     
4900000000.0        0.00297456270437    0.0158058793412     0.996957306211      -0.0265004431297    0.996957306211      -0.0265004431297    0.00297456270437    0.0158058793412     
5000000000.0        0.00299382019486    0.0161280643774     0.996935485087      -0.0270410090617    0.996935485087      -0.0270410090617    0.00299382019486    0.0161280643774     
5100000000.0        0.00301341556737    0.0164502281677     0.996913278258      -0.0275815600083    0.996913278258      -0.0275815600083    0.00301341556737    0.0164502281677     
5200000000.0        0.0030333494829     0.0167723703366     0.996890685058      -0.028122095651     0.996890685058      -0.028122095651     0.0030333494829     0.0167723703366     
5300000000.0        0.00305362256375    0.0170944905082     0.99686770486       -0.0286626156702    0.99686770486       -0.0286626156702    0.00305362256375    0.0170944905082     
5400000000.0        0.00307423539615    0.0174165883062     0.996844337073      -0.029203119745     0.996844337073      -0.029203119745     0.00307423539615    0.0174165883062     
5500000000.0        0.0030951885327     0.017738663354      0.996820581136      -0.0297436075532    0.996820581136      -0.0297436075532    0.0030951885327     0.017738663354      
5600000000.0        0.00311648249458    0.018060715275      0.996796436526      -0.0302840787715    0.996796436526      -0.0302840787715    0.00311648249458    0.018060715275      
5700000000.0        0.00313811777362    0.018382743692      0.996771902743      -0.0308245330756    0.996771902743      -0.0308245330756    0.00313811777362    0.018382743692      
5800000000.0        0.00316009483413    0.018704748228      0.996746979318      -0.0313649701401    0.996746979318      -0.0313649701401    0.00316009483413    0.018704748228      
5900000000.0        0.00318241411468    0.0190267285055     0.996721665807      -0.0319053896384    0.996721665807      -0.0319053896384    0.00318241411468    0.0190267285055     
6000000000.0        0.00320507602966    0.0193486841473     0.996695961791      -0.0324457912434    0.996695961791      -0.0324457912434    0.00320507602966    0.0193486841473     
6100000000.0        0.00322808097076    0.0196706147757     0.99666986687       -0.0329861746267    0.99666986687       -0.0329861746267    0.00322808097076    0.0196706147757     
6200000000.0        0.00325142930832    0.0199925200132     0.99664338067       -0.0335265394592    0.99664338067       -0.0335265394592    0.00325142930832    0.0199925200132     
6300000000.0        0.00327512139261    0.0203143994821     0.996616502834      -0.034066885411     0.996616502834      -0.034066885411     0.00327512139261    0.0203143994821     
6400000000.0        0.00329915755498    0.020636252805      0.996589233026      -0.0346072121515    0.996589233026      -0.0346072121515    0.00329915755498    0.020636252805      
6500000000.0        0.00332353810895    0.020958079604      0.996561570925      -0.0351475193493    0.996561570925      -0.0351475193493    0.00332353810895    0.020958079604      
6600000000.0        0.00334826335121    0.0212798795017     0.99653351623       -0.035687806672     0.99653351623       -0.035687806672     0.00334826335121    0.0212798795017     
6700000000.0        0.00337333356254    0.0216016521206     0.996505068654      -0.036228073787     0.996505068654      -0.036228073787     0.00337333356254    0.0216016521206     
6800000000.0        0.00339874900871    0.021923397083      0.996476227924      -0.0367683203608    0.996476227924      -0.0367683203608    0.00339874900871    0.021923397083      
6900000000.0        0.00342450994128    0.0222451140117     0.996446993784      -0.0373085460593    0.996446993784      -0.0373085460593    0.00342450994128    0.0222451140117     
7000000000.0        0.00345061659835    0.0225668025293     0.996417365989      -0.0378487505478    0.996417365989      -0.0378487505478    0.00345061659835    0.0225668025293     
7100000000.0        0.00347706920525    0.0228884622587     0.996387344307      -0.0383889334911    0.996387344307      -0.0383889334911    0.00347706920525    0.0228884622587     
7200000000.0        0.00350386797525    0.0232100928227     0.996356928521      -0.0389290945533    0.996356928521      -0.0389290945533    0.00350386797525    0.0232100928227     
7300000000.0        0.00353101311012    0.0235316938444     0.996326118421      -0.0394692333983    0.996326118421      -0.0394692333983    0.00353101311012    0.0235316938444     
7400000000.0        0.00355850480074    0.023853264947      0.996294913811      -0.0400093496891    0.996294913811      -0.0400093496891    0.00355850480074    0.023853264947      
7500000000.0        0.00358634322764    0.0241748057539     0.996263314503      -0.0405494430886    0.996263314503      -0.0405494430886    0.00358634322764    0.0241748057539     
7600000000.0        0.0036145285615     0.0244963158887     0.996231320322      -0.0410895132589    0.996231320322      -0.0410895132589    0.0036145285615     0.0244963158887     
7700000000.0        0.00364306096364    0.024817794975      0.996198931099      -0.0416295598621    0.996198931099      -0.0416295598621    0.00364306096364    0.024817794975      
7800000000.0        0.00367194058643    0.0251392426367     0.996166146676      -0.0421695825594    0.996166146676      -0.0421695825594    0.00367194058643    0.0251392426367     
7900000000.0        0.00370116757377    0.025460658498      0.996132966902      -0.0427095810119    0.996132966902      -0.0427095810119    0.00370116757377    0.025460658498      
8000000000.0        0.00373074206143    0.0257820421832     0.996099391637      -0.0432495548803    0.996099391637      -0.0432495548803    0.00373074206143    0.0257820421832     
8100000000.0        0.00376066417747    0.0261033933167     0.996065420744      -0.043789503825     0.996065420744      -0.043789503825     0.00376066417747    0.0261033933167     
8200000000.0        0.00379093404255    0.0264247115233     0.996031054097      -0.0443294275057    0.996031054097      -0.0443294275057    0.00379093404255    0.0264247115233     
8300000000.0        0.00382155177029    0.026745996428      0.995996291577      -0.0448693255822    0.995996291577      -0.0448693255822    0.00382155177029    0.026745996428      
8400000000.0        0.00385251746758    0.027067247656      0.995961133069      -0.0454091977138    0.995961133069      -0.0454091977138    0.00385251746758    0.027067247656      
8500000000.0        0.00388383123485    0.0273884648326     0.995925578467      -0.0459490435594    0.995925578467      -0.0459490435594    0.00388383123485    0.0273884648326     
8600000000.0        0.00391549316637    0.0277096475837     0.99588962767       -0.0464888627777    0.99588962767       -0.0464888627777    0.00391549316637    0.0277096475837     
8700000000.0        0.00394750335054    0.0280307955351     0.995853280583      -0.0470286550273    0.995853280583      -0.0470286550273    0.00394750335054    0.0280307955351     
8800000000.0        0.00397986187007    0.028351908313      0.995816537118      -0.0475684199662    0.995816537118      -0.0475684199662    0.00397986187007    0.028351908313      
8900000000.0        0.00401256880228    0.0286729855439     0.995779397189      -0.0481081572525    0.995779397189      -0.0481081572525    0.00401256880228    0.0286729855439     
9000000000.0        0.0040456242193     0.0289940268545     0.995741860718      -0.0486478665436    0.995741860718      -0.0486478665436    0.0040456242193     0.0289940268545     
9100000000.0        0.00407902818826    0.0293150318717     0.995703927633      -0.0491875474972    0.995703927633      -0.0491875474972    0.00407902818826    0.0293150318717     
9200000000.0        0.00411278077154    0.0296360002229     0.995665597862      -0.0497271997704    0.995665597862      -0.0497271997704    0.00411278077154    0.0296360002229     
9300000000.0        0.0041468820269     0.0299569315355     0.995626871343      -0.0502668230203    0.995626871343      -0.0502668230203    0.0041468820269     0.0299569315355     
9400000000.0        0.00418133200774    0.0302778254375     0.995587748015      -0.0508064169036    0.995587748015      -0.0508064169036    0.00418133200774    0.0302778254375     
9500000000.0        0.00421613076318    0.0305986815568     0.995548227822      -0.051345981077     0.995548227822      -0.051345981077     0.00421613076318    0.0305986815568     
9600000000.0        0.00425127833828    0.0309194995219     0.995508310712      -0.0518855151969    0.995508310712      -0.0518855151969    0.00425127833828    0.0309194995219     
9700000000.0        0.00428677477421    0.0312402789615     0.995467996638      -0.0524250189197    0.995467996638      -0.0524250189197    0.00428677477421    0.0312402789615     
9800000000.0        0.00432262010833    0.0315610195045     0.995427285556      -0.0529644919013    0.995427285556      -0.0529644919013    0.00432262010833    0.0315610195045     
9900000000.0        0.00435881437441    0.0318817207802     0.995386177424      -0.0535039337979    0.995386177424      -0.0535039337979    0.00435881437441    0.0318817207802     
10000000000.0       0.00439535760269    0.0322023824182     0.995344672206      -0.0540433442651    0.995344672206      -0.0540433442651    0.00439535760269    0.0322023824182     
