# Hz S RI R 50.00 
100000000.0         0.000563757562098   -0.000335470219251  0.99943084043       -0.0018230465981    0.99943084043       -0.0018230465981    0.000563757562098   -0.000335470219251  
200000000.0         0.000564683506631   -0.000670962302036  0.999420852093      -0.00364611125653   0.999420852093      -0.00364611125653   0.00056468350663    -0.000670962302036  
300000000.0         0.000563393527043   -0.0010064771626    0.999408418748      -0.00546921228532   0.999408418748      -0.00546921228532   0.000563393527044   -0.0010064771626    
400000000.0         0.000560377393246   -0.00134201622795   0.99939304992       -0.00729236024196   0.99939304992       -0.00729236024196   0.000560377393246   -0.00134201622795   
500000000.0         0.000555823271953   -0.00167758035326   0.999374556613      -0.00911556257069   0.999374556613      -0.00911556257069   0.000555823271953   -0.00167758035326   
600000000.0         0.000549826818789   -0.00201316985613   0.999352842241      -0.010938824822     0.999352842241      -0.010938824822     0.000549826818789   -0.00201316985613   
700000000.0         0.000542444299658   -0.00234878459326   0.999327849521      -0.0127621512174    0.999327849521      -0.0127621512174    0.000542444299658   -0.00234878459326   
800000000.0         0.000533711968454   -0.00268442402553   0.999299541108      -0.0145855449695    0.999299541108      -0.0145855449695    0.000533711968454   -0.00268442402553   
900000000.0         0.000523654691294   -0.00302008726966   0.99926789098       -0.0164090084851    0.99926789098       -0.0164090084851    0.000523654691294   -0.00302008726966   
1000000000.0        0.00051229031656    -0.00335577313887   0.999232880076      -0.0182325435045    0.999232880076      -0.0182325435045    0.00051229031656    -0.00335577313887   
1100000000.0        0.0004996321036     -0.00369148017524   0.999194493874      -0.0200561512027    0.999194493874      -0.0200561512027    0.0004996321036     -0.00369148017524   
1200000000.0        0.000485690169854   -0.00402720667598   0.999152720952      -0.0218798322647    0.999152720952      -0.0218798322647    0.000485690169853   -0.00402720667598   
1300000000.0        0.000470472401367   -0.00436295071536   0.99910755208       -0.0237035869453    0.99910755208       -0.0237035869453    0.000470472401368   -0.00436295071536   
1400000000.0        0.00045398505147    -0.00469871016281   0.99905897963       -0.0255274151154    0.99905897963       -0.0255274151154    0.00045398505147    -0.00469871016281   
1500000000.0        0.000436233148898   -0.00503448269852   0.999006997167      -0.0273513163008    0.999006997167      -0.0273513163008    0.000436233148899   -0.00503448269852   
1600000000.0        0.000417220784677   -0.00537026582676   0.998951599173      -0.029175289714     0.998951599173      -0.029175289714     0.000417220784677   -0.00537026582676   
1700000000.0        0.00039695131906    -0.00570605688746   0.998892780838      -0.030999334281     0.998892780838      -0.030999334281     0.00039695131906    -0.00570605688746   
1800000000.0        0.000375427534203   -0.00604185306645   0.998830537913      -0.0328234486636    0.998830537913      -0.0328234486636    0.000375427534203   -0.00604185306645   
1900000000.0        0.000352651749054   -0.0063776514044    0.998764866598      -0.0346476312797    0.998764866598      -0.0346476312797    0.000352651749054   -0.0063776514044    
2000000000.0        0.0003286259073     -0.00671344880496   0.99869576346       -0.0364718803201    0.99869576346       -0.0364718803201    0.0003286259073     -0.00671344880496   
2100000000.0        0.00030335164576    -0.00704924204193   0.998623225362      -0.0382961937634    0.998623225362      -0.0382961937634    0.00030335164576    -0.00704924204193   
2200000000.0        0.000276830348292   -0.00738502776581   0.998547249416      -0.0401205693896    0.998547249416      -0.0401205693896    0.000276830348292   -0.00738502776581   
2300000000.0        0.000249063188845   -0.00772080250971   0.998467832939      -0.0419450047914    0.998467832939      -0.0419450047914    0.000249063188845   -0.00772080250971   
2400000000.0        0.000220051166198   -0.00805656269483   0.998384973426      -0.0437694973854    0.998384973426      -0.0437694973854    0.000220051166198   -0.00805656269483   
2500000000.0        0.000189795132331   -0.0083923046354    0.998298668519      -0.0455940444214    0.998298668519      -0.0455940444214    0.000189795132331   -0.0083923046354    
2600000000.0        0.000158295815764   -0.00872802454334   0.998208915985      -0.0474186429908    0.998208915985      -0.0474186429908    0.000158295815764   -0.00872802454334   
2700000000.0        0.000125553840983   -0.00906371853239   0.998115713705      -0.049243290035     0.998115713705      -0.049243290035     0.000125553840983   -0.00906371853239   
2800000000.0        9.15697446899e-05   -0.00939938262221   0.998019059652      -0.0510679823521    0.998019059652      -0.0510679823521    9.15697446899e-05   -0.00939938262221   
2900000000.0        5.63439895391e-05   -0.00973501274198   0.997918951886      -0.052892716604     0.997918951886      -0.052892716604     5.63439895391e-05   -0.00973501274198   
3000000000.0        1.98769758017e-05   -0.0100706047339    0.997815388538      -0.0547174893221    0.997815388538      -0.0547174893221    1.9876975802e-05    -0.0100706047339    
3100000000.0        -1.78309486337e-05  -0.0104061543562    0.997708367806      -0.0565422969131    0.997708367806      -0.0565422969131    -1.78309486337e-05  -0.0104061543562    
3200000000.0        -5.67794796659e-05  -0.0107416572867    0.997597887946      -0.0583671356641    0.997597887946      -0.0583671356641    -5.67794796659e-05  -0.0107416572867    
3300000000.0        -9.69683495257e-05  -0.0110771091251    0.997483947268      -0.0601920017479    0.997483947268      -0.0601920017479    -9.69683495257e-05  -0.0110771091251    
3400000000.0        -0.000138397320278  -0.011412505396     0.997366544127      -0.0620168912269    0.997366544127      -0.0620168912269    -0.000138397320278  -0.011412505396     
3500000000.0        -0.000181066178143  -0.0117478415514    0.997245676923      -0.0638418000577    0.997245676923      -0.0638418000577    -0.000181066178143  -0.0117478415514    
3600000000.0        -0.000224974728485  -0.0120831129732    0.997121344097      -0.0656667240952    0.997121344097      -0.0656667240952    -0.000224974728485  -0.0120831129732    
3700000000.0        -0.000270122791398  -0.0124183149754    0.996993544123      -0.067491659096     0.996993544123      -0.067491659096     -0.000270122791397  -0.0124183149754    
3800000000.0        -0.000316510197767  -0.0127534428063    0.996862275512      -0.069316600722     0.996862275512      -0.069316600722     -0.000316510197767  -0.0127534428063    
3900000000.0        -0.00036413678577   -0.0130884916507    0.996727536806      -0.0711415445441    0.996727536806      -0.0711415445441    -0.00036413678577   -0.0130884916507    
4000000000.0        -0.00041300239774   -0.0134234566321    0.996589326576      -0.0729664860447    0.996589326576      -0.0729664860447    -0.00041300239774   -0.0134234566321    
4100000000.0        -0.000463106877341  -0.0137583328141    0.996447643422      -0.0747914206212    0.996447643422      -0.0747914206212    -0.000463106877341  -0.0137583328141    
4200000000.0        -0.000514450067027  -0.0140931152027    0.996302485969      -0.0766163435884    0.996302485969      -0.0766163435884    -0.000514450067027  -0.0140931152027    
4300000000.0        -0.000567031805736  -0.0144277987479    0.996153852871      -0.0784412501815    0.996153852871      -0.0784412501815    -0.000567031805736  -0.0144277987479    
4400000000.0        -0.000620851926799  -0.0147623783454    0.996001742801      -0.0802661355585    0.996001742801      -0.0802661355585    -0.000620851926799  -0.0147623783454    
4500000000.0        -0.00067591025603   -0.0150968488384    0.99584615446       -0.0820909948026    0.99584615446       -0.0820909948026    -0.00067591025603   -0.0150968488384    
4600000000.0        -0.00073220660999   -0.0154312050188    0.995687086569      -0.0839158229247    0.995687086569      -0.0839158229247    -0.00073220660999   -0.0154312050188    
4700000000.0        -0.000789740794384  -0.0157654416291    0.995524537871      -0.0857406148651    0.995524537871      -0.0857406148651    -0.000789740794384  -0.0157654416291    
4800000000.0        -0.000848512602595  -0.0160995533638    0.995358507133      -0.0875653654964    0.995358507133      -0.0875653654964    -0.000848512602594  -0.0160995533638    
4900000000.0        -0.000908521814328  -0.0164335348706    0.995188993138      -0.0893900696246    0.995188993138      -0.0893900696246    -0.000908521814328  -0.0164335348706    
5000000000.0        -0.000969768194371  -0.0167673807521    0.995015994694      -0.0912147219918    0.995015994694      -0.0912147219918    -0.000969768194371  -0.0167673807521    
5100000000.0        -0.00103225149143   -0.0171010855668    0.994839510627      -0.0930393172778    0.994839510627      -0.0930393172778    -0.00103225149143   -0.0171010855668    
5200000000.0        -0.00109597143705   -0.0174346438306    0.994659539784      -0.0948638501016    0.994659539784      -0.0948638501016    -0.00109597143705   -0.0174346438306    
5300000000.0        -0.00116092774463   -0.0177680500179    0.994476081028      -0.0966883150236    0.994476081028      -0.0966883150236    -0.00116092774463   -0.0177680500179    
5400000000.0        -0.00122712010849   -0.0181012985631    0.994289133247      -0.0985127065468    0.994289133247      -0.0985127065468    -0.00122712010849   -0.0181012985631    
5500000000.0        -0.001294548203     -0.0184343838613    0.994098695344      -0.100337019119     0.994098695344      -0.100337019119     -0.001294548203     -0.0184343838613    
5600000000.0        -0.00136321168176   -0.0187673002699    0.993904766241      -0.102161247133     0.993904766241      -0.102161247133     -0.00136321168176   -0.0187673002699    
5700000000.0        -0.00143311017685   -0.0191000421094    0.993707344883      -0.103985384929     0.993707344883      -0.103985384929     -0.00143311017685   -0.0191000421094    
5800000000.0        -0.00150424329811   -0.0194326036647    0.993506430228      -0.105809426799     0.993506430228      -0.105809426799     -0.00150424329811   -0.0194326036647    
5900000000.0        -0.0015766106325    -0.019764979186     0.993302021259      -0.10763336698      0.993302021259      -0.10763336698      -0.0015766106325    -0.019764979186     
6000000000.0        -0.0016502117434    -0.0200971628899    0.993094116973      -0.109457199665     0.993094116973      -0.109457199665     -0.0016502117434    -0.0200971628899    
6100000000.0        -0.00172504617008   -0.0204291489602    0.992882716388      -0.111280918997     0.992882716388      -0.111280918997     -0.00172504617008   -0.0204291489602    
6200000000.0        -0.00180111342712   -0.0207609315493    0.992667818541      -0.113104519076     0.992667818541      -0.113104519076     -0.00180111342712   -0.0207609315493    
6300000000.0        -0.00187841300386   -0.0210925047786    0.992449422487      -0.114927993953     0.992449422487      -0.114927993953     -0.00187841300386   -0.0210925047786    
6400000000.0        -0.00195694436392   -0.02142386274      0.9922275273        -0.116751337639     0.9922275273        -0.116751337639     -0.00195694436392   -0.02142386274      
6500000000.0        -0.00203670694473   -0.0217549994964    0.992002132074      -0.1185745441       0.992002132074      -0.1185745441       -0.00203670694473   -0.0217549994964    
6600000000.0        -0.00211770015704   -0.0220859090825    0.991773235921      -0.120397607264     0.991773235921      -0.120397607264     -0.00211770015704   -0.0220859090825    
6700000000.0        -0.00219992338454   -0.0224165855061    0.991540837971      -0.122220521016     0.991540837971      -0.122220521016     -0.00219992338454   -0.0224165855061    
6800000000.0        -0.00228337598345   -0.0227470227487    0.991304937376      -0.124043279202     0.991304937376      -0.124043279202     -0.00228337598345   -0.0227470227487    
6900000000.0        -0.0023680572821    -0.0230772147661    0.991065533304      -0.12586587563      0.991065533304      -0.12586587563      -0.0023680572821    -0.0230772147661    
7000000000.0        -0.00245396658058   -0.0234071554898    0.990822624944      -0.127688304071     0.990822624944      -0.127688304071     -0.00245396658058   -0.0234071554898    
7100000000.0        -0.00254110315041   -0.0237368388269    0.990576211504      -0.129510558259     0.990576211504      -0.129510558259     -0.00254110315041   -0.0237368388269    
7200000000.0        -0.0026294662342    -0.024066258662     0.990326292212      -0.131332631894     0.990326292212      -0.131332631894     -0.0026294662342    -0.024066258662     
7300000000.0        -0.00271905504531   -0.0243954088568    0.990072866315      -0.133154518641     0.990072866315      -0.133154518641     -0.00271905504531   -0.0243954088568    
7400000000.0        -0.00280986876759   -0.0247242832519    0.989815933078      -0.134976212129     0.989815933078      -0.134976212129     -0.00280986876759   -0.0247242832519    
7500000000.0        -0.00290190655505   -0.0250528756665    0.989555491788      -0.136797705958     0.989555491788      -0.136797705958     -0.00290190655505   -0.0250528756665    
7600000000.0        -0.00299516753162   -0.0253811799001    0.98929154175       -0.138618993694     0.98929154175       -0.138618993694     -0.00299516753162   -0.0253811799001    
7700000000.0        -0.00308965079087   -0.0257091897325    0.989024082291      -0.140440068872     0.989024082291      -0.140440068872     -0.00308965079087   -0.0257091897325    
7800000000.0        -0.00318535539577   -0.0260368989247    0.988753112755      -0.142260924996     0.988753112755      -0.142260924996     -0.00318535539577   -0.0260368989247    
7900000000.0        -0.00328228037844   -0.0263643012198    0.988478632507      -0.144081555542     0.988478632507      -0.144081555542     -0.00328228037844   -0.0263643012198    
8000000000.0        -0.00338042473995   -0.0266913903432    0.988200640935      -0.145901953956     0.988200640935      -0.145901953956     -0.00338042473995   -0.0266913903432    
8100000000.0        -0.00347978745006   -0.0270181600037    0.987919137442      -0.147722113656     0.987919137442      -0.147722113656     -0.00347978745006   -0.0270181600037    
8200000000.0        -0.00358036744706   -0.0273446038938    0.987634121455      -0.149542028034     0.987634121455      -0.149542028034     -0.00358036744706   -0.0273446038938    
8300000000.0        -0.00368216363753   -0.0276707156907    0.987345592421      -0.151361690453     0.987345592421      -0.151361690453     -0.00368216363753   -0.0276707156907    
8400000000.0        -0.00378517489619   -0.0279964890564    0.987053549805      -0.153181094252     0.987053549805      -0.153181094252     -0.00378517489619   -0.0279964890564    
8500000000.0        -0.0038894000657    -0.028321917639     0.986757993096      -0.155000232743     0.986757993096      -0.155000232743     -0.0038894000657    -0.028321917639     
8600000000.0        -0.00399483795646   -0.0286469950724    0.986458921799      -0.156819099216     0.986458921799      -0.156819099216     -0.00399483795646   -0.0286469950724    
8700000000.0        -0.0041014873465    -0.0289717149777    0.986156335445      -0.158637686933     0.986156335445      -0.158637686933     -0.0041014873465    -0.0289717149777    
8800000000.0        -0.0042093469813    -0.0292960709635    0.985850233582      -0.160455989137     0.985850233582      -0.160455989137     -0.0042093469813    -0.0292960709635    
8900000000.0        -0.00431841557362   -0.0296200566263    0.985540615779      -0.162273999045     0.985540615779      -0.162273999045     -0.00431841557362   -0.0296200566263    
9000000000.0        -0.00442869180338   -0.0299436655511    0.985227481628      -0.164091709853     0.985227481628      -0.164091709853     -0.00442869180338   -0.0299436655511    
9100000000.0        -0.00454017431754   -0.0302668913122    0.984910830741      -0.165909114735     0.984910830741      -0.165909114735     -0.00454017431754   -0.0302668913122    
9200000000.0        -0.00465286172993   -0.0305897274736    0.984590662749      -0.167726206844     0.984590662749      -0.167726206844     -0.00465286172993   -0.0305897274736    
9300000000.0        -0.00476675262115   -0.0309121675894    0.984266977306      -0.169542979314     0.984266977306      -0.169542979314     -0.00476675262115   -0.0309121675894    
9400000000.0        -0.00488184553845   -0.0312342052044    0.983939774088      -0.171359425257     0.983939774088      -0.171359425257     -0.00488184553845   -0.0312342052044    
9500000000.0        -0.00499813899563   -0.0315558338547    0.98360905279       -0.173175537766     0.98360905279       -0.173175537766     -0.00499813899563   -0.0315558338547    
9600000000.0        -0.0051156314729    -0.0318770470684    0.983274813131      -0.174991309917     0.983274813131      -0.174991309917     -0.0051156314729    -0.0318770470684    
9700000000.0        -0.00523432141682   -0.0321978383655    0.982937054847      -0.176806734765     0.982937054847      -0.176806734765     -0.00523432141682   -0.0321978383655    
9800000000.0        -0.0053542072402    -0.0325182012591    0.982595777701      -0.17862180535      0.982595777701      -0.17862180535      -0.0053542072402    -0.0325182012591    
9900000000.0        -0.00547528732196   -0.0328381292552    0.982250981472      -0.180436514691     0.982250981472      -0.180436514691     -0.00547528732196   -0.0328381292552    
10000000000.0       -0.00559756000713   -0.0331576158538    0.981902665965      -0.182250855794     0.981902665965      -0.182250855794     -0.00559756000713   -0.0331576158538    
