# Hz S RI R 50.00 
100000000.0         5.44675971923e-05   -0.00214374971919   0.999929108019      -0.00251946048948   0.999929108019      -0.00251946048948   5.44675971923e-05   -0.00214374971919   
200000000.0         3.64119878218e-05   -0.00428750705513   0.999909991724      -0.00503894411071   0.999909991724      -0.00503894411071   3.64119878218e-05   -0.00428750705513   
300000000.0         7.44326475011e-06   -0.00643124972395   0.999880038667      -0.00755843724771   0.999880038667      -0.00755843724771   7.44326474966e-06   -0.00643124972395   
400000000.0         -3.23857993847e-05  -0.00857494297617   0.999839193505      -0.0100779117953    0.999839193505      -0.0100779117953    -3.23857993849e-05  -0.00857494297617   
500000000.0         -8.30556814686e-05  -0.0107185456016    0.999787434241      -0.0125973322161    0.999787434241      -0.0125973322161    -8.30556814687e-05  -0.0107185456016    
600000000.0         -0.000144556912408  -0.0128620120663    0.999724749213      -0.015116658024     0.999724749213      -0.015116658024     -0.000144556912408  -0.0128620120663    
700000000.0         -0.000216884146762  -0.0150052936121    0.999651131301      -0.0176358450561    0.999651131301      -0.0176358450561    -0.000216884146762  -0.0150052936121    
800000000.0         -0.000300033973848  -0.017148338921     0.999566575839      -0.0201548462402    0.999566575839      -0.0201548462402    -0.000300033973848  -0.017148338921     
900000000.0         -0.000394003925094  -0.0192910945597    0.999471079715      -0.0226736121058    0.999471079715      -0.0226736121058    -0.000394003925094  -0.0192910945597    
1000000000.0        -0.000498791957121  -0.0214335052943    0.999364640923      -0.0251920911466    0.999364640923      -0.0251920911466    -0.000498791957121  -0.0214335052943    
1100000000.0        -0.000614396153701  -0.023575514328     0.999247258327      -0.0277102300915    0.999247258327      -0.0277102300915    -0.000614396153701  -0.023575514328     
1200000000.0        -0.00074081453946   -0.0257170634849    0.999118931532      -0.0302279741152    0.999118931532      -0.0302279741152    -0.00074081453946   -0.0257170634849    
1300000000.0        -0.000878044955618  -0.0278580933569    0.99897966081       -0.0327452670061    0.99897966081       -0.0327452670061    -0.000878044955618  -0.0278580933569    
1400000000.0        -0.00102608497251   -0.0299985434267    0.998829447051      -0.035262051305     0.998829447051      -0.035262051305     -0.00102608497251   -0.0299985434267    
1500000000.0        -0.00118493182493   -0.0321383521681    0.998668291748      -0.0377782684199    0.998668291748      -0.0377782684199    -0.00118493182493   -0.0321383521681    
1600000000.0        -0.00135458236266   -0.0342774571346    0.998496196975      -0.040293858725     0.998496196975      -0.040293858725     -0.00135458236266   -0.0342774571346    
1700000000.0        -0.00153503301112   -0.0364157950344    0.998313165388      -0.0428087616458    0.998313165388      -0.0428087616458    -0.00153503301112   -0.0364157950344    
1800000000.0        -0.00172627973937   -0.0385533017971    0.998119200222      -0.0453229157341    0.998119200222      -0.0453229157341    -0.00172627973937   -0.0385533017971    
1900000000.0        -0.00192831803337   -0.0406899126337    0.99791430529       -0.0478362587347    0.99791430529       -0.0478362587347    -0.00192831803337   -0.0406899126337    
2000000000.0        -0.00214114287321   -0.0428255620894    0.997698484994      -0.0503487276446    0.997698484994      -0.0503487276446    -0.00214114287321   -0.0428255620894    
2100000000.0        -0.00236474871347   -0.0449601840927    0.997471744323      -0.0528602587675    0.997471744323      -0.0528602587675    -0.00236474871347   -0.0449601840927    
2200000000.0        -0.00259912946597   -0.0470937119995    0.997234088862      -0.0553707877624    0.997234088862      -0.0553707877624    -0.00259912946597   -0.0470937119995    
2300000000.0        -0.00284427848452   -0.0492260786343    0.996985524799      -0.05788024969      0.996985524799      -0.05788024969      -0.00284427848452   -0.0492260786343    
2400000000.0        -0.00310018855135   -0.0513572163285    0.996726058931      -0.060388579054     0.996726058931      -0.060388579054     -0.00310018855135   -0.0513572163285    
2500000000.0        -0.00336685186481   -0.0534870569558    0.996455698667      -0.0628957098402    0.996455698667      -0.0628957098402    -0.00336685186481   -0.0534870569558    
2600000000.0        -0.00364426002837   -0.0556155319657    0.996174452041      -0.0654015755534    0.996174452041      -0.0654015755534    -0.00364426002837   -0.0556155319657    
2700000000.0        -0.00393240404059   -0.0577425724152    0.99588232771       -0.0679061092521    0.99588232771       -0.0679061092521    -0.00393240404059   -0.0577425724152    
2800000000.0        -0.00423127428598   -0.0598681089984    0.995579334968      -0.0704092435801    0.995579334968      -0.0704092435801    -0.00423127428598   -0.0598681089984    
2900000000.0        -0.00454086052676   -0.0619920720754    0.995265483744      -0.0729109107987    0.995265483744      -0.0729109107987    -0.00454086052676   -0.0619920720754    
3000000000.0        -0.00486115189522   -0.0641143916987    0.994940784612      -0.075411042815     0.994940784612      -0.075411042815     -0.00486115189522   -0.0641143916987    
3100000000.0        -0.00519213688689   -0.0662349976402    0.994605248797      -0.0779095712106    0.994605248797      -0.0779095712106    -0.00519213688689   -0.0662349976402    
3200000000.0        -0.00553380335422   -0.0683538194152    0.994258888174      -0.0804064272683    0.994258888174      -0.0804064272683    -0.00553380335422   -0.0683538194152    
3300000000.0        -0.00588613850088   -0.0704707863069    0.993901715277      -0.0829015419977    0.993901715277      -0.0829015419977    -0.00588613850088   -0.0704707863069    
3400000000.0        -0.0062491288766    -0.0725858273896    0.993533743304      -0.0853948461606    0.993533743304      -0.0853948461606    -0.0062491288766    -0.0725858273896    
3500000000.0        -0.00662276037247   -0.0746988715505    0.993154986114      -0.0878862702942    0.993154986114      -0.0878862702942    -0.00662276037247   -0.0746988715505    
3600000000.0        -0.00700701821675   -0.0768098475122    0.992765458239      -0.0903757447349    0.992765458239      -0.0903757447349    -0.00700701821675   -0.0768098475122    
3700000000.0        -0.0074018869711    -0.0789186838531    0.99236517488       -0.0928631996405    0.99236517488       -0.0928631996405    -0.0074018869711    -0.0789186838531    
3800000000.0        -0.00780735052725   -0.0810253090278    0.991954151912      -0.0953485650118    0.991954151912      -0.0953485650118    -0.00780735052725   -0.0810253090278    
3900000000.0        -0.00822339210406   -0.0831296513872    0.991532405889      -0.0978317707136    0.991532405889      -0.0978317707136    -0.00822339210406   -0.0831296513872    
4000000000.0        -0.00864999424502   -0.0852316391979    0.991099954042      -0.100312746496     0.991099954042      -0.100312746496     -0.00864999424502   -0.0852316391979    
4100000000.0        -0.009087138816     -0.0873312006606    0.990656814282      -0.102791422012     0.990656814282      -0.102791422012     -0.009087138816     -0.0873312006606    
4200000000.0        -0.00953480700352   -0.0894282639289    0.990203005204      -0.105267726841     0.990203005204      -0.105267726841     -0.00953480700352   -0.0894282639289    
4300000000.0        -0.0099929793132    -0.0915227571266    0.989738546084      -0.107741590503     0.989738546084      -0.107741590503     -0.0099929793132    -0.0915227571266    
4400000000.0        -0.0104616355687    -0.0936146083662    0.989263456882      -0.110212942482     0.989263456882      -0.110212942482     -0.0104616355687    -0.0936146083662    
4500000000.0        -0.0109407549109    -0.0957037457652    0.988777758242      -0.112681712239     0.988777758242      -0.112681712239     -0.0109407549109    -0.0957037457652    
4600000000.0        -0.0114303157972    -0.0977900974631    0.988281471495      -0.115147829233     0.988281471495      -0.115147829233     -0.0114303157972    -0.0977900974631    
4700000000.0        -0.0119302960016    -0.099873591638     0.987774618653      -0.117611222938     0.987774618653      -0.117611222938     -0.0119302960016    -0.099873591638     
4800000000.0        -0.0124406726148    -0.101954156522     0.987257222414      -0.120071822859     0.987257222414      -0.120071822859     -0.0124406726148    -0.101954156522     
4900000000.0        -0.0129614220441    -0.104031720419     0.986729306161      -0.122529558548     0.986729306161      -0.122529558548     -0.0129614220441    -0.104031720419     
5000000000.0        -0.0134925200146    -0.106106211717     0.986190893959      -0.124984359621     0.986190893959      -0.124984359621     -0.0134925200146    -0.106106211717     
5100000000.0        -0.0140339415699    -0.108177558906     0.985642010553      -0.127436155775     0.985642010553      -0.127436155775     -0.0140339415699    -0.108177558906     
5200000000.0        -0.0145856610732    -0.11024569059      0.98508268137       -0.129884876801     0.98508268137       -0.129884876801     -0.0145856610732    -0.11024569059      
5300000000.0        -0.0151476522087    -0.112310535506     0.984512932518      -0.132330452601     0.984512932518      -0.132330452601     -0.0151476522087    -0.112310535506     
5400000000.0        -0.0157198879835    -0.114372022533     0.983932790779      -0.134772813202     0.983932790779      -0.134772813202     -0.0157198879835    -0.114372022533     
5500000000.0        -0.0163023407293    -0.11643008071      0.983342283613      -0.137211888772     0.983342283613      -0.137211888772     -0.0163023407293    -0.11643008071      
5600000000.0        -0.0168949821047    -0.118484639249     0.98274143915       -0.139647609632     0.98274143915       -0.139647609632     -0.0168949821047    -0.118484639249     
5700000000.0        -0.0174977830973    -0.120535627546     0.982130286194      -0.142079906273     0.982130286194      -0.142079906273     -0.0174977830973    -0.120535627546     
5800000000.0        -0.0181107140267    -0.122582975197     0.981508854214      -0.144508709367     0.981508854214      -0.144508709367     -0.0181107140267    -0.122582975197     
5900000000.0        -0.018733744547     -0.124626612012     0.980877173346      -0.146933949782     0.980877173346      -0.146933949782     -0.018733744547     -0.124626612012     
6000000000.0        -0.0193668436498    -0.126666468024     0.980235274388      -0.149355558595     0.980235274388      -0.149355558595     -0.0193668436498    -0.126666468024     
6100000000.0        -0.0200099796678    -0.128702473503     0.979583188794      -0.151773467107     0.979583188794      -0.151773467107     -0.0200099796678    -0.128702473503     
6200000000.0        -0.0206631202777    -0.130734558972     0.978920948678      -0.154187606851     0.978920948678      -0.154187606851     -0.0206631202777    -0.130734558972     
6300000000.0        -0.0213262325044    -0.132762655213     0.9782485868        -0.156597909609     0.9782485868        -0.156597909609     -0.0213262325044    -0.132762655213     
6400000000.0        -0.0219992827242    -0.134786693283     0.977566136573      -0.159004307423     0.977566136573      -0.159004307423     -0.0219992827242    -0.134786693283     
6500000000.0        -0.0226822366692    -0.136806604526     0.97687363205       -0.161406732606     0.97687363205       -0.161406732606     -0.0226822366692    -0.136806604526     
6600000000.0        -0.0233750594316    -0.13882232058      0.976171107924      -0.163805117756     0.976171107924      -0.163805117756     -0.0233750594316    -0.13882232058      
6700000000.0        -0.0240777154674    -0.140833773394     0.975458599526      -0.166199395765     0.975458599526      -0.166199395765     -0.0240777154674    -0.140833773394     
6800000000.0        -0.0247901686018    -0.142840895236     0.974736142813      -0.168589499833     0.974736142813      -0.168589499833     -0.0247901686018    -0.142840895236     
6900000000.0        -0.0255123820331    -0.144843618702     0.974003774372      -0.170975363477     0.974003774372      -0.170975363477     -0.0255123820331    -0.144843618702     
7000000000.0        -0.0262443183382    -0.146841876732     0.973261531408      -0.173356920543     0.973261531408      -0.173356920543     -0.0262443183382    -0.146841876732     
7100000000.0        -0.026985939477     -0.148835602615     0.972509451744      -0.175734105217     0.972509451744      -0.175734105217     -0.026985939477     -0.148835602615     
7200000000.0        -0.0277372067981    -0.150824730001     0.971747573812      -0.178106852035     0.971747573812      -0.178106852035     -0.0277372067981    -0.150824730001     
7300000000.0        -0.0284980810438    -0.152809192914     0.97097593665       -0.180475095894     0.97097593665       -0.180475095894     -0.0284980810438    -0.152809192914     
7400000000.0        -0.0292685223556    -0.154788925756     0.970194579898      -0.18283877206      0.970194579898      -0.18283877206      -0.0292685223556    -0.154788925756     
7500000000.0        -0.0300484902799    -0.156763863323     0.969403543787      -0.185197816183     0.969403543787      -0.185197816183     -0.0300484902799    -0.156763863323     
7600000000.0        -0.0308379437736    -0.158733940808     0.968602869139      -0.187552164299     0.968602869139      -0.187552164299     -0.0308379437736    -0.158733940808     
7700000000.0        -0.0316368412101    -0.160699093817     0.967792597357      -0.189901752847     0.967792597357      -0.189901752847     -0.0316368412101    -0.160699093817     
7800000000.0        -0.0324451403852    -0.162659258371     0.966972770422      -0.192246518673     0.966972770422      -0.192246518673     -0.0324451403852    -0.162659258371     
7900000000.0        -0.0332627985233    -0.164614370921     0.966143430886      -0.194586399043     0.966143430886      -0.194586399043     -0.0332627985233    -0.164614370921     
8000000000.0        -0.0340897722835    -0.166564368353     0.965304621864      -0.196921331648     0.965304621864      -0.196921331648     -0.0340897722835    -0.166564368353     
8100000000.0        -0.034926017766     -0.168509187996     0.964456387029      -0.199251254616     0.964456387029      -0.199251254616     -0.034926017766     -0.168509187996     
8200000000.0        -0.0357714905188    -0.170448767635     0.963598770607      -0.20157610652      0.963598770607      -0.20157610652      -0.0357714905188    -0.170448767635     
8300000000.0        -0.0366261455439    -0.172383045513     0.962731817367      -0.203895826384     0.962731817367      -0.203895826384     -0.0366261455439    -0.172383045513     
8400000000.0        -0.0374899373044    -0.174311960343     0.961855572618      -0.206210353693     0.961855572618      -0.206210353693     -0.0374899373044    -0.174311960343     
8500000000.0        -0.0383628197307    -0.176235451313     0.960970082198      -0.208519628402     0.960970082198      -0.208519628402     -0.0383628197307    -0.176235451313     
8600000000.0        -0.0392447462281    -0.178153458097     0.960075392474      -0.21082359094      0.960075392474      -0.21082359094      -0.0392447462281    -0.178153458097     
8700000000.0        -0.0401356696832    -0.180065920859     0.959171550325      -0.213122182223     0.959171550325      -0.213122182223     -0.0401356696832    -0.180065920859     
8800000000.0        -0.0410355424714    -0.181972780261     0.958258603144      -0.215415343655     0.958258603144      -0.215415343655     -0.0410355424714    -0.181972780261     
8900000000.0        -0.0419443164637    -0.183873977471     0.957336598827      -0.21770301714      0.957336598827      -0.21770301714      -0.0419443164637    -0.183873977471     
9000000000.0        -0.042861943034     -0.18576945417      0.956405585765      -0.219985145089     0.956405585765      -0.219985145089     -0.042861943034     -0.18576945417      
9100000000.0        -0.0437883730668    -0.187659152556     0.955465612838      -0.222261670422     0.955465612838      -0.222261670422     -0.0437883730668    -0.187659152556     
9200000000.0        -0.0447235569641    -0.189543015355     0.954516729409      -0.22453253658      0.954516729409      -0.22453253658      -0.0447235569641    -0.189543015355     
9300000000.0        -0.0456674446531    -0.19142098582      0.953558985312      -0.226797687529     0.953558985312      -0.226797687529     -0.0456674446531    -0.19142098582      
9400000000.0        -0.0466199855939    -0.193293007747     0.95259243085       -0.229057067766     0.95259243085       -0.229057067766     -0.0466199855939    -0.193293007747     
9500000000.0        -0.0475811287867    -0.195159025472     0.951617116783      -0.231310622326     0.951617116783      -0.231310622326     -0.0475811287867    -0.195159025472     
9600000000.0        -0.0485508227799    -0.197018983881     0.950633094323      -0.233558296788     0.950633094323      -0.233558296788     -0.0485508227799    -0.197018983881     
9700000000.0        -0.0495290156775    -0.198872828414     0.949640415125      -0.235800037279     0.949640415125      -0.235800037279     -0.0495290156775    -0.198872828414     
9800000000.0        -0.0505156551473    -0.200720505075     0.948639131278      -0.238035790481     0.948639131278      -0.238035790481     -0.0505156551473    -0.200720505075     
9900000000.0        -0.0515106884283    -0.202561960428     0.947629295302      -0.240265503638     0.947629295302      -0.240265503638     -0.0515106884283    -0.202561960428     
10000000000.0       -0.0525140623388    -0.204397141611     0.946610960134      -0.242489124558     0.946610960134      -0.242489124558     -0.0525140623388    -0.204397141611     
