# Hz S RI R 50.00 
100000000.0         -0.000102610858129  -0.0129232125322    0.999723102552      -0.013621377803     0.999723102552      -0.013621377803     -0.000102610858129  -0.0129232125322    
200000000.0         -0.000642924332949  -0.0258322668862    0.999180873391      -0.0272286712008    0.999180873391      -0.0272286712008    -0.000642924332949  -0.0258322668862    
300000000.0         -0.00153408140487   -0.0387135251094    0.998287612932      -0.0408082842413    0.998287612932      -0.0408082842413    -0.00153408140487   -0.0387135251094    
400000000.0         -0.00277422161328   -0.0515533868776    0.997045031366      -0.054346649844     0.997045031366      -0.054346649844     -0.00277422161328   -0.0515533868776    
500000000.0         -0.00436082997113   -0.0643383611907    0.99545558576       -0.0678303058965    0.99545558576       -0.0678303058965    -0.00436082997113   -0.0643383611907    
600000000.0         -0.00629071489474   -0.0770551206317    0.993522438003      -0.0812459510034    0.993522438003      -0.0812459510034    -0.00629071489474   -0.0770551206317    
700000000.0         -0.00856001417894   -0.0896905500495    0.991249432566      -0.0945804939232    0.991249432566      -0.0945804939232    -0.00856001417894   -0.0896905500495    
800000000.0         -0.0111642098311    -0.102231791922     0.988641075746      -0.107821099383     0.988641075746      -0.107821099383     -0.0111642098311    -0.102231791922     
900000000.0         -0.0140981479364    -0.114666289005     0.985702513165      -0.120955231024     0.985702513165      -0.120955231024     -0.0140981479364    -0.114666289005     
1000000000.0        -0.0173560622889    -0.126981824399     0.982439504817      -0.13397069168      0.982439504817      -0.13397069168      -0.0173560622889    -0.126981824399     
1100000000.0        -0.0209316011704    -0.139166558975     0.978858397547      -0.146855660959     0.978858397547      -0.146855660959     -0.0209316011704    -0.139166558975     
1200000000.0        -0.0248178568573    -0.151209066068     0.974966095108      -0.159598730057     0.974966095108      -0.159598730057     -0.0248178568573    -0.151209066068     
1300000000.0        -0.0290073975072    -0.163098363301     0.970770026001      -0.172188933679     0.970770026001      -0.172188933679     -0.0290073975072    -0.163098363301     
1400000000.0        -0.0334923011007    -0.174823941434     0.966278109353      -0.184615778962     0.966278109353      -0.184615778962     -0.0334923011007    -0.174823941434     
1500000000.0        -0.0382641911229    -0.186375790128     0.961498719114      -0.196869271311     0.961498719114      -0.196869271311     -0.0382641911229    -0.186375790128     
1600000000.0        -0.0433142736703    -0.197744420554     0.956440646865      -0.208939937056     0.956440646865      -0.208939937056     -0.0433142736703    -0.197744420554     
1700000000.0        -0.0486333756759    -0.208920884795     0.951113063533      -0.220818842901     0.951113063533      -0.220818842901     -0.0486333756759    -0.208920884795     
1800000000.0        -0.0542119839442    -0.219896792013     0.945525480311      -0.232497612139     0.945525480311      -0.232497612139     -0.0542119839442    -0.219896792013     
1900000000.0        -0.0600402846978    -0.230664321397     0.939687709078      -0.243968437628     0.939687709078      -0.243968437628     -0.0600402846978    -0.230664321397     
2000000000.0        -0.0661082033438    -0.241216231911     0.933609822609      -0.255224091576     0.933609822609      -0.255224091576     -0.0661082033438    -0.241216231911     
2100000000.0        -0.0724054441815    -0.251545868919     0.927302114846      -0.266257932192     0.927302114846      -0.266257932192     -0.0724054441815    -0.251545868919     
2200000000.0        -0.0789215297831    -0.261647167745     0.920775061503      -0.27706390727      0.920775061503      -0.27706390727      -0.0789215297831    -0.261647167745     
2300000000.0        -0.0856458397992    -0.271514654301     0.914039281251      -0.287636554846     0.914039281251      -0.287636554846     -0.0856458397992    -0.271514654301     
2400000000.0        -0.0925676489549    -0.281143442891     0.90710549771       -0.297971001017     0.90710549771       -0.297971001017     -0.0925676489549    -0.281143442891     
2500000000.0        -0.0996761640241    -0.290529231341     0.899984502467      -0.308062955093     0.899984502467      -0.308062955093     -0.0996761640241    -0.290529231341     
2600000000.0        -0.106960559587     -0.299668293617     0.892687119314      -0.317908702234     0.892687119314      -0.317908702234     -0.106960559587     -0.299668293617     
2700000000.0        -0.114410012401     -0.308557470101     0.885224169873      -0.327505093742     0.885224169873      -0.327505093742     -0.114410012401     -0.308557470101     
2800000000.0        -0.122013734235     -0.317194155703     0.877606440755      -0.336849535185     0.877606440755      -0.336849535185     -0.122013734235     -0.317194155703     
2900000000.0        -0.129761003033     -0.32557628601      0.869844652395      -0.345939972568     0.869844652395      -0.345939972568     -0.129761003033     -0.32557628601      
3000000000.0        -0.137641192315     -0.333702321652     0.861949429647      -0.354774876705     0.861949429647      -0.354774876705     -0.137641192315     -0.333702321652     
3100000000.0        -0.14564379871      -0.341571231098     0.853931274253      -0.363353226031     0.853931274253      -0.363353226031     -0.14564379871      -0.341571231098     
3200000000.0        -0.153758467575     -0.349182472064     0.845800539214      -0.37167448802      0.845800539214      -0.37167448802      -0.153758467575     -0.349182472064     
3300000000.0        -0.161975016649     -0.35653597174      0.837567405142      -0.379738599425     0.837567405142      -0.379738599425     -0.161975016649     -0.35653597174      
3400000000.0        -0.170283457715     -0.363632106017     0.829241858594      -0.387545945518     0.829241858594      -0.387545945518     -0.170283457715     -0.363632106017     
3500000000.0        -0.178674016263     -0.370471677922     0.820833672406      -0.395097338526     0.820833672406      -0.395097338526     -0.178674016263     -0.370471677922     
3600000000.0        -0.187137149172     -0.377055895404     0.812352388013      -0.402393995436     0.812352388013      -0.402393995436     -0.187137149172     -0.377055895404     
3700000000.0        -0.195663560419     -0.383386348683     0.803807299739      -0.40943751535      0.803807299739      -0.40943751535      -0.195663560419     -0.383386348683     
3800000000.0        -0.204244214864     -0.389464987294     0.795207441005      -0.416229856531     0.795207441005      -0.416229856531     -0.204244214864     -0.389464987294     
3900000000.0        -0.212870350166     -0.395294096991     0.786561572426      -0.422773313328     0.786561572426      -0.422773313328     -0.212870350166     -0.395294096991     
4000000000.0        -0.221533486865     -0.400876276656     0.777878171711      -0.42907049308      0.777878171711      -0.42907049308      -0.221533486865     -0.400876276656     
4100000000.0        -0.230225436737     -0.40621441533      0.769165425323      -0.435124293162     0.769165425323      -0.435124293162     -0.230225436737     -0.40621441533      
4200000000.0        -0.238938309457     -0.411311669503     0.760431221805      -0.440937878277     0.760431221805      -0.440937878277     -0.238938309457     -0.411311669503     
4300000000.0        -0.247664517688     -0.416171440749     0.751683146697      -0.446514658104     0.751683146697      -0.446514658104     -0.247664517688     -0.416171440749     
4400000000.0        -0.256396780663     -0.420797353829     0.742928478952      -0.451858265399     0.742928478952      -0.451858265399     -0.256396780663     -0.420797353829     
4500000000.0        -0.265128126356     -0.425193235318     0.734174188761      -0.456972534636     0.734174188761      -0.456972534636     -0.265128126356     -0.425193235318     
4600000000.0        -0.273851892337     -0.429363092856     0.725426936705      -0.461861481257     0.725426936705      -0.461861481257     -0.273851892337     -0.429363092856     
4700000000.0        -0.282561725406     -0.433311095063     0.716693074111      -0.466529281601     0.716693074111      -0.466529281601     -0.282561725406     -0.433311095063     
4800000000.0        -0.291251580101     -0.437041552197     0.707978644554      -0.470980253557     0.707978644554      -0.470980253557     -0.291251580101     -0.437041552197     
4900000000.0        -0.299915716171     -0.44055889757      0.699289386378      -0.475218837992     0.699289386378      -0.475218837992     -0.299915716171     -0.44055889757      
5000000000.0        -0.308548695111     -0.443867669782     0.690630736161      -0.479249580989     0.690630736161      -0.479249580989     -0.308548695111     -0.443867669782     
5100000000.0        -0.317145375849     -0.446972495779     0.682007833028      -0.483077116907     0.682007833028      -0.483077116907     -0.317145375849     -0.446972495779     
5200000000.0        -0.325700909674     -0.449878074769     0.673425523725      -0.486706152305     0.673425523725      -0.486706152305     -0.325700909674     -0.449878074769     
5300000000.0        -0.334210734493     -0.452589162997     0.664888368361      -0.490141450719     0.664888368361      -0.490141450719     -0.334210734493     -0.452589162997     
5400000000.0        -0.34267056849      -0.455110559384     0.656400646745      -0.493387818305     0.656400646745      -0.493387818305     -0.34267056849      -0.455110559384     
5500000000.0        -0.351076403281     -0.457447092035     0.647966365237      -0.496450090353     0.647966365237      -0.496450090353     -0.351076403281     -0.457447092035     
5600000000.0        -0.359424496621     -0.459603605603     0.639589264036      -0.499333118651     0.639589264036      -0.499333118651     -0.359424496621     -0.459603605603     
5700000000.0        -0.367711364752     -0.461584949495     0.631272824833      -0.502041759699     0.631272824833      -0.502041759699     -0.367711364752     -0.461584949495     
5800000000.0        -0.37593377444      -0.463395966914     0.623020278776      -0.504580863752     0.623020278776      -0.504580863752     -0.37593377444      -0.463395966914     
5900000000.0        -0.38408873478      -0.465041484711     0.614834614664      -0.506955264678     0.614834614664      -0.506955264678     -0.38408873478      -0.465041484711     
6000000000.0        -0.392173488805     -0.466526304024     0.606718587334      -0.509169770593     0.606718587334      -0.509169770593     -0.392173488805     -0.466526304024     
6100000000.0        -0.400185504977     -0.46785519168      0.598674726176      -0.511229155278     0.598674726176      -0.511229155278     -0.400185504977     -0.46785519168      
6200000000.0        -0.408122468585     -0.469032872338     0.590705343729      -0.513138150312     0.590705343729      -0.513138150312     -0.408122468585     -0.469032872338     
6300000000.0        -0.415982273112     -0.470064021334     0.582812544319      -0.514901437931     0.582812544319      -0.514901437931     -0.415982273112     -0.470064021334     
6400000000.0        -0.423763011596     -0.470953258214     0.574998232693      -0.516523644556     0.574998232693      -0.516523644556     -0.423763011596     -0.470953258214     
6500000000.0        -0.431462968038     -0.471705140901     0.567264122614      -0.518009334969     0.567264122614      -0.518009334969     -0.431462968038     -0.471705140901     
6600000000.0        -0.439080608872     -0.472324160495     0.559611745392      -0.519363007107     0.559611745392      -0.519363007107     -0.439080608872     -0.472324160495     
6700000000.0        -0.446614574538     -0.47281473664      0.552042458304      -0.520589087441     0.552042458304      -0.520589087441     -0.446614574538     -0.47281473664      
6800000000.0        -0.454063671187     -0.473181213457     0.544557452901      -0.521691926907     0.544557452901      -0.521691926907     -0.454063671187     -0.473181213457     
6900000000.0        -0.461426862516     -0.473427855993     0.537157763156      -0.522675797356     0.537157763156      -0.522675797356     -0.461426862516     -0.473427855993     
7000000000.0        -0.468703261789     -0.473558847159     0.529844273459      -0.523544888495     0.529844273459      -0.523544888495     -0.468703261789     -0.473558847159     
7100000000.0        -0.475892124033     -0.473578285131     0.522617726414      -0.524303305291     0.522617726414      -0.524303305291     -0.475892124033     -0.473578285131     
7200000000.0        -0.482992838427     -0.473490181174     0.515478730446      -0.524955065799     0.515478730446      -0.524955065799     -0.482992838427     -0.473490181174     
7300000000.0        -0.490004920909     -0.473298457871     0.508427767199      -0.52550409939      0.508427767199      -0.52550409939      -0.490004920909     -0.473298457871     
7400000000.0        -0.496928006998     -0.473006947726     0.501465198713      -0.525954245353     0.501465198713      -0.525954245353     -0.496928006998     -0.473006947726     
7500000000.0        -0.503761844841     -0.472619392102     0.494591274377      -0.526309251844     0.494591274377      -0.526309251844     -0.503761844841     -0.472619392102     
7600000000.0        -0.510506288493     -0.472139440485     0.487806137646      -0.526572775144     0.487806137646      -0.526572775144     -0.510506288493     -0.472139440485     
7700000000.0        -0.517161291433     -0.471570650042     0.481109832527      -0.526748379219     0.481109832527      -0.526748379219     -0.517161291433     -0.471570650042     
7800000000.0        -0.52372690032      -0.470916485437     0.474502309824      -0.526839535543     0.474502309824      -0.526839535543     -0.52372690032      -0.470916485437     
7900000000.0        -0.530203248981     -0.470180318905     0.467983433147      -0.526849623169     0.467983433147      -0.526849623169     -0.530203248981     -0.470180318905     
8000000000.0        -0.536590552647     -0.469365430544     0.461552984677      -0.526781929024     0.461552984677      -0.526781929024     -0.536590552647     -0.469365430544     
8100000000.0        -0.542889102421     -0.468475008809     0.455210670698      -0.526639648403     0.455210670698      -0.526639648403     -0.542889102421     -0.468475008809     
8200000000.0        -0.549099259985     -0.467512151194     0.44895612689       -0.526425885656     0.44895612689       -0.526425885656     -0.549099259985     -0.467512151194     
8300000000.0        -0.555221452536     -0.466479865074     0.442788923393      -0.526143655028     0.442788923393      -0.526143655028     -0.555221452536     -0.466479865074     
8400000000.0        -0.561256167952     -0.465381068703     0.436708569636      -0.525795881659     0.436708569636      -0.525795881659     -0.561256167952     -0.465381068703     
8500000000.0        -0.567203950186     -0.464218592332     0.43071451895       -0.525385402705     0.43071451895       -0.525385402705     -0.567203950186     -0.464218592332     
8600000000.0        -0.573065394877     -0.462995179459     0.424806172956      -0.524914968588     0.424806172956      -0.524914968588     -0.573065394877     -0.462995179459     
8700000000.0        -0.578841145172     -0.461713488166     0.418982885735      -0.524387244332     0.418982885735      -0.524387244332     -0.578841145172     -0.461713488166     
8800000000.0        -0.584531887763     -0.460376092556     0.413243967801      -0.523804811007     0.413243967801      -0.523804811007     -0.584531887763     -0.460376092556     
8900000000.0        -0.590138349121     -0.458985484263     0.407588689858      -0.523170167236     0.407588689858      -0.523170167236     -0.590138349121     -0.458985484263     
9000000000.0        -0.59566129193      -0.457544074031     0.40201628637       -0.522485730771     0.40201628637       -0.522485730771     -0.59566129193      -0.457544074031     
9100000000.0        -0.601101511712     -0.45605419334      0.396525958936      -0.521753840132     0.396525958936      -0.521753840132     -0.601101511712     -0.45605419334      
9200000000.0        -0.606459833631     -0.454518096091     0.391116879488      -0.52097675628      0.391116879488      -0.52097675628      -0.606459833631     -0.454518096091     
9300000000.0        -0.611737109476     -0.452937960316     0.385788193298      -0.520156664337     0.385788193298      -0.520156664337     -0.611737109476     -0.452937960316     
9400000000.0        -0.616934214817     -0.45131588992      0.380539021834      -0.519295675325     0.380539021834      -0.519295675325     -0.616934214817     -0.45131588992      
9500000000.0        -0.622052046323     -0.449653916451     0.375368465436      -0.518395827937     0.375368465436      -0.518395827937     -0.622052046323     -0.449653916451     
9600000000.0        -0.627091519233     -0.447954000873     0.37027560584       -0.517459090313     0.37027560584       -0.517459090313     -0.627091519233     -0.447954000873     
9700000000.0        -0.632053564985     -0.446218035355     0.365259508557      -0.516487361827     0.365259508557      -0.516487361827     -0.632053564985     -0.446218035355     
9800000000.0        -0.636939128985     -0.444447845062     0.360319225102      -0.515482474883     0.360319225102      -0.515482474883     -0.636939128985     -0.444447845062     
9900000000.0        -0.641749168514     -0.442645189941     0.355453795082      -0.514446196695     0.355453795082      -0.514446196695     -0.641749168514     -0.442645189941     
10000000000.0       -0.646484650766     -0.440811766499     0.350662248161      -0.513380231074     0.350662248161      -0.513380231074     -0.646484650766     -0.440811766499     
