# Hz S RI R 50.00 
100000000.0         -0.0124827188315    -0.110522448792     0.987496346603      -0.110622808786     0.987496346603      -0.110622808786     -0.0124827188315    -0.110522448792     
200000000.0         -0.0479406566896    -0.213063101475     0.952038250258      -0.213263866128     0.952038250258      -0.213263866128     -0.0479406566896    -0.213063101475     
300000000.0         -0.10161327036      -0.301502892062     0.898365503802      -0.301804128531     0.898365503802      -0.301804128531     -0.10161327036      -0.301502892062     
400000000.0         -0.167266384128     -0.372522497797     0.832712264942      -0.372924289721     0.832712264942      -0.372924289721     -0.167266384128     -0.372522497797     
500000000.0         -0.238729514317     -0.425562639235     0.761249010439      -0.426065083319     0.761249010439      -0.426065083319     -0.238729514317     -0.425562639235     
600000000.0         -0.310942446563     -0.462082123264     0.689035951126      -0.46268532682      0.689035951126      -0.46268532682      -0.310942446563     -0.462082123264     
700000000.0         -0.380351534826     -0.484623686749     0.619626730954      -0.485327765748     0.619626730954      -0.485327765748     -0.380351534826     -0.484623686749     
800000000.0         -0.444825948396     -0.496044808001     0.555152179269      -0.496849885459     0.555152179269      -0.496849885459     -0.444825948396     -0.496044808001     
900000000.0         -0.503346212576     -0.499035053132     0.496631769816      -0.499941257744     0.496631769816      -0.499941257744     -0.503346212576     -0.499035053132     
1000000000.0        -0.555653219484     -0.49588730618      0.44432460978       -0.496894771143     0.44432460978       -0.496894771143     -0.555653219484     -0.49588730618      
1100000000.0        -0.601951763456     -0.488437733162     0.398025904292      -0.489546595161     0.398025904292      -0.489546595161     -0.601951763456     -0.488437733162     
1200000000.0        -0.642695161506     -0.478095912309     0.357282335918      -0.479306310632     0.357282335918      -0.479306310632     -0.642695161506     -0.478095912309     
1300000000.0        -0.678443898346     -0.465911806569     0.321533419607      -0.467223882343     0.321533419607      -0.467223882343     -0.678443898346     -0.465911806569     
1400000000.0        -0.709780319265     -0.452649739824     0.290196809788      -0.454063635353     0.290196809788      -0.454063635353     -0.709780319265     -0.452649739824     
1500000000.0        -0.737261493478     -0.438855492446     0.262715437008      -0.440371350638     0.262715437008      -0.440371350638     -0.737261493478     -0.438855492446     
1600000000.0        -0.761396237756     -0.424911720169     0.238580484294      -0.426529684046     0.238580484294      -0.426529684046     -0.761396237756     -0.424911720169     
1700000000.0        -0.782636529502     -0.411081377241     0.217339974066      -0.412801589524     0.217339974066      -0.412801589524     -0.782636529502     -0.411081377241     
1800000000.0        -0.801376966322     -0.397540663674     0.198599308564      -0.399363266429     0.198599308564      -0.399363266429     -0.801376966322     -0.397540663674     
1900000000.0        -0.817958361951     -0.384403518321     0.182017673912      -0.386328652664     0.182017673912      -0.386328652664     -0.817958361951     -0.384403518321     
2000000000.0        -0.832673172563     -0.371739586428     0.167302613816      -0.373767392281     0.167302613816      -0.373767392281     -0.832673172563     -0.371739586428     
2100000000.0        -0.845771455234     -0.359587283958     0.154204071086      -0.361717899851     0.154204071086      -0.361717899851     -0.845771455234     -0.359587283958     
2200000000.0        -0.857466670708     -0.347963238827     0.142508584877      -0.350196801744     0.142508584877      -0.350196801744     -0.857466670708     -0.347963238827     
2300000000.0        -0.86794100034      -0.336869082939     0.13203397374       -0.339205728191     0.13203397374       -0.339205728191     -0.86794100034      -0.336869082939     
2400000000.0        -0.87735004963      -0.326296319725     0.122624632089      -0.328736180866     0.122624632089      -0.328736180866     -0.87735004963      -0.326296319725     
2500000000.0        -0.885826920267     -0.316229799215     0.114147458156      -0.318773007975     0.114147458156      -0.318773007975     -0.885826920267     -0.316229799215     
2600000000.0        -0.893485687756     -0.306650187989     0.106488376361      -0.30929687424      0.106488376361      -0.30929687424      -0.893485687756     -0.306650187989     
2700000000.0        -0.900424345976     -0.297535714673     0.0995493927561     -0.300286006407     0.0995493927561     -0.300286006407     -0.900424345976     -0.297535714673     
2800000000.0        -0.90672728725      -0.288863393807     0.0932461149518     -0.291717417141     0.0932461149518     -0.291717417141     -0.90672728725      -0.288863393807     
2900000000.0        -0.91246738497      -0.280609874538     0.0875056694948     -0.283567753728     0.0875056694948     -0.283567753728     -0.91246738497      -0.280609874538     
3000000000.0        -0.917707740037     -0.272752019812     0.0822649554262     -0.275813877283     0.0822649554262     -0.275813877283     -0.917707740037     -0.272752019812     
3100000000.0        -0.922503145037     -0.26526729241      0.0774691801046     -0.268433248798     0.0774691801046     -0.268433248798     -0.922503145037     -0.26526729241      
3200000000.0        -0.9269013125       -0.258134002948     0.0730706309458     -0.261404177149     0.0730706309458     -0.261404177149     -0.9269013125       -0.258134002948     
3300000000.0        -0.93094390649      -0.251331459722     0.0690276438361     -0.25470596895      0.0690276438361     -0.25470596895      -0.93094390649      -0.251331459722     
3400000000.0        -0.934667410427     -0.244840049211     0.065303735306      -0.248319009063     0.065303735306      -0.248319009063     -0.934667410427     -0.244840049211     
3500000000.0        -0.938103858577     -0.238641268097     0.0618668710425     -0.242224792623     0.0618668710425     -0.242224792623     -0.938103858577     -0.238641268097     
3600000000.0        -0.941281453971     -0.232717721845     0.0586888479706     -0.23640592362      0.0586888479706     -0.23640592362      -0.941281453971     -0.232717721845     
3700000000.0        -0.944225091605     -0.227053100725     0.0557447710482     -0.230846090926     0.0557447710482     -0.230846090926     -0.944225091605     -0.227053100725     
3800000000.0        -0.946956802545     -0.221632141076     0.0530126091686     -0.225530029562     0.0530126091686     -0.225530029562     -0.946956802545     -0.221632141076     
3900000000.0        -0.949496131821     -0.216440577417     0.0504728172583     -0.220443472807     0.0504728172583     -0.220443472807     -0.949496131821     -0.216440577417     
4000000000.0        -0.951860460832     -0.211465089389     0.0481080138792     -0.215573099146     0.0481080138792     -0.215573099146     -0.951860460832     -0.211465089389     
4100000000.0        -0.954065283094     -0.206693246327     0.0459027054735     -0.210906476837     0.0459027054735     -0.210906476837     -0.954065283094     -0.206693246327     
4200000000.0        -0.956124440715     -0.20211345143      0.0438430498963     -0.206432008085     0.0438430498963     -0.206432008085     -0.956124440715     -0.20211345143      
4300000000.0        -0.958050327683     -0.197714886846     0.0419166531194     -0.202138874124     0.0419166531194     -0.202138874124     -0.958050327683     -0.197714886846     
4400000000.0        -0.959854065093     -0.193487460577     0.04011239401       -0.198016982121     0.04011239401       -0.198016982121     -0.959854065093     -0.193487460577     
4500000000.0        -0.961545652545     -0.189421755739     0.0384202729312     -0.19405691444      0.0384202729312     -0.19405691444      -0.961545652545     -0.189421755739     
4600000000.0        -0.963134099282     -0.185508982535     0.0368312806035     -0.190249880604     0.0368312806035     -0.190249880604     -0.963134099282     -0.185508982535     
4700000000.0        -0.964627538049     -0.181740933078     0.0353372842421     -0.186587672127     0.0353372842421     -0.186587672127     -0.964627538049     -0.181740933078     
4800000000.0        -0.966033324198     -0.17810993913      0.0339309284613     -0.183062620243     0.0339309284613     -0.183062620243     -0.966033324198     -0.17810993913      
4900000000.0        -0.967358122122     -0.174608832717     0.0326055488308     -0.179667556524     0.0326055488308     -0.179667556524     -0.967358122122     -0.174608832717     
5000000000.0        -0.968607980835     -0.171230909537     0.0313550962985     -0.176395776285     0.0313550962985     -0.176395776285     -0.968607980835     -0.171230909537     
5100000000.0        -0.969788400199     -0.167969895049     0.0301740709678     -0.17324100467      0.0301740709678     -0.17324100467      -0.969788400199     -0.167969895049     
5200000000.0        -0.970904389069     -0.164819913081     0.029057463947      -0.170197365261     0.029057463947      -0.170197365261     -0.970904389069     -0.164819913081     
5300000000.0        -0.971960516465     -0.161775456835     0.0280007061791     -0.167259351075     0.0280007061791     -0.167259351075     -0.971960516465     -0.161775456835     
5400000000.0        -0.972960956693     -0.158831362111     0.0269996233222     -0.164421797793     0.0269996233222     -0.164421797793     -0.972960956693     -0.158831362111     
5500000000.0        -0.973909529206     -0.155982782601     0.0260503958853     -0.161679859049     0.0260503958853     -0.161679859049     -0.973909529206     -0.155982782601     
5600000000.0        -0.974809733899     -0.153225167111     0.0251495239391     -0.159028983648     0.0251495239391     -0.159028983648     -0.974809733899     -0.153225167111     
5700000000.0        -0.975664782398     -0.150554238554     0.0242937958176     -0.156464894557     0.0242937958176     -0.156464894557     -0.975664782398     -0.150554238554     
5800000000.0        -0.976477625881     -0.147965974579     0.0234802603074     -0.153983569541     0.0234802603074     -0.153983569541     -0.976477625881     -0.147965974579     
5900000000.0        -0.977250979827     -0.145456589718     0.0227062018922     -0.151581223296     0.0227062018922     -0.151581223296     -0.977250979827     -0.145456589718     
6000000000.0        -0.977987346091     -0.143022518919     0.0219691186778     -0.149254290983     0.0219691186778     -0.149254290983     -0.977987346091     -0.143022518919     
6100000000.0        -0.978689032626     -0.140660402347     0.021266702674      -0.146999413035     0.021266702674      -0.146999413035     -0.978689032626     -0.140660402347     
6200000000.0        -0.979358171122     -0.138367071373     0.0205968221522     -0.144813421135     0.0205968221522     -0.144813421135     -0.979358171122     -0.138367071373     
6300000000.0        -0.979996732816     -0.136139535627     0.019957505835      -0.142693325273     0.019957505835      -0.142693325273     -0.979996732816     -0.136139535627     
6400000000.0        -0.980606542689     -0.133974971048     0.0193469287049     -0.14063630179      0.0193469287049     -0.14063630179      -0.980606542689     -0.133974971048     
6500000000.0        -0.981189292215     -0.131870708837     0.0187633992465     -0.138639682333     0.0187633992465     -0.138639682333     -0.981189292215     -0.131870708837     
6600000000.0        -0.981746550853     -0.129824225243     0.0182053479606     -0.13670094364      0.0182053479606     -0.13670094364      -0.981746550853     -0.129824225243     
6700000000.0        -0.982279776402     -0.127833132119     0.017671317008      -0.13481769809      0.017671317008      -0.13481769809      -0.982279776402     -0.127833132119     
6800000000.0        -0.98279032435      -0.125895168174     0.0171599508589     -0.132987684956     0.0171599508589     -0.132987684956     -0.98279032435      -0.125895168174     
6900000000.0        -0.983279456332     -0.124008190873     0.0166699878381     -0.131208762307     0.0166699878381     -0.131208762307     -0.983279456332     -0.124008190873     
7000000000.0        -0.983748347781     -0.122170168932     0.0162002524695     -0.129478899495     0.0162002524695     -0.129478899495     -0.983748347781     -0.122170168932     
7100000000.0        -0.984198094871     -0.120379175354     0.0157496485368     -0.127796170194     0.0157496485368     -0.127796170194     -0.984198094871     -0.120379175354     
7200000000.0        -0.984629720817     -0.118633380966     0.015317152783      -0.126158745938     0.015317152783      -0.126158745938     -0.984629720817     -0.118633380966     
7300000000.0        -0.985044181597     -0.116931048424     0.0149018091844     -0.124564890119     0.0149018091844     -0.124564890119     -0.985044181597     -0.116931048424     
7400000000.0        -0.985442371169     -0.115270526635     0.0145027237398     -0.12301295241      0.0145027237398     -0.12301295241      -0.985442371169     -0.115270526635     
7500000000.0        -0.985825126215     -0.113650245571     0.0141190597222     -0.121501363583     0.0141190597222     -0.121501363583     -0.985825126215     -0.113650245571     
7600000000.0        -0.986193230474     -0.11206871145      0.0137500333481     -0.120028630681     0.0137500333481     -0.120028630681     -0.986193230474     -0.11206871145      
7700000000.0        -0.986547418694     -0.110524502243     0.0133949098224     -0.118593332528     0.0133949098224     -0.118593332528     -0.986547418694     -0.110524502243     
7800000000.0        -0.986888380252     -0.10901626349      0.0130529997221     -0.117194115545     0.0130529997221     -0.117194115545     -0.986888380252     -0.10901626349      
7900000000.0        -0.98721676246      -0.107542704397     0.0127236556866     -0.115829689845     0.0127236556866     -0.115829689845     -0.98721676246      -0.107542704397     
8000000000.0        -0.987533173603     -0.106102594201     0.0124062693855     -0.114498825596     0.0124062693855     -0.114498825596     -0.987533173603     -0.106102594201     
8100000000.0        -0.987838185712     -0.10469475877      0.0121002687371     -0.113200349621     0.0121002687371     -0.113200349621     -0.987838185712     -0.10469475877      
8200000000.0        -0.988132337125     -0.103318077428     0.011805115355      -0.111933142227     0.011805115355      -0.111933142227     -0.988132337125     -0.103318077428     
8300000000.0        -0.988416134831     -0.101971479996     0.0115203022009     -0.110696134232     0.0115203022009     -0.110696134232     -0.988416134831     -0.101971479996     
8400000000.0        -0.988690056627     -0.100653944008     0.011245351426      -0.109488304199     0.011245351426      -0.109488304199     -0.988690056627     -0.100653944008     
8500000000.0        -0.98895455311      -0.0993644921241    0.0109798123829     -0.108308675831     0.0109798123829     -0.108308675831     -0.98895455311      -0.0993644921241    
8600000000.0        -0.989210049507     -0.0981021896924    0.0107232597932     -0.107156315543     0.0107232597932     -0.107156315543     -0.989210049507     -0.0981021896924    
8700000000.0        -0.989456947364     -0.0968661424748    0.0104752920571     -0.106030330185     0.0104752920571     -0.106030330185     -0.989456947364     -0.0968661424748    
8800000000.0        -0.98969562611      -0.0956554945092    0.0102355296929     -0.104929864901     0.0102355296929     -0.104929864901     -0.98969562611      -0.0956554945092    
8900000000.0        -0.989926444497     -0.0944694261064    0.0100036138943     -0.103854101126     0.0100036138943     -0.103854101126     -0.989926444497     -0.0944694261064    
9000000000.0        -0.990149741936     -0.093307151969     0.00977920519682    -0.102802254709     0.00977920519682    -0.102802254709     -0.990149741936     -0.093307151969     
9100000000.0        -0.990365839728     -0.0921679194246    0.00956198224207    -0.101773574138     0.00956198224207    -0.101773574138     -0.990365839728     -0.0921679194246    
9200000000.0        -0.990575042213     -0.0910510067653    0.00935164063411    -0.100767338886     0.00935164063411    -0.100767338886     -0.990575042213     -0.0910510067653    
9300000000.0        -0.990777637829     -0.0899557216872    0.00914789187826    -0.0997828578469    0.00914789187826    -0.0997828578469    -0.990777637829     -0.0899557216872    
9400000000.0        -0.990973900097     -0.0888813998205    0.00895046239665    -0.0988194678649    0.00895046239665    -0.0988194678649    -0.990973900097     -0.0888813998205    
9500000000.0        -0.991164088533     -0.0878274033477    0.00875909261392    -0.0978765323531    0.00875909261392    -0.0978765323531    -0.991164088533     -0.0878274033477    
9600000000.0        -0.991348449499     -0.0867931197009    0.00857353610748    -0.0969534399905    0.00857353610748    -0.0969534399905    -0.991348449499     -0.0867931197009    
9700000000.0        -0.991527216997     -0.0857779603345    0.00839355881723    -0.0960496034941    0.00839355881723    -0.0960496034941    -0.991527216997     -0.0857779603345    
9800000000.0        -0.991700613398     -0.0847813595681    0.00821893830999    -0.0951644584617    0.00821893830999    -0.0951644584617    -0.991700613398     -0.0847813595681    
9900000000.0        -0.991868850132     -0.083802773495     0.00804946309438    -0.0942974622799    0.00804946309438    -0.0942974622799    -0.991868850132     -0.083802773495     
10000000000.0       -0.992032128325     -0.0828416789518    0.00788493198225    -0.0934480930934    0.00788493198225    -0.0934480930934    -0.992032128325     -0.0828416789518    
