# Hz S RI R 50.00 
100000000.0         0.014211260545      0.00176427962231    0.985786973931      -0.00238205945688   0.985786973931      -0.00238205945688   0.014211260545      0.00176427962231    
200000000.0         0.0143163957901     0.0035277369312     0.985680689629      -0.00476330494863   0.985680689629      -0.00476330494863   0.0143163957901     0.0035277369312     
300000000.0         0.0144050562747     0.00529064028478    0.985590496502      -0.00714400970075   0.985590496502      -0.00714400970075   0.0144050562747     0.00529064028478    
400000000.0         0.0144894580956     0.00705305131716    0.985504178396      -0.0095242391967    0.985504178396      -0.0095242391967    0.0144894580956     0.00705305131716    
500000000.0         0.0145743131428     0.00881498343773    0.985417023361      -0.0119040101795    0.985417023361      -0.0119040101795    0.0145743131428     0.00881498343773    
600000000.0         0.0146620273826     0.0105764286675     0.985326625365      -0.0142833176646    0.985326625365      -0.0142833176646    0.0146620273826     0.0105764286675     
700000000.0         0.0147540232969     0.0123373672951     0.985231561856      -0.0166621446864    0.985231561856      -0.0166621446864    0.0147540232969     0.0123373672951     
800000000.0         0.0148512228548     0.0140977723631     0.985130910786      -0.0190404668378    0.985130910786      -0.0190404668378    0.0148512228548     0.0140977723631     
900000000.0         0.0149542626941     0.0158576120808     0.985024035439      -0.0214182547199    0.985024035439      -0.0214182547199    0.0149542626941     0.0158576120808     
1000000000.0        0.0150636032587     0.0176168512564     0.984910475283      -0.0237954753978    0.984910475283      -0.0237954753978    0.0150636032587     0.0176168512564     
1100000000.0        0.0151795895039     0.0193754522071     0.984789885274      -0.0261720933305    0.984789885274      -0.0261720933305    0.0151795895039     0.0193754522071     
1200000000.0        0.0153024870901     0.0211333753707     0.984661999654      -0.0285480709959    0.984661999654      -0.0285480709959    0.0153024870901     0.0211333753707     
1300000000.0        0.0154325051674     0.022890579733      0.984526609175      -0.0309233693299    0.984526609175      -0.0309233693299    0.0154325051674     0.022890579733      
1400000000.0        0.0155698113606     0.0246470231376     0.984383546108      -0.033297948045     0.984383546108      -0.033297948045     0.0155698113606     0.0246470231376     
1500000000.0        0.015714541986      0.0264026625171     0.984232674029      -0.0356717658685    0.984232674029      -0.0356717658685    0.015714541986      0.0264026625171     
1600000000.0        0.0158668092313     0.0281574540685     0.984073880638      -0.0380447807252    0.984073880638      -0.0380447807252    0.0158668092313     0.0281574540685     
1700000000.0        0.016026706333      0.0299113533911     0.983907072582      -0.0404169498792    0.983907072582      -0.0404169498792    0.016026706333      0.0299113533911     
1800000000.0        0.0161943113929     0.0316643155946     0.983732171641      -0.0427882300475    0.983732171641      -0.0427882300475    0.0161943113929     0.0316643155946     
1900000000.0        0.0163696902471     0.0334162953871     0.983549111855      -0.0451585774915    0.983549111855      -0.0451585774915    0.0163696902471     0.0334162953871     
2000000000.0        0.0165528986593     0.0351672471466     0.983357837334      -0.047527948092     0.983357837334      -0.047527948092     0.0165528986593     0.0351672471466     
2100000000.0        0.0167439840233     0.0369171249804     0.983158300553      -0.0498962974112    0.983158300553      -0.0498962974112    0.0167439840233     0.0369171249804     
2200000000.0        0.0169429867019     0.0386658827742     0.982950461017      -0.0522635807452    0.982950461017      -0.0522635807452    0.0169429867019     0.0386658827742     
2300000000.0        0.0171499410935     0.0404134742346     0.98273428419       -0.0546297531684    0.98273428419       -0.0546297531684    0.0171499410935     0.0404134742346     
2400000000.0        0.0173648764902     0.0421598529248     0.982509740641      -0.0569947695712    0.982509740641      -0.0569947695712    0.0173648764902     0.0421598529248     
2500000000.0        0.0175878177758     0.0439049722951     0.982276805342      -0.0593585846929    0.982276805342      -0.0593585846929    0.0175878177758     0.0439049722951     
2600000000.0        0.0178187859986     0.0456487857104     0.9820354571        -0.0617211531504    0.9820354571        -0.0617211531504    0.0178187859986     0.0456487857104     
2700000000.0        0.0180577988449     0.047391246473      0.981785678079      -0.0640824294631    0.981785678079      -0.0640824294631    0.0180577988449     0.047391246473      
2800000000.0        0.0183048710341     0.0491323078436     0.981527453407      -0.0664423680753    0.981527453407      -0.0664423680753    0.0183048710341     0.0491323078436     
2900000000.0        0.0185600146503     0.0508719230601     0.981260770848      -0.0688009233756    0.981260770848      -0.0688009233756    0.0185600146503     0.0508719230601     
3000000000.0        0.0188232394225     0.0526100453531     0.980985620513      -0.0711580497151    0.980985620513      -0.0711580497151    0.0188232394225     0.0526100453531     
3100000000.0        0.0190945529634     0.0543466279619     0.980701994632      -0.0735137014228    0.980701994632      -0.0735137014228    0.0190945529634     0.0543466279619     
3200000000.0        0.0193739609725     0.0560816241466     0.980409887341      -0.0758678328202    0.980409887341      -0.0758678328202    0.0193739609725     0.0560816241466     
3300000000.0        0.0196614674124     0.0578149872012     0.980109294513      -0.0782203982348    0.980109294513      -0.0782203982348    0.0196614674124     0.0578149872012     
3400000000.0        0.0199570746594     0.0595466704645     0.979800213606      -0.0805713520115    0.979800213606      -0.0805713520115    0.0199570746594     0.0595466704645     
3500000000.0        0.0202607836359     0.0612766273298     0.979482643526      -0.0829206485241    0.979482643526      -0.0829206485241    0.0202607836359     0.0612766273298     
3600000000.0        0.0205725939245     0.0630048112549     0.979156584519      -0.0852682421854    0.979156584519      -0.0852682421854    0.0205725939245     0.0630048112549     
3700000000.0        0.0208925038692     0.0647311757706     0.978822038066      -0.0876140874567    0.978822038066      -0.0876140874567    0.0208925038692     0.0647311757706     
3800000000.0        0.0212205106634     0.0664556744885     0.978479006799      -0.0899581388565    0.978479006799      -0.0899581388565    0.0212205106634     0.0664556744885     
3900000000.0        0.0215566104283     0.0681782611092     0.978127494417      -0.0923003509686    0.978127494417      -0.0923003509686    0.0215566104283     0.0681782611092     
4000000000.0        0.0219007982821     0.0698988894287     0.97776750562       -0.0946406784504    0.97776750562       -0.0946406784504    0.0219007982821     0.0698988894287     
4100000000.0        0.0222530684016     0.0716175133455     0.977399046051      -0.0969790760393    0.977399046051      -0.0969790760393    0.0222530684016     0.0716175133455     
4200000000.0        0.0226134140774     0.0733340868665     0.977022122232      -0.0993154985605    0.977022122232      -0.0993154985605    0.0226134140774     0.0733340868665     
4300000000.0        0.0229818277627     0.0750485641136     0.976636741524      -0.101649900932     0.976636741524      -0.101649900932     0.0229818277627     0.0750485641136     
4400000000.0        0.0233583011181     0.0767608993283     0.976242912078      -0.103982238174     0.976242912078      -0.103982238174     0.0233583011181     0.0767608993283     
4500000000.0        0.0237428250513     0.0784710468782     0.975840642795      -0.106312465409     0.975840642795      -0.106312465409     0.0237428250513     0.0784710468782     
4600000000.0        0.0241353897529     0.0801789612611     0.975429943293      -0.108640537873     0.975429943293      -0.108640537873     0.0241353897529     0.0801789612611     
4700000000.0        0.0245359847296     0.0818845971105     0.975010823871      -0.110966410919     0.975010823871      -0.110966410919     0.0245359847296     0.0818845971105     
4800000000.0        0.0249445988335     0.0835879091999     0.974583295481      -0.113290040021     0.974583295481      -0.113290040021     0.0249445988335     0.0835879091999     
4900000000.0        0.0253612202897     0.0852888524476     0.9741473697        -0.115611380778     0.9741473697        -0.115611380778     0.0253612202897     0.0852888524476     
5000000000.0        0.0257858367203     0.0869873819208     0.973703058707      -0.117930388924     0.973703058707      -0.117930388924     0.0257858367203     0.0869873819208     
5100000000.0        0.0262184351682     0.0886834528396     0.973250375258      -0.120247020325     0.973250375258      -0.120247020325     0.0262184351682     0.0886834528396     
5200000000.0        0.026659002117      0.0903770205813     0.972789332667      -0.122561230989     0.972789332667      -0.122561230989     0.026659002117      0.0903770205813     
5300000000.0        0.0271075235109     0.0920680406841     0.972319944787      -0.124872977068     0.972319944787      -0.124872977068     0.0271075235109     0.0920680406841     
5400000000.0        0.0275639847722     0.0937564688507     0.971842225989      -0.127182214863     0.971842225989      -0.127182214863     0.0275639847722     0.0937564688507     
5500000000.0        0.0280283708179     0.095442260952      0.971356191151      -0.129488900826     0.971356191151      -0.129488900826     0.0280283708179     0.095442260952      
5600000000.0        0.028500666075      0.0971253730309     0.970861855636      -0.131792991565     0.970861855636      -0.131792991565     0.028500666075      0.0971253730309     
5700000000.0        0.0289808544944     0.098805761305      0.970359235284      -0.13409444385      0.970359235284      -0.13409444385      0.0289808544944     0.098805761305      
5800000000.0        0.0294689195648     0.100483382171      0.969848346395      -0.136393214612     0.969848346395      -0.136393214612     0.0294689195648     0.100483382171      
5900000000.0        0.0299648443247     0.102158192206      0.96932920572       -0.138689260949     0.96932920572       -0.138689260949     0.0299648443247     0.102158192206      
6000000000.0        0.0304686113742     0.103830148172      0.968801830444      -0.14098254013      0.968801830444      -0.14098254013      0.0304686113742     0.103830148172      
6100000000.0        0.0309802028857     0.105499207021      0.96826623818       -0.143273009598     0.96826623818       -0.143273009598     0.0309802028857     0.105499207021      
6200000000.0        0.0314996006145     0.107165325893      0.967722446957      -0.145560626971     0.967722446957      -0.145560626971     0.0314996006145     0.107165325893      
6300000000.0        0.0320267859085     0.108828462122      0.967170475209      -0.147845350048     0.967170475209      -0.147845350048     0.0320267859085     0.108828462122      
6400000000.0        0.0325617397173     0.11048857324       0.966610341771      -0.15012713681      0.966610341771      -0.15012713681      0.0325617397173     0.11048857324       
6500000000.0        0.0331044426006     0.112145616976      0.966042065861      -0.152405945424     0.966042065861      -0.152405945424     0.0331044426006     0.112145616976      
6600000000.0        0.0336548747372     0.113799551262      0.965465667081      -0.154681734246     0.965465667081      -0.154681734246     0.0336548747372     0.113799551262      
6700000000.0        0.0342130159322     0.115450334234      0.964881165405      -0.156954461824     0.964881165405      -0.156954461824     0.0342130159322     0.115450334234      
6800000000.0        0.0347788456249     0.117097924236      0.96428858117       -0.159224086898     0.96428858117       -0.159224086898     0.0347788456249     0.117097924236      
6900000000.0        0.0353523428958     0.11874227982       0.963687935073      -0.161490568408     0.963687935073      -0.161490568408     0.0353523428958     0.11874227982       
7000000000.0        0.0359334864736     0.12038335975       0.963079248161      -0.16375386549      0.963079248161      -0.16375386549      0.0359334864736     0.12038335975       
7100000000.0        0.0365222547415     0.122021123006      0.962462541825      -0.166013937485     0.962462541825      -0.166013937485     0.0365222547415     0.122021123006      
7200000000.0        0.0371186257439     0.123655528783      0.961837837795      -0.168270743938     0.961837837795      -0.168270743938     0.0371186257439     0.123655528783      
7300000000.0        0.0377225771923     0.125286536494      0.961205158132      -0.170524244599     0.961205158132      -0.170524244599     0.0377225771923     0.125286536494      
7400000000.0        0.0383340864711     0.126914105776      0.960564525223      -0.172774399431     0.960564525223      -0.172774399431     0.0383340864711     0.126914105776      
7500000000.0        0.0389531306436     0.128538196488      0.959915961777      -0.175021168606     0.959915961777      -0.175021168606     0.0389531306436     0.128538196488      
7600000000.0        0.0395796864571     0.130158768712      0.959259490817      -0.177264512511     0.959259490817      -0.177264512511     0.0395796864571     0.130158768712      
7700000000.0        0.0402137303482     0.131775782762      0.958595135676      -0.179504391749     0.958595135676      -0.179504391749     0.0402137303482     0.131775782762      
7800000000.0        0.0408552384486     0.133389199179      0.957922919992      -0.181740767143     0.957922919992      -0.181740767143     0.0408552384486     0.133389199179      
7900000000.0        0.0415041865892     0.134998978735      0.957242867701      -0.183973599735     0.957242867701      -0.183973599735     0.0415041865892     0.134998978735      
8000000000.0        0.0421605503056     0.136605082437      0.956555003036      -0.18620285079      0.956555003036      -0.18620285079      0.0421605503056     0.136605082437      
8100000000.0        0.0428243048428     0.138207471528      0.955859350519      -0.188428481799     0.955859350519      -0.188428481799     0.0428243048428     0.138207471528      
8200000000.0        0.0434954251595     0.139806107486      0.955155934957      -0.190650454478     0.955155934957      -0.190650454478     0.0434954251595     0.139806107486      
8300000000.0        0.0441738859331     0.14140095203       0.95444478144       -0.192868730774     0.95444478144       -0.192868730774     0.0441738859331     0.14140095203       
8400000000.0        0.0448596615636     0.14299196712       0.953725915331      -0.195083272864     0.953725915331      -0.195083272864     0.0448596615636     0.14299196712       
8500000000.0        0.0455527261784     0.144579114959      0.952999362268      -0.197294043156     0.952999362268      -0.197294043156     0.0455527261784     0.144579114959      
8600000000.0        0.0462530536365     0.146162357993      0.952265148157      -0.199501004296     0.952265148157      -0.199501004296     0.0462530536365     0.146162357993      
8700000000.0        0.0469606175321     0.147741658915      0.951523299166      -0.201704119161     0.951523299166      -0.201704119161     0.0469606175321     0.147741658915      
8800000000.0        0.0476753911996     0.149316980667      0.950773841725      -0.203903350872     0.950773841725      -0.203903350872     0.0476753911996     0.149316980667      
8900000000.0        0.048397347717      0.150888286438      0.950016802518      -0.206098662786     0.950016802518      -0.206098662786     0.048397347717      0.150888286438      
9000000000.0        0.04912645991       0.15245553967       0.949252208482      -0.208290018502     0.949252208482      -0.208290018502     0.04912645991       0.15245553967       
9100000000.0        0.0498627003558     0.154018704058      0.9484800868        -0.210477381863     0.9484800868        -0.210477381863     0.0498627003558     0.154018704058      
9200000000.0        0.0506060413875     0.155577743548      0.947700464902      -0.212660716955     0.947700464902      -0.212660716955     0.0506060413875     0.155577743548      
9300000000.0        0.0513564550969     0.157132622345      0.946913370457      -0.214839988113     0.946913370457      -0.214839988113     0.0513564550969     0.157132622345      
9400000000.0        0.0521139133394     0.158683304909      0.94611883137       -0.217015159916     0.94611883137       -0.217015159916     0.0521139133394     0.158683304909      
9500000000.0        0.0528783877366     0.160229755958      0.945316875779      -0.219186197196     0.945316875779      -0.219186197196     0.0528783877366     0.160229755958      
9600000000.0        0.0536498496807     0.161771940471      0.944507532053      -0.221353065034     0.944507532053      -0.221353065034     0.0536498496807     0.161771940471      
9700000000.0        0.0544282703378     0.163309823687      0.943690828785      -0.223515728762     0.943690828785      -0.223515728762     0.0544282703378     0.163309823687      
9800000000.0        0.0552136206517     0.164843371108      0.942866794792      -0.225674153968     0.942866794792      -0.225674153968     0.0552136206517     0.164843371108      
9900000000.0        0.0560058713469     0.166372548499      0.942035459107      -0.227828306492     0.942035459107      -0.227828306492     0.0560058713469     0.166372548499      
10000000000.0       0.0568049929329     0.167897321891      0.941196850981      -0.229978152432     0.941196850981      -0.229978152432     0.0568049929329     0.167897321891      
