# Hz S RI R 50.00 
100000000.0         0.0208431241761     0.00342536205248    0.97915111922       -0.00570306761636   0.97915111922       -0.00570306761636   0.0208431241761     0.00342536205248    
200000000.0         0.0210373645628     0.00684766309736    0.978946896779      -0.0114030965291    0.978946896779      -0.0114030965291    0.0210373645628     0.00684766309736    
300000000.0         0.0212353124871     0.0102673751634     0.978733740421      -0.0171005785353    0.978733740421      -0.0171005785353    0.0212353124871     0.0102673751634     
400000000.0         0.0214546962674     0.013684305815      0.9784939208        -0.0227953379741    0.9784939208        -0.0227953379741    0.0214546962674     0.013684305815      
500000000.0         0.0217023210265     0.0170981088859     0.978220631612      -0.0284870439423    0.978220631612      -0.0284870439423    0.0217023210265     0.0170981088859     
600000000.0         0.0219816317709     0.0205083708096     0.977910426496      -0.0341752971457    0.977910426496      -0.0341752971457    0.0219816317709     0.0205083708096     
700000000.0         0.0222946365583     0.0239146417115     0.977561295864      -0.039859661257     0.977561295864      -0.039859661257     0.0222946365583     0.0239146417115     
800000000.0         0.0226426085452     0.0273164499106     0.977171964851      -0.0455396775763    0.977171964851      -0.0455396775763    0.0226426085452     0.0273164499106     
900000000.0         0.0230263986341     0.0307133097827     0.976741580668      -0.0512148729982    0.976741580668      -0.0512148729982    0.0230263986341     0.0307133097827     
1000000000.0        0.0234465939795     0.0341047264829     0.976269554095      -0.0568847648086    0.976269554095      -0.0568847648086    0.0234465939795     0.0341047264829     
1100000000.0        0.0239036061235     0.0374901990063     0.975755471347      -0.0625488637994    0.975755471347      -0.0625488637994    0.0239036061235     0.0374901990063     
1200000000.0        0.0243977235331     0.0408692222937     0.975199041538      -0.0682066764153    0.975199041538      -0.0682066764153    0.0243977235331     0.0408692222937     
1300000000.0        0.0249291446746     0.044241288753      0.974600063605      -0.0738577063073    0.974600063605      -0.0738577063073    0.0249291446746     0.044241288753      
1400000000.0        0.0254979997725     0.0476058894045     0.973958404554      -0.0795014555053    0.973958404554      -0.0795014555053    0.0254979997725     0.0476058894045     
1500000000.0        0.0261043656571     0.0509625147756     0.973273984608      -0.0851374253326    0.973273984608      -0.0851374253326    0.0261043656571     0.0509625147756     
1600000000.0        0.0267482762133     0.0543106556196     0.972546766767      -0.0907651171435    0.972546766767      -0.0907651171435    0.0267482762133     0.0543106556196     
1700000000.0        0.0274297299313     0.057649803511      0.971776749249      -0.0963840329332    0.971776749249      -0.0963840329332    0.0274297299313     0.057649803511      
1800000000.0        0.028148695491      0.0609794513488     0.970963959914      -0.101993675854     0.970963959914      -0.101993675854     0.028148695491      0.0609794513488     
1900000000.0        0.028905115979      0.0642990937916     0.970108452042      -0.10759355066      0.970108452042      -0.10759355066      0.028905115979      0.0642990937916     
2000000000.0        0.0296989121318     0.0676082276397     0.969210301094      -0.113183164103     0.969210301094      -0.113183164103     0.0296989121318     0.0676082276397     
2100000000.0        0.0305299848738     0.0709063521774     0.968269602176      -0.118762025276     0.968269602176      -0.118762025276     0.0305299848738     0.0709063521774     
2200000000.0        0.0313982173334     0.0741929694807     0.967286468018      -0.124329645936     0.967286468018      -0.124329645936     0.0313982173334     0.0741929694807     
2300000000.0        0.0323034764699     0.0774675847008     0.966261027354      -0.129885540787     0.966261027354      -0.129885540787     0.0323034764699     0.0774675847008     
2400000000.0        0.0332456144034     0.0807297063239     0.965193423587      -0.135429227753     0.965193423587      -0.135429227753     0.0332456144034     0.0807297063239     
2500000000.0        0.0342244695178     0.0839788464139     0.964083813692      -0.140960228218     0.964083813692      -0.140960228218     0.0342244695178     0.0839788464139     
2600000000.0        0.0352398673856     0.0872145208398     0.962932367289      -0.146478067264     0.962932367289      -0.146478067264     0.0352398673856     0.0872145208398     
2700000000.0        0.0362916215548     0.0904362494887     0.961739265853      -0.151982273886     0.961739265853      -0.151982273886     0.0362916215548     0.0904362494887     
2800000000.0        0.0373795342255     0.093643556468      0.960504702046      -0.157472381197     0.960504702046      -0.157472381197     0.0373795342255     0.093643556468      
2900000000.0        0.0385033968383     0.0968359702971     0.959228879122      -0.162947926626     0.959228879122      -0.162947926626     0.0385033968383     0.0968359702971     
3000000000.0        0.0396629905929     0.10001302409       0.957912010411      -0.168408452101     0.957912010411      -0.168408452101     0.0396629905929     0.10001302409       
3100000000.0        0.0408580869086     0.103174255727      0.956554318861      -0.173853504226     0.956554318861      -0.173853504226     0.0408580869086     0.103174255727      
3200000000.0        0.0420884478394     0.106319208025      0.955156036619      -0.179282634451     0.955156036619      -0.179282634451     0.0420884478394     0.106319208025      
3300000000.0        0.0433538264496     0.109447428892      0.95371740466       -0.184695399232     0.95371740466       -0.184695399232     0.0433538264496     0.109447428892      
3400000000.0        0.0446539671594     0.112558471481      0.952238672439      -0.190091360184     0.952238672439      -0.190091360184     0.0446539671594     0.112558471481      
3500000000.0        0.0459886060638     0.115651894336      0.950720097572      -0.195470084233     0.950720097572      -0.195470084233     0.0459886060638     0.115651894336      
3600000000.0        0.0473574712298     0.118727261529      0.949161945541      -0.200831143752     0.949161945541      -0.200831143752     0.0473574712298     0.118727261529      
3700000000.0        0.0487602829766     0.121784142797      0.947564489413      -0.2061741167       0.947564489413      -0.2061741167       0.0487602829766     0.121784142797      
3800000000.0        0.0501967541395     0.124822113667      0.945928009576      -0.211498586749     0.945928009576      -0.211498586749     0.0501967541395     0.124822113667      
3900000000.0        0.0516665903222     0.127840755579      0.944252793488      -0.216804143411     0.944252793488      -0.216804143411     0.0516665903222     0.127840755579      
4000000000.0        0.053169490138      0.130839656004      0.942539135433      -0.222090382151     0.942539135433      -0.222090382151     0.053169490138      0.130839656004      
4100000000.0        0.0547051454419     0.133818408554      0.940787336295      -0.227356904506     0.940787336295      -0.227356904506     0.0547051454419     0.133818408554      
4200000000.0        0.0562732415554     0.136776613091      0.938997703324      -0.232603318189     0.938997703324      -0.232603318189     0.0562732415554     0.136776613091      
4300000000.0        0.0578734574845     0.139713875826      0.937170549928      -0.237829237193     0.937170549928      -0.237829237193     0.0578734574845     0.139713875826      
4400000000.0        0.059505466132      0.142629809416      0.935306195455      -0.243034281887     0.935306195455      -0.243034281887     0.059505466132      0.142629809416      
4500000000.0        0.0611689345052     0.145524033056      0.933404964984      -0.248218079111     0.933404964984      -0.248218079111     0.0611689345052     0.145524033056      
4600000000.0        0.0628635239197     0.148396172568      0.931467189127      -0.253380262263     0.931467189127      -0.253380262263     0.0628635239197     0.148396172568      
4700000000.0        0.0645888901987     0.151245860479      0.929493203826      -0.258520471379     0.929493203826      -0.258520471379     0.0645888901987     0.151245860479      
4800000000.0        0.0663446838697     0.154072736101      0.927483350155      -0.263638353215     0.927483350155      -0.263638353215     0.0663446838697     0.154072736101      
4900000000.0        0.0681305503588     0.156876445602      0.925437974128      -0.268733561319     0.925437974128      -0.268733561319     0.0681305503588     0.156876445602      
5000000000.0        0.0699461301813     0.159656642077      0.923357426508      -0.273805756098     0.923357426508      -0.273805756098     0.0699461301813     0.159656642077      
5100000000.0        0.0717910591311     0.162412985606      0.921242062618      -0.278854604885     0.921242062618      -0.278854604885     0.0717910591311     0.162412985606      
5200000000.0        0.0736649684672     0.165145143319      0.919092242152      -0.283879781994     0.919092242152      -0.283879781994     0.0736649684672     0.165145143319      
5300000000.0        0.0755674850993     0.167852789446      0.916908328993      -0.28888096878      0.916908328993      -0.28888096878      0.0755674850993     0.167852789446      
5400000000.0        0.0774982317702     0.170535605368      0.914690691026      -0.293857853686     0.914690691026      -0.293857853686     0.0774982317702     0.170535605368      
5500000000.0        0.079456827238      0.173193279664      0.912439699961      -0.298810132289     0.912439699961      -0.298810132289     0.079456827238      0.173193279664      
5600000000.0        0.0814428864555     0.17582550815       0.910155731147      -0.303737507343     0.910155731147      -0.303737507343     0.0814428864555     0.17582550815       
5700000000.0        0.0834560207487     0.178431993916      0.9078391634        -0.308639688816     0.9078391634        -0.308639688816     0.0834560207487     0.178431993916      
5800000000.0        0.0854958379935     0.181012447363      0.905490378821      -0.313516393922     0.905490378821      -0.313516393922     0.0854958379935     0.181012447363      
5900000000.0        0.0875619427911     0.183566586222      0.903109762624      -0.318367347148     0.903109762624      -0.318367347148     0.0875619427911     0.183566586222      
6000000000.0        0.0896539366414     0.186094135589      0.900697702959      -0.323192280283     0.900697702959      -0.323192280283     0.0896539366414     0.186094135589      
6100000000.0        0.0917714181157     0.188594827937      0.898254590743      -0.327990932434     0.898254590743      -0.327990932434     0.0917714181157     0.188594827937      
6200000000.0        0.0939139830272     0.191068403136      0.895780819485      -0.332763050046     0.895780819485      -0.332763050046     0.0939139830272     0.191068403136      
6300000000.0        0.0960812246002     0.193514608464      0.89327678512       -0.337508386909     0.89327678512       -0.337508386909     0.0960812246002     0.193514608464      
6400000000.0        0.098272733638      0.195933198614      0.89074288584       -0.342226704171     0.89074288584       -0.342226704171     0.098272733638      0.195933198614      
6500000000.0        0.100488098688      0.1983239357        0.888179521926      -0.34691777034      0.888179521926      -0.34691777034      0.100488098688      0.1983239357        
6600000000.0        0.102726906208      0.200686589257      0.885587095586      -0.351581361286     0.885587095586      -0.351581361286     0.102726906208      0.200686589257      
6700000000.0        0.104988740727      0.203020936238      0.88296601079       -0.356217260237     0.88296601079       -0.356217260237     0.104988740727      0.203020936238      
6800000000.0        0.107273185007      0.205326761004      0.88031667311       -0.360825257769     0.88031667311       -0.360825257769     0.107273185007      0.205326761004      
6900000000.0        0.109579820203      0.207603855318      0.877639489559      -0.3654051518       0.877639489559      -0.3654051518       0.109579820203      0.207603855318      
7000000000.0        0.111908226018      0.209852018327      0.874934868435      -0.369956747576     0.874934868435      -0.369956747576     0.111908226018      0.209852018327      
7100000000.0        0.114257980863      0.212071056548      0.872203219162      -0.374479857647     0.872203219162      -0.374479857647     0.114257980863      0.212071056548      
7200000000.0        0.116628662005      0.214260783842      0.869444952139      -0.378974301853     0.869444952139      -0.378974301853     0.116628662005      0.214260783842      
7300000000.0        0.119019845726      0.216421021393      0.866660478588      -0.383439907296     0.866660478588      -0.383439907296     0.119019845726      0.216421021393      
7400000000.0        0.121431107464      0.218551597681      0.863850210401      -0.387876508312     0.863850210401      -0.387876508312     0.121431107464      0.218551597681      
7500000000.0        0.12386202197       0.22065234845       0.861014559992      -0.392283946442     0.861014559992      -0.392283946442     0.12386202197       0.22065234845       
7600000000.0        0.126312163445      0.222723116672      0.858153940155      -0.396662070397     0.858153940155      -0.396662070397     0.126312163445      0.222723116672      
7700000000.0        0.128781105691      0.224763752514      0.855268763916      -0.401010736018     0.855268763916      -0.401010736018     0.128781105691      0.224763752514      
7800000000.0        0.131268422247      0.226774113295      0.852359444393      -0.405329806243     0.852359444393      -0.405329806243     0.131268422247      0.226774113295      
7900000000.0        0.133773686532      0.228754063446      0.849426394653      -0.409619151057     0.849426394653      -0.409619151057     0.133773686532      0.228754063446      
8000000000.0        0.136296471978      0.230703474459      0.846470027583      -0.413878647448     0.846470027583      -0.413878647448     0.136296471978      0.230703474459      
8100000000.0        0.138836352169      0.232622224847      0.843490755744      -0.418108179362     0.843490755744      -0.418108179362     0.138836352169      0.232622224847      
8200000000.0        0.14139290097       0.234510200087      0.840488991246      -0.422307637648     0.840488991246      -0.422307637648     0.14139290097       0.234510200087      
8300000000.0        0.143965692657      0.236367292568      0.837465145615      -0.426476920006     0.837465145615      -0.426476920006     0.143965692657      0.236367292568      
8400000000.0        0.146554302047      0.238193401536      0.834419629666      -0.43061593093      0.834419629666      -0.43061593093      0.146554302047      0.238193401536      
8500000000.0        0.149158304622      0.239988433034      0.831352853375      -0.43472458165      0.831352853375      -0.43472458165      0.149158304622      0.239988433034      
8600000000.0        0.151777276649      0.241752299845      0.828265225759      -0.438802790074     0.828265225759      -0.438802790074     0.151777276649      0.241752299845      
8700000000.0        0.154410795305      0.243484921427      0.825157154751      -0.442850480718     0.825157154751      -0.442850480718     0.154410795305      0.243484921427      
8800000000.0        0.157058438789      0.245186223845      0.822029047089      -0.446867584647     0.822029047089      -0.446867584647     0.157058438789      0.245186223845      
8900000000.0        0.159719786442      0.246856139712      0.818881308192      -0.450854039408     0.818881308192      -0.450854039408     0.159719786442      0.246856139712      
9000000000.0        0.162394418858      0.248494608112      0.815714342052      -0.454809788954     0.815714342052      -0.454809788954     0.162394418858      0.248494608112      
9100000000.0        0.165081917991      0.250101574535      0.812528551125      -0.458734783581     0.812528551125      -0.458734783581     0.165081917991      0.250101574535      
9200000000.0        0.167781867267      0.251676990802      0.809324336216      -0.462628979852     0.809324336216      -0.462628979852     0.167781867267      0.251676990802      
9300000000.0        0.170493851686      0.253220814992      0.806102096382      -0.46649234052      0.806102096382      -0.46649234052      0.170493851686      0.253220814992      
9400000000.0        0.173217457924      0.254733011365      0.802862228823      -0.470324834456     0.802862228823      -0.470324834456     0.173217457924      0.254733011365      
9500000000.0        0.175952274434      0.256213550286      0.799605128786      -0.474126436568     0.799605128786      -0.474126436568     0.175952274434      0.256213550286      
9600000000.0        0.17869789154       0.257662408145      0.796331189464      -0.477897127723     0.796331189464      -0.477897127723     0.17869789154       0.257662408145      
9700000000.0        0.181453901536      0.259079567277      0.793040801905      -0.481636894668     0.793040801905      -0.481636894668     0.181453901536      0.259079567277      
9800000000.0        0.184219898773      0.260465015883      0.789734354915      -0.485345729944     0.789734354915      -0.485345729944     0.184219898773      0.260465015883      
9900000000.0        0.186995479749      0.261818747945      0.786412234976      -0.489023631808     0.786412234976      -0.489023631808     0.186995479749      0.261818747945      
10000000000.0       0.189780243197      0.263140763141      0.783074826148      -0.492670604144     0.783074826148      -0.492670604144     0.189780243197      0.263140763141      
