# Hz S RI R 50.00 
100000000.0         0.012926401701      0.00270022840767    0.987068157999      -0.00489064326928   0.987068157999      -0.00489064326928   0.012926401701      0.00270022840767    
200000000.0         0.0130503754602     0.0053988532273     0.986934924688      -0.00977968932131   0.986934924688      -0.00977968932131   0.0130503754602     0.0053988532273     
300000000.0         0.0131785333296     0.00809609251837    0.9867926875        -0.0146673654444    0.9867926875        -0.0146673654444    0.0131785333296     0.00809609251837    
400000000.0         0.013321952599      0.0107918224014     0.98663036857       -0.019553555524     0.98663036857       -0.019553555524     0.013321952599      0.0107918224014     
500000000.0         0.0134848887055     0.0134858399037     0.98644371179       -0.0244380636164    0.98644371179       -0.0244380636164    0.0134848887055     0.0134858399037     
600000000.0         0.0136694999852     0.0161779073248     0.986230558053      -0.02932065857      0.986230558053      -0.02932065857      0.0136694999852     0.0161779073248     
700000000.0         0.0138770489228     0.0188677681873     0.985989643989      -0.0342010901056    0.985989643989      -0.0342010901056    0.0138770489228     0.0188677681873     
800000000.0         0.014108340609      0.0215551546583     0.985720163518      -0.0390790963155    0.985720163518      -0.0390790963155    0.014108340609      0.0215551546583     
900000000.0         0.0143639179765     0.024239791559      0.985421572606      -0.0439544077243    0.985421572606      -0.0439544077243    0.0143639179765     0.024239791559      
1000000000.0        0.0146441607668     0.0269213987619     0.985093490298      -0.0488267497217    0.985093490298      -0.0488267497217    0.0146441607668     0.0269213987619     
1100000000.0        0.01494934055       0.0295996927352     0.984735643702      -0.0536958441326    0.984735643702      -0.0536958441326    0.01494934055       0.0295996927352     
1200000000.0        0.0152796535126     0.0322743875961     0.9843478352        -0.0585614102912    0.9843478352        -0.0585614102912    0.0152796535126     0.0322743875961     
1300000000.0        0.0156352410915     0.0349451958661     0.983929921812      -0.0634231658113    0.983929921812      -0.0634231658113    0.0156352410915     0.0349451958661     
1400000000.0        0.0160162035413     0.0376118290331     0.983481801632      -0.0682808271612    0.983481801632      -0.0682808271612    0.0160162035413     0.0376118290331     
1500000000.0        0.0164226091846     0.0402739979857     0.983003404576      -0.0731341101075    0.983003404576      -0.0731341101075    0.0164226091846     0.0402739979857     
1600000000.0        0.016854500915      0.0429314133571     0.982494685881      -0.0779827300686    0.982494685881      -0.0779827300686    0.016854500915      0.0429314133571     
1700000000.0        0.0173119008889     0.0455837858074     0.981955621412      -0.0828264024029    0.981955621412      -0.0828264024029    0.0173119008889     0.0455837858074     
1800000000.0        0.0177948139889     0.0482308262587     0.981386204199      -0.0876648426503    0.981386204199      -0.0876648426503    0.0177948139889     0.0482308262587     
1900000000.0        0.0183032304316     0.0508722460952     0.980786441832      -0.0924977667377    0.980786441832      -0.0924977667377    0.0183032304316     0.0508722460952     
2000000000.0        0.0188371277667     0.0535077573383     0.980156354459      -0.097324891158     0.980156354459      -0.097324891158     0.0188371277667     0.0535077573383     
2100000000.0        0.019396472434      0.0561370728005     0.97949597323       -0.102145933128     0.97949597323       -0.102145933128     0.019396472434      0.0561370728005     
2200000000.0        0.019981220994      0.058759906223      0.978805339069      -0.10696061073      0.978805339069      -0.10696061073      0.019981220994      0.058759906223      
2300000000.0        0.0205913211138     0.0613759724016     0.978084501684      -0.111768643039     0.978084501684      -0.111768643039     0.0205913211138     0.0613759724016     
2400000000.0        0.0212267123668     0.0639849873008     0.977333518774      -0.116569750242     0.977333518774      -0.116569750242     0.0212267123668     0.0639849873008     
2500000000.0        0.021887326889      0.0665866681606     0.976552455364      -0.121363653744     0.976552455364      -0.121363653744     0.021887326889      0.0665866681606     
2600000000.0        0.0225730899241     0.0691807335951     0.975741383271      -0.12615007627      0.975741383271      -0.12615007627      0.0225730899241     0.0691807335951     
2700000000.0        0.0232839202803     0.071766903686      0.974900380636      -0.130928741963     0.974900380636      -0.130928741963     0.0232839202803     0.071766903686      
2800000000.0        0.024019730718      0.0743449000701     0.974029531546      -0.135699376469     0.974029531546      -0.135699376469     0.024019730718      0.0743449000701     
2900000000.0        0.024780428281      0.0769144460228     0.973128925698      -0.140461707023     0.973128925698      -0.140461707023     0.024780428281      0.0769144460228     
3000000000.0        0.0255659145836     0.0794752665379     0.972198658111      -0.145215462531     0.972198658111      -0.145215462531     0.0255659145836     0.0794752665379     
3100000000.0        0.0263760860607     0.0820270884034     0.971238828882      -0.149960373649     0.971238828882      -0.149960373649     0.0263760860607     0.0820270884034     
3200000000.0        0.0272108341878     0.0845696402744     0.97024954296       -0.154696172852     0.97024954296       -0.154696172852     0.0272108341878     0.0845696402744     
3300000000.0        0.028070045677      0.0871026527433     0.969230909952      -0.15942259451      0.969230909952      -0.15942259451      0.028070045677      0.0871026527433     
3400000000.0        0.0289536026522     0.0896258584075     0.96818304395       -0.164139374953     0.96818304395       -0.164139374953     0.0289536026522     0.0896258584075     
3500000000.0        0.0298613828079     0.0921389919344     0.967106063369      -0.168846252539     0.967106063369      -0.168846252539     0.0298613828079     0.0921389919344     
3600000000.0        0.0307932595538     0.0946417901246     0.966000090805      -0.173542967718     0.966000090805      -0.173542967718     0.0307932595538     0.0946417901246     
3700000000.0        0.031749102147      0.0971339919725     0.964865252903      -0.178229263091     0.964865252903      -0.178229263091     0.031749102147      0.0971339919725     
3800000000.0        0.0327287758156     0.0996153387255     0.963701680231      -0.182904883473     0.963701680231      -0.182904883473     0.0327287758156     0.0996153387255     
3900000000.0        0.0337321418726     0.102085573941      0.962509507169      -0.187569575948     0.962509507169      -0.187569575948     0.0337321418726     0.102085573941      
4000000000.0        0.0347590578237     0.104544443542      0.961288871799      -0.192223089925     0.961288871799      -0.192223089925     0.0347590578237     0.104544443542      
4100000000.0        0.0358093774685     0.10699169587       0.960039915805      -0.196865177194     0.960039915805      -0.196865177194     0.0358093774685     0.10699169587       
4200000000.0        0.0368829509972     0.109427081738      0.958762784377      -0.201495591976     0.958762784377      -0.201495591976     0.0368829509972     0.109427081738      
4300000000.0        0.037979625082      0.111850354479      0.957457626118      -0.206114090975     0.957457626118      -0.206114090975     0.037979625082      0.111850354479      
4400000000.0        0.0390992429662     0.114261269996      0.956124592956      -0.210720433427     0.956124592956      -0.210720433427     0.0390992429662     0.114261269996      
4500000000.0        0.0402416445485     0.116659586811      0.954763840061      -0.215314381146     0.954763840061      -0.215314381146     0.0402416445485     0.116659586811      
4600000000.0        0.0414066664661     0.119045066105      0.953375525757      -0.219895698572     0.953375525757      -0.219895698572     0.0414066664661     0.119045066105      
4700000000.0        0.0425941421742     0.12141747177       0.95195981145       -0.224464152813     0.95195981145       -0.224464152813     0.0425941421742     0.12141747177       
4800000000.0        0.0438039020246     0.123776570443      0.950516861542      -0.22901951369      0.950516861542      -0.22901951369      0.0438039020246     0.123776570443      
4900000000.0        0.0450357733413     0.126122131555      0.949046843361      -0.233561553777     0.949046843361      -0.233561553777     0.0450357733413     0.126122131555      
5000000000.0        0.0462895804959     0.128453927366      0.947549927083      -0.238090048442     0.947549927083      -0.238090048442     0.0462895804959     0.128453927366      
5100000000.0        0.0475651449808     0.130771733004      0.946026285657      -0.242604775885     0.946026285657      -0.242604775885     0.0475651449808     0.130771733004      
5200000000.0        0.0488622854817     0.133075326504      0.944476094737      -0.247105517172     0.944476094737      -0.247105517172     0.0488622854817     0.133075326504      
5300000000.0        0.0501808179489     0.135364488841      0.942899532608      -0.251592056276     0.942899532608      -0.251592056276     0.0501808179489     0.135364488841      
5400000000.0        0.0515205556679     0.137639003965      0.941296780114      -0.256064180108     0.941296780114      -0.256064180108     0.0515205556679     0.137639003965      
5500000000.0        0.0528813093288     0.139898658834      0.939668020593      -0.260521678549     0.939668020593      -0.260521678549     0.0528813093288     0.139898658834      
5600000000.0        0.054262887096      0.142143243447      0.938013439802      -0.264964344483     0.938013439802      -0.264964344483     0.054262887096      0.142143243447      
5700000000.0        0.0556650946762     0.144372550868      0.936333225852      -0.269391973826     0.936333225852      -0.269391973826     0.0556650946762     0.144372550868      
5800000000.0        0.0570877353866     0.146586377263      0.934627569139      -0.273804365556     0.934627569139      -0.273804365556     0.0570877353866     0.146586377263      
5900000000.0        0.0585306102224     0.14878452192       0.932896662279      -0.278201321737     0.932896662279      -0.278201321737     0.0585306102224     0.14878452192       
6000000000.0        0.0599935179236     0.150966787278      0.931140700034      -0.282582647548     0.931140700034      -0.282582647548     0.0599935179236     0.150966787278      
6100000000.0        0.0614762550419     0.153132978953      0.929359879255      -0.286948151306     0.929359879255      -0.286948151306     0.0614762550419     0.153132978953      
6200000000.0        0.0629786160068     0.155282905758      0.927554398807      -0.291297644491     0.927554398807      -0.291297644491     0.0629786160068     0.155282905758      
6300000000.0        0.0645003931918     0.157416379724      0.925724459507      -0.295630941762     0.925724459507      -0.295630941762     0.0645003931918     0.157416379724      
6400000000.0        0.0660413769795     0.159533216128      0.923870264058      -0.299947860984     0.923870264058      -0.299947860984     0.0660413769795     0.159533216128      
6500000000.0        0.0676013558276     0.161633233502      0.921992016986      -0.304248223245     0.921992016986      -0.304248223245     0.0676013558276     0.161633233502      
6600000000.0        0.0691801163328     0.163716253657      0.920089924567      -0.308531852873     0.920089924567      -0.308531852873     0.0691801163328     0.163716253657      
6700000000.0        0.0707774432967     0.165782101701      0.918164194773      -0.31279857745      0.918164194773      -0.31279857745      0.0707774432967     0.165782101701      
6800000000.0        0.072393119789      0.167830606048      0.916215037199      -0.317048227833     0.916215037199      -0.317048227833     0.072393119789      0.167830606048      
6900000000.0        0.0740269272123     0.169861598438      0.914242663004      -0.321280638164     0.914242663004      -0.321280638164     0.0740269272123     0.169861598438      
7000000000.0        0.0756786453654     0.171874913947      0.912247284843      -0.325495645881     0.912247284843      -0.325495645881     0.0756786453654     0.171874913947      
7100000000.0        0.0773480525068     0.173870390998      0.910229116808      -0.329693091735     0.910229116808      -0.329693091735     0.0773480525068     0.173870390998      
7200000000.0        0.079034925418      0.175847871374      0.908188374361      -0.333872819793     0.908188374361      -0.333872819793     0.079034925418      0.175847871374      
7300000000.0        0.0807390394659     0.177807200223      0.906125274272      -0.338034677452     0.906125274272      -0.338034677452     0.0807390394659     0.177807200223      
7400000000.0        0.0824601686656     0.179748226069      0.90404003456       -0.342178515446     0.90404003456       -0.342178515446     0.0824601686656     0.179748226069      
7500000000.0        0.0841980857419     0.181670800818      0.901932874426      -0.34630418785      0.901932874426      -0.34630418785      0.0841980857419     0.181670800818      
7600000000.0        0.0859525621915     0.183574779763      0.899804014191      -0.350411552085     0.899804014191      -0.350411552085     0.0859525621915     0.183574779763      
7700000000.0        0.0877233683444     0.185460021587      0.89765367524       -0.354500468925     0.89765367524       -0.354500468925     0.0877233683444     0.185460021587      
7800000000.0        0.0895102734241     0.187326388367      0.895482079956      -0.358570802499     0.895482079956      -0.358570802499     0.0895102734241     0.187326388367      
7900000000.0        0.091313045609      0.189173745579      0.89328945166       -0.36262242029      0.89328945166       -0.36262242029      0.091313045609      0.189173745579      
8000000000.0        0.0931314520919     0.191001962091      0.891076014554      -0.366655193136     0.891076014554      -0.366655193136     0.0931314520919     0.191001962091      
8100000000.0        0.09496525914       0.19281091017       0.888841993655      -0.370668995233     0.888841993655      -0.370668995233     0.09496525914       0.19281091017       
8200000000.0        0.0968142321542     0.194600465479      0.886587614742      -0.374663704128     0.886587614742      -0.374663704128     0.0968142321542     0.194600465479      
8300000000.0        0.0986781357274     0.196370507069      0.884313104293      -0.378639200721     0.884313104293      -0.378639200721     0.0986781357274     0.196370507069      
8400000000.0        0.100556733703      0.198120917384      0.882018689429      -0.382595369257     0.882018689429      -0.382595369257     0.100556733703      0.198120917384      
8500000000.0        0.102449789234      0.199851582247      0.879704597853      -0.386532097323     0.879704597853      -0.386532097323     0.102449789234      0.199851582247      
8600000000.0        0.104357064838      0.201562390863      0.877371057797      -0.390449275839     0.877371057797      -0.390449275839     0.104357064838      0.201562390863      
8700000000.0        0.106278322455      0.203253235804      0.875018297959      -0.394346799058     0.875018297959      -0.394346799058     0.106278322455      0.203253235804      
8800000000.0        0.108213323504      0.204924013008      0.872646547453      -0.398224564547     0.872646547453      -0.398224564547     0.108213323504      0.204924013008      
8900000000.0        0.110161828941      0.206574621765      0.870256035746      -0.402082473188     0.870256035746      -0.402082473188     0.110161828941      0.206574621765      
9000000000.0        0.112123599307      0.20820496471       0.867846992612      -0.405920429161     0.867846992612      -0.405920429161     0.112123599307      0.20820496471       
9100000000.0        0.114098394791      0.209814947812      0.865419648066      -0.409738339937     0.865419648066      -0.409738339937     0.114098394791      0.209814947812      
9200000000.0        0.116085975278      0.211404480359      0.86297423232       -0.413536116261     0.86297423232       -0.413536116261     0.116085975278      0.211404480359      
9300000000.0        0.118086100408      0.212973474952      0.860510975723      -0.417313672145     0.860510975723      -0.417313672145     0.118086100408      0.212973474952      
9400000000.0        0.120098529621      0.214521847483      0.858030108709      -0.42107092485      0.858030108709      -0.42107092485      0.120098529621      0.214521847483      
9500000000.0        0.122123022217      0.216049517128      0.855531861749      -0.424807794871     0.855531861749      -0.424807794871     0.122123022217      0.216049517128      
9600000000.0        0.124159337402      0.217556406326      0.853016465292      -0.428524205924     0.853016465292      -0.428524205924     0.124159337402      0.217556406326      
9700000000.0        0.126207234342      0.219042440767      0.85048414972       -0.432220084926     0.85048414972       -0.432220084926     0.126207234342      0.219042440767      
9800000000.0        0.128266472213      0.220507549372      0.847935145296      -0.435895361979     0.847935145296      -0.435895361979     0.128266472213      0.220507549372      
9900000000.0        0.130336810247      0.221951664276      0.845369682111      -0.439549970355     0.845369682111      -0.439549970355     0.130336810247      0.221951664276      
10000000000.0       0.132418007786      0.22337472081       0.842787990039      -0.44318384647      0.842787990039      -0.44318384647      0.132418007786      0.22337472081       
