# Hz S RI R 50.00 
100000000.0         0.00557180700397    0.00279842469996    0.994420729795      -0.00558458970818   0.994420729795      -0.00558458970818   0.00557180700397    0.00279842469996    
200000000.0         0.00565463486806    0.00559584459294    0.994323660947      -0.0111682039596    0.994323660947      -0.0111682039596    0.00565463486806    0.00559584459294    
300000000.0         0.00575916203424    0.00839211347773    0.994197114017      -0.0167507189936    0.994197114017      -0.0167507189936    0.00575916203424    0.00839211347773    
400000000.0         0.00589017116383    0.0111869226354     0.994036305029      -0.0223318433226    0.994036305029      -0.0223318433226    0.00589017116383    0.0111869226354     
500000000.0         0.00604948789188    0.0139799259076     0.993839406721      -0.0279112453635    0.993839406721      -0.0279112453635    0.00604948789188    0.0139799259076     
600000000.0         0.00623802666903    0.0167707608986     0.993605502719      -0.0334885755399    0.993605502719      -0.0334885755399    0.00623802666903    0.0167707608986     
700000000.0         0.00645631067842    0.0195590566502     0.993334067625      -0.039063474417     0.993334067625      -0.039063474417     0.00645631067842    0.0195590566502     
800000000.0         0.00670466152817    0.0223444372505     0.993024777336      -0.0446355765878    0.993024777336      -0.0446355765878    0.00670466152817    0.0223444372505     
900000000.0         0.00698328368643    0.025126523817      0.992677424614      -0.0502045128385    0.992677424614      -0.0502045128385    0.00698328368643    0.025126523817      
1000000000.0        0.00729230726939    0.0279049357087     0.992291876309      -0.0557699114897    0.992291876309      -0.0557699114897    0.00729230726939    0.0279049357087     
1100000000.0        0.00763181182431    0.0306792913311     0.991868049576      -0.0613313992969    0.991868049576      -0.0613313992969    0.00763181182431    0.0306792913311     
1200000000.0        0.00800184050316    0.0334492087069     0.99140589771       -0.066888602094     0.99140589771       -0.066888602094     0.00800184050316    0.0334492087069     
1300000000.0        0.00840240898475    0.0362143059029     0.990905401226      -0.072441145278     0.990905401226      -0.072441145278     0.00840240898475    0.0362143059029     
1400000000.0        0.00883351134574    0.038974201365      0.990366561996      -0.07798865419      0.990366561996      -0.07798865419      0.00883351134574    0.038974201365      
1500000000.0        0.00929512406882    0.0417285141909     0.989789399239      -0.0835307544265    0.989789399239      -0.0835307544265    0.00929512406882    0.0417285141909     
1600000000.0        0.00978720886632    0.0444768643603     0.989173946706      -0.089067072101     0.989173946706      -0.089067072101     0.00978720886632    0.0444768643603     
1700000000.0        0.0103097147239     0.0472188729334     0.988520250636      -0.0945972340696    0.988520250636      -0.0945972340696    0.0103097147239     0.0472188729334     
1800000000.0        0.0108625794157     0.0499541622276     0.987828368244      -0.10012086813      0.987828368244      -0.10012086813      0.0108625794157     0.0499541622276     
1900000000.0        0.0114457306524     0.0526823559768     0.987098366577      -0.105637603203     0.987098366577      -0.105637603203     0.0114457306524     0.0526823559768     
2000000000.0        0.0120590869681     0.0554030794775     0.98633032163       -0.111147069492     0.98633032163       -0.111147069492     0.0120590869681     0.0554030794775     
2100000000.0        0.012702558418      0.0581159597243     0.985524317647      -0.116648898637     0.985524317647      -0.116648898637     0.012702558418      0.0581159597243     
2200000000.0        0.0133760471375     0.0608206255374     0.984680446569      -0.122142723852     0.984680446569      -0.122142723852     0.0133760471375     0.0608206255374     
2300000000.0        0.014079447797      0.0635167076831     0.983798807576      -0.127628180064     0.983798807576      -0.127628180064     0.014079447797      0.0635167076831     
2400000000.0        0.0148126479781     0.0662038389882     0.982879506718      -0.13310490403      0.982879506718      -0.13310490403      0.0148126479781     0.0662038389882     
2500000000.0        0.0155755284891     0.0688816544504     0.981922656597      -0.138572534461     0.981922656597      -0.138572534461     0.0155755284891     0.0688816544504     
2600000000.0        0.0163679636348     0.0715497913434     0.9809283761        -0.144030712136     0.9809283761        -0.144030712136     0.0163679636348     0.0715497913434     
2700000000.0        0.0171898214489     0.0742078893191     0.97989679017       -0.149479080012     0.97989679017       -0.149479080012     0.0171898214489     0.0742078893191     
2800000000.0        0.0180409638982     0.0768555905059     0.9788280296        -0.154917283326     0.9788280296        -0.154917283326     0.0180409638982     0.0768555905059     
2900000000.0        0.0189212470643     0.0794925396044     0.977722230855      -0.160344969703     0.977722230855      -0.160344969703     0.0189212470643     0.0794925396044     
3000000000.0        0.0198305213067     0.0821183839795     0.976579535911      -0.165761789248     0.976579535911      -0.165761789248     0.0198305213067     0.0821183839795     
3100000000.0        0.0207686314118     0.0847327737512     0.975400092103      -0.171167394644     0.975400092103      -0.171167394644     0.0207686314118     0.0847327737512     
3200000000.0        0.0217354167301     0.0873353618813     0.974184051994      -0.176561441248     0.974184051994      -0.176561441248     0.0217354167301     0.0873353618813     
3300000000.0        0.0227307113042     0.0899258042594     0.972931573244      -0.181943587174     0.972931573244      -0.181943587174     0.0227307113042     0.0899258042594     
3400000000.0        0.0237543439886     0.0925037597848     0.971642818493      -0.187313493385     0.971642818493      -0.187313493385     0.0237543439886     0.0925037597848     
3500000000.0        0.0248061385643     0.0950688904482     0.97031795525       -0.192670823775     0.97031795525       -0.192670823775     0.0248061385643     0.0950688904482     
3600000000.0        0.0258859138474     0.0976208614093     0.968957155779      -0.198015245252     0.968957155779      -0.198015245252     0.0258859138474     0.0976208614093     
3700000000.0        0.0269934837944     0.100159341074      0.967560596999      -0.203346427818     0.967560596999      -0.203346427818     0.0269934837944     0.100159341074      
3800000000.0        0.0281286576037     0.102684001167      0.966128460384      -0.208664044644     0.966128460384      -0.208664044644     0.0281286576037     0.102684001167      
3900000000.0        0.0292912398147     0.105194516808      0.964660931861      -0.213967772149     0.964660931861      -0.213967772149     0.0292912398147     0.105194516808      
4000000000.0        0.0304810304049     0.107690566577      0.963158201716      -0.219257290069     0.963158201716      -0.219257290069     0.0304810304049     0.107690566577      
4100000000.0        0.0316978248849     0.110171832585      0.961620464501      -0.224532281528     0.961620464501      -0.224532281528     0.0316978248849     0.110171832585      
4200000000.0        0.0329414143924     0.112638000542      0.960047918935      -0.22979243311      0.960047918935      -0.22979243311      0.0329414143924     0.112638000542      
4300000000.0        0.0342115857849     0.115088759816      0.95844076782       -0.235037434919     0.95844076782       -0.235037434919     0.0342115857849     0.115088759816      
4400000000.0        0.0355081217315     0.117523803502      0.956799217943      -0.240266980651     0.956799217943      -0.240266980651     0.0355081217315     0.117523803502      
4500000000.0        0.0368308008041     0.119942828476      0.955123479987      -0.245480767648     0.955123479987      -0.245480767648     0.0368308008041     0.119942828476      
4600000000.0        0.0381793975687     0.122345535457      0.953413768443      -0.250678496962     0.953413768443      -0.250678496962     0.0381793975687     0.122345535457      
4700000000.0        0.0395536826749     0.124731629062      0.951670301517      -0.255859873413     0.951670301517      -0.255859873413     0.0395536826749     0.124731629062      
4800000000.0        0.0409534229468     0.12710081786       0.949893301042      -0.261024605642     0.949893301042      -0.261024605642     0.0409534229468     0.12710081786       
4900000000.0        0.0423783814724     0.129452814424      0.948082992389      -0.266172406166     0.948082992389      -0.266172406166     0.0423783814724     0.129452814424      
5000000000.0        0.0438283176935     0.131787335384      0.946239604375      -0.27130299143      0.946239604375      -0.27130299143      0.0438283176935     0.131787335384      
5100000000.0        0.0453029874954     0.13410410147       0.944363369176      -0.276416081856     0.944363369176      -0.276416081856     0.0453029874954     0.13410410147       
5200000000.0        0.0468021432969     0.136402837565      0.942454522238      -0.281511401887     0.942454522238      -0.281511401887     0.0468021432969     0.136402837565      
5300000000.0        0.0483255341393     0.138683272741      0.940513302184      -0.286588680038     0.940513302184      -0.286588680038     0.0483255341393     0.138683272741      
5400000000.0        0.0498729057764     0.14094514031       0.93853995073       -0.291647648933     0.93853995073       -0.291647648933     0.0498729057764     0.14094514031       
5500000000.0        0.0514440007641     0.143188177857      0.936534712589      -0.296688045349     0.936534712589      -0.296688045349     0.0514440007641     0.143188177857      
5600000000.0        0.0530385585502     0.145412127285      0.934497835389      -0.301709610257     0.934497835389      -0.301709610257     0.0530385585502     0.145412127285      
5700000000.0        0.0546563155635     0.147616734844      0.932429569577      -0.306712088854     0.932429569577      -0.306712088854     0.0546563155635     0.147616734844      
5800000000.0        0.056297005304      0.149801751171      0.930330168334      -0.3116952306       0.930330168334      -0.3116952306       0.056297005304      0.149801751171      
5900000000.0        0.0579603584321     0.151966931321      0.928199887483      -0.316658789251     0.928199887483      -0.316658789251     0.0579603584321     0.151966931321      
6000000000.0        0.0596461028586     0.154112034796      0.926038985399      -0.321602522892     0.926038985399      -0.321602522892     0.0596461028586     0.154112034796      
6100000000.0        0.0613539638335     0.156236825575      0.923847722923      -0.326526193959     0.923847722923      -0.326526193959     0.0613539638335     0.156236825575      
6200000000.0        0.0630836640361     0.158341072139      0.92162636327       -0.331429569274     0.92162636327       -0.331429569274     0.0630836640361     0.158341072139      
6300000000.0        0.0648349236638     0.160424547498      0.919375171939      -0.336312420064     0.919375171939      -0.336312420064     0.0648349236638     0.160424547498      
6400000000.0        0.0666074605216     0.16248702921       0.917094416626      -0.341174521985     0.917094416626      -0.341174521985     0.0666074605216     0.16248702921       
6500000000.0        0.0684009901109     0.164528299406      0.914784367134      -0.346015655143     0.914784367134      -0.346015655143     0.0684009901109     0.164528299406      
6600000000.0        0.0702152257183     0.166548144806      0.912445295285      -0.350835604116     0.912445295285      -0.350835604116     0.0702152257183     0.166548144806      
6700000000.0        0.0720498785042     0.168546356736      0.91007747483       -0.355634157963     0.91007747483       -0.355634157963     0.0720498785042     0.168546356736      
6800000000.0        0.073904657591      0.170522731144      0.90768118136       -0.360411110248     0.90768118136       -0.360411110248     0.073904657591      0.170522731144      
6900000000.0        0.0757792701514     0.172477068614      0.905256692222      -0.365166259047     0.905256692222      -0.365166259047     0.0757792701514     0.172477068614      
7000000000.0        0.0776734214957     0.174409174376      0.902804286426      -0.369899406962     0.902804286426      -0.369899406962     0.0776734214957     0.174409174376      
7100000000.0        0.0795868151594     0.176318858314      0.900324244561      -0.374610361127     0.900324244561      -0.374610361127     0.0795868151594     0.176318858314      
7200000000.0        0.0815191529901     0.178205934978      0.897816848707      -0.37929893322      0.897816848707      -0.37929893322      0.0815191529901     0.178205934978      
7300000000.0        0.0834701352338     0.180070223586      0.895282382348      -0.383964939467     0.895282382348      -0.383964939467     0.0834701352338     0.180070223586      
7400000000.0        0.0854394606215     0.181911548031      0.892721130288      -0.388608200643     0.892721130288      -0.388608200643     0.0854394606215     0.181911548031      
7500000000.0        0.087426826454      0.18372973688       0.890133378559      -0.393228542077     0.890133378559      -0.393228542077     0.087426826454      0.18372973688       
7600000000.0        0.0894319286874     0.18552462338       0.887519414345      -0.397825793653     0.887519414345      -0.397825793653     0.0894319286874     0.18552462338       
7700000000.0        0.0914544620179     0.187296045452      0.884879525889      -0.402399789805     0.884879525889      -0.402399789805     0.0914544620179     0.187296045452      
7800000000.0        0.0934941199651     0.189043845689      0.882214002414      -0.406950369518     0.882214002414      -0.406950369518     0.0934941199651     0.189043845689      
7900000000.0        0.0955505949554     0.190767871357      0.879523134037      -0.411477376318     0.879523134037      -0.411477376318     0.0955505949554     0.190767871357      
8000000000.0        0.097623578405      0.19246797438       0.876807211688      -0.415980658271     0.876807211688      -0.415980658271     0.097623578405      0.19246797438       
8100000000.0        0.0997127608018     0.194144011341      0.874066527025      -0.420460067973     0.874066527025      -0.420460067973     0.0997127608018     0.194144011341      
8200000000.0        0.101817831786      0.195795843469      0.871301372356      -0.424915462537     0.871301372356      -0.424915462537     0.101817831786      0.195795843469      
8300000000.0        0.103938480232      0.197423336628      0.868512040556      -0.429346703585     0.868512040556      -0.429346703585     0.103938480232      0.197423336628      
8400000000.0        0.106074394327      0.199026361304      0.865698824985      -0.433753657237     0.865698824985      -0.433753657237     0.106074394327      0.199026361304      
8500000000.0        0.10822526165       0.200604792596      0.862862019416      -0.43813619409      0.862862019416      -0.43813619409      0.10822526165       0.200604792596      
8600000000.0        0.11039076925       0.202158510195      0.860001917946      -0.442494189209     0.860001917946      -0.442494189209     0.11039076925       0.202158510195      
8700000000.0        0.112570603723      0.203687398372      0.857118814929      -0.446827522104     0.857118814929      -0.446827522104     0.112570603723      0.203687398372      
8800000000.0        0.114764451292      0.205191345957      0.854213004891      -0.451136076718     0.854213004891      -0.451136076718     0.114764451292      0.205191345957      
8900000000.0        0.116971997877      0.206670246322      0.851284782458      -0.455419741397     0.851284782458      -0.455419741397     0.116971997877      0.206670246322      
9000000000.0        0.119192929171      0.208123997356      0.848334442283      -0.45967840888      0.848334442283      -0.45967840888      0.119192929171      0.208123997356      
9100000000.0        0.121426930719      0.209552501451      0.845362278964      -0.463911976265     0.845362278964      -0.463911976265     0.121426930719      0.209552501451      
9200000000.0        0.123673687982      0.21095566547       0.842368586983      -0.468120344993     0.842368586983      -0.468120344993     0.123673687982      0.21095566547       
9300000000.0        0.125932886417      0.212333400727      0.839353660621      -0.472303420819     0.839353660621      -0.472303420819     0.125932886417      0.212333400727      
9400000000.0        0.128204211541      0.213685622963      0.836317793897      -0.476461113785     0.836317793897      -0.476461113785     0.128204211541      0.213685622963      
9500000000.0        0.130487349007      0.215012252312      0.833261280492      -0.480593338193     0.833261280492      -0.480593338193     0.130487349007      0.215012252312      
9600000000.0        0.132781984668      0.216313213282      0.830184413683      -0.484700012575     0.830184413683      -0.484700012575     0.132781984668      0.216313213282      
9700000000.0        0.135087804646      0.217588434719      0.827087486273      -0.488781059664     0.827087486273      -0.488781059664     0.135087804646      0.217588434719      
9800000000.0        0.137404495398      0.218837849779      0.823970790525      -0.492836406361     0.823970790525      -0.492836406361     0.137404495398      0.218837849779      
9900000000.0        0.139731743785      0.220061395898      0.820834618095      -0.496865983705     0.820834618095      -0.496865983705     0.139731743785      0.220061395898      
10000000000.0       0.142069237132      0.221259014756      0.817679259969      -0.500869726835     0.817679259969      -0.500869726835     0.142069237132      0.221259014756      
