# Hz S RI R 50.00 
100000000.0         -7.23753368082e-06  -0.00331926555251   0.999977166588      -0.00337886237471   0.999977166588      -0.00337886237471   -7.23753368059e-06  -0.00331926555251   
200000000.0         -4.41479322487e-05  -0.00663823841394   0.999940144699      -0.00675744217826   0.999940144699      -0.00675744217826   -4.41479322484e-05  -0.00663823841394   
300000000.0         -0.000103494971621  -0.0099566814418    0.999880709552      -0.0101355074278    0.999880709552      -0.0101355074278    -0.000103494971621  -0.0099566814418    
400000000.0         -0.000185262995747  -0.0132743601248    0.999798863377      -0.0135128275376    0.999798863377      -0.0135128275376    -0.000185262995747  -0.0132743601248    
500000000.0         -0.000289437303263  -0.0165910413225    0.999694615725      -0.0168891726544    0.999694615725      -0.0168891726544    -0.000289437303263  -0.0165910413225    
600000000.0         -0.000416001296105  -0.019906492877     0.999567980578      -0.0202643134791    0.999567980578      -0.0202643134791    -0.000416001296105  -0.019906492877     
700000000.0         -0.000564935766299  -0.0232204834421    0.999418975601      -0.0236380212026    0.999418975601      -0.0236380212026    -0.000564935766299  -0.0232204834421    
800000000.0         -0.000736218644436  -0.0265327824122    0.999247621868      -0.0270100674996    0.999247621868      -0.0270100674996    -0.000736218644437  -0.0265327824122    
900000000.0         -0.000929824894995  -0.029843159892     0.999053943728      -0.0303802245414    0.999053943728      -0.0303802245414    -0.000929824894995  -0.029843159892     
1000000000.0        -0.00114572646989   -0.0331513866987    0.998837968732      -0.0337482650281    0.998837968732      -0.0337482650281    -0.00114572646989   -0.0331513866987    
1100000000.0        -0.00138389228879   -0.0364572343709    0.998599727586      -0.0371139622206    0.998599727586      -0.0371139622206    -0.00138389228879   -0.0364572343709    
1200000000.0        -0.00164428823355   -0.0397604751956    0.99833925412       -0.040477089986     0.99833925412       -0.040477089986     -0.00164428823355   -0.0397604751956    
1300000000.0        -0.00192687715077   -0.0430608822396    0.99805658526       -0.043837422842     0.99805658526       -0.043837422842     -0.00192687715077   -0.0430608822396    
1400000000.0        -0.00223161885916   -0.046358229382     0.997751761         -0.0471947360024    0.997751761         -0.0471947360024    -0.00223161885916   -0.046358229382     
1500000000.0        -0.00255847016074   -0.0496522913561    0.997424824387      -0.050548805428     0.997424824387      -0.050548805428     -0.00255847016074   -0.0496522913561    
1600000000.0        -0.00290738485397   -0.052942843785     0.997075821495      -0.0538994078711    0.997075821495      -0.0538994078711    -0.00290738485397   -0.052942843785     
1700000000.0        -0.00327831374985   -0.0562296632299    0.996704801405      -0.0572463209307    0.996704801405      -0.0572463209307    -0.00327831374985   -0.0562296632299    
1800000000.0        -0.0036712046886    -0.0595125272276    0.996311816183      -0.0605893230968    0.996311816183      -0.0605893230968    -0.0036712046886    -0.0595125272276    
1900000000.0        -0.00408600255864   -0.0627912143376    0.995896920861      -0.063928193803     0.995896920861      -0.063928193803     -0.00408600255864   -0.0627912143376    
2000000000.0        -0.00452264931657   -0.0660655041862    0.995460173411      -0.0672627134758    0.995460173411      -0.0672627134758    -0.00452264931657   -0.0660655041862    
2100000000.0        -0.00498108400811   -0.0693351775086    0.995001634726      -0.0705926635816    0.995001634726      -0.0705926635816    -0.00498108400811   -0.0693351775086    
2200000000.0        -0.00546124279065   -0.0726000161961    0.994521368594      -0.0739178266773    0.994521368594      -0.0739178266773    -0.00546124279065   -0.0726000161961    
2300000000.0        -0.00596305895639   -0.0758598033379    0.994019441671      -0.077237986457     0.994019441671      -0.077237986457     -0.00596305895639   -0.0758598033379    
2400000000.0        -0.00648646295684   -0.0791143232667    0.993495923462      -0.0805529278008    0.993495923462      -0.0805529278008    -0.00648646295684   -0.0791143232667    
2500000000.0        -0.00703138242822   -0.0823633616027    0.992950886289      -0.0838624368216    0.992950886289      -0.0838624368216    -0.00703138242822   -0.0823633616027    
2600000000.0        -0.00759774221743   -0.0856067052945    0.992384405268      -0.08716630091      0.992384405268      -0.08716630091      -0.00759774221743   -0.0856067052945    
2700000000.0        -0.00818546440948   -0.0888441426645    0.991796558281      -0.0904643087818    0.991796558281      -0.0904643087818    -0.00818546440948   -0.0888441426645    
2800000000.0        -0.00879446835556   -0.0920754634502    0.991187425942      -0.0937562505225    0.991187425942      -0.0937562505225    -0.00879446835556   -0.0920754634502    
2900000000.0        -0.00942467070174   -0.0953004588457    0.990557091578      -0.0970419176309    0.990557091578      -0.0970419176309    -0.00942467070174   -0.0953004588457    
3000000000.0        -0.0100759854188    -0.0985189215431    0.98990564119       -0.100321103063     0.98990564119       -0.100321103063     -0.0100759854188    -0.0985189215431    
3100000000.0        -0.0107483238329    -0.101730645773     0.989233163426      -0.103593601277     0.989233163426      -0.103593601277     -0.0107483238329    -0.101730645773     
3200000000.0        -0.0114415946564    -0.104935427346     0.988539749549      -0.106859208269     0.988539749549      -0.106859208269     -0.0114415946564    -0.104935427346     
3300000000.0        -0.0121557040205    -0.108133063686     0.987825493405      -0.110117721623     0.987825493405      -0.110117721623     -0.0121557040205    -0.108133063686     
3400000000.0        -0.0128905555074    -0.111323353878     0.987090491391      -0.113368940542     0.987090491391      -0.113368940542     -0.0128905555074    -0.111323353878     
3500000000.0        -0.0136460501845    -0.114506098697     0.986334842418      -0.116612665896     0.986334842418      -0.116612665896     -0.0136460501845    -0.114506098697     
3600000000.0        -0.0144220866376    -0.11768110065      0.985558647882      -0.119848700255     0.985558647882      -0.119848700255     -0.0144220866376    -0.11768110065      
3700000000.0        -0.0152185610064    -0.12084816401      0.984762011623      -0.123076847927     0.984762011623      -0.123076847927     -0.0152185610064    -0.12084816401      
3800000000.0        -0.0160353670198    -0.124007094855     0.983945039896      -0.126296915        0.983945039896      -0.126296915        -0.0160353670198    -0.124007094855     
3900000000.0        -0.0168723960317    -0.127157701094     0.983107841329      -0.12950870937      0.983107841329      -0.12950870937      -0.0168723960317    -0.127157701094     
4000000000.0        -0.0177295370576    -0.130299792513     0.98225052689       -0.132712040784     0.98225052689       -0.132712040784     -0.0177295370576    -0.130299792513     
4100000000.0        -0.0186066768123    -0.133433180795     0.981373209849      -0.13590672087      0.981373209849      -0.13590672087      -0.0186066768123    -0.133433180795     
4200000000.0        -0.0195036997469    -0.136557679565     0.98047600574       -0.13909256317      0.98047600574       -0.13909256317      -0.0195036997469    -0.136557679565     
4300000000.0        -0.0204204880874    -0.139673104408     0.979559032322      -0.142269383175     0.979559032322      -0.142269383175     -0.0204204880874    -0.139673104408     
4400000000.0        -0.0213569218733    -0.142779272911     0.978622409541      -0.145436998353     0.978622409541      -0.145436998353     -0.0213569218733    -0.142779272911     
4500000000.0        -0.0223128789972    -0.145876004685     0.977666259492      -0.148595228185     0.977666259492      -0.148595228185     -0.0223128789972    -0.145876004685     
4600000000.0        -0.0232882352437    -0.148963121398     0.976690706375      -0.151743894188     0.976690706375      -0.151743894188     -0.0232882352437    -0.148963121398     
4700000000.0        -0.02428286433      -0.152040446798     0.975695876462      -0.154882819949     0.975695876462      -0.154882819949     -0.02428286433      -0.152040446798     
4800000000.0        -0.0252966379463    -0.155107806746     0.974681898049      -0.158011831151     0.974681898049      -0.158011831151     -0.0252966379463    -0.155107806746     
4900000000.0        -0.0263294257962    -0.158165029235     0.973648901421      -0.161130755598     0.973648901421      -0.161130755598     -0.0263294257962    -0.158165029235     
5000000000.0        -0.0273810956386    -0.161211944424     0.972597018807      -0.164239423245     0.972597018807      -0.164239423245     -0.0273810956386    -0.161211944424     
5100000000.0        -0.0284515133287    -0.164248384652     0.97152638434       -0.167337666218     0.97152638434       -0.167337666218     -0.0284515133287    -0.164248384652     
5200000000.0        -0.02954054286      -0.167274184468     0.970437134016      -0.170425318843     0.970437134016      -0.170425318843     -0.02954054286      -0.167274184468     
5300000000.0        -0.0306480464062    -0.170289180652     0.96932940565       -0.173502217667     0.96932940565       -0.173502217667     -0.0306480464062    -0.170289180652     
5400000000.0        -0.0317738843642    -0.173293212236     0.968203338835      -0.176568201478     0.968203338835      -0.176568201478     -0.0317738843642    -0.173293212236     
5500000000.0        -0.0329179153961    -0.176286120524     0.967059074897      -0.17962311133      0.967059074897      -0.17962311133      -0.0329179153961    -0.176286120524     
5600000000.0        -0.0340799964721    -0.179267749113     0.965896756857      -0.18266679056      0.965896756857      -0.18266679056      -0.0340799964721    -0.179267749113     
5700000000.0        -0.035259982914     -0.18223794391      0.964716529383      -0.18569908481      0.964716529383      -0.18569908481      -0.035259982914     -0.18223794391      
5800000000.0        -0.0364577284381    -0.185196553152     0.963518538748      -0.188719842044     0.963518538748      -0.188719842044     -0.0364577284381    -0.185196553152     
5900000000.0        -0.0376730851987    -0.188143427421     0.96230293279       -0.191728912566     0.96230293279       -0.191728912566     -0.0376730851987    -0.188143427421     
6000000000.0        -0.0389059038313    -0.191078419661     0.961069860863      -0.194726149037     0.961069860863      -0.194726149037     -0.0389059038313    -0.191078419661     
6100000000.0        -0.0401560334969    -0.194001385194     0.959819473796      -0.197711406488     0.959819473796      -0.197711406488     -0.0401560334969    -0.194001385194     
6200000000.0        -0.041423321925     -0.196912181731     0.958551923853      -0.200684542339     0.958551923853      -0.200684542339     -0.041423321925     -0.196912181731     
6300000000.0        -0.0427076154581    -0.199810669388     0.95726736468       -0.203645416408     0.95726736468       -0.203645416408     -0.0427076154581    -0.199810669388     
6400000000.0        -0.0440087590948    -0.202696710701     0.955965951272      -0.206593890928     0.955965951272      -0.206593890928     -0.0440087590948    -0.202696710701     
6500000000.0        -0.0453265965346    -0.20557017063      0.95464783992       -0.209529830558     0.95464783992       -0.209529830558     -0.0453265965346    -0.20557017063      
6600000000.0        -0.0466609702208    -0.208430916578     0.953313188172      -0.212453102391     0.953313188172      -0.212453102391     -0.0466609702208    -0.208430916578     
6700000000.0        -0.0480117213853    -0.211278818393     0.951962154789      -0.215363575968     0.951962154789      -0.215363575968     -0.0480117213853    -0.211278818393     
6800000000.0        -0.0493786900918    -0.214113748386     0.950594899699      -0.218261123286     0.950594899699      -0.218261123286     -0.0493786900918    -0.214113748386     
6900000000.0        -0.0507617152801    -0.216935581329     0.949211583954      -0.221145618806     0.949211583954      -0.221145618806     -0.0507617152801    -0.216935581329     
7000000000.0        -0.0521606348095    -0.219744194469     0.947812369688      -0.224016939459     0.947812369688      -0.224016939459     -0.0521606348095    -0.219744194469     
7100000000.0        -0.0535752855028    -0.222539467535     0.946397420069      -0.226874964658     0.946397420069      -0.226874964658     -0.0535752855028    -0.222539467535     
7200000000.0        -0.0550055031896    -0.225321282736     0.944966899261      -0.229719576295     0.944966899261      -0.229719576295     -0.0550055031896    -0.225321282736     
7300000000.0        -0.0564511227499    -0.228089524776     0.943520972376      -0.232550658756     0.943520972376      -0.232550658756     -0.0564511227499    -0.228089524776     
7400000000.0        -0.0579119781573    -0.230844080847     0.942059805434      -0.235368098916     0.942059805434      -0.235368098916     -0.0579119781573    -0.230844080847     
7500000000.0        -0.0593879025224    -0.233584840642     0.940583565318      -0.238171786149     0.940583565318      -0.238171786149     -0.0593879025224    -0.233584840642     
7600000000.0        -0.0608787281357    -0.236311696349     0.939092419728      -0.240961612326     0.939092419728      -0.240961612326     -0.0608787281357    -0.236311696349     
7700000000.0        -0.06238428651      -0.239024542659     0.937586537147      -0.243737471819     0.937586537147      -0.243737471819     -0.06238428651      -0.239024542659     
7800000000.0        -0.0639044084236    -0.241723276762     0.936066086788      -0.2464992615       0.936066086788      -0.2464992615       -0.0639044084236    -0.241723276762     
7900000000.0        -0.0654389239626    -0.244407798347     0.93453123856       -0.249246880744     0.93453123856       -0.249246880744     -0.0654389239626    -0.244407798347     
8000000000.0        -0.0669876625625    -0.247078009605     0.932982163019      -0.251980231424     0.932982163019      -0.251980231424     -0.0669876625625    -0.247078009605     
8100000000.0        -0.0685504530507    -0.249733815224     0.931419031333      -0.254699217913     0.931419031333      -0.254699217913     -0.0685504530507    -0.249733815224     
8200000000.0        -0.0701271236879    -0.252375122384     0.929842015234      -0.257403747078     0.929842015234      -0.257403747078     -0.0701271236879    -0.252375122384     
8300000000.0        -0.0717175022091    -0.255001840761     0.928251286981      -0.260093728283     0.928251286981      -0.260093728283     -0.0717175022091    -0.255001840761     
8400000000.0        -0.0733214158655    -0.257613882516     0.926647019316      -0.262769073376     0.926647019316      -0.262769073376     -0.0733214158655    -0.257613882516     
8500000000.0        -0.0749386914643    -0.260211162293     0.925029385427      -0.265429696693     0.925029385427      -0.265429696693     -0.0749386914643    -0.260211162293     
8600000000.0        -0.0765691554098    -0.262793597215     0.923398558902      -0.268075515049     0.923398558902      -0.268075515049     -0.0765691554098    -0.262793597215     
8700000000.0        -0.078212633743     -0.265361106875     0.921754713696      -0.270706447731     0.921754713696      -0.270706447731     -0.078212633743     -0.265361106875     
8800000000.0        -0.0798689521817    -0.267913613332     0.920098024084      -0.273322416492     0.920098024084      -0.273322416492     -0.0798689521817    -0.267913613332     
8900000000.0        -0.0815379361596    -0.270451041101     0.918428664627      -0.275923345547     0.918428664627      -0.275923345547     -0.0815379361596    -0.270451041101     
9000000000.0        -0.0832194108656    -0.272973317145     0.916746810131      -0.278509161558     0.916746810131      -0.278509161558     -0.0832194108656    -0.272973317145     
9100000000.0        -0.084913201282     -0.275480370869     0.915052635607      -0.281079793631     0.915052635607      -0.281079793631     -0.084913201282     -0.275480370869     
9200000000.0        -0.0866191322232    -0.277972134107     0.913346316236      -0.283635173305     0.913346316236      -0.283635173305     -0.0866191322232    -0.277972134107     
9300000000.0        -0.0883370283729    -0.280448541114     0.911628027328      -0.286175234541     0.911628027328      -0.286175234541     -0.0883370283729    -0.280448541114     
9400000000.0        -0.0900667143224    -0.282909528555     0.909897944287      -0.288699913712     0.909897944287      -0.288699913712     -0.0900667143224    -0.282909528555     
9500000000.0        -0.0918080146065    -0.285355035492     0.908156242572      -0.291209149593     0.908156242572      -0.291209149593     -0.0918080146065    -0.285355035492     
9600000000.0        -0.0935607537408    -0.287785003375     0.906403097664      -0.293702883345     0.906403097664      -0.293702883345     -0.0935607537408    -0.287785003375     
9700000000.0        -0.0953247562576    -0.290199376026     0.904638685023      -0.296181058509     0.904638685023      -0.296181058509     -0.0953247562576    -0.290199376026     
9800000000.0        -0.0970998467414    -0.292598099631     0.902863180062      -0.298643620986     0.902863180062      -0.298643620986     -0.0970998467414    -0.292598099631     
9900000000.0        -0.0988858498643    -0.294981122719     0.901076758102      -0.30109051903      0.901076758102      -0.30109051903      -0.0988858498643    -0.294981122719     
10000000000.0       -0.10068259042      -0.297348396157     0.899279594345      -0.303521703228     0.899279594345      -0.303521703228     -0.10068259042      -0.297348396157     
