# Hz S RI R 50.00 
100000000.0         2.30706039668e-05   -0.00151959138553   0.999967665671      -0.00168154126759   0.999967665671      -0.00168154126759   2.30706039668e-05   -0.00151959138553   
200000000.0         1.40221275233e-05   -0.00303921445435   0.999958202219      -0.00336312224803   0.999958202219      -0.00336312224803   1.40221275231e-05   -0.00303921445435   
300000000.0         -1.86146253078e-07  -0.00455887837248   0.999943648847      -0.00504475635714   0.999943648847      -0.00504475635714   -1.86146253078e-07  -0.00455887837248   
400000000.0         -1.95312706998e-05  -0.00607858428955   0.999923980729      -0.0067264480105    0.999923980729      -0.0067264480105    -1.95312706999e-05  -0.00607858428955   
500000000.0         -4.40051353368e-05  -0.00759832921647   0.99989918764       -0.00840819699804   0.99989918764       -0.00840819699804   -4.40051353368e-05  -0.00759832921647   
600000000.0         -7.36042137239e-05  -0.00911810739429   0.999869263785      -0.0100900000229    0.999869263785      -0.0100900000229    -7.3604213724e-05   -0.00911810739429   
700000000.0         -0.000108326943141  -0.0106379109991    0.999834205233      -0.0117718514923    0.999834205233      -0.0117718514923    -0.000108326943141  -0.0106379109991    
800000000.0         -0.000148172757752  -0.0121577305674    0.999794008999      -0.013453743994     0.999794008999      -0.013453743994     -0.000148172757752  -0.0121577305674    
900000000.0         -0.00019314165022   -0.0136775552755    0.999748672645      -0.0151356686095    0.999748672645      -0.0151356686095    -0.00019314165022   -0.0136775552755    
1000000000.0        -0.000243233943603  -0.0151973731414    0.999698194075      -0.0168176151396    0.999698194075      -0.0168176151396    -0.000243233943603  -0.0151973731414    
1100000000.0        -0.000298450159776  -0.016717171173     0.999642571442      -0.0184995722698    0.999642571442      -0.0184995722698    -0.000298450159776  -0.016717171173     
1200000000.0        -0.000358790937323  -0.0182369354844    0.99958180308       -0.0201815276999    0.99958180308       -0.0201815276999    -0.000358790937324  -0.0182369354844    
1300000000.0        -0.00042425697666   -0.0197566513856    0.999515887477      -0.0218634682444    0.999515887477      -0.0218634682444    -0.00042425697666   -0.0197566513856    
1400000000.0        -0.000494849001384  -0.0212763034598    0.999444823255      -0.0235453799179    0.999444823255      -0.0235453799179    -0.000494849001384  -0.0212763034598    
1500000000.0        -0.000570567729686  -0.0227958756241    0.999368609155      -0.0252272480032    0.999368609155      -0.0252272480032    -0.000570567729686  -0.0227958756241    
1600000000.0        -0.000651413852416  -0.0243153511832    0.999287244037      -0.02690905711      0.999287244037      -0.02690905711      -0.000651413852416  -0.0243153511832    
1700000000.0        -0.000737388015601  -0.0258347128749    0.999200726875      -0.0285907912262    0.999200726875      -0.0285907912262    -0.000737388015601  -0.0258347128749    
1800000000.0        -0.000828490806127  -0.0273539429091    0.999109056758      -0.0302724337605    0.999109056758      -0.0302724337605    -0.000828490806127  -0.0273539429091    
1900000000.0        -0.000924722739732  -0.0288730230032    0.999012232887      -0.0319539675815    0.999012232887      -0.0319539675815    -0.000924722739732  -0.0288730230032    
2000000000.0        -0.00102608425075   -0.0303919344134    0.998910254582      -0.0336353750525    0.998910254582      -0.0336353750525    -0.00102608425075   -0.0303919344134    
2100000000.0        -0.00113257568312   -0.0319106579621    0.998803121285      -0.0353166380611    0.998803121285      -0.0353166380611    -0.00113257568312   -0.0319106579621    
2200000000.0        -0.0012441972825    -0.033429174063     0.998690832556      -0.0369977380478    0.998690832556      -0.0369977380478    -0.0012441972825    -0.033429174063     
2300000000.0        -0.00136094918919   -0.0349474627449    0.998573388084      -0.0386786560309    0.998573388084      -0.0386786560309    -0.00136094918919   -0.0349474627449    
2400000000.0        -0.00148283143171   -0.0364655036718    0.998450787684      -0.0403593726295    0.998450787684      -0.0403593726295    -0.00148283143171   -0.0364655036718    
2500000000.0        -0.00160984392106   -0.0379832761631    0.998323031306      -0.0420398680851    0.998323031306      -0.0420398680851    -0.00160984392106   -0.0379832761631    
2600000000.0        -0.00174198644529   -0.0395007592112    0.998190119032      -0.0437201222809    0.998190119032      -0.0437201222809    -0.00174198644529   -0.0395007592112    
2700000000.0        -0.00187925866471   -0.0410179314984    0.998052051086      -0.0454001147603    0.998052051086      -0.0454001147603    -0.00187925866471   -0.0410179314984    
2800000000.0        -0.00202166010726   -0.0425347714126    0.997908827829      -0.0470798247442    0.997908827829      -0.0470798247442    -0.00202166010726   -0.0425347714126    
2900000000.0        -0.00216919016432   -0.0440512570619    0.997760449769      -0.0487592311464    0.997760449769      -0.0487592311464    -0.00216919016432   -0.0440512570619    
3000000000.0        -0.00232184808684   -0.0455673662892    0.997606917562      -0.0504383125897    0.997606917562      -0.0504383125897    -0.00232184808684   -0.0455673662892    
3100000000.0        -0.00247963298158   -0.0470830766839    0.997448232012      -0.0521170474191    0.997448232012      -0.0521170474191    -0.00247963298158   -0.0470830766839    
3200000000.0        -0.00264254380773   -0.0485983655957    0.997284394077      -0.0537954137157    0.997284394077      -0.0537954137157    -0.00264254380773   -0.0485983655957    
3300000000.0        -0.00281057937372   -0.0501132101458    0.99711540487       -0.0554733893098    0.99711540487       -0.0554733893098    -0.00281057937372   -0.0501132101458    
3400000000.0        -0.00298373833419   -0.0516275872384    0.996941265662      -0.0571509517927    0.996941265662      -0.0571509517927    -0.00298373833419   -0.0516275872384    
3500000000.0        -0.00316201918713   -0.0531414735712    0.996761977885      -0.0588280785282    0.996761977885      -0.0588280785282    -0.00316201918713   -0.0531414735712    
3600000000.0        -0.00334542027129   -0.0546548456459    0.99657754313       -0.0605047466643    0.99657754313       -0.0605047466643    -0.00334542027129   -0.0546548456459    
3700000000.0        -0.00353393976363   -0.056167679778     0.996387963158      -0.062180933143     0.996387963158      -0.062180933143     -0.00353393976363   -0.056167679778     
3800000000.0        -0.00372757567704   -0.0576799521062    0.996193239893      -0.0638566147114    0.996193239893      -0.0638566147114    -0.00372757567704   -0.0576799521062    
3900000000.0        -0.00392632585811   -0.0591916386018    0.995993375427      -0.0655317679305    0.995993375427      -0.0655317679305    -0.00392632585811   -0.0591916386018    
4000000000.0        -0.00413018798507   -0.0607027150771    0.995788372025      -0.0672063691857    0.995788372025      -0.0672063691857    -0.00413018798507   -0.0607027150771    
4100000000.0        -0.00433915956588   -0.0622131571943    0.995578232122      -0.068880394695     0.995578232122      -0.068880394695     -0.00433915956588   -0.0622131571943    
4200000000.0        -0.00455323793645   -0.0637229404733    0.995362958327      -0.0705538205183    0.995362958327      -0.0705538205183    -0.00455323793645   -0.0637229404733    
4300000000.0        -0.00477242025886   -0.0652320402998    0.995142553427      -0.0722266225656    0.995142553427      -0.0722266225656    -0.00477242025886   -0.0652320402998    
4400000000.0        -0.00499670351991   -0.0667404319329    0.99491702038       -0.0738987766051    0.99491702038       -0.0738987766051    -0.00499670351991   -0.0667404319329    
4500000000.0        -0.00522608452957   -0.0682480905125    0.994686362328      -0.0755702582717    0.994686362328      -0.0755702582717    -0.00522608452957   -0.0682480905125    
4600000000.0        -0.00546055991964   -0.0697549910668    0.994450582589      -0.077241043074     0.994450582589      -0.077241043074     -0.00546055991964   -0.0697549910668    
4700000000.0        -0.00570012614248   -0.0712611085188    0.994209684661      -0.0789111064019    0.994209684661      -0.0789111064019    -0.00570012614248   -0.0712611085188    
4800000000.0        -0.00594477946988   -0.0727664176933    0.993963672226      -0.0805804235343    0.993963672226      -0.0805804235343    -0.00594477946988   -0.0727664176933    
4900000000.0        -0.00619451599191   -0.0742708933236    0.993712549145      -0.0822489696456    0.993712549145      -0.0822489696456    -0.00619451599191   -0.0742708933236    
5000000000.0        -0.00644933161602   -0.0757745100578    0.993456319466      -0.0839167198125    0.993456319466      -0.0839167198125    -0.00644933161602   -0.0757745100578    
5100000000.0        -0.00670922206605   -0.0772772424651    0.993194987418      -0.085583649021     0.993194987418      -0.085583649021     -0.00670922206605   -0.0772772424651    
5200000000.0        -0.00697418288147   -0.0787790650416    0.992928557419      -0.0872497321728    0.992928557419      -0.0872497321728    -0.00697418288147   -0.0787790650416    
5300000000.0        -0.00724420941665   -0.0802799522168    0.992657034068      -0.0889149440911    0.992657034068      -0.0889149440911    -0.00724420941665   -0.0802799522168    
5400000000.0        -0.00751929684013   -0.0817798783587    0.992380422153      -0.0905792595273    0.992380422153      -0.0905792595273    -0.00751929684013   -0.0817798783587    
5500000000.0        -0.0077994401341    -0.0832788177801    0.992098726649      -0.0922426531668    0.992098726649      -0.0922426531668    -0.0077994401341    -0.0832788177801    
5600000000.0        -0.00808463409385   -0.0847767447433    0.991811952717      -0.0939050996345    0.991811952717      -0.0939050996345    -0.00808463409385   -0.0847767447433    
5700000000.0        -0.00837487332735   -0.0862736334663    0.991520105707      -0.0955665735009    0.991520105707      -0.0955665735009    -0.00837487332734   -0.0862736334663    
5800000000.0        -0.0086701522548    -0.0877694581274    0.991223191156      -0.0972270492874    0.991223191156      -0.0972270492874    -0.0086701522548    -0.0877694581274    
5900000000.0        -0.00897046510844   -0.0892641928705    0.99092121479       -0.0988865014716    0.99092121479       -0.0988865014716    -0.00897046510844   -0.0892641928705    
6000000000.0        -0.0092758059322    -0.0907578118104    0.990614182523      -0.100544904493     0.990614182523      -0.100544904493     -0.0092758059322    -0.0907578118104    
6100000000.0        -0.00958616858153   -0.0922502890369    0.990302100459      -0.102202232757     0.990302100459      -0.102202232757     -0.00958616858153   -0.0922502890369    
6200000000.0        -0.00990154672334   -0.0937415986205    0.989984974889      -0.103858460643     0.989984974889      -0.103858460643     -0.00990154672334   -0.0937415986205    
6300000000.0        -0.0102219338358    -0.0952317146165    0.989662812293      -0.105513562504     0.989662812293      -0.105513562504     -0.0102219338358    -0.0952317146165    
6400000000.0        -0.0105473232086    -0.0967206110696    0.989335619343      -0.107167512676     0.989335619343      -0.107167512676     -0.0105473232086    -0.0967206110696    
6500000000.0        -0.0108777079425    -0.0982082620184    0.989003402895      -0.108820285483     0.989003402895      -0.108820285483     -0.0108777079425    -0.0982082620184    
6600000000.0        -0.0112130809501    -0.0996946415       0.988666169998      -0.110471855236     0.988666169998      -0.110471855236     -0.0112130809501    -0.0996946415       
6700000000.0        -0.0115534349552    -0.101179723554     0.988323927887      -0.112122196245     0.988323927887      -0.112122196245     -0.0115534349552    -0.101179723554     
6800000000.0        -0.0118987624939    -0.102663482226     0.987976683986      -0.113771282816     0.987976683986      -0.113771282816     -0.0118987624939    -0.102663482226     
6900000000.0        -0.0122490559139    -0.104145891574     0.987624445907      -0.115419089263     0.987624445907      -0.115419089263     -0.0122490559139    -0.104145891574     
7000000000.0        -0.0126043073755    -0.105626925669     0.987267221449      -0.117065589904     0.987267221449      -0.117065589904     -0.0126043073755    -0.105626925669     
7100000000.0        -0.0129645088518    -0.107106558603     0.986905018601      -0.118710759072     0.986905018601      -0.118710759072     -0.0129645088518    -0.107106558603     
7200000000.0        -0.0133296521288    -0.108584764487     0.986537845536      -0.120354571117     0.986537845536      -0.120354571117     -0.0133296521288    -0.108584764487     
7300000000.0        -0.0136997288061    -0.110061517462     0.986165710614      -0.121997000406     0.986165710614      -0.121997000406     -0.0136997288061    -0.110061517462     
7400000000.0        -0.0140747302973    -0.111536791697     0.985788622384      -0.123638021332     0.985788622384      -0.123638021332     -0.0140747302973    -0.111536791697     
7500000000.0        -0.0144546478305    -0.113010561396     0.985406589576      -0.125277608317     0.985406589576      -0.125277608317     -0.0144546478305    -0.113010561396     
7600000000.0        -0.0148394724489    -0.114482800798     0.98501962111       -0.126915735811     0.98501962111       -0.126915735811     -0.0148394724489    -0.114482800798     
7700000000.0        -0.0152291950112    -0.115953484183     0.984627726085      -0.128552378304     0.984627726085      -0.128552378304     -0.0152291950112    -0.115953484183     
7800000000.0        -0.0156238061926    -0.117422585878     0.984230913789      -0.130187510321     0.984230913789      -0.130187510321     -0.0156238061926    -0.117422585878     
7900000000.0        -0.0160232964851    -0.118890080254     0.983829193689      -0.131821106429     0.983829193689      -0.131821106429     -0.0160232964851    -0.118890080254     
8000000000.0        -0.0164276561984    -0.120355941732     0.983422575437      -0.133453141244     0.983422575437      -0.133453141244     -0.0164276561984    -0.120355941732     
8100000000.0        -0.0168368754607    -0.121820144791     0.983011068865      -0.135083589428     0.983011068865      -0.135083589428     -0.0168368754607    -0.121820144791     
8200000000.0        -0.0172509442191    -0.123282663961     0.982594683987      -0.136712425695     0.982594683987      -0.136712425695     -0.0172509442191    -0.123282663961     
8300000000.0        -0.0176698522411    -0.124743473837     0.982173430996      -0.138339624816     0.982173430996      -0.138339624816     -0.0176698522411    -0.124743473837     
8400000000.0        -0.0180935891145    -0.126202549075     0.981747320265      -0.13996516162      0.981747320265      -0.13996516162      -0.0180935891145    -0.126202549075     
8500000000.0        -0.0185221442492    -0.127659864395     0.981316362346      -0.141589010996     0.981316362346      -0.141589010996     -0.0185221442492    -0.127659864395     
8600000000.0        -0.0189555068774    -0.129115394587     0.980880567966      -0.1432111479       0.980880567966      -0.1432111479       -0.0189555068774    -0.129115394587     
8700000000.0        -0.019393666055     -0.130569114514     0.980439948032      -0.144831547353     0.980439948032      -0.144831547353     -0.019393666055     -0.130569114514     
8800000000.0        -0.0198366106621    -0.132020999112     0.979994513623      -0.146450184448     0.979994513623      -0.146450184448     -0.0198366106621    -0.132020999112     
8900000000.0        -0.0202843294046    -0.133471023393     0.979544275994      -0.148067034351     0.979544275994      -0.148067034351     -0.0202843294046    -0.133471023393     
9000000000.0        -0.0207368108146    -0.134919162449     0.979089246575      -0.149682072303     0.979089246575      -0.149682072303     -0.0207368108146    -0.134919162449     
9100000000.0        -0.0211940432516    -0.136365391455     0.978629436967      -0.151295273625     0.978629436967      -0.151295273625     -0.0211940432516    -0.136365391455     
9200000000.0        -0.021656014904     -0.137809685671     0.978164858942      -0.152906613717     0.978164858942      -0.152906613717     -0.021656014904     -0.137809685671     
9300000000.0        -0.0221227137895    -0.139252020443     0.977695524443      -0.154516068064     0.977695524443      -0.154516068064     -0.0221227137895    -0.139252020443     
9400000000.0        -0.0225941277566    -0.140692371207     0.977221445583      -0.156123612239     0.977221445583      -0.156123612239     -0.0225941277566    -0.140692371207     
9500000000.0        -0.0230702444859    -0.14213071349      0.976742634642      -0.157729221901     0.976742634642      -0.157729221901     -0.0230702444859    -0.14213071349      
9600000000.0        -0.0235510514907    -0.143567022917     0.976259104067      -0.159332872802     0.976259104067      -0.159332872802     -0.0235510514907    -0.143567022917     
9700000000.0        -0.0240365361188    -0.145001275204     0.975770866472      -0.160934540787     0.975770866472      -0.160934540787     -0.0240365361188    -0.145001275204     
9800000000.0        -0.0245266855532    -0.146433446171     0.975277934635      -0.162534201798     0.975277934635      -0.162534201798     -0.0245266855532    -0.146433446171     
9900000000.0        -0.0250214868137    -0.147863511736     0.974780321495      -0.164131831873     0.974780321495      -0.164131831873     -0.0250214868137    -0.147863511736     
10000000000.0       -0.0255209267578    -0.149291447921     0.974278040158      -0.165727407153     0.974278040158      -0.165727407153     -0.0255209267578    -0.149291447921     
