# Hz S RI R 50.00 
100000000.0         0.000151018499723   6.11406641334e-05   0.999847929958      -0.000114777151768  0.999847929958      -0.000114777151768  0.000151018499723   6.11406641335e-05   
200000000.0         0.000152024298579   0.00012228124419    0.999846869739      -0.000229555153548  0.999846869739      -0.000229555153548  0.000152024298578   0.00012228124419    
300000000.0         0.000152776008975   0.000183422027978   0.999846060729      -0.000344334771029  0.999846060729      -0.000344334771029  0.000152776008974   0.000183422027978   
400000000.0         0.000153405313513   0.000244563184863   0.999845371245      -0.000459116539534  0.999845371245      -0.000459116539534  0.000153405313513   0.000244563184863   
500000000.0         0.000153962938277   0.000305704851589   0.999844750561      -0.000573900905501  0.999844750561      -0.000573900905501  0.000153962938277   0.00030570485159    
600000000.0         0.000154474759233   0.000366847150158   0.999844172799      -0.000688688262073  0.999844172799      -0.000688688262073  0.000154474759234   0.000366847150158   
700000000.0         0.000154956065463   0.000427990193635   0.99984362267       -0.00080347896676   0.99984362267       -0.00080347896676   0.000154956065463   0.000427990193635   
800000000.0         0.000155416764459   0.000489134091351   0.999843090265      -0.000918273349036  0.999843090265      -0.000918273349036  0.000155416764459   0.000489134091351   
900000000.0         0.000155863700369   0.000550278948423   0.999842568739      -0.00103307171868   0.999842568739      -0.00103307171868   0.000155863700369   0.000550278948423   
1000000000.0        0.000156301828711   0.000611424868653   0.999842053137      -0.00114787436814   0.999842053137      -0.00114787436814   0.00015630182871    0.000611424868653   
1100000000.0        0.000156734869227   0.000672571954517   0.999841539738      -0.00126268157622   0.999841539738      -0.00126268157622   0.000156734869227   0.000672571954517   
1200000000.0        0.000157165695422   0.000733720308758   0.999841025666      -0.00137749360925   0.999841025666      -0.00137749360925   0.000157165695422   0.000733720308758   
1300000000.0        0.000157596579246   0.000794870033148   0.99984050865       -0.00149231072436   0.99984050865       -0.00149231072436   0.000157596579246   0.000794870033148   
1400000000.0        0.000158029351968   0.000856021230327   0.999839986858      -0.00160713316929   0.999839986858      -0.00160713316929   0.000158029351968   0.000856021230327   
1500000000.0        0.00015846551389    0.000917174003492   0.999839458787      -0.00172196118397   0.999839458787      -0.00172196118397   0.00015846551389    0.000917174003492   
1600000000.0        0.000158906311448   0.000978328456053   0.999838923191      -0.00183679500192   0.999838923191      -0.00183679500192   0.000158906311448   0.000978328456053   
1700000000.0        0.000159352792505   0.00103948469266    0.999838379021      -0.00195163485007   0.999838379021      -0.00195163485007   0.000159352792504   0.00103948469266    
1800000000.0        0.000159805847462   0.0011006428187     0.999837825385      -0.00206648095002   0.999837825385      -0.00206648095002   0.000159805847462   0.0011006428187     
1900000000.0        0.000160266239839   0.0011618029403     0.99983726152       -0.00218133351859   0.99983726152       -0.00218133351859   0.000160266239839   0.0011618029403     
2000000000.0        0.000160734629805   0.00122296516522    0.999836686763      -0.0022961927675    0.999836686763      -0.0022961927675    0.000160734629804   0.00122296516522    
2100000000.0        0.000161211592322   0.00128412960155    0.99983610054       -0.00241105890507   0.99983610054       -0.00241105890507   0.000161211592322   0.00128412960155    
2200000000.0        0.000161697631534   0.0013452963591     0.999835502344      -0.00252593213523   0.999835502344      -0.00252593213523   0.000161697631534   0.0013452963591     
2300000000.0        0.000162193192069   0.00140646554857    0.999834891731      -0.00264081265872   0.999834891731      -0.00264081265872   0.000162193192069   0.00140646554857    
2400000000.0        0.000162698668248   0.0014676372819     0.999834268304      -0.00275570067299   0.999834268304      -0.00275570067299   0.000162698668249   0.0014676372819     
2500000000.0        0.0001632144115     0.00152881167218    0.999833631712      -0.00287059637254   0.999833631712      -0.00287059637254   0.0001632144115     0.00152881167218    
2600000000.0        0.000163740736468   0.00158998883386    0.999832981639      -0.00298549994898   0.999832981639      -0.00298549994898   0.000163740736468   0.00158998883386    
2700000000.0        0.000164277926038   0.00165116888244    0.999832317801      -0.00310041159154   0.999832317801      -0.00310041159154   0.000164277926037   0.00165116888244    
2800000000.0        0.00016482623555    0.00171235193462    0.999831639941      -0.00321533148704   0.999831639941      -0.00321533148704   0.00016482623555    0.00171235193462    
2900000000.0        0.000165385896308   0.00177353810843    0.999830947828      -0.00333025982001   0.999830947828      -0.00333025982001   0.000165385896308   0.00177353810843    
3000000000.0        0.000165957118528   0.00183472752311    0.999830241249      -0.00344519677289   0.999830241249      -0.00344519677289   0.000165957118528   0.00183472752311    
3100000000.0        0.000166540093909   0.00189592029913    0.999829520013      -0.00356014252619   0.999829520013      -0.00356014252619   0.000166540093909   0.00189592029913    
3200000000.0        0.000167134997749   0.00195711655805    0.999828783942      -0.0036750972587    0.999828783942      -0.0036750972587    0.000167134997749   0.00195711655805    
3300000000.0        0.000167741990792   0.00201831642275    0.999828032875      -0.0037900611474    0.999828032875      -0.0037900611474    0.000167741990792   0.00201831642275    
3400000000.0        0.000168361220843   0.00207952001731    0.999827266664      -0.00390503436769   0.999827266664      -0.00390503436769   0.000168361220844   0.00207952001731    
3500000000.0        0.000168992824141   0.00214072746703    0.99982648517       -0.00402001709344   0.99982648517       -0.00402001709344   0.000168992824141   0.00214072746703    
3600000000.0        0.000169636926542   0.00220193889828    0.999825688268      -0.00413500949717   0.999825688268      -0.00413500949717   0.000169636926542   0.00220193889828    
3700000000.0        0.000170293644603   0.00226315443882    0.999824875838      -0.00425001174994   0.999824875838      -0.00425001174994   0.000170293644603   0.00226315443882    
3800000000.0        0.000170963086472   0.00232437421735    0.999824047773      -0.00436502402171   0.999824047773      -0.00436502402171   0.000170963086472   0.00232437421735    
3900000000.0        0.000171645352725   0.00238559836393    0.99982320397       -0.0044800464811    0.99982320397       -0.0044800464811    0.000171645352725   0.00238559836393    
4000000000.0        0.000172340537045   0.00244682700971    0.999822344335      -0.00459507929567   0.999822344335      -0.00459507929567   0.000172340537045   0.00244682700971    
4100000000.0        0.000173048726908   0.00250806028695    0.999821468779      -0.00471012263195   0.999821468779      -0.00471012263195   0.000173048726909   0.00250806028695    
4200000000.0        0.000173770004095   0.00256929832905    0.999820577219      -0.00482517665547   0.999820577219      -0.00482517665547   0.000173770004095   0.00256929832905    
4300000000.0        0.000174504445223   0.00263054127068    0.999819669577      -0.00494024153067   0.999819669577      -0.00494024153067   0.000174504445223   0.00263054127068    
4400000000.0        0.00017525212219    0.00269178924738    0.999818745782      -0.00505531742133   0.999818745782      -0.00505531742133   0.00017525212219    0.00269178924738    
4500000000.0        0.000176013102574   0.00275304239607    0.999817805763      -0.00517040449015   0.999817805763      -0.00517040449015   0.000176013102574   0.00275304239607    
4600000000.0        0.000176787449993   0.00281430085452    0.999816849456      -0.00528550289922   0.999816849456      -0.00528550289922   0.000176787449993   0.00281430085452    
4700000000.0        0.000177575224432   0.0028755647618     0.999815876801      -0.00540061280971   0.999815876801      -0.00540061280971   0.000177575224432   0.0028755647618     
4800000000.0        0.000178376482538   0.00293683425798    0.999814887739      -0.0055157343821    0.999814887739      -0.0055157343821    0.000178376482538   0.00293683425798    
4900000000.0        0.000179191277881   0.00299810948413    0.999813882216      -0.00563086777631   0.999813882216      -0.00563086777631   0.000179191277881   0.00299810948413    
5000000000.0        0.000180019661203   0.00305939058246    0.99981286018       -0.00574601315148   0.99981286018       -0.00574601315148   0.000180019661203   0.00305939058246    
5100000000.0        0.000180861680626   0.00312067769615    0.999811821582      -0.00586117066624   0.999811821582      -0.00586117066624   0.000180861680626   0.00312067769615    
5200000000.0        0.000181717381858   0.00318197096957    0.999810766375      -0.0059763404785    0.999810766375      -0.0059763404785    0.000181717381858   0.00318197096957    
5300000000.0        0.000182586808371   0.00324327054797    0.999809694514      -0.00609152274573   0.999809694514      -0.00609152274573   0.000182586808371   0.00324327054797    
5400000000.0        0.000183470001569   0.00330457657772    0.999808605958      -0.00620671762484   0.999808605958      -0.00620671762484   0.000183470001568   0.00330457657772    
5500000000.0        0.000184367000935   0.0033658892061     0.999807500665      -0.00632192527227   0.999807500665      -0.00632192527227   0.000184367000935   0.0033658892061     
5600000000.0        0.000185277844176   0.00342720858149    0.999806378597      -0.00643714584395   0.999806378597      -0.00643714584395   0.000185277844176   0.00342720858149    
5700000000.0        0.000186202567345   0.00348853485319    0.999805239716      -0.0065523794954    0.999805239716      -0.0065523794954    0.000186202567345   0.00348853485319    
5800000000.0        0.000187141204958   0.00354986817153    0.999804083988      -0.00666762638169   0.999804083988      -0.00666762638169   0.000187141204958   0.00354986817153    
5900000000.0        0.000188093790108   0.00361120868777    0.999802911377      -0.00678288665754   0.999802911377      -0.00678288665754   0.000188093790108   0.00361120868777    
6000000000.0        0.000189060354555   0.00367255655419    0.999801721852      -0.00689816047721   0.999801721852      -0.00689816047721   0.000189060354555   0.00367255655419    
6100000000.0        0.000190040928824   0.00373391192395    0.999800515381      -0.00701344799468   0.999800515381      -0.00701344799468   0.000190040928825   0.00373391192395    
6200000000.0        0.000191035542287   0.0037952749512     0.999799291933      -0.00712874936359   0.999799291933      -0.00712874936359   0.000191035542287   0.0037952749512     
6300000000.0        0.000192044223242   0.00385664579106    0.999798051479      -0.00724406473717   0.999798051479      -0.00724406473717   0.000192044223242   0.00385664579106    
6400000000.0        0.000193066998988   0.00391802459948    0.99979679399       -0.00735939426846   0.99979679399       -0.00735939426846   0.000193066998987   0.00391802459948    
6500000000.0        0.000194103895884   0.00397941153344    0.99979551944       -0.00747473811015   0.99979551944       -0.00747473811015   0.000194103895884   0.00397941153344    
6600000000.0        0.000195154939423   0.00404080675076    0.999794227802      -0.00759009641465   0.999794227802      -0.00759009641465   0.000195154939423   0.00404080675076    
6700000000.0        0.000196220154281   0.00410221041017    0.999792919049      -0.00770546933418   0.999792919049      -0.00770546933418   0.000196220154281   0.00410221041017    
6800000000.0        0.000197299564378   0.00416362267134    0.999791593159      -0.00782085702062   0.999791593159      -0.00782085702062   0.000197299564378   0.00416362267134    
6900000000.0        0.00019839319292    0.00422504369475    0.999790250105      -0.00793625962574   0.999790250105      -0.00793625962574   0.00019839319292    0.00422504369475    
7000000000.0        0.000199501062452   0.00428647364183    0.999788889864      -0.00805167730101   0.999788889864      -0.00805167730101   0.000199501062452   0.00428647364183    
7100000000.0        0.000200623194904   0.00434791267484    0.999787512415      -0.00816711019772   0.999787512415      -0.00816711019772   0.000200623194905   0.00434791267484    
7200000000.0        0.000201759611627   0.0044093609569     0.999786117733      -0.00828255846702   0.999786117733      -0.00828255846702   0.000201759611627   0.0044093609569     
7300000000.0        0.000202910333427   0.00447081865205    0.999784705799      -0.00839802225976   0.999784705799      -0.00839802225976   0.000202910333426   0.00447081865205    
7400000000.0        0.000204075380618   0.00453228592504    0.99978327659       -0.0085135017268    0.99978327659       -0.0085135017268    0.000204075380618   0.00453228592504    
7500000000.0        0.000205254773035   0.00459376294161    0.999781830085      -0.00862899701869   0.999781830085      -0.00862899701869   0.000205254773035   0.00459376294161    
7600000000.0        0.000206448530078   0.00465524986825    0.999780366264      -0.00874450828591   0.999780366264      -0.00874450828591   0.000206448530078   0.00465524986825    
7700000000.0        0.000207656670741   0.0047167468723     0.999778885108      -0.00886003567878   0.999778885108      -0.00886003567878   0.000207656670741   0.0047167468723     
7800000000.0        0.000208879213634   0.00477825412188    0.999777386597      -0.00897557934754   0.999777386597      -0.00897557934754   0.000208879213634   0.00477825412188    
7900000000.0        0.000210116177015   0.00483977178599    0.999775870712      -0.00909113944223   0.999775870712      -0.00909113944223   0.000210116177015   0.00483977178599    
8000000000.0        0.000211367578809   0.00490130003439    0.999774337433      -0.00920671611285   0.999774337433      -0.00920671611285   0.000211367578809   0.00490130003439    
8100000000.0        0.000212633436639   0.00496283903761    0.999772786743      -0.0093223095093    0.999772786743      -0.0093223095093    0.000212633436639   0.00496283903761    
8200000000.0        0.000213913767838   0.00502438896703    0.999771218623      -0.00943791978133   0.999771218623      -0.00943791978133   0.000213913767838   0.00502438896703    
8300000000.0        0.000215208589479   0.00508594999481    0.999769633055      -0.00955354707864   0.999769633055      -0.00955354707864   0.000215208589479   0.00508594999481    
8400000000.0        0.000216517918388   0.00514752229383    0.999768030022      -0.00966919155087   0.999768030022      -0.00966919155087   0.000216517918388   0.00514752229383    
8500000000.0        0.000217841771167   0.0052091060378     0.999766409506      -0.00978485334758   0.999766409506      -0.00978485334758   0.000217841771167   0.0052091060378     
8600000000.0        0.000219180164203   0.00527070140117    0.99976477149       -0.00990053261822   0.99976477149       -0.00990053261822   0.000219180164203   0.00527070140117    
8700000000.0        0.000220533113699   0.00533230855915    0.999763115957      -0.0100162295123    0.999763115957      -0.0100162295123    0.000220533113699   0.00533230855915    
8800000000.0        0.000221900635672   0.00539392768768    0.999761442889      -0.0101319441791    0.999761442889      -0.0101319441791    0.000221900635672   0.00539392768768    
8900000000.0        0.000223282745985   0.00545555896351    0.999759752272      -0.0102476767679    0.999759752272      -0.0102476767679    0.000223282745985   0.00545555896351    
9000000000.0        0.000224679460344   0.00551720256408    0.999758044087      -0.0103634274282    0.999758044087      -0.0103634274282    0.000224679460344   0.00551720256408    
9100000000.0        0.000226090794327   0.00557885866757    0.999756318319      -0.0104791963091    0.999756318319      -0.0104791963091    0.000226090794327   0.00557885866757    
9200000000.0        0.000227516763385   0.00564052745291    0.999754574951      -0.0105949835599    0.999754574951      -0.0105949835599    0.000227516763385   0.00564052745291    
9300000000.0        0.00022895738286    0.00570220909971    0.999752813967      -0.0107107893298    0.999752813967      -0.0107107893298    0.00022895738286    0.00570220909971    
9400000000.0        0.000230412667992   0.00576390378837    0.999751035351      -0.0108266137679    0.999751035351      -0.0108266137679    0.000230412667992   0.00576390378837    
9500000000.0        0.000231882633935   0.00582561169991    0.999749239088      -0.0109424570234    0.999749239088      -0.0109424570234    0.000231882633935   0.00582561169991    
9600000000.0        0.000233367295762   0.00588733301616    0.999747425162      -0.0110583192455    0.999747425162      -0.0110583192455    0.000233367295762   0.00588733301616    
9700000000.0        0.00023486666848    0.00594906791958    0.999745593556      -0.0111742005833    0.999745593556      -0.0111742005833    0.00023486666848    0.00594906791958    
9800000000.0        0.000236380767034   0.00601081659331    0.999743744255      -0.011290101186     0.999743744255      -0.011290101186     0.000236380767034   0.00601081659331    
9900000000.0        0.000237909606318   0.00607257922126    0.999741877245      -0.0114060212027    0.999741877245      -0.0114060212027    0.000237909606318   0.00607257922126    
10000000000.0       0.000239453201184   0.00613435598796    0.999739992508      -0.0115219607826    0.999739992508      -0.0115219607826    0.000239453201184   0.00613435598796    
