# Hz S RI R 50.00 
100000000.0         0.00548509927364    0.000229031225177   0.994513843055      -0.000289352914419  0.994513843055      -0.000289352914419  0.00548509927364    0.000229031225177   
200000000.0         0.00552108838885    0.000458025798746   0.994477792622      -0.000578669677924  0.994477792622      -0.000578669677924  0.00552108838885    0.000458025798746   
300000000.0         0.00554739639397    0.000686999390423   0.994451419652      -0.000867966221988  0.994451419652      -0.000867966221988  0.00554739639397    0.000686999390423   
400000000.0         0.00556879693303    0.000915957629619   0.994429950502      -0.00115724837873   0.994429950502      -0.00115724837873   0.00556879693303    0.000915957629619   
500000000.0         0.00558713500401    0.00114490378521    0.994411540171      -0.00144651959      0.994411540171      -0.00144651959      0.00558713500401    0.00114490378521    
600000000.0         0.00560335481186    0.00137384007198    0.994395244456      -0.00173578222424   0.994395244456      -0.00173578222424   0.00560335481186    0.00137384007198    
700000000.0         0.00561801605195    0.00160276812245    0.99438050366       -0.00202503805346   0.99438050366       -0.00202503805346   0.00561801605195    0.00160276812245    
800000000.0         0.00563148260188    0.00183168920679    0.994366953905      -0.00231428847634   0.994366953905      -0.00231428847634   0.00563148260188    0.00183168920679    
900000000.0         0.00564400665159    0.00206060435143    0.994354343001      -0.00260353463901   0.994354343001      -0.00260353463901   0.00564400665159    0.00206060435143    
1000000000.0        0.00565577140421    0.00228951440977    0.994342487743      -0.00289277750693   0.994342487743      -0.00289277750693   0.00565577140421    0.00228951440977    
1100000000.0        0.00566691484498    0.002518420107      0.994331250147      -0.00318201791113   0.994331250147      -0.00318201791113   0.00566691484498    0.002518420107      
1200000000.0        0.00567754392303    0.00274732207057    0.994320523262      -0.00347125657914   0.994320523262      -0.00347125657914   0.00567754392303    0.00274732207057    
1300000000.0        0.00568774348583    0.0029762208512     0.994310222241      -0.00376049415699   0.994310222241      -0.00376049415699   0.00568774348583    0.0029762208512     
1400000000.0        0.00569758215957    0.00320511693844    0.994300278457      -0.00404973122495   0.994300278457      -0.00404973122495   0.00569758215957    0.00320511693844    
1500000000.0        0.00570711636141    0.00343401077197    0.994290635491      -0.00433896830953   0.994290635491      -0.00433896830953   0.00570711636141    0.00343401077197    
1600000000.0        0.0057163931213     0.00366290275044    0.994281246314      -0.00462820589245   0.994281246314      -0.00462820589245   0.0057163931213     0.00366290275044    
1700000000.0        0.00572545211809    0.00389179323819    0.994272071246      -0.00491744441783   0.994272071246      -0.00491744441783   0.00572545211809    0.00389179323819    
1800000000.0        0.00573432718182    0.00412068257068    0.994263076456      -0.00520668429775   0.994263076456      -0.00520668429775   0.00573432718182    0.00412068257068    
1900000000.0        0.00574304742371    0.00434957105876    0.994254232832      -0.00549592591679   0.994254232832      -0.00549592591679   0.00574304742371    0.00434957105876    
2000000000.0        0.00575163810065    0.00457845899219    0.994245515117      -0.00578516963579   0.994245515117      -0.00578516963579   0.00575163810065    0.00457845899219    
2100000000.0        0.00576012128659    0.00480734664257    0.994236901237      -0.00607441579478   0.994236901237      -0.00607441579478   0.00576012128659    0.00480734664257    
2200000000.0        0.00576851640121    0.00503623426566    0.99422837177       -0.00636366471565   0.99422837177       -0.00636366471565   0.00576851640121    0.00503623426566    
2300000000.0        0.00577684063088    0.00526512210346    0.99421990953       -0.00665291670421   0.99421990953       -0.00665291670421   0.00577684063088    0.00526512210346    
2400000000.0        0.00578510926798    0.00549401038587    0.994211499224      -0.00694217205207   0.994211499224      -0.00694217205207   0.00578510926798    0.00549401038587    
2500000000.0        0.0057933359867     0.00572289933218    0.994203127176      -0.00723143103814   0.994203127176      -0.00723143103814   0.0057933359867     0.00572289933218    
2600000000.0        0.00580153306963    0.00595178915225    0.994194781105      -0.00752069393      0.994194781105      -0.00752069393      0.00580153306963    0.00595178915225    
2700000000.0        0.00580971159512    0.00618068004765    0.994186449929      -0.00780996098507   0.994186449929      -0.00780996098507   0.00580971159512    0.00618068004765    
2800000000.0        0.00581788159364    0.00640957221256    0.994178123619      -0.00809923245161   0.994178123619      -0.00809923245161   0.00581788159364    0.00640957221256    
2900000000.0        0.00582605217904    0.00663846583462    0.99416979306       -0.00838850856956   0.99416979306       -0.00838850856956   0.00582605217904    0.00663846583462    
3000000000.0        0.00583423165956    0.00686736109554    0.994161449943      -0.00867778957142   0.994161449943      -0.00867778957142   0.00583423165956    0.00686736109554    
3100000000.0        0.00584242763208    0.00709625817189    0.994153086669      -0.00896707568284   0.994153086669      -0.00896707568284   0.00584242763208    0.00709625817189    
3200000000.0        0.0058506470629     0.00732515723549    0.994144696273      -0.00925636712329   0.994144696273      -0.00925636712329   0.0058506470629     0.00732515723549    
3300000000.0        0.00585889635705    0.00755405845403    0.994136272347      -0.0095456641066    0.994136272347      -0.0095456641066    0.00585889635705    0.00755405845403    
3400000000.0        0.00586718141821    0.00778296199143    0.994127808989      -0.00983496684143   0.994127808989      -0.00983496684143   0.00586718141821    0.00778296199143    
3500000000.0        0.00587550770067    0.00801186800828    0.994119300742      -0.0101242755317    0.994119300742      -0.0101242755317    0.00587550770067    0.00801186800828    
3600000000.0        0.00588388025465    0.00824077666216    0.994110742556      -0.0104135903771    0.994110742556      -0.0104135903771    0.00588388025465    0.00824077666216    
3700000000.0        0.00589230376592    0.008469688108      0.994102129744      -0.0107029115731    0.994102129744      -0.0107029115731    0.00589230376592    0.008469688108      
3800000000.0        0.0059007825906     0.00869860249829    0.994093457949      -0.0109922393118    0.994093457949      -0.0109922393118    0.0059007825906     0.00869860249829    
3900000000.0        0.00590932078588    0.00892751998342    0.994084723113      -0.0112815737819    0.994084723113      -0.0112815737819    0.00590932078588    0.00892751998342    
4000000000.0        0.00591792213714    0.00915644071186    0.99407592145       -0.0115709151688    0.99407592145       -0.0115709151688    0.00591792213714    0.00915644071186    
4100000000.0        0.00592659018202    0.00938536483037    0.994067049422      -0.0118602636552    0.994067049422      -0.0118602636552    0.00592659018202    0.00938536483037    
4200000000.0        0.00593532823185    0.00961429248426    0.994058103717      -0.0121496194213    0.994058103717      -0.0121496194213    0.00593532823185    0.00961429248426    
4300000000.0        0.0059441393908     0.00984322381746    0.994049081229      -0.0124389826446    0.994049081229      -0.0124389826446    0.0059441393908     0.00984322381746    
4400000000.0        0.00595302657299    0.0100721589728     0.994039979043      -0.0127283535006    0.994039979043      -0.0127283535006    0.00595302657299    0.0100721589728     
4500000000.0        0.00596199251785    0.010301098092      0.994030794419      -0.0130177321627    0.994030794419      -0.0130177321627    0.00596199251785    0.010301098092      
4600000000.0        0.00597103980395    0.0105300413161     0.994021524779      -0.0133071188022    0.994021524779      -0.0133071188022    0.00597103980395    0.0105300413161     
4700000000.0        0.00598017086146    0.010758988785      0.99401216769       -0.0135965135889    0.99401216769       -0.0135965135889    0.00598017086146    0.010758988785      
4800000000.0        0.00598938798342    0.0109879406384     0.994002720859      -0.0138859166909    0.994002720859      -0.0138859166909    0.00598938798342    0.0109879406384     
4900000000.0        0.00599869333593    0.0112168970152     0.993993182119      -0.0141753282747    0.993993182119      -0.0141753282747    0.00599869333593    0.0112168970152     
5000000000.0        0.00600808896746    0.0114458580539     0.993983549421      -0.0144647485054    0.993983549421      -0.0144647485054    0.00600808896746    0.0114458580539     
5100000000.0        0.0060175768172     0.0116748238926     0.993973820824      -0.0147541775471    0.993973820824      -0.0147541775471    0.0060175768172     0.0116748238926     
5200000000.0        0.00602715872279    0.0119037946693     0.993963994491      -0.0150436155624    0.993963994491      -0.0150436155624    0.00602715872279    0.0119037946693     
5300000000.0        0.00603683642734    0.0121327705215     0.993954068676      -0.0153330627131    0.993954068676      -0.0153330627131    0.00603683642734    0.0121327705215     
5400000000.0        0.00604661158578    0.0123617515868     0.993944041726      -0.0156225191596    0.993944041726      -0.0156225191596    0.00604661158578    0.0123617515868     
5500000000.0        0.00605648577078    0.0125907380028     0.993933912064      -0.0159119850619    0.993933912064      -0.0159119850619    0.00605648577078    0.0125907380028     
5600000000.0        0.00606646047814    0.0128197299068     0.993923678197      -0.0162014605788    0.993923678197      -0.0162014605788    0.00606646047814    0.0128197299068     
5700000000.0        0.00607653713169    0.0130487274363     0.993913338697      -0.0164909458685    0.993913338697      -0.0164909458685    0.00607653713169    0.0130487274363     
5800000000.0        0.00608671708791    0.0132777307291     0.993902892209      -0.0167804410883    0.993902892209      -0.0167804410883    0.00608671708791    0.0132777307291     
5900000000.0        0.00609700164011    0.0135067399229     0.993892337438      -0.017069946395     0.993892337438      -0.017069946395     0.00609700164011    0.0135067399229     
6000000000.0        0.00610739202228    0.0137357551556     0.993881673149      -0.0173594619448    0.993881673149      -0.0173594619448    0.00610739202228    0.0137357551556     
6100000000.0        0.00611788941271    0.0139647765654     0.993870898162      -0.0176489878934    0.993870898162      -0.0176489878934    0.00611788941271    0.0139647765654     
6200000000.0        0.00612849493728    0.0141938042908     0.993860011353      -0.017938524396     0.993860011353      -0.017938524396     0.00612849493728    0.0141938042908     
6300000000.0        0.00613920967257    0.0144228384705     0.993849011641      -0.0182280716074    0.993849011641      -0.0182280716074    0.00613920967257    0.0144228384705     
6400000000.0        0.00615003464866    0.0146518792437     0.993837897998      -0.0185176296817    0.993837897998      -0.0185176296817    0.00615003464866    0.0146518792437     
6500000000.0        0.00616097085184    0.0148809267499     0.993826669435      -0.0188071987732    0.993826669435      -0.0188071987732    0.00616097085184    0.0148809267499     
6600000000.0        0.00617201922701    0.0151099811288     0.993815325008      -0.0190967790354    0.993815325008      -0.0190967790354    0.00617201922701    0.0151099811288     
6700000000.0        0.00618318068004    0.0153390425209     0.993803863808      -0.0193863706217    0.993803863808      -0.0193863706217    0.00618318068004    0.0153390425209     
6800000000.0        0.00619445607985    0.0155681110668     0.993792284967      -0.0196759736855    0.993792284967      -0.0196759736855    0.00619445607985    0.0155681110668     
6900000000.0        0.00620584626045    0.0157971869079     0.993780587649      -0.0199655883796    0.993780587649      -0.0199655883796    0.00620584626045    0.0157971869079     
7000000000.0        0.00621735202278    0.0160262701857     0.993768771053      -0.0202552148568    0.993768771053      -0.0202552148568    0.00621735202278    0.0160262701857     
7100000000.0        0.00622897413644    0.0162553610426     0.993756834408      -0.0205448532699    0.993756834408      -0.0205448532699    0.00622897413644    0.0162553610426     
7200000000.0        0.00624071334137    0.0164844596214     0.993744776974      -0.0208345037713    0.993744776974      -0.0208345037713    0.00624071334137    0.0164844596214     
7300000000.0        0.00625257034931    0.0167135660653     0.993732598037      -0.0211241665135    0.993732598037      -0.0211241665135    0.00625257034931    0.0167135660653     
7400000000.0        0.00626454584529    0.0169426805183     0.993720296913      -0.0214138416489    0.993720296913      -0.0214138416489    0.00626454584529    0.0169426805183     
7500000000.0        0.00627664048894    0.0171718031247     0.993707872939      -0.0217035293298    0.993707872939      -0.0217035293298    0.00627664048894    0.0171718031247     
7600000000.0        0.00628885491575    0.0174009340298     0.993695325481      -0.0219932297086    0.993695325481      -0.0219932297086    0.00628885491576    0.0174009340298     
7700000000.0        0.0063011897383     0.0176300733792     0.993682653925      -0.0222829429375    0.993682653925      -0.0222829429375    0.0063011897383     0.0176300733792     
7800000000.0        0.0063136455473     0.0178592213191     0.993669857678      -0.0225726691689    0.993669857678      -0.0225726691689    0.0063136455473     0.0178592213191     
7900000000.0        0.00632622291271    0.0180883779965     0.993656936171      -0.0228624085552    0.993656936171      -0.0228624085552    0.00632622291271    0.0180883779965     
8000000000.0        0.00633892238468    0.0183175435589     0.993643888852      -0.0231521612488    0.993643888852      -0.0231521612488    0.00633892238468    0.0183175435589     
8100000000.0        0.00635174449453    0.0185467181547     0.993630715189      -0.0234419274022    0.993630715189      -0.0234419274022    0.00635174449453    0.0185467181547     
8200000000.0        0.00636468975559    0.0187759019327     0.993617414668      -0.0237317071679    0.993617414668      -0.0237317071679    0.00636468975559    0.0187759019327     
8300000000.0        0.00637775866402    0.0190050950423     0.993603986792      -0.0240215006987    0.993603986792      -0.0240215006987    0.00637775866402    0.0190050950423     
8400000000.0        0.00639095169967    0.019234297634      0.99359043108       -0.0243113081473    0.99359043108       -0.0243113081473    0.00639095169967    0.019234297634      
8500000000.0        0.00640426932672    0.0194635098585     0.993576747067      -0.0246011296667    0.993576747067      -0.0246011296667    0.00640426932672    0.0194635098585     
8600000000.0        0.00641771199448    0.0196927318676     0.993562934303      -0.0248909654099    0.993562934303      -0.0248909654099    0.00641771199448    0.0196927318676     
8700000000.0        0.00643128013797    0.0199219638134     0.993548992353      -0.0251808155302    0.993548992353      -0.0251808155302    0.00643128013797    0.0199219638134     
8800000000.0        0.00644497417861    0.0201512058491     0.993534920793      -0.0254706801809    0.993534920793      -0.0254706801809    0.00644497417861    0.0201512058491     
8900000000.0        0.00645879452479    0.0203804581283     0.993520719215      -0.0257605595155    0.993520719215      -0.0257605595155    0.00645879452479    0.0203804581283     
9000000000.0        0.00647274157244    0.0206097208054     0.993506387222      -0.0260504536879    0.993506387222      -0.0260504536879    0.00647274157244    0.0206097208054     
9100000000.0        0.00648681570557    0.0208389940356     0.993491924429      -0.0263403628519    0.993491924429      -0.0263403628519    0.00648681570557    0.0208389940356     
9200000000.0        0.00650101729678    0.0210682779747     0.993477330463      -0.0266302871617    0.993477330463      -0.0266302871617    0.00650101729678    0.0210682779747     
9300000000.0        0.00651534670773    0.0212975727794     0.993462604961      -0.0269202267716    0.993462604961      -0.0269202267716    0.00651534670773    0.0212975727794     
9400000000.0        0.00652980428965    0.0215268786068     0.993447747571      -0.0272101818362    0.993447747571      -0.0272101818362    0.00652980428965    0.0215268786068     
9500000000.0        0.00654439038369    0.0217561956152     0.993432757951      -0.0275001525103    0.993432757951      -0.0275001525103    0.00654439038369    0.0217561956152     
9600000000.0        0.00655910532144    0.0219855239632     0.993417635769      -0.0277901389488    0.993417635769      -0.0277901389488    0.00655910532144    0.0219855239632     
9700000000.0        0.00657394942523    0.0222148638103     0.993402380702      -0.0280801413072    0.993402380702      -0.0280801413072    0.00657394942523    0.0222148638103     
9800000000.0        0.0065889230086     0.0224442153169     0.993386992435      -0.0283701597408    0.993386992435      -0.0283701597408    0.0065889230086     0.0224442153169     
9900000000.0        0.00660402637657    0.0226735786437     0.993371470663      -0.0286601944054    0.993371470663      -0.0286601944054    0.00660402637657    0.0226735786437     
10000000000.0       0.00661925982606    0.0229029539527     0.993355815088      -0.0289502454571    0.993355815088      -0.0289502454571    0.00661925982606    0.0229029539527     
