# Hz S RI R 50.00 
100000000.0         0.000378728472031   -0.00248921032069   0.999590715573      -0.00429863115679   0.999590715573      -0.00429863115679   0.000378728472031   -0.00248921032069   
200000000.0         0.000346022962637   -0.00497826434519   0.999547783697      -0.00859712513852   0.999547783697      -0.00859712513852   0.000346022962638   -0.00497826434519   
300000000.0         0.000291231985764   -0.0074669907576    0.999480857935      -0.0128953389348    0.999480857935      -0.0128953389348    0.000291231985765   -0.0074669907576    
400000000.0         0.000214697879965   -0.00995520940199   0.999389600971      -0.0171931116014    0.999389600971      -0.0171931116014    0.000214697879965   -0.00995520940199   
500000000.0         0.000116555588061   -0.0124427349147    0.999273886267      -0.0214902737803    0.999273886267      -0.0214902737803    0.000116555588061   -0.0124427349147    
600000000.0         -3.12214612608e-06  -0.0149293783752    0.999133653131      -0.0257866507218    0.999133653131      -0.0257866507218    -3.12214612574e-06  -0.0149293783752    
700000000.0         -0.000144287857724  -0.017414948217     0.998968869985      -0.0300820637956    0.998968869985      -0.0300820637956    -0.000144287857724  -0.017414948217     
800000000.0         -0.0003069058667    -0.0198992508032    0.998779521015      -0.0343763313947    0.998779521015      -0.0343763313947    -0.0003069058667    -0.0198992508032    
900000000.0         -0.000490946252194  -0.0223820908265    0.998565600259      -0.0386692695376    0.998565600259      -0.0386692695376    -0.000490946252194  -0.0223820908265    
1000000000.0        -0.000696381784252  -0.0248632716048    0.998327108636      -0.0429606922996    0.998327108636      -0.0429606922996    -0.000696381784253  -0.0248632716048    
1100000000.0        -0.000923186207141  -0.0273425953112    0.998064052309      -0.0472504121391    0.998064052309      -0.0472504121391    -0.000923186207141  -0.0273425953112    
1200000000.0        -0.0011713332077    -0.0298198631608    0.997776441718      -0.0515382401553    0.997776441718      -0.0515382401553    -0.0011713332077    -0.0298198631608    
1300000000.0        -0.00144079575941   -0.0322948755653    0.99746429099       -0.0558239862982    0.99746429099       -0.0558239862982    -0.00144079575941   -0.0322948755653    
1400000000.0        -0.00173154568592   -0.0347674322674    0.997127617547      -0.0601074595447    0.997127617547      -0.0601074595447    -0.00173154568592   -0.0347674322674    
1500000000.0        -0.00204355335931   -0.0372373324567    0.99676644185       -0.0643884680506    0.99676644185       -0.0643884680506    -0.00204355335932   -0.0372373324567    
1600000000.0        -0.00237678748506   -0.0397043748749    0.996380787224      -0.0686668192824    0.996380787224      -0.0686668192824    -0.00237678748506   -0.0397043748749    
1700000000.0        -0.00273121494449   -0.0421683579092    0.995970679733      -0.0729423201357    0.995970679733      -0.0729423201357    -0.00273121494449   -0.0421683579092    
1800000000.0        -0.00310680067699   -0.0446290796798    0.99553614809       -0.0772147770416    0.99553614809       -0.0772147770416    -0.00310680067699   -0.0446290796798    
1900000000.0        -0.00350350759027   -0.04708633812      0.995077223592      -0.0814839960638    0.995077223592      -0.0814839960638    -0.00350350759027   -0.04708633812      
2000000000.0        -0.00392129649098   -0.0495399310515    0.994593940069      -0.0857497829888    0.994593940069      -0.0857497829888    -0.00392129649098   -0.0495399310515    
2100000000.0        -0.00436012603063   -0.0519896562553    0.994086333852      -0.090011943409     0.994086333852      -0.090011943409     -0.00436012603063   -0.0519896562553    
2200000000.0        -0.00481995266295   -0.0544353115393    0.993554443738      -0.0942702828018    0.993554443738      -0.0942702828018    -0.00481995266295   -0.0544353115393    
2300000000.0        -0.00530073061038   -0.0568766948029    0.992998310969      -0.0985246066033    0.992998310969      -0.0985246066033    -0.00530073061038   -0.0568766948029    
2400000000.0        -0.00580241183759   -0.0593136040986    0.992417979214      -0.102774720279     0.992417979214      -0.102774720279     -0.00580241183759   -0.0593136040986    
2500000000.0        -0.0063249460308    -0.0617458376915    0.991813494552      -0.107020429391     0.991813494552      -0.107020429391     -0.0063249460308    -0.0617458376915    
2600000000.0        -0.00686828058188   -0.0641731941175    0.991184905457      -0.111261539663     0.991184905457      -0.111261539663     -0.00686828058188   -0.0641731941175    
2700000000.0        -0.00743236057635   -0.0665954722384    0.990532262784      -0.115497857041     0.990532262784      -0.115497857041     -0.00743236057635   -0.0665954722384    
2800000000.0        -0.00801712878478   -0.0690124712969    0.989855619762      -0.119729187754     0.989855619762      -0.119729187754     -0.00801712878478   -0.0690124712969    
2900000000.0        -0.00862252565711   -0.0714239909693    0.989155031976      -0.123955338375     0.989155031976      -0.123955338375     -0.00862252565711   -0.0714239909693    
3000000000.0        -0.00924848931945   -0.0738298314169    0.988430557361      -0.128176115871     0.988430557361      -0.128176115871     -0.00924848931945   -0.0738298314169    
3100000000.0        -0.0098949555732    -0.076229793337     0.987682256187      -0.132391327663     0.987682256187      -0.132391327663     -0.0098949555732    -0.076229793337     
3200000000.0        -0.0105618578961    -0.0786236780117    0.98691019105       -0.136600781676     0.98691019105       -0.136600781676     -0.0105618578961    -0.0786236780117    
3300000000.0        -0.0112491274453    -0.0810112873569    0.98611442686       -0.140804286396     0.98611442686       -0.140804286396     -0.0112491274453    -0.0810112873569    
3400000000.0        -0.0119566930616    -0.0833924239691    0.985295030825      -0.145001650913     0.985295030825      -0.145001650913     -0.0119566930616    -0.0833924239691    
3500000000.0        -0.0126844812759    -0.0857668911725    0.984452072446      -0.149192684976     0.984452072446      -0.149192684976     -0.0126844812759    -0.0857668911725    
3600000000.0        -0.0134324163166    -0.0881344930644    0.983585623495      -0.153377199041     0.983585623495      -0.153377199041     -0.0134324163166    -0.0881344930644    
3700000000.0        -0.0142004201184    -0.0904950345602    0.982695758007      -0.157555004318     0.982695758007      -0.157555004318     -0.0142004201184    -0.0904950345602    
3800000000.0        -0.0149884123327    -0.0928483214372    0.981782552264      -0.161725912816     0.981782552264      -0.161725912816     -0.0149884123327    -0.0928483214372    
3900000000.0        -0.0157963103382    -0.0951941603783    0.980846084781      -0.165889737389     0.980846084781      -0.165889737389     -0.0157963103382    -0.0951941603783    
4000000000.0        -0.0166240292542    -0.0975323590143    0.979886436285      -0.170046291784     0.979886436285      -0.170046291784     -0.0166240292542    -0.0975323590143    
4100000000.0        -0.0174714819534    -0.0998627259657    0.978903689707      -0.17419539068      0.978903689707      -0.17419539068      -0.0174714819534    -0.0998627259657    
4200000000.0        -0.0183385790765    -0.102185070884     0.977897930159      -0.178336849732     0.977897930159      -0.178336849732     -0.0183385790765    -0.102185070884     
4300000000.0        -0.019225229048     -0.104499204492     0.976869244918      -0.182470485618     0.976869244918      -0.182470485618     -0.019225229048     -0.104499204492     
4400000000.0        -0.0201313380922    -0.106804938623     0.975817723406      -0.186596116073     0.975817723406      -0.186596116073     -0.0201313380922    -0.106804938623     
4500000000.0        -0.0210568102506    -0.109102086262     0.974743457174      -0.190713559934     0.974743457174      -0.190713559934     -0.0210568102506    -0.109102086262     
4600000000.0        -0.0220015474001    -0.11139046158      0.97364653988       -0.194822637178     0.97364653988       -0.194822637178     -0.0220015474001    -0.11139046158      
4700000000.0        -0.0229654492719    -0.113669879975     0.972527067269      -0.198923168964     0.972527067269      -0.198923168964     -0.0229654492719    -0.113669879975     
4800000000.0        -0.0239484134714    -0.115940158108     0.97138513715       -0.203014977667     0.97138513715       -0.203014977667     -0.0239484134714    -0.115940158108     
4900000000.0        -0.0249503354987    -0.11820111394      0.97022084938       -0.207097886916     0.97022084938       -0.207097886916     -0.0249503354987    -0.11820111394      
5000000000.0        -0.0259711087698    -0.120452566766     0.969034305833      -0.211171721633     0.969034305833      -0.211171721633     -0.0259711087698    -0.120452566766     
5100000000.0        -0.0270106246388    -0.12269433725      0.967825610385      -0.215236308071     0.967825610385      -0.215236308071     -0.0270106246388    -0.12269433725      
5200000000.0        -0.0280687724206    -0.12492624746      0.966594868887      -0.21929147384      0.966594868887      -0.21929147384      -0.0280687724206    -0.12492624746      
5300000000.0        -0.0291454394141    -0.127148120902     0.965342189137      -0.223337047952     0.965342189137      -0.223337047952     -0.0291454394141    -0.127148120902     
5400000000.0        -0.0302405109266    -0.129359782554     0.964067680864      -0.227372860849     0.964067680864      -0.227372860849     -0.0302405109266    -0.129359782554     
5500000000.0        -0.0313538702985    -0.131561058892     0.962771455694      -0.231398744436     0.962771455694      -0.231398744436     -0.0313538702985    -0.131561058892     
5600000000.0        -0.032485398928     -0.133751777929     0.961453627128      -0.235414532115     0.961453627128      -0.235414532115     -0.032485398928     -0.133751777929     
5700000000.0        -0.033634976298     -0.135931769243     0.960114310516      -0.239420058818     0.960114310516      -0.239420058818     -0.033634976298     -0.135931769243     
5800000000.0        -0.0348024800016    -0.138100864004     0.958753623029      -0.243415161031     0.958753623029      -0.243415161031     -0.0348024800016    -0.138100864004     
5900000000.0        -0.0359877857697    -0.140258895009     0.957371683631      -0.247399676832     0.957371683631      -0.247399676832     -0.0359877857697    -0.140258895009     
6000000000.0        -0.0371907674985    -0.142405696705     0.95596861305       -0.251373445916     0.95596861305       -0.251373445916     -0.0371907674985    -0.142405696705     
6100000000.0        -0.0384112972774    -0.144541105221     0.954544533753      -0.255336309624     0.954544533753      -0.255336309624     -0.0384112972774    -0.144541105221     
6200000000.0        -0.0396492454175    -0.146664958394     0.953099569915      -0.259288110971     0.953099569915      -0.259288110971     -0.0396492454175    -0.146664958394     
6300000000.0        -0.0409044804808    -0.148777095794     0.951633847387      -0.263228694672     0.951633847387      -0.263228694672     -0.0409044804808    -0.148777095794     
6400000000.0        -0.0421768693097    -0.150877358752     0.950147493671      -0.267157907171     0.950147493671      -0.267157907171     -0.0421768693097    -0.150877358752     
6500000000.0        -0.0434662770566    -0.152965590383     0.948640637887      -0.271075596664     0.948640637887      -0.271075596664     -0.0434662770566    -0.152965590383     
6600000000.0        -0.0447725672145    -0.155041635614     0.947113410741      -0.274981613125     0.947113410741      -0.274981613125     -0.0447725672145    -0.155041635614     
6700000000.0        -0.0460956016478    -0.157105341203     0.945565944498      -0.278875808328     0.945565944498      -0.278875808328     -0.0460956016478    -0.157105341203     
6800000000.0        -0.0474352406229    -0.159156555763     0.943998372946      -0.282758035874     0.943998372946      -0.282758035874     -0.0474352406229    -0.159156555763     
6900000000.0        -0.04879134284      -0.161195129787     0.942410831369      -0.286628151209     0.942410831369      -0.286628151209     -0.04879134284      -0.161195129787     
7000000000.0        -0.0501637654652    -0.163220915668     0.940803456509      -0.29048601165      0.940803456509      -0.29048601165      -0.0501637654652    -0.163220915668     
7100000000.0        -0.0515523641616    -0.165233767716     0.939176386541      -0.294331476402     0.939176386541      -0.294331476402     -0.0515523641616    -0.165233767716     
7200000000.0        -0.052956993123     -0.167233542185     0.937529761032      -0.298164406582     0.937529761032      -0.298164406582     -0.052956993123     -0.167233542185     
7300000000.0        -0.0543775051054    -0.169220097286     0.935863720917      -0.301984665235     0.935863720917      -0.301984665235     -0.0543775051054    -0.169220097286     
7400000000.0        -0.0558137514607    -0.171193293209     0.934178408457      -0.305792117357     0.934178408457      -0.305792117357     -0.0558137514607    -0.171193293209     
7500000000.0        -0.0572655821696    -0.173152992138     0.932473967211      -0.309586629907     0.932473967211      -0.309586629907     -0.0572655821696    -0.173152992138     
7600000000.0        -0.0587328458753    -0.175099058271     0.930750542004      -0.313368071831     0.930750542004      -0.313368071831     -0.0587328458753    -0.175099058271     
7700000000.0        -0.0602153899166    -0.177031357835     0.929008278885      -0.317136314072     0.929008278885      -0.317136314072     -0.0602153899166    -0.177031357835     
7800000000.0        -0.0617130603625    -0.178949759101     0.927247325102      -0.320891229592     0.927247325102      -0.320891229592     -0.0617130603625    -0.178949759101     
7900000000.0        -0.0632257020454    -0.1808541324       0.925467829062      -0.324632693379     0.925467829062      -0.324632693379     -0.0632257020454    -0.1808541324       
8000000000.0        -0.0647531585961    -0.182744350134     0.923669940298      -0.328360582472     0.923669940298      -0.328360582472     -0.0647531585961    -0.182744350134     
8100000000.0        -0.0662952724773    -0.184620286795     0.921853809437      -0.332074775964     0.921853809437      -0.332074775964     -0.0662952724773    -0.184620286795     
8200000000.0        -0.0678518850189    -0.186481818971     0.92001958816       -0.33577515502      0.92001958816       -0.33577515502      -0.0678518850189    -0.186481818971     
8300000000.0        -0.0694228364519    -0.188328825365     0.918167429172      -0.33946160289      0.918167429172      -0.33946160289      -0.0694228364519    -0.188328825365     
8400000000.0        -0.0710079659433    -0.190161186799     0.916297486166      -0.343134004916     0.916297486166      -0.343134004916     -0.0710079659433    -0.190161186799     
8500000000.0        -0.0726071116309    -0.191978786229     0.914409913786      -0.346792248547     0.914409913786      -0.346792248547     -0.0726071116309    -0.191978786229     
8600000000.0        -0.074220110658     -0.193781508755     0.912504867594      -0.350436223346     0.912504867594      -0.350436223346     -0.074220110658     -0.193781508755     
8700000000.0        -0.0758467992083    -0.195569241626     0.910582504035      -0.354065820998     0.910582504035      -0.354065820998     -0.0758467992083    -0.195569241626     
8800000000.0        -0.0774870125409    -0.197341874253     0.9086429804        -0.357680935323     0.9086429804        -0.357680935323     -0.0774870125409    -0.197341874253     
8900000000.0        -0.0791405850248    -0.199099298215     0.906686454793      -0.36128146228      0.906686454793      -0.36128146228      -0.0791405850248    -0.199099298215     
9000000000.0        -0.0808073501742    -0.200841407262     0.904713086095      -0.364867299974     0.904713086095      -0.364867299974     -0.0808073501742    -0.200841407262     
9100000000.0        -0.0824871406833    -0.20256809733      0.902723033928      -0.368438348663     0.902723033928      -0.368438348663     -0.0824871406833    -0.20256809733      
9200000000.0        -0.0841797884609    -0.204279266536     0.900716458622      -0.371994510763     0.900716458622      -0.371994510763     -0.0841797884609    -0.204279266536     
9300000000.0        -0.0858851246655    -0.205974815191     0.898693521177      -0.375535690856     0.898693521177      -0.375535690856     -0.0858851246655    -0.205974815191     
9400000000.0        -0.0876029797398    -0.207654645801     0.896654383232      -0.379061795687     0.896654383232      -0.379061795687     -0.0876029797398    -0.207654645801     
9500000000.0        -0.0893331834456    -0.20931866307      0.894599207027      -0.382572734176     0.894599207027      -0.382572734176     -0.0893331834456    -0.20931866307      
9600000000.0        -0.0910755648982    -0.210966773904     0.892528155369      -0.386068417413     0.892528155369      -0.386068417413     -0.0910755648982    -0.210966773904     
9700000000.0        -0.092829952601     -0.212598887413     0.890441391597      -0.389548758667     0.890441391597      -0.389548758667     -0.092829952601     -0.212598887413     
9800000000.0        -0.0945961744797    -0.214214914911     0.888339079548      -0.393013673381     0.888339079548      -0.393013673381     -0.0945961744797    -0.214214914911     
9900000000.0        -0.0963740579167    -0.215814769918     0.886221383524      -0.396463079179     0.886221383524      -0.396463079179     -0.0963740579167    -0.215814769918     
10000000000.0       -0.0981634297852    -0.217398368162     0.884088468254      -0.399896895859     0.884088468254      -0.399896895859     -0.0981634297852    -0.217398368162     
