# Hz S RI R 50.00 
100000000.0         0.00014268760548    -0.00347915262008   0.999815745091      -0.00460674754863   0.999815745091      -0.00460674754863   0.00014268760548    -0.00347915262008   
200000000.0         9.17667111167e-05   -0.00695816232839   0.999760707908      -0.00921341083938   0.999760707908      -0.00921341083938   9.17667111167e-05   -0.00695816232839   
300000000.0         8.50081654646e-06   -0.0104367980709    0.99967262028       -0.0138197949239    0.99967262028       -0.0138197949239    8.50081654624e-06   -0.0104367980709    
400000000.0         -0.000106969512336  -0.0139147922049    0.99955134066       -0.0184256599298    0.99955134066       -0.0184256599298    -0.000106969512336  -0.0139147922049    
500000000.0         -0.000254587742952  -0.017391857825     0.999396816878      -0.0230307429005    0.999396816878      -0.0230307429005    -0.000254587742952  -0.017391857825     
600000000.0         -0.000434320688702  -0.020867695045     0.99920902648       -0.0276347654804    0.99920902648       -0.0276347654804    -0.000434320688702  -0.020867695045     
700000000.0         -0.000646142870023  -0.0243419942846    0.998987961815      -0.0322374378908    0.998987961815      -0.0322374378908    -0.000646142870023  -0.0243419942846    
800000000.0         -0.000890030664959  -0.0278144382959    0.998733624759      -0.0368384613611    0.998733624759      -0.0368384613611    -0.000890030664959  -0.0278144382959    
900000000.0         -0.00116595960427   -0.0312847035478    0.998446024472      -0.041437529775     0.998446024472      -0.041437529775     -0.00116595960427   -0.0312847035478    
1000000000.0        -0.00147390292611   -0.034752461239     0.998125176342      -0.0460343308666    0.998125176342      -0.0460343308666    -0.00147390292611   -0.034752461239     
1100000000.0        -0.00181383071615   -0.0382173780829    0.997771101456      -0.0506285471388    0.997771101456      -0.0506285471388    -0.00181383071615   -0.0382173780829    
1200000000.0        -0.00218570935136   -0.0416791169377    0.997383826329      -0.0552198565949    0.997383826329      -0.0552198565949    -0.00218570935136   -0.0416791169377    
1300000000.0        -0.00258950111571   -0.0451373373326    0.996963382776      -0.0598079333444    0.996963382776      -0.0598079333444    -0.00258950111571   -0.0451373373326    
1400000000.0        -0.00302516392024   -0.0485916959175    0.996509807848      -0.0643924481162    0.996509807848      -0.0643924481162    -0.00302516392024   -0.0485916959175    
1500000000.0        -0.00349265109082   -0.0520418468566    0.996023143815      -0.0689730687042    0.996023143815      -0.0689730687042    -0.00349265109082   -0.0520418468566    
1600000000.0        -0.00399191120201   -0.0554874421792    0.995503438172      -0.0735494603619    0.995503438172      -0.0735494603619    -0.00399191120201   -0.0554874421792    
1700000000.0        -0.00452288794398   -0.0589281320976    0.994950743655      -0.0781212861562    0.994950743655      -0.0781212861562    -0.00452288794398   -0.0589281320976    
1800000000.0        -0.00508552001421   -0.0623635652986    0.994365118266      -0.0826882072902    0.994365118266      -0.0826882072902    -0.00508552001421   -0.0623635652986    
1900000000.0        -0.00567974102847   -0.0657933892136    0.993746625295      -0.0872498834007    0.993746625295      -0.0872498834007    -0.00567974102847   -0.0657933892136    
2000000000.0        -0.00630547944734   -0.0692172502719    0.993095333351      -0.0918059728344    0.993095333351      -0.0918059728344    -0.00630547944734   -0.0692172502719    
2100000000.0        -0.00696265851562   -0.0726347941393    0.99241131638       -0.0963561329071    0.99241131638       -0.0963561329071    -0.00696265851562   -0.0726347941393    
2200000000.0        -0.00765119621281   -0.0760456659442    0.991694653689      -0.100900020149     0.991694653689      -0.100900020149     -0.00765119621281   -0.0760456659442    
2300000000.0        -0.00837100521312   -0.0794495104942    0.990945429961      -0.105437290536     0.990945429961      -0.105437290536     -0.00837100521312   -0.0794495104942    
2400000000.0        -0.00912199285411   -0.0828459724831    0.990163735269      -0.109967599712     0.990163735269      -0.109967599712     -0.00912199285411   -0.0828459724831    
2500000000.0        -0.00990406111298   -0.0862346966902    0.989349665087      -0.114490603203     0.989349665087      -0.114490603203     -0.00990406111298   -0.0862346966902    
2600000000.0        -0.01071710659      -0.0896153281729    0.988503320289      -0.119005956617     0.988503320289      -0.119005956617     -0.01071710659      -0.0896153281729    
2700000000.0        -0.0115610204983    -0.0929875124524    0.987624807155      -0.123513315848     0.987624807155      -0.123513315848     -0.0115610204983    -0.0929875124524    
2800000000.0        -0.0124356886602    -0.0963508956949    0.986714237364      -0.128012337258     0.986714237364      -0.128012337258     -0.0124356886602    -0.0963508956949    
2900000000.0        -0.0133409915087    -0.0997051248865    0.985771727986      -0.13250267787      0.985771727986      -0.13250267787      -0.0133409915087    -0.0997051248865    
3000000000.0        -0.014276804095     -0.103049848004     0.984797401469      -0.136983995538     0.984797401469      -0.136983995538     -0.014276804095     -0.103049848004     
3100000000.0        -0.0152429961005    -0.106384714181     0.983791385625      -0.141455949131     0.983791385625      -0.141455949131     -0.0152429961005    -0.106384714181     
3200000000.0        -0.0162394318547    -0.10970937387      0.982753813601      -0.145918198694     0.982753813601      -0.145918198694     -0.0162394318547    -0.10970937387      
3300000000.0        -0.0172659703568    -0.113023479        0.981684823863      -0.150370405615     0.981684823863      -0.150370405615     -0.0172659703568    -0.113023479        
3400000000.0        -0.0183224653023    -0.116326683132     0.980584560159      -0.154812232787     0.980584560159      -0.154812232787     -0.0183224653023    -0.116326683132     
3500000000.0        -0.0194087651144    -0.119618641606     0.979453171492      -0.159243344763     0.979453171492      -0.159243344763     -0.0194087651144    -0.119618641606     
3600000000.0        -0.0205247129785    -0.122899011693     0.978290812075      -0.163663407909     0.978290812075      -0.163663407909     -0.0205247129785    -0.122899011693     
3700000000.0        -0.0216701468819    -0.126167452735     0.977097641299      -0.168072090551     0.977097641299      -0.168072090551     -0.0216701468819    -0.126167452735     
3800000000.0        -0.0228448996566    -0.129423626285     0.975873823682      -0.172469063122     0.975873823682      -0.172469063122     -0.0228448996566    -0.129423626285     
3900000000.0        -0.0240487990263    -0.132667196245     0.974619528821      -0.1768539983       0.974619528821      -0.1768539983       -0.0240487990263    -0.132667196245     
4000000000.0        -0.0252816676566    -0.135897829001     0.973334931346      -0.18122657115      0.973334931346      -0.18122657115      -0.0252816676566    -0.135897829001     
4100000000.0        -0.0265433232092    -0.139115193548     0.972020210857      -0.185586459256     0.972020210857      -0.185586459256     -0.0265433232092    -0.139115193548     
4200000000.0        -0.0278335783991    -0.142318961623     0.970675551873      -0.189933342851     0.970675551873      -0.189933342851     -0.0278335783991    -0.142318961623     
4300000000.0        -0.0291522410553    -0.145508807825     0.969301143766      -0.194266904943     0.969301143766      -0.194266904943     -0.0291522410553    -0.145508807825     
4400000000.0        -0.0304991141843    -0.148684409736     0.9678971807        -0.198586831446     0.9678971807        -0.198586831446     -0.0304991141843    -0.148684409736     
4500000000.0        -0.0318739960368    -0.151845448039     0.96646386156       -0.20289281129      0.96646386156       -0.20289281129      -0.0318739960368    -0.151845448039     
4600000000.0        -0.0332766801778    -0.154991606633     0.965001389885      -0.207184536548     0.965001389885      -0.207184536548     -0.0332766801778    -0.154991606633     
4700000000.0        -0.0347069555583    -0.158122572743     0.963509973792      -0.211461702544     0.963509973792      -0.211461702544     -0.0347069555583    -0.158122572743     
4800000000.0        -0.0361646065908    -0.161238037027     0.961989825904      -0.215724007964     0.961989825904      -0.215724007964     -0.0361646065908    -0.161238037027     
4900000000.0        -0.0376494132271    -0.164337693681     0.960441163272      -0.219971154965     0.960441163272      -0.219971154965     -0.0376494132271    -0.164337693681     
5000000000.0        -0.0391611510378    -0.167421240541     0.958864207289      -0.224202849281     0.958864207289      -0.224202849281     -0.0391611510378    -0.167421240541     
5100000000.0        -0.0406995912956    -0.170488379184     0.957259183614      -0.228418800318     0.957259183614      -0.228418800318     -0.0406995912956    -0.170488379184     
5200000000.0        -0.042264501059     -0.173538815015     0.955626322084      -0.232618721254     0.955626322084      -0.232618721254     -0.042264501059     -0.173538815015     
5300000000.0        -0.04385564326      -0.176572257367     0.953965856625      -0.236802329135     0.953965856625      -0.236802329135     -0.04385564326      -0.176572257367     
5400000000.0        -0.0454727767923    -0.179588419586     0.952278025168      -0.240969344963     0.952278025168      -0.240969344963     -0.0454727767923    -0.179588419586     
5500000000.0        -0.0471156566025    -0.182587019115     0.950563069553      -0.245119493783     0.950563069553      -0.245119493783     -0.0471156566025    -0.182587019115     
5600000000.0        -0.0487840337823    -0.18556777758      0.94882123544       -0.24925250477      0.94882123544       -0.24925250477      -0.0487840337823    -0.18556777758      
5700000000.0        -0.0504776556631    -0.188530420866     0.947052772212      -0.253368111308     0.947052772212      -0.253368111308     -0.0504776556631    -0.188530420866     
5800000000.0        -0.0521962659116    -0.191474679192     0.94525793288       -0.257466051064     0.94525793288       -0.257466051064     -0.0521962659116    -0.191474679192     
5900000000.0        -0.0539396046275    -0.194400287187     0.943436973984      -0.26154606607      0.943436973984      -0.26154606607      -0.0539396046275    -0.194400287187     
6000000000.0        -0.0557074084417    -0.197306983954     0.941590155499      -0.265607902786     0.941590155499      -0.265607902786     -0.0557074084417    -0.197306983954     
6100000000.0        -0.0574994106172    -0.200194513143     0.939717740727      -0.269651312173     0.939717740727      -0.269651312173     -0.0574994106172    -0.200194513143     
6200000000.0        -0.0593153411496    -0.203062623005     0.937819996204      -0.273676049754     0.937819996204      -0.273676049754     -0.0593153411496    -0.203062623005     
6300000000.0        -0.06115492687      -0.205911066462     0.935897191589      -0.277681875675     0.935897191589      -0.277681875675     -0.06115492687      -0.205911066462     
6400000000.0        -0.0630178915481    -0.208739601153     0.933949599568      -0.281668554767     0.933949599568      -0.281668554767     -0.0630178915481    -0.208739601153     
6500000000.0        -0.0649039559967    -0.211547989494     0.931977495746      -0.285635856595     0.931977495746      -0.285635856595     -0.0649039559967    -0.211547989494     
6600000000.0        -0.0668128381765    -0.214335998726     0.92998115854       -0.289583555511     0.92998115854       -0.289583555511     -0.0668128381765    -0.214335998726     
6700000000.0        -0.0687442533021    -0.217103400962     0.927960869078      -0.293511430706     0.927960869078      -0.293511430706     -0.0687442533021    -0.217103400962     
6800000000.0        -0.0706979139484    -0.21984997323      0.925916911088      -0.297419266249     0.925916911088      -0.297419266249     -0.0706979139484    -0.21984997323      
6900000000.0        -0.0726735301576    -0.222575497515     0.923849570794      -0.301306851133     0.923849570794      -0.301306851133     -0.0726735301576    -0.222575497515     
7000000000.0        -0.0746708095464    -0.225279760795     0.921759136807      -0.305173979311     0.921759136807      -0.305173979311     -0.0746708095464    -0.225279760795     
7100000000.0        -0.0766894574139    -0.227962555078     0.919645900015      -0.309020449733     0.919645900015      -0.309020449733     -0.0766894574139    -0.227962555078     
7200000000.0        -0.0787291768495    -0.230623677428     0.917510153481      -0.312846066378     0.917510153481      -0.312846066378     -0.0787291768495    -0.230623677428     
7300000000.0        -0.0807896688412    -0.233262930001     0.915352192329      -0.316650638282     0.915352192329      -0.316650638282     -0.0807896688412    -0.233262930001     
7400000000.0        -0.0828706323836    -0.235880120064     0.913172313637      -0.320433979568     0.913172313637      -0.320433979568     -0.0828706323836    -0.235880120064     
7500000000.0        -0.0849717645862    -0.238475060019     0.910970816332      -0.324195909465     0.910970816332      -0.324195909465     -0.0849717645862    -0.238475060019     
7600000000.0        -0.087092760782     -0.241047567426     0.908748001076      -0.32793625233      0.908748001076      -0.32793625233      -0.087092760782     -0.241047567426     
7700000000.0        -0.0892333146349    -0.243597465013     0.906504170163      -0.331654837665     0.906504170163      -0.331654837665     -0.0892333146349    -0.243597465013     
7800000000.0        -0.0913931182478    -0.246124580696     0.904239627409      -0.335351500134     0.904239627409      -0.335351500134     -0.0913931182478    -0.246124580696     
7900000000.0        -0.09357186227      -0.248628747586     0.901954678042      -0.339026079571     0.901954678042      -0.339026079571     -0.09357186227      -0.248628747586     
8000000000.0        -0.0957692360044    -0.251109803998     0.899649628601      -0.34267842099      0.899649628601      -0.34267842099      -0.0957692360044    -0.251109803998     
8100000000.0        -0.0979849275136    -0.253567593458     0.897324786823      -0.346308374592     0.897324786823      -0.346308374592     -0.0979849275136    -0.253567593458     
8200000000.0        -0.100218623727     -0.256001964702     0.89498046154       -0.349915795767     0.89498046154       -0.349915795767     -0.100218623727     -0.256001964702     
8300000000.0        -0.102470010545     -0.258412771679     0.892616962574      -0.353500545094     0.892616962574      -0.353500545094     -0.102470010545     -0.258412771679     
8400000000.0        -0.104738772944     -0.260799873548     0.890234600629      -0.357062488343     0.890234600629      -0.357062488343     -0.104738772944     -0.260799873548     
8500000000.0        -0.107024595083     -0.26316313467      0.88783368719       -0.360601496465     0.88783368719       -0.360601496465     -0.107024595083     -0.26316313467      
8600000000.0        -0.109327160403     -0.265502424604     0.885414534418      -0.364117445588     0.885414534418      -0.364117445588     -0.109327160403     -0.265502424604     
8700000000.0        -0.11164615173      -0.267817618094     0.882977455049      -0.367610217004     0.882977455049      -0.367610217004     -0.11164615173      -0.267817618094     
8800000000.0        -0.113981251381     -0.270108595057     0.880522762289      -0.371079697163     0.880522762289      -0.371079697163     -0.113981251381     -0.270108595057     
8900000000.0        -0.116332141257     -0.272375240567     0.878050769717      -0.374525777652     0.878050769717      -0.374525777652     -0.116332141257     -0.272375240567     
9000000000.0        -0.118698502952     -0.274617444842     0.875561791184      -0.37794835518      0.875561791184      -0.37794835518      -0.118698502952     -0.274617444842     
9100000000.0        -0.12108001784      -0.276835103216     0.873056140715      -0.381347331561     0.873056140715      -0.381347331561     -0.12108001784      -0.276835103216     
9200000000.0        -0.123476367183     -0.279028116125     0.87053413241       -0.38472261369      0.87053413241       -0.38472261369      -0.123476367183     -0.279028116125     
9300000000.0        -0.125887232219     -0.281196389079     0.867996080349      -0.38807411352      0.867996080349      -0.38807411352      -0.125887232219     -0.281196389079     
9400000000.0        -0.128312294264     -0.283339832635     0.865442298497      -0.391401748036     0.865442298497      -0.391401748036     -0.128312294264     -0.283339832635     
9500000000.0        -0.130751234798     -0.285458362373     0.862873100612      -0.394705439228     0.862873100612      -0.394705439228     -0.130751234798     -0.285458362373     
9600000000.0        -0.133203735562     -0.28755189886      0.860288800148      -0.397985114059     0.860288800148      -0.397985114059     -0.133203735562     -0.28755189886      
9700000000.0        -0.13566947865      -0.289620367621     0.857689710169      -0.401240704436     0.857689710169      -0.401240704436     -0.13566947865      -0.289620367621     
9800000000.0        -0.138148146594     -0.291663699105     0.855076143258      -0.404472147174     0.855076143258      -0.404472147174     -0.138148146594     -0.291663699105     
9900000000.0        -0.140639422454     -0.293681828648     0.852448411424      -0.40767938396      0.852448411424      -0.40767938396      -0.140639422454     -0.293681828648     
10000000000.0       -0.143142989908     -0.295674696436     0.849806826025      -0.410862361319     0.849806826025      -0.410862361319     -0.143142989908     -0.295674696436     
