# Hz S RI R 50.00 
100000000.0         0.000244566507372   -0.00233917803119   0.999731136095      -0.00358674579907   0.999731136095      -0.00358674579907   0.000244566507372   -0.00233917803119   
200000000.0         0.000218256532962   -0.00467829826233   0.999699027293      -0.00717346157217   0.999699027293      -0.00717346157217   0.000218256532962   -0.00467829826233   
300000000.0         0.000174717407895   -0.00701727273121   0.999649024448      -0.0107600823155    0.999649024448      -0.0107600823155    0.000174717407895   -0.00701727273121   
400000000.0         0.000114170139474   -0.00935600019809   0.999580905489      -0.0143465235258    0.999580905489      -0.0143465235258    0.000114170139474   -0.00935600019809   
500000000.0         3.67000187518e-05   -0.0116943722729    0.999494585286      -0.0179326910477    0.999494585286      -0.0179326910477    3.67000187518e-05   -0.0116943722729    
600000000.0         -5.76486558357e-05  -0.0140322757439    0.999390021211      -0.0215184843941    0.999390021211      -0.0215184843941    -5.76486558357e-05  -0.0140322757439    
700000000.0         -0.000168848465829  -0.016369593802     0.999267189232      -0.0251037984315    0.999267189232      -0.0251037984315    -0.000168848465829  -0.016369593802     
800000000.0         -0.000296880042377  -0.0187062067902    0.999126075247      -0.0286885243909    0.999126075247      -0.0286885243909    -0.000296880042377  -0.0187062067902    
900000000.0         -0.000441728110767  -0.0210419927096    0.998966671248      -0.0322725505401    0.998966671248      -0.0322725505401    -0.000441728110767  -0.0210419927096    
1000000000.0        -0.00060337946701   -0.0233768275838    0.998788973416      -0.0358557626608    0.998788973416      -0.0358557626608    -0.00060337946701   -0.0233768275838    
1100000000.0        -0.000781821838383  -0.0257105857351    0.998592981067      -0.039438044407     0.998592981067      -0.039438044407     -0.000781821838383  -0.0257105857351    
1200000000.0        -0.000977043192742  -0.0280431400015    0.998378696045      -0.0430192775837    0.998378696045      -0.0430192775837    -0.000977043192742  -0.0280431400015    
1300000000.0        -0.00118903129441   -0.0303743619133    0.998146122349      -0.0465993423712    0.998146122349      -0.0465993423712    -0.00118903129442   -0.0303743619133    
1400000000.0        -0.00141777340444   -0.0327041218405    0.997895265896      -0.0501781175092    0.997895265896      -0.0501781175092    -0.00141777340444   -0.0327041218405    
1500000000.0        -0.00166325606979   -0.0350322891179    0.99762613437       -0.0537554804538    0.99762613437       -0.0537554804538    -0.00166325606979   -0.0350322891179    
1600000000.0        -0.0019254649699    -0.0373587321535    0.997338737114      -0.0573313075107    0.997338737114      -0.0573313075107    -0.0019254649699    -0.0373587321535    
1700000000.0        -0.00220438480148   -0.0396833185249    0.99703308507       -0.0609054739528    0.99703308507       -0.0609054739528    -0.00220438480148   -0.0396833185249    
1800000000.0        -0.00249999918985   -0.042005915065     0.996709190725      -0.0644778541235    0.996709190725      -0.0644778541235    -0.00249999918985   -0.042005915065     
1900000000.0        -0.00281229061907   -0.0443263879389    0.996367068084      -0.0680483215296    0.996367068084      -0.0680483215296    -0.00281229061907   -0.0443263879389    
2000000000.0        -0.00314124037586   -0.0466446027156    0.996006732649      -0.071616748926     0.996006732649      -0.071616748926     -0.00314124037586   -0.0466446027156    
2100000000.0        -0.0034868285038    -0.0489604244329    0.995628201403      -0.075183008392     0.995628201403      -0.075183008392     -0.0034868285038    -0.0489604244329    
2200000000.0        -0.00384903376549   -0.0512737176586    0.995231492802      -0.0787469714032    0.995231492802      -0.0787469714032    -0.00384903376549   -0.0512737176586    
2300000000.0        -0.00422783361081   -0.0535843465472    0.994816626771      -0.0823085088968    0.994816626771      -0.0823085088968    -0.00422783361081   -0.0535843465472    
2400000000.0        -0.00462320415016   -0.0558921748941    0.994383624698      -0.0858674913341    0.994383624698      -0.0858674913341    -0.00462320415016   -0.0558921748941    
2500000000.0        -0.00503512013172   -0.0581970661861    0.993932509438      -0.0894237887582    0.993932509438      -0.0894237887582    -0.00503512013172   -0.0581970661861    
2600000000.0        -0.00546355492195   -0.0604988836501    0.993463305307      -0.0929772708492    0.993463305307      -0.0929772708492    -0.00546355492195   -0.0604988836501    
2700000000.0        -0.005908480489     -0.0627974902999    0.992976038087      -0.0965278069767    0.992976038087      -0.0965278069767    -0.005908480489     -0.0627974902999    
2800000000.0        -0.00636986738837   -0.0650927489802    0.992470735023      -0.100075266249     0.992470735023      -0.100075266249     -0.00636986738837   -0.0650927489802    
2900000000.0        -0.00684768475071   -0.0673845224098    0.991947424829      -0.103619517563     0.991947424829      -0.103619517563     -0.00684768475071   -0.0673845224098    
3000000000.0        -0.00734190027146   -0.0696726732233    0.991406137684      -0.107160429647     0.991406137684      -0.107160429647     -0.00734190027146   -0.0696726732233    
3100000000.0        -0.00785248020199   -0.0719570640108    0.990846905235      -0.110697871106     0.990846905235      -0.110697871106     -0.00785248020199   -0.0719570640108    
3200000000.0        -0.00837938934227   -0.0742375573574    0.9902697606        -0.114231710468     0.9902697606        -0.114231710468     -0.00837938934227   -0.0742375573574    
3300000000.0        -0.00892259103486   -0.0765140158807    0.989674738362      -0.117761816219     0.989674738362      -0.117761816219     -0.00892259103486   -0.0765140158807    
3400000000.0        -0.00948204716003   -0.078786302268     0.989061874578      -0.12128805685      0.989061874578      -0.12128805685      -0.00948204716003   -0.078786302268     
3500000000.0        -0.0100577181321    -0.0810542793123    0.988431206768      -0.124810300889     0.988431206768      -0.124810300889     -0.0100577181321    -0.0810542793123    
3600000000.0        -0.0106495628966    -0.0833178099473    0.987782773924      -0.128328416945     0.987782773924      -0.128328416945     -0.0106495628966    -0.0833178099473    
3700000000.0        -0.0112575389286    -0.0855767572824    0.987116616501      -0.131842273743     0.987116616501      -0.131842273743     -0.0112575389286    -0.0855767572824    
3800000000.0        -0.0118816022322    -0.0878309846356    0.98643277642       -0.135351740158     0.98643277642       -0.135351740158     -0.0118816022322    -0.0878309846356    
3900000000.0        -0.0125217073398    -0.0900803555671    0.985731297062      -0.138856685254     0.985731297062      -0.138856685254     -0.0125217073398    -0.0900803555671    
4000000000.0        -0.0131778073139    -0.0923247339118    0.985012223268      -0.142356978316     0.985012223268      -0.142356978316     -0.0131778073139    -0.0923247339118    
4100000000.0        -0.0138498537479    -0.0945639838104    0.984275601333      -0.145852488884     0.984275601333      -0.145852488884     -0.0138498537479    -0.0945639838104    
4200000000.0        -0.0145377967689    -0.0967979697413    0.983521479004      -0.149343086786     0.983521479004      -0.149343086786     -0.0145377967689    -0.0967979697413    
4300000000.0        -0.0152415850409    -0.0990265565508    0.982749905473      -0.152828642173     0.982749905473      -0.152828642173     -0.0152415850409    -0.0990265565508    
4400000000.0        -0.015961165768     -0.101249609483     0.981960931376      -0.156309025547     0.981960931376      -0.156309025547     -0.015961165768     -0.101249609483     
4500000000.0        -0.0166964846996    -0.103466994212     0.981154608783      -0.159784107794     0.981154608783      -0.159784107794     -0.0166964846996    -0.103466994212     
4600000000.0        -0.0174474861347    -0.105678576864     0.980330991195      -0.163253760215     0.980330991195      -0.163253760215     -0.0174474861347    -0.105678576864     
4700000000.0        -0.0182141129283    -0.107884224055     0.979490133536      -0.166717854556     0.979490133536      -0.166717854556     -0.0182141129283    -0.107884224055     
4800000000.0        -0.0189963064971    -0.110083802913     0.978632092145      -0.170176263035     0.978632092145      -0.170176263035     -0.0189963064971    -0.110083802913     
4900000000.0        -0.0197940068268    -0.112277181107     0.97775692477       -0.173628858374     0.97775692477       -0.173628858374     -0.0197940068268    -0.112277181107     
5000000000.0        -0.0206071524792    -0.114464226873     0.976864690561      -0.177075513828     0.976864690561      -0.177075513828     -0.0206071524792    -0.114464226873     
5100000000.0        -0.0214356806004    -0.116644809044     0.975955450058      -0.180516103207     0.975955450058      -0.180516103207     -0.0214356806004    -0.116644809044     
5200000000.0        -0.0222795269292    -0.118818797074     0.975029265184      -0.18395050091      0.975029265184      -0.18395050091      -0.0222795269292    -0.118818797074     
5300000000.0        -0.0231386258063    -0.120986061063     0.974086199238      -0.18737858195      0.974086199238      -0.18737858195      -0.0231386258063    -0.120986061063     
5400000000.0        -0.0240129101836    -0.123146471783     0.973126316877      -0.190800221979     0.973126316877      -0.190800221979     -0.0240129101836    -0.123146471783     
5500000000.0        -0.0249023116342    -0.125299900705     0.972149684116      -0.194215297312     0.972149684116      -0.194215297312     -0.0249023116342    -0.125299900705     
5600000000.0        -0.0258067603632    -0.127446220022     0.97115636831       -0.19762368496      0.97115636831       -0.19762368496      -0.0258067603632    -0.127446220022     
5700000000.0        -0.0267261852183    -0.129585302671     0.970146438144      -0.201025262645     0.970146438144      -0.201025262645     -0.0267261852183    -0.129585302671     
5800000000.0        -0.0276605137016    -0.13171702236      0.969119963624      -0.204419908833     0.969119963624      -0.204419908833     -0.0276605137016    -0.13171702236      
5900000000.0        -0.0286096719808    -0.13384125359      0.96807701606       -0.207807502752     0.96807701606       -0.207807502752     -0.0286096719808    -0.13384125359      
6000000000.0        -0.0295735849024    -0.135957871677     0.96701766806       -0.21118792442      0.96701766806       -0.21118792442      -0.0295735849024    -0.135957871677     
6100000000.0        -0.0305521760033    -0.138066752776     0.965941993511      -0.214561054666     0.965941993511      -0.214561054666     -0.0305521760033    -0.138066752776     
6200000000.0        -0.031545367525     -0.1401677739       0.964850067568      -0.217926775151     0.964850067568      -0.217926775151     -0.031545367525     -0.1401677739       
6300000000.0        -0.032553080426     -0.142260812945     0.963741966642      -0.221284968394     0.963741966642      -0.221284968394     -0.032553080426     -0.142260812945     
6400000000.0        -0.0335752343966    -0.14434574871      0.962617768384      -0.224635517791     0.962617768384      -0.224635517791     -0.0335752343966    -0.14434574871      
6500000000.0        -0.0346117478724    -0.146422460917     0.96147755167       -0.227978307636     0.96147755167       -0.227978307636     -0.0346117478724    -0.146422460917     
6600000000.0        -0.0356625380493    -0.148490830229     0.960321396588      -0.231313223145     0.960321396588      -0.231313223145     -0.0356625380493    -0.148490830229     
6700000000.0        -0.0367275208983    -0.150550738277     0.959149384423      -0.234640150472     0.959149384423      -0.234640150472     -0.0367275208983    -0.150550738277     
6800000000.0        -0.0378066111808    -0.15260206767      0.957961597639      -0.237958976733     0.957961597639      -0.237958976733     -0.0378066111808    -0.15260206767      
6900000000.0        -0.0388997224641    -0.154644702021     0.956758119867      -0.241269590023     0.956758119867      -0.241269590023     -0.0388997224641    -0.154644702021     
7000000000.0        -0.0400067671373    -0.156678525964     0.955539035886      -0.244571879435     0.955539035886      -0.244571879435     -0.0400067671373    -0.156678525964     
7100000000.0        -0.0411276564277    -0.158703425168     0.954304431606      -0.24786573508      0.954304431606      -0.24786573508      -0.0411276564277    -0.158703425168     
7200000000.0        -0.0422623004171    -0.160719286363     0.953054394057      -0.251151048106     0.953054394057      -0.251151048106     -0.0422623004171    -0.160719286363     
7300000000.0        -0.0434106080586    -0.162725997347     0.951789011365      -0.254427710711     0.951789011365      -0.254427710711     -0.0434106080586    -0.162725997347     
7400000000.0        -0.0445724871938    -0.164723447011     0.950508372739      -0.257695616165     0.950508372739      -0.257695616165     -0.0445724871938    -0.164723447011     
7500000000.0        -0.04574784457      -0.166711525353     0.949212568453      -0.260954658826     0.949212568453      -0.260954658826     -0.04574784457      -0.166711525353     
7600000000.0        -0.0469365858576    -0.16869012349      0.947901689827      -0.264204734154     0.947901689827      -0.264204734154     -0.0469365858576    -0.16869012349      
7700000000.0        -0.0481386156685    -0.17065913368      0.946575829211      -0.267445738731     0.946575829211      -0.267445738731     -0.0481386156685    -0.17065913368      
7800000000.0        -0.0493538375734    -0.172618449332     0.945235079965      -0.27067757027      0.945235079965      -0.27067757027      -0.0493538375734    -0.172618449332     
7900000000.0        -0.0505821541206    -0.174567965025     0.943879536443      -0.273900127637     0.943879536443      -0.273900127637     -0.0505821541206    -0.174567965025     
8000000000.0        -0.0518234668542    -0.176507576518     0.94250929397       -0.277113310862     0.94250929397       -0.277113310862     -0.0518234668542    -0.176507576518     
8100000000.0        -0.053077676333     -0.178437180764     0.94112444883       -0.280317021153     0.94112444883       -0.280317021153     -0.053077676333     -0.178437180764     
8200000000.0        -0.0543446821491    -0.18035667593      0.939725098239      -0.283511160911     0.939725098239      -0.283511160911     -0.0543446821491    -0.18035667593      
8300000000.0        -0.0556243829472    -0.182265961399     0.938311340335      -0.286695633741     0.938311340335      -0.286695633741     -0.0556243829472    -0.182265961399     
8400000000.0        -0.0569166764438    -0.184164937793     0.936883274149      -0.289870344468     0.936883274149      -0.289870344468     -0.0569166764438    -0.184164937793     
8500000000.0        -0.0582214594465    -0.186053506978     0.935440999593      -0.293035199147     0.935440999593      -0.293035199147     -0.0582214594465    -0.186053506978     
8600000000.0        -0.0595386278736    -0.187931572078     0.933984617438      -0.296190105076     0.933984617438      -0.296190105076     -0.0595386278736    -0.187931572078     
8700000000.0        -0.0608680767736    -0.189799037488     0.932514229291      -0.299334970807     0.932514229291      -0.299334970807     -0.0608680767736    -0.189799037488     
8800000000.0        -0.0622097003455    -0.191655808882     0.931029937581      -0.302469706156     0.931029937581      -0.302469706156     -0.0622097003455    -0.191655808882     
8900000000.0        -0.0635633919584    -0.193501793224     0.929531845535      -0.305594222216     0.929531845535      -0.305594222216     -0.0635633919584    -0.193501793224     
9000000000.0        -0.0649290441713    -0.195336898779     0.928020057159      -0.308708431365     0.928020057159      -0.308708431365     -0.0649290441713    -0.195336898779     
9100000000.0        -0.0663065487541    -0.197161035122     0.926494677216      -0.311812247277     0.926494677216      -0.311812247277     -0.0663065487541    -0.197161035122     
9200000000.0        -0.067695796707     -0.198974113146     0.92495581121       -0.314905584931     0.92495581121       -0.314905584931     -0.067695796707     -0.198974113146     
9300000000.0        -0.0690966782814    -0.200776045071     0.92340356536       -0.317988360618     0.92340356536       -0.317988360618     -0.0690966782814    -0.200776045071     
9400000000.0        -0.0705090830002    -0.202566744455     0.921838046583      -0.321060491954     0.921838046583      -0.321060491954     -0.0705090830002    -0.202566744455     
9500000000.0        -0.0719328996783    -0.204346126197     0.920259362475      -0.324121897882     0.920259362475      -0.324121897882     -0.0719328996783    -0.204346126197     
9600000000.0        -0.0733680164431    -0.20611410655      0.918667621285      -0.327172498686     0.918667621285      -0.327172498686     -0.0733680164431    -0.20611410655      
9700000000.0        -0.0748143207554    -0.20787060312      0.917062931897      -0.33021221599      0.917062931897      -0.33021221599      -0.0748143207554    -0.20787060312      
9800000000.0        -0.0762716994297    -0.209615534883     0.915445403814      -0.333240972775     0.915445403814      -0.333240972775     -0.0762716994297    -0.209615534883     
9900000000.0        -0.0777400386552    -0.211348822181     0.913815147127      -0.336258693375     0.913815147127      -0.336258693375     -0.0777400386552    -0.211348822181     
10000000000.0       -0.0792192240163    -0.213070386735     0.912172272504      -0.339265303491     0.912172272504      -0.339265303491     -0.0792192240163    -0.213070386735     
