# Hz S RI R 50.00 
100000000.0         0.00202000364062    0.000945336375666   0.997974516377      -0.00314210045628   0.997974516377      -0.00314210045628   0.00202000364062    0.000945336375666   
200000000.0         0.00204138392225    0.00189052523118    0.997943826762      -0.00628408762795   0.997943826762      -0.00628408762795   0.00204138392225    0.00189052523118    
300000000.0         0.00206517284337    0.00283557001497    0.997905898597      -0.00942598403444   0.997905898597      -0.00942598403444   0.00206517284337    0.00283557001497    
400000000.0         0.00209311783958    0.00378044600382    0.997858983722      -0.0125677780764    0.997858983722      -0.0125677780764    0.00209311783958    0.00378044600382    
500000000.0         0.00212589086786    0.00472512215899    0.997802409309      -0.015709448802     0.997802409309      -0.015709448802     0.00212589086786    0.00472512215899    
600000000.0         0.00216383377289    0.00566956476477    0.997735832518      -0.0188509705731    0.997735832518      -0.0188509705731    0.00216383377289    0.00566956476477    
700000000.0         0.00220714769964    0.00661373871798    0.997659051092      -0.0219923148812    0.997659051092      -0.0219923148812    0.00220714769964    0.00661373871798    
800000000.0         0.00225596219838    0.00755760811752    0.997571934267      -0.0251334512541    0.997571934267      -0.0251334512541    0.00225596219838    0.00755760811752    
900000000.0         0.00231036598278    0.00850113657605    0.997474392016      -0.0282743477775    0.997474392016      -0.0282743477775    0.00231036598278    0.00850113657605    
1000000000.0        0.00237042251483    0.0094442874014     0.997366359473      -0.0314149714252    0.997366359473      -0.0314149714252    0.00237042251483    0.00944428740139    
1100000000.0        0.00243617866521    0.0103870237097     0.99724778828       -0.0345552882822    0.99724778828       -0.0345552882822    0.00243617866521    0.0103870237097     
1200000000.0        0.00250766987187    0.0113293084994     0.997118641432      -0.0376952637038    0.997118641432      -0.0376952637038    0.00250766987187    0.0113293084994     
1300000000.0        0.00258492338441    0.0122711047026     0.996978890038      -0.0408348624331    0.996978890038      -0.0408348624331    0.00258492338441    0.0122711047026     
1400000000.0        0.00266796039593    0.0132123752203     0.996828511191      -0.0439740486917    0.996828511191      -0.0439740486917    0.00266796039593    0.0132123752203     
1500000000.0        0.00275679749525    0.0141530829484     0.996667486524      -0.0471127862498    0.996667486524      -0.0471127862498    0.00275679749525    0.0141530829484     
1600000000.0        0.00285144768656    0.0150931907977     0.996495801188      -0.0502510384837    0.996495801188      -0.0502510384837    0.00285144768656    0.0150931907977     
1700000000.0        0.00295192112413    0.0160326617079     0.996313443126      -0.0533887684221    0.996313443126      -0.0533887684221    0.00295192112413    0.0160326617079     
1800000000.0        0.00305822565353    0.0169714586588     0.99612040253       -0.0565259387848    0.99612040253       -0.0565259387848    0.00305822565353    0.0169714586588     
1900000000.0        0.00317036721812    0.0179095446798     0.995916671439      -0.0596625120157    0.995916671439      -0.0596625120157    0.00317036721812    0.0179095446798     
2000000000.0        0.00328835016971    0.018846882856      0.995702243433      -0.0627984503104    0.995702243433      -0.0627984503104    0.00328835016971    0.018846882856      
2100000000.0        0.00341217750951    0.0197834363345     0.99547711339       -0.0659337156408    0.99547711339       -0.0659337156408    0.00341217750951    0.0197834363345     
2200000000.0        0.00354185107756    0.0207191683285     0.995241277303      -0.0690682697755    0.995241277303      -0.0690682697755    0.00354185107756    0.0207191683285     
2300000000.0        0.0036773717036     0.0216540421215     0.994994732128      -0.0722020742992    0.994994732128      -0.0722020742992    0.0036773717036     0.0216540421215     
2400000000.0        0.00381873932845    0.0225880210699     0.994737475667      -0.0753350906286    0.994737475667      -0.0753350906286    0.00381873932845    0.0225880210699     
2500000000.0        0.00396595310269    0.0235210686061     0.994469506469      -0.0784672800271    0.994469506469      -0.0784672800271    0.00396595310269    0.0235210686061     
2600000000.0        0.00411901146764    0.0244531482404     0.994190823752      -0.0815986036186    0.994190823752      -0.0815986036186    0.00411901146764    0.0244531482404     
2700000000.0        0.00427791222243    0.0253842235631     0.993901427338      -0.0847290223989    0.993901427338      -0.0847290223989    0.00427791222243    0.0253842235631     
2800000000.0        0.00444265257986    0.0263142582463     0.993601317597      -0.0878584972468    0.993601317597      -0.0878584972468    0.00444265257986    0.0263142582463     
2900000000.0        0.00461322921342    0.027243216045      0.993290495403      -0.0909869889344    0.993290495403      -0.0909869889344    0.00461322921342    0.027243216045      
3000000000.0        0.00478963829699    0.0281710607989     0.992968962095      -0.0941144581359    0.992968962095      -0.0941144581359    0.00478963829699    0.0281710607989     
3100000000.0        0.00497187553874    0.0290977564331     0.992636719445      -0.0972408654362    0.992636719445      -0.0972408654362    0.00497187553874    0.0290977564331     
3200000000.0        0.00515993621007    0.0300232669596     0.99229376963       -0.100366171339     0.99229376963       -0.100366171339     0.00515993621007    0.0300232669596     
3300000000.0        0.00535381517063    0.0309475564782     0.991940115208      -0.103490336273     0.991940115208      -0.103490336273     0.00535381517063    0.0309475564782     
3400000000.0        0.00555350688992    0.0318705891771     0.991575759099      -0.106613320602     0.991575759099      -0.106613320602     0.00555350688992    0.0318705891771     
3500000000.0        0.00575900546614    0.0327923293344     0.991200704564      -0.109735084626     0.991200704564      -0.109735084626     0.00575900546614    0.0327923293344     
3600000000.0        0.00597030464268    0.0337127413183     0.990814955193      -0.112855588593     0.990814955193      -0.112855588593     0.00597030464268    0.0337127413183     
3700000000.0        0.00618739782257    0.0346317895882     0.99041851489       -0.115974792699     0.99041851489       -0.115974792699     0.00618739782257    0.0346317895882     
3800000000.0        0.00641027808134    0.0355494386957     0.990011387862      -0.119092657099     0.990011387862      -0.119092657099     0.00641027808134    0.0355494386957     
3900000000.0        0.00663893817827    0.0364656532849     0.989593578607      -0.122209141907     0.989593578607      -0.122209141907     0.00663893817827    0.0364656532849     
4000000000.0        0.00687337056658    0.0373803980933     0.989165091908      -0.125324207205     0.989165091908      -0.125324207205     0.00687337056658    0.0373803980933     
4100000000.0        0.00711356740242    0.0382936379526     0.988725932821      -0.128437813044     0.988725932821      -0.128437813044     0.00711356740242    0.0382936379526     
4200000000.0        0.00735952055298    0.0392053377893     0.98827610667       -0.131549919452     0.98827610667       -0.131549919452     0.00735952055298    0.0392053377893     
4300000000.0        0.00761122160382    0.0401154626256     0.98781561904       -0.134660486435     0.98781561904       -0.134660486435     0.00761122160382    0.0401154626256     
4400000000.0        0.00786866186548    0.0410239775796     0.987344475771      -0.137769473982     0.987344475771      -0.137769473982     0.00786866186548    0.0410239775796     
4500000000.0        0.00813183237946    0.0419308478667     0.986862682954      -0.140876842071     0.986862682954      -0.140876842071     0.00813183237946    0.0419308478667     
4600000000.0        0.00840072392371    0.0428360387997     0.986370246925      -0.143982550668     0.986370246925      -0.143982550668     0.00840072392371    0.0428360387997     
4700000000.0        0.00867532701766    0.0437395157896     0.98586717426       -0.147086559735     0.98586717426       -0.147086559735     0.00867532701766    0.0437395157896     
4800000000.0        0.00895563192675    0.0446412443466     0.985353471774      -0.150188829232     0.985353471774      -0.150188829232     0.00895563192675    0.0446412443466     
4900000000.0        0.00924162866671    0.0455411900804     0.984829146514      -0.15328931912      0.984829146514      -0.15328931912      0.00924162866671    0.0455411900804     
5000000000.0        0.00953330700744    0.046439318701      0.984294205757      -0.156387989363     0.984294205757      -0.156387989363     0.00953330700744    0.046439318701      
5100000000.0        0.00983065647663    0.0473355960197     0.983748657009      -0.159484799934     0.983748657009      -0.159484799934     0.00983065647663    0.0473355960197     
5200000000.0        0.0101336663631     0.0482299879493     0.983192508         -0.162579710814     0.983192508         -0.162579710814     0.0101336663631     0.0482299879493     
5300000000.0        0.0104423257201     0.049122460505      0.982625766681      -0.165672682        0.982625766681      -0.165672682        0.0104423257201     0.049122460505      
5400000000.0        0.010756623368      0.0500129798053     0.982048441223      -0.168763673502     0.982048441223      -0.168763673502     0.010756623368      0.0500129798053     
5500000000.0        0.0110765478971     0.0509015120724     0.981460540016      -0.171852645351     0.981460540016      -0.171852645351     0.0110765478971     0.0509015120724     
5600000000.0        0.0114020876704     0.051788023633      0.980862071663      -0.174939557598     0.980862071663      -0.174939557598     0.0114020876704     0.051788023633      
5700000000.0        0.0117332308259     0.0526724809192     0.980253044982      -0.178024370317     0.980253044982      -0.178024370317     0.0117332308259     0.0526724809192     
5800000000.0        0.012069965279      0.053554850469      0.979633469003      -0.181107043612     0.979633469003      -0.181107043612     0.012069965279      0.053554850469      
5900000000.0        0.0124122787245     0.0544350989269     0.979003352965      -0.184187537611     0.979003352965      -0.184187537611     0.0124122787245     0.0544350989269     
6000000000.0        0.0127601586389     0.0553131930449     0.978362706315      -0.187265812475     0.978362706315      -0.187265812475     0.0127601586389     0.0553131930449     
6100000000.0        0.0131135922825     0.0561890996833     0.977711538708      -0.1903418284       0.977711538708      -0.1903418284       0.0131135922825     0.0561890996833     
6200000000.0        0.0134725667008     0.0570627858108     0.977049860002      -0.193415545616     0.977049860002      -0.193415545616     0.0134725667008     0.0570627858108     
6300000000.0        0.013837068727      0.0579342185061     0.976377680263      -0.196486924391     0.976377680263      -0.196486924391     0.013837068727      0.0579342185061     
6400000000.0        0.0142070849833     0.058803364958      0.975695009755      -0.199555925034     0.975695009755      -0.199555925034     0.0142070849833     0.058803364958      
6500000000.0        0.0145826018827     0.0596701924661     0.975001858947      -0.202622507893     0.975001858947      -0.202622507893     0.0145826018827     0.0596701924661     
6600000000.0        0.0149636056306     0.0605346684422     0.974298238505      -0.205686633365     0.974298238505      -0.205686633365     0.0149636056306     0.0605346684422     
6700000000.0        0.0153500822266     0.0613967604102     0.973584159297      -0.208748261889     0.973584159297      -0.208748261889     0.0153500822266     0.0613967604102     
6800000000.0        0.0157420174658     0.0622564360074     0.972859632385      -0.211807353955     0.972859632385      -0.211807353955     0.0157420174658     0.0622564360074     
6900000000.0        0.0161393969402     0.0631136629852     0.972124669031      -0.2148638701       0.972124669031      -0.2148638701       0.0161393969402     0.0631136629852     
7000000000.0        0.0165422060407     0.0639684092093     0.971379280691      -0.217917770916     0.971379280691      -0.217917770916     0.0165422060407     0.0639684092093     
7100000000.0        0.0169504299576     0.0648206426613     0.970623479015      -0.220969017048     0.970623479015      -0.220969017048     0.0169504299576     0.0648206426613     
7200000000.0        0.017364053683      0.0656703314388     0.969857275846      -0.224017569195     0.969857275846      -0.224017569195     0.017364053683      0.0656703314388     
7300000000.0        0.0177830620112     0.0665174437562     0.969080683222      -0.227063388115     0.969080683222      -0.227063388115     0.0177830620112     0.0665174437562     
7400000000.0        0.0182074395407     0.0673619479458     0.968293713369      -0.230106434625     0.968293713369      -0.230106434625     0.0182074395407     0.0673619479458     
7500000000.0        0.0186371706752     0.0682038124583     0.967496378706      -0.233146669603     0.967496378706      -0.233146669603     0.0186371706752     0.0682038124583     
7600000000.0        0.0190722396249     0.0690430058634     0.966688691839      -0.236184053988     0.966688691839      -0.236184053988     0.0190722396249     0.0690430058634     
7700000000.0        0.0195126304078     0.069879496851      0.965870665564      -0.239218548784     0.965870665564      -0.239218548784     0.0195126304078     0.069879496851      
7800000000.0        0.0199583268507     0.0707132542314     0.965042312865      -0.242250115063     0.965042312865      -0.242250115063     0.0199583268507     0.0707132542314     
7900000000.0        0.0204093125908     0.0715442469364     0.964203646911      -0.245278713961     0.964203646911      -0.245278713961     0.0204093125908     0.0715442469364     
8000000000.0        0.0208655710766     0.0723724440201     0.963354681058      -0.248304306685     0.963354681058      -0.248304306685     0.0208655710766     0.0723724440201     
8100000000.0        0.0213270855691     0.0731978146592     0.962495428846      -0.251326854513     0.962495428846      -0.251326854513     0.0213270855691     0.0731978146592     
8200000000.0        0.021793839143      0.0740203281544     0.961625903998      -0.254346318793     0.961625903998      -0.254346318793     0.021793839143      0.0740203281544     
8300000000.0        0.0222658146881     0.0748399539304     0.960746120422      -0.257362660949     0.960746120422      -0.257362660949     0.0222658146881     0.0748399539304     
8400000000.0        0.0227429949099     0.0756566615374     0.959856092207      -0.260375842478     0.959856092207      -0.260375842478     0.0227429949099     0.0756566615374     
8500000000.0        0.0232253623312     0.0764704206512     0.958955833622      -0.263385824954     0.958955833622      -0.263385824954     0.0232253623312     0.0764704206512     
8600000000.0        0.0237128992929     0.0772812010743     0.958045359118      -0.266392570029     0.958045359118      -0.266392570029     0.0237128992929     0.0772812010743     
8700000000.0        0.0242055879553     0.0780889727366     0.957124683324      -0.269396039437     0.957124683324      -0.269396039437     0.0242055879553     0.0780889727366     
8800000000.0        0.0247034102992     0.0788937056959     0.95619382105       -0.272396194987     0.95619382105       -0.272396194987     0.0247034102992     0.0788937056959     
8900000000.0        0.0252063481269     0.079695370139      0.95525278728       -0.275392998575     0.95525278728       -0.275392998575     0.0252063481269     0.079695370139      
9000000000.0        0.0257143830634     0.0804939363821     0.954301597178      -0.278386412179     0.954301597178      -0.278386412179     0.0257143830634     0.0804939363821     
9100000000.0        0.0262274965571     0.0812893748717     0.953340266081      -0.281376397861     0.953340266081      -0.281376397861     0.0262274965571     0.0812893748717     
9200000000.0        0.0267456698815     0.0820816561853     0.952368809504      -0.284362917769     0.952368809504      -0.284362917769     0.0267456698815     0.0820816561853     
9300000000.0        0.0272688841358     0.0828707510323     0.951387243134      -0.28734593414      0.951387243134      -0.28734593414      0.0272688841358     0.0828707510323     
9400000000.0        0.027797120246      0.0836566302541     0.950395582831      -0.290325409297     0.950395582831      -0.290325409297     0.027797120246      0.0836566302541     
9500000000.0        0.0283303589662     0.0844392648256     0.949393844629      -0.293301305655     0.949393844629      -0.293301305655     0.0283303589662     0.0844392648256     
9600000000.0        0.0288685808794     0.0852186258555     0.948382044733      -0.296273585719     0.948382044733      -0.296273585719     0.0288685808794     0.0852186258555     
9700000000.0        0.0294117663986     0.0859946845871     0.947360199518      -0.299242212086     0.947360199518      -0.299242212086     0.0294117663986     0.0859946845871     
9800000000.0        0.0299598957681     0.0867674123989     0.94632832553       -0.302207147449     0.94632832553       -0.302207147449     0.0299598957681     0.0867674123989     
9900000000.0        0.0305129490641     0.0875367808054     0.945286439482      -0.305168354591     0.945286439482      -0.305168354591     0.0305129490641     0.0875367808054     
10000000000.0       0.0310709061961     0.0883027614579     0.944234558256      -0.308125796395     0.944234558256      -0.308125796395     0.0310709061961     0.0883027614579     
