# Hz S RI R 50.00 
100000000.0         7.18479671582e-05   -0.0013598004441    0.999918807017      -0.00186880379243   0.999918807017      -0.00186880379243   7.18479671582e-05   -0.0013598004441    
200000000.0         6.31741989361e-05   -0.00271966530661   0.999908710141      -0.00373769405692   0.999908710141      -0.00373769405692   6.31741989361e-05   -0.00271966530661   
300000000.0         4.92828319503e-05   -0.00407961968025   0.999893402489      -0.00560670828588   0.999893402489      -0.00560670828588   4.928283195e-05     -0.00407961968025   
400000000.0         3.02381512824e-05   -0.00543967662218   0.999872816278      -0.00747586900168   0.999872816278      -0.00747586900168   3.02381512824e-05   -0.00543967662218   
500000000.0         6.06351651578e-06   -0.00679984289464   0.999846924104      -0.00934519103835   0.999846924104      -0.00934519103835   6.06351651555e-06   -0.00679984289464   
600000000.0         -2.32303685247e-05  -0.00816012102018   0.999815710807      -0.0112146840992    0.999815710807      -0.0112146840992    -2.32303685244e-05  -0.00816012102018   
700000000.0         -5.76382498081e-05  -0.00952051034385   0.999779166356      -0.0130843540694    0.999779166356      -0.0130843540694    -5.76382498082e-05  -0.00952051034385   
800000000.0         -9.71576774971e-05  -0.0108810076775    0.999737283277      -0.0149542038084    0.999737283277      -0.0149542038084    -9.71576774971e-05  -0.0108810076775    
900000000.0         -0.000141787816015  -0.0122416077305    0.999690055525      -0.016824233677     0.999690055525      -0.016824233677     -0.000141787816016  -0.0122416077305    
1000000000.0        -0.000191528831631  -0.0136023034156    0.999637477923      -0.0186944419114    0.999637477923      -0.0186944419114    -0.000191528831631  -0.0136023034156    
1100000000.0        -0.000246381544692  -0.0149630860799    0.999579545855      -0.0205648249024    0.999579545855      -0.0205648249024    -0.000246381544693  -0.0149630860799    
1200000000.0        -0.000306347216461  -0.0163239456825    0.999516255096      -0.0224353774118    0.999516255096      -0.0224353774118    -0.000306347216461  -0.0163239456825    
1300000000.0        -0.000371427410131  -0.017684870937     0.999447601702      -0.0243060927444    0.999447601702      -0.0243060927444    -0.000371427410132  -0.017684870937     
1400000000.0        -0.000441623895417  -0.0190458494291    0.999373581952      -0.0261769628884    0.999373581952      -0.0261769628884    -0.000441623895417  -0.0190458494291    
1500000000.0        -0.000516938580095  -0.0204068677138    0.999294192304      -0.0280479786328    0.999294192304      -0.0280479786328    -0.000516938580095  -0.0204068677138    
1600000000.0        -0.000597373458995  -0.0217679113983    0.999209429371      -0.0299191296659    0.999209429371      -0.0299191296659    -0.000597373458995  -0.0217679113983    
1700000000.0        -0.000682930574716  -0.0231289652136    0.999119289905      -0.0317904046609    0.999119289905      -0.0317904046609    -0.000682930574716  -0.0231289652136    
1800000000.0        -0.00077361198651   -0.0244900130771    0.999023770788      -0.0336617913498    0.999023770788      -0.0336617913498    -0.00077361198651   -0.0244900130771    
1900000000.0        -0.00086941974497   -0.0258510381473    0.998922869031      -0.0355332765881    0.998922869031      -0.0355332765881    -0.000869419744969  -0.0258510381473    
2000000000.0        -0.000970355871039  -0.0272120228727    0.998816581764      -0.0374048464127    0.998816581764      -0.0374048464127    -0.000970355871039  -0.0272120228727    
2100000000.0        -0.00107642233825   -0.0285729490361    0.998704906244      -0.0392764860937    0.998704906244      -0.0392764860937    -0.00107642233825   -0.0285729490361    
2200000000.0        -0.00118762105743   -0.029933797794     0.998587839852      -0.0411481801804    0.998587839852      -0.0411481801804    -0.00118762105743   -0.029933797794     
2300000000.0        -0.00130395386343   -0.031294549713     0.998465380097      -0.043019912544     0.998465380097      -0.043019912544     -0.00130395386343   -0.031294549713     
2400000000.0        -0.00142542250332   -0.0326551848028    0.998337524617      -0.0448916664159    0.998337524617      -0.0448916664159    -0.00142542250332   -0.0326551848028    
2500000000.0        -0.00155202862597   -0.0340156825467    0.998204271187      -0.0467634244231    0.998204271187      -0.0467634244231    -0.00155202862597   -0.0340156825467    
2600000000.0        -0.00168377377266   -0.0353760219298    0.998065617715      -0.0486351686209    0.998065617715      -0.0486351686209    -0.00168377377266   -0.0353760219298    
2700000000.0        -0.00182065936852   -0.0367361814651    0.997921562253      -0.0505068805227    0.997921562253      -0.0505068805227    -0.00182065936852   -0.0367361814651    
2800000000.0        -0.00196268671484   -0.0380961392182    0.997772102998      -0.0523785411288    0.997772102998      -0.0523785411288    -0.00196268671484   -0.0380961392182    
2900000000.0        -0.00210985698191   -0.0394558728296    0.997617238292      -0.0542501309518    0.997617238292      -0.0542501309518    -0.00210985698191   -0.0394558728296    
3000000000.0        -0.00226217120254   -0.0408153595366    0.997456966635      -0.0561216300417    0.997456966635      -0.0561216300417    -0.00226217120254   -0.0408153595366    
3100000000.0        -0.00241963026604   -0.0421745761934    0.997291286677      -0.0579930180087    0.997291286677      -0.0579930180087    -0.00241963026604   -0.0421745761934    
3200000000.0        -0.00258223491262   -0.0435334992899    0.997120197233      -0.0598642740448    0.997120197233      -0.0598642740448    -0.00258223491262   -0.0435334992899    
3300000000.0        -0.00274998572823   -0.0448921049701    0.996943697277      -0.0617353769447    0.996943697277      -0.0617353769447    -0.00274998572823   -0.0448921049701    
3400000000.0        -0.00292288313974   -0.0462503690487    0.996761785953      -0.0636063051247    0.996761785953      -0.0636063051247    -0.00292288313974   -0.0462503690487    
3500000000.0        -0.0031009274105    -0.047608267028     0.996574462571      -0.0654770366412    0.996574462571      -0.0654770366412    -0.0031009274105    -0.047608267028     
3600000000.0        -0.0032841186361    -0.0489657741127    0.996381726616      -0.0673475492085    0.996381726616      -0.0673475492085    -0.0032841186361    -0.0489657741127    
3700000000.0        -0.00347245674051   -0.0503228652251    0.996183577749      -0.069217820215     0.996183577749      -0.069217820215     -0.00347245674051   -0.0503228652251    
3800000000.0        -0.00366594147241   -0.0516795150189    0.995980015809      -0.0710878267392    0.995980015809      -0.0710878267392    -0.00366594147241   -0.0516795150189    
3900000000.0        -0.00386457240183   -0.0530356978931    0.995771040815      -0.0729575455649    0.995771040815      -0.0729575455649    -0.00386457240183   -0.0530356978931    
4000000000.0        -0.00406834891688   -0.0543913880044    0.995556652973      -0.0748269531957    0.995556652973      -0.0748269531957    -0.00406834891688   -0.0543913880044    
4100000000.0        -0.00427727022087   -0.05574655928      0.995336852673      -0.0766960258687    0.995336852673      -0.0766960258687    -0.00427727022087   -0.05574655928      
4200000000.0        -0.00449133532946   -0.0571011854292    0.995111640493      -0.078564739568     0.995111640493      -0.078564739568     -0.00449133532946   -0.0571011854292    
4300000000.0        -0.00471054306809   -0.0584552399553    0.994881017204      -0.0804330700374    0.994881017204      -0.0804330700374    -0.00471054306809   -0.0584552399553    
4400000000.0        -0.00493489206955   -0.0598086961661    0.994644983768      -0.0823009927924    0.994644983768      -0.0823009927924    -0.00493489206955   -0.0598086961661    
4500000000.0        -0.00516438077171   -0.0611615271847    0.994403541342      -0.0841684831326    0.994403541342      -0.0841684831326    -0.00516438077171   -0.0611615271847    
4600000000.0        -0.00539900741545   -0.06251370596      0.994156691282      -0.0860355161525    0.994156691282      -0.0860355161525    -0.00539900741545   -0.06251370596      
4700000000.0        -0.00563877004265   -0.0638652052764    0.993904435139      -0.0879020667527    0.993904435139      -0.0879020667527    -0.00563877004265   -0.0638652052764    
4800000000.0        -0.00588366649441   -0.065215997763     0.993646774665      -0.0897681096504    0.993646774665      -0.0897681096504    -0.00588366649441   -0.065215997763     
4900000000.0        -0.00613369440936   -0.0665660559035    0.993383711814      -0.0916336193898    0.993383711814      -0.0916336193898    -0.00613369440936   -0.0665660559035    
5000000000.0        -0.00638885122211   -0.0679153520447    0.993115248743      -0.0934985703516    0.993115248743      -0.0934985703516    -0.00638885122211   -0.0679153520447    
5100000000.0        -0.00664913416181   -0.0692638584052    0.992841387811      -0.0953629367628    0.992841387811      -0.0953629367628    -0.00664913416181   -0.0692638584052    
5200000000.0        -0.0069145402508    -0.0706115470839    0.992562131583      -0.097226692706     0.992562131583      -0.097226692706     -0.0069145402508    -0.0706115470839    
5300000000.0        -0.00718506630349   -0.0719583900678    0.992277482833      -0.0990898121279    0.992277482833      -0.0990898121279    -0.00718506630349   -0.0719583900678    
5400000000.0        -0.00746070892518   -0.0733043592405    0.991987444538      -0.100952268848     0.991987444538      -0.100952268848     -0.00746070892518   -0.0733043592405    
5500000000.0        -0.00774146451112   -0.074649426389     0.991692019886      -0.102814036569     0.991692019886      -0.102814036569     -0.00774146451112   -0.074649426389     
5600000000.0        -0.00802732924558   -0.075993563212     0.991391212272      -0.10467508888      0.991391212272      -0.10467508888      -0.00802732924558   -0.075993563212     
5700000000.0        -0.00831829910107   -0.0773367413262    0.991085025301      -0.10653539927      0.991085025301      -0.10653539927      -0.00831829910107   -0.0773367413262    
5800000000.0        -0.00861436983764   -0.078678932274     0.990773462791      -0.108394941131     0.990773462791      -0.108394941131     -0.00861436983764   -0.078678932274     
5900000000.0        -0.00891553700223   -0.0800201075301    0.990456528766      -0.110253687771     0.990456528766      -0.110253687771     -0.00891553700223   -0.0800201075301    
6000000000.0        -0.00922179592817   -0.081360238508     0.990134227466      -0.112111612413     0.990134227466      -0.112111612413     -0.00922179592817   -0.081360238508     
6100000000.0        -0.00953314173469   -0.0826992965662    0.989806563338      -0.11396868821      0.989806563338      -0.11396868821      -0.00953314173469   -0.0826992965662    
6200000000.0        -0.00984956932659   -0.0840372530153    0.989473541046      -0.115824888247     0.989473541046      -0.115824888247     -0.00984956932659   -0.0840372530153    
6300000000.0        -0.0101710733939    -0.085374079123     0.989135165462      -0.11768018555      0.989135165462      -0.11768018555      -0.0101710733939    -0.085374079123     
6400000000.0        -0.0104976484116    -0.0867097461208    0.988791441672      -0.119534553092     0.988791441672      -0.119534553092     -0.0104976484116    -0.0867097461208    
6500000000.0        -0.0108292886397    -0.0880442252097    0.988442374975      -0.121387963796     0.988442374975      -0.121387963796     -0.0108292886397    -0.0880442252097    
6600000000.0        -0.0111659881229    -0.0893774875653    0.988087970883      -0.123240390547     0.988087970883      -0.123240390547     -0.0111659881229    -0.0893774875653    
6700000000.0        -0.0115077406905    -0.090709504344     0.987728235119      -0.125091806194     0.987728235119      -0.125091806194     -0.0115077406905    -0.090709504344     
6800000000.0        -0.011854539957     -0.0920402466877    0.987363173619      -0.126942183556     0.987363173619      -0.126942183556     -0.011854539957     -0.0920402466877    
6900000000.0        -0.0122063793213    -0.0933696857296    0.986992792531      -0.128791495429     0.986992792531      -0.128791495429     -0.0122063793213    -0.0933696857296    
7000000000.0        -0.0125632519678    -0.0946977925988    0.986617098218      -0.13063971459      0.986617098218      -0.13063971459      -0.0125632519678    -0.0946977925988    
7100000000.0        -0.012925150866     -0.0960245384256    0.986236097251      -0.132486813803     0.986236097251      -0.132486813803     -0.012925150866     -0.0960245384256    
7200000000.0        -0.0132920687709    -0.0973498943461    0.985849796415      -0.134332765827     0.985849796415      -0.134332765827     -0.0132920687709    -0.0973498943461    
7300000000.0        -0.0136639982237    -0.0986738315071    0.985458202706      -0.136177543415     0.985458202706      -0.136177543415     -0.0136639982237    -0.0986738315071    
7400000000.0        -0.0140409315515    -0.0999963210706    0.98506132333       -0.138021119324     0.98506132333       -0.138021119324     -0.0140409315515    -0.0999963210706    
7500000000.0        -0.0144228608685    -0.101317334218     0.984659165704      -0.139863466318     0.984659165704      -0.139863466318     -0.0144228608685    -0.101317334218     
7600000000.0        -0.0148097780758    -0.102636842156     0.984251737456      -0.141704557174     0.984251737456      -0.141704557174     -0.0148097780758    -0.102636842156     
7700000000.0        -0.0152016748625    -0.103954816119     0.98383904642       -0.143544364683     0.98383904642       -0.143544364683     -0.0152016748625    -0.103954816119     
7800000000.0        -0.0155985427058    -0.105271227372     0.983421100644      -0.14538286166      0.983421100644      -0.14538286166      -0.0155985427058    -0.105271227372     
7900000000.0        -0.016000372872     -0.106586047221     0.98299790838       -0.147220020944     0.98299790838       -0.147220020944     -0.016000372872     -0.106586047221     
8000000000.0        -0.0164071564171    -0.10789924701      0.982569478088      -0.149055815403     0.982569478088      -0.149055815403     -0.0164071564171    -0.10789924701      
8100000000.0        -0.0168188841871    -0.109210798127     0.982135818437      -0.150890217941     0.982135818437      -0.150890217941     -0.0168188841871    -0.109210798127     
8200000000.0        -0.0172355468194    -0.11052067201      0.9816969383        -0.152723201499     0.9816969383        -0.152723201499     -0.0172355468194    -0.11052067201      
8300000000.0        -0.0176571347431    -0.111828840149     0.981252846756      -0.154554739059     0.981252846756      -0.154554739059     -0.0176571347431    -0.111828840149     
8400000000.0        -0.0180836381801    -0.113135274089     0.980803553088      -0.156384803651     0.980803553088      -0.156384803651     -0.0180836381801    -0.113135274089     
8500000000.0        -0.0185150471457    -0.114439945436     0.980349066783      -0.158213368353     0.980349066783      -0.158213368353     -0.0185150471456    -0.114439945436     
8600000000.0        -0.0189513514497    -0.115742825858     0.979889397531      -0.160040406297     0.979889397531      -0.160040406297     -0.0189513514497    -0.115742825858     
8700000000.0        -0.0193925406974    -0.117043887088     0.979424555222      -0.161865890672     0.979424555222      -0.161865890672     -0.0193925406974    -0.117043887088     
8800000000.0        -0.0198386042903    -0.11834310093      0.978954549948      -0.163689794728     0.978954549948      -0.163689794728     -0.0198386042903    -0.11834310093      
8900000000.0        -0.0202895314275    -0.119640439263     0.978479392002      -0.16551209178      0.978479392002      -0.16551209178      -0.0202895314275    -0.119640439263     
9000000000.0        -0.0207453111063    -0.120935874038     0.977999091872      -0.167332755208     0.977999091872      -0.167332755208     -0.0207453111063    -0.120935874038     
9100000000.0        -0.0212059321235    -0.122229377288     0.977513660246      -0.169151758465     0.977513660246      -0.169151758465     -0.0212059321235    -0.122229377288     
9200000000.0        -0.0216713830764    -0.123520921128     0.977023108009      -0.170969075078     0.977023108009      -0.170969075078     -0.0216713830764    -0.123520921128     
9300000000.0        -0.0221416523641    -0.124810477758     0.976527446241      -0.172784678649     0.976527446241      -0.172784678649     -0.0221416523641    -0.124810477758     
9400000000.0        -0.0226167281885    -0.126098019466     0.976026686215      -0.174598542863     0.976026686215      -0.174598542863     -0.0226167281885    -0.126098019466     
9500000000.0        -0.0230965985555    -0.127383518631     0.975520839399      -0.176410641487     0.975520839399      -0.176410641487     -0.0230965985555    -0.127383518631     
9600000000.0        -0.0235812512763    -0.128666947727     0.97500991745       -0.178220948375     0.97500991745       -0.178220948375     -0.0235812512763    -0.128666947727     
9700000000.0        -0.0240706739683    -0.129948279323     0.974493932218      -0.18002943747      0.974493932218      -0.18002943747      -0.0240706739683    -0.129948279323     
9800000000.0        -0.024564854057     -0.13122748609      0.973972895741      -0.181836082807     0.973972895741      -0.181836082807     -0.024564854057     -0.13122748609      
9900000000.0        -0.0250637787765    -0.132504540798     0.973446820247      -0.183640858515     0.973446820247      -0.183640858515     -0.0250637787765    -0.132504540798     
10000000000.0       -0.0255674351714    -0.133779416322     0.972915718149      -0.185443738822     0.972915718149      -0.185443738822     -0.0255674351714    -0.133779416322     
