# Hz S RI R 50.00 
100000000.0         0.160557943402      0.00310703292286    0.839438098286      -0.00474567671754   0.839438098286      -0.00474567671754   0.160557943402      0.00310703292286    
200000000.0         0.1614927622        0.00619689721636    0.838497462524      -0.00947419286728   0.838497462524      -0.00947419286728   0.1614927622        0.00619689721636    
300000000.0         0.162219276141      0.00927603193172    0.837762270814      -0.0141919980379    0.837762270814      -0.0141919980379    0.162219276141      0.00927603193172    
400000000.0         0.162855923204      0.0123463822047     0.837114083587      -0.0189010472152    0.837114083587      -0.0189010472152    0.162855923204      0.0123463822047     
500000000.0         0.163448411806      0.0154088476736     0.83650719104       -0.0236022495432    0.83650719104       -0.0236022495432    0.163448411806      0.0154088476736     
600000000.0         0.164020082603      0.0184638653332     0.835918251231      -0.0282960512986    0.835918251231      -0.0282960512986    0.164020082603      0.0184638653332     
700000000.0         0.164584728079      0.021511618985      0.835333470427      -0.0329826454022    0.835333470427      -0.0329826454022    0.164584728079      0.021511618985      
800000000.0         0.16515127679       0.0245521364486     0.834743918829      -0.0376620686671    0.834743918829      -0.0376620686671    0.16515127679       0.0245521364486     
900000000.0         0.165725881311      0.0275853418269     0.834143442603      -0.0423342540883    0.834143442603      -0.0423342540883    0.165725881311      0.0275853418269     
1000000000.0        0.166312977665      0.0306110864981     0.833527604438      -0.0469990618513    0.833527604438      -0.0469990618513    0.166312977665      0.0306110864981     
1100000000.0        0.166915874835      0.033629168842      0.832893094026      -0.0516562990712    0.832893094026      -0.0516562990712    0.166915874835      0.033629168842      
1200000000.0        0.167537106376      0.0366393474925     0.832237376435      -0.0563057330548    0.832237376435      -0.0563057330548    0.167537106376      0.0366393474925     
1300000000.0        0.168178651847      0.0396413506292     0.831558470678      -0.0609471005994    0.831558470678      -0.0609471005994    0.168178651847      0.0396413506292     
1400000000.0        0.168842082499      0.0426348827253     0.83085480402       -0.0655801147469    0.83085480402       -0.0655801147469    0.168842082499      0.0426348827253     
1500000000.0        0.169528660646      0.0456196295921     0.830125112599      -0.070204469833     0.830125112599      -0.070204469833     0.169528660646      0.0456196295921     
1600000000.0        0.170239409536      0.0485952622459     0.829368371553      -0.0748198453584    0.829368371553      -0.0748198453584    0.170239409536      0.0485952622459     
1700000000.0        0.170975163757      0.0515614399375     0.828583744617      -0.0794259090219    0.828583744617      -0.0794259090219    0.170975163757      0.0515614399375     
1800000000.0        0.171736606425      0.0545178125703     0.827770546925      -0.0840223191408    0.827770546925      -0.0840223191408    0.171736606425      0.0545178125703     
1900000000.0        0.172524297159      0.0574640226637     0.826928217036      -0.0886087266174    0.826928217036      -0.0886087266174    0.172524297159      0.0574640226637     
2000000000.0        0.173338693491      0.0603997069709     0.826056295529      -0.0931847765588    0.826056295529      -0.0931847765588    0.173338693491      0.0603997069709     
2100000000.0        0.174180167502      0.0633244978315     0.825154408352      -0.0977501096311    0.825154408352      -0.0977501096311    0.174180167502      0.0633244978315     
2200000000.0        0.175049018933      0.0662380243147     0.824222253725      -0.102304363205     0.824222253725      -0.102304363205     0.175049018933      0.0662380243147     
2300000000.0        0.175945485638      0.0691399131979     0.823259591674      -0.106847172335     0.823259591674      -0.106847172335     0.175945485638      0.0691399131979     
2400000000.0        0.176869752026      0.0720297898117     0.822266235595      -0.111378170607     0.822266235595      -0.111378170607     0.176869752026      0.0720297898117     
2500000000.0        0.177821955938      0.0749072787778     0.821242045373      -0.115896990875     0.821242045373      -0.115896990875     0.177821955938      0.0749072787778     
2600000000.0        0.178802194311      0.0777720046572     0.820186921719      -0.120403265913     0.820186921719      -0.120403265913     0.178802194311      0.0777720046572     
2700000000.0        0.17981052788       0.080623592526      0.819100801465      -0.124896628991     0.819100801465      -0.124896628991     0.17981052788       0.080623592526      
2800000000.0        0.180846985122      0.0834616684882     0.817983653622      -0.129376714388     0.817983653622      -0.129376714388     0.180846985122      0.0834616684882     
2900000000.0        0.181911565582      0.0862858601376     0.816835476055      -0.133843157854     0.816835476055      -0.133843157854     0.181911565582      0.0862858601376     
3000000000.0        0.183004242699      0.0890957969743     0.815656292648      -0.13829559703      0.815656292648      -0.13829559703      0.183004242699      0.0890957969743     
3100000000.0        0.184124966237      0.0918911107839     0.814446150883      -0.142733671826     0.814446150883      -0.142733671826     0.184124966237      0.0918911107839     
3200000000.0        0.185273664372      0.0946714359832     0.813205119748      -0.147157024765     0.813205119748      -0.147157024765     0.185273664372      0.0946714359832     
3300000000.0        0.186450245508      0.0974364099365     0.811933287918      -0.151565301304     0.811933287918      -0.151565301304     0.186450245508      0.0974364099365     
3400000000.0        0.187654599866      0.100185673248      0.810630762169      -0.155958150127     0.810630762169      -0.155958150127     0.187654599866      0.100185673248      
3500000000.0        0.188886600878      0.102918870029      0.809297665983      -0.160335223408     0.809297665983      -0.160335223408     0.188886600878      0.102918870029      
3600000000.0        0.19014610642       0.105635648148      0.807934138316      -0.164696177065     0.807934138316      -0.164696177065     0.19014610642       0.105635648148      
3700000000.0        0.191432959908      0.108335659463      0.806540332496      -0.169040670993     0.806540332496      -0.169040670993     0.191432959908      0.108335659463      
3800000000.0        0.192746991282      0.111018560031      0.805116415248      -0.173368369273     0.805116415248      -0.173368369273     0.192746991282      0.111018560031      
3900000000.0        0.194088017886      0.113684010313      0.803662565803      -0.177678940377     0.803662565803      -0.177678940377     0.194088017886      0.113684010313      
4000000000.0        0.195455845267      0.116331675358      0.80217897511       -0.18197205735      0.80217897511       -0.18197205735      0.195455845267      0.116331675358      
4100000000.0        0.196850267896      0.118961224973      0.800665845102      -0.186247397988     0.800665845102      -0.186247397988     0.196850267896      0.118961224973      
4200000000.0        0.198271069837      0.121572333891      0.799123388039      -0.190504644997     0.799123388039      -0.190504644997     0.198271069837      0.121572333891      
4300000000.0        0.199718025346      0.124164681919      0.7975518259        -0.194743486147     0.7975518259        -0.194743486147     0.199718025346      0.124164681919      
4400000000.0        0.201190899436      0.126737954076      0.795951389824      -0.198963614411     0.795951389824      -0.198963614411     0.201190899436      0.126737954076      
4500000000.0        0.202689448392      0.129291840732      0.794322319587      -0.203164728096     0.794322319587      -0.203164728096     0.202689448392      0.129291840732      
4600000000.0        0.204213420255      0.131826037723      0.792664863127      -0.20734653097      0.792664863127      -0.20734653097      0.204213420255      0.131826037723      
4700000000.0        0.205762555271      0.134340246469      0.790979276089      -0.211508732372     0.790979276089      -0.211508732372     0.205762555271      0.134340246469      
4800000000.0        0.20733658631       0.136834174081      0.789265821404      -0.21565104732      0.789265821404      -0.21565104732      0.20733658631       0.136834174081      
4900000000.0        0.208935239266      0.139307533457      0.787524768895      -0.219773196611     0.787524768895      -0.219773196611     0.208935239266      0.139307533457      
5000000000.0        0.210558233429      0.141760043375      0.7857563949        -0.22387490691      0.7857563949        -0.22387490691      0.210558233429      0.141760043375      
5100000000.0        0.21220528184       0.144191428576      0.783960981917      -0.227955910837     0.783960981917      -0.227955910837     0.21220528184       0.144191428576      
5200000000.0        0.213876091629      0.146601419842      0.782138818268      -0.232015947042     0.782138818268      -0.232015947042     0.213876091629      0.146601419842      
5300000000.0        0.215570364333      0.148989754068      0.78029019778       -0.236054760277     0.78029019778       -0.236054760277     0.215570364333      0.148989754068      
5400000000.0        0.217287796204      0.151356174325      0.778415419474      -0.240072101461     0.778415419474      -0.240072101461     0.217287796204      0.151356174325      
5500000000.0        0.219028078503      0.153700429921      0.776514787275      -0.244067727741     0.776514787275      -0.244067727741     0.219028078503      0.153700429921      
5600000000.0        0.220790897781      0.15602227645       0.774588609728      -0.248041402541     0.774588609728      -0.248041402541     0.220790897781      0.15602227645       
5700000000.0        0.22257593615       0.158321475845      0.772637199727      -0.251992895613     0.772637199727      -0.251992895613     0.22257593615       0.158321475845      
5800000000.0        0.224382871544      0.160597796415      0.770660874255      -0.255921983076     0.770660874255      -0.255921983076     0.224382871544      0.160597796415      
5900000000.0        0.22621137797       0.162851012882      0.768659954131      -0.259828447454     0.768659954131      -0.259828447454     0.22621137797       0.162851012882      
6000000000.0        0.228061125755      0.165080906417      0.766634763766      -0.263712077708     0.766634763766      -0.263712077708     0.228061125755      0.165080906417      
6100000000.0        0.229931781776      0.167287264659      0.764585630924      -0.267572669261     0.764585630924      -0.267572669261     0.229931781776      0.167287264659      
6200000000.0        0.231823009696      0.169469881742      0.762512886499      -0.271410024021     0.762512886499      -0.271410024021     0.231823009696      0.169469881742      
6300000000.0        0.233734470182      0.171628558311      0.760416864288      -0.275223950396     0.760416864288      -0.275223950396     0.233734470182      0.171628558311      
6400000000.0        0.235665821119      0.173763101532      0.758297900774      -0.279014263308     0.758297900774      -0.279014263308     0.235665821119      0.173763101532      
6500000000.0        0.237616717824      0.175873325101      0.756156334921      -0.282780784198     0.756156334921      -0.282780784198     0.237616717824      0.175873325101      
6600000000.0        0.239586813249      0.177959049246      0.753992507965      -0.286523341033     0.753992507965      -0.286523341033     0.239586813249      0.177959049246      
6700000000.0        0.241575758177      0.180020100729      0.751806763217      -0.290241768302     0.751806763217      -0.290241768302     0.241575758177      0.180020100729      
6800000000.0        0.243583201421      0.182056312838      0.749599445866      -0.293935907013     0.749599445866      -0.293935907013     0.243583201421      0.182056312838      
6900000000.0        0.245608790008      0.18406752538       0.747370902794      -0.297605604682     0.747370902794      -0.297605604682     0.245608790008      0.18406752538       
7000000000.0        0.247652169366      0.186053584666      0.745121482388      -0.301250715322     0.745121482388      -0.301250715322     0.247652169366      0.186053584666      
7100000000.0        0.249712983503      0.188014343496      0.742851534362      -0.304871099425     0.742851534362      -0.304871099425     0.249712983503      0.188014343496      
7200000000.0        0.251790875185      0.189949661139      0.74056140958       -0.308466623943     0.74056140958       -0.308466623943     0.251790875185      0.189949661139      
7300000000.0        0.253885486101      0.191859403305      0.738251459882      -0.312037162261     0.738251459882      -0.312037162261     0.253885486101      0.191859403305      
7400000000.0        0.255996457037      0.193743442125      0.735922037923      -0.315582594175     0.735922037923      -0.315582594175     0.255996457037      0.193743442125      
7500000000.0        0.258123428037      0.195601656112      0.733573497004      -0.319102805854     0.733573497004      -0.319102805854     0.258123428037      0.195601656112      
7600000000.0        0.26026603856       0.197433930135      0.731206190912      -0.322597689814     0.731206190912      -0.322597689814     0.26026603856       0.197433930135      
7700000000.0        0.262423927637      0.199240155376      0.728820473768      -0.326067144873     0.728820473768      -0.326067144873     0.262423927637      0.199240155376      
7800000000.0        0.264596734025      0.201020229292      0.726416699873      -0.32951107612      0.726416699873      -0.32951107612      0.264596734025      0.201020229292      
7900000000.0        0.266784096352      0.202774055572      0.723995223559      -0.332929394862     0.723995223559      -0.332929394862     0.266784096352      0.202774055572      
8000000000.0        0.268985653263      0.204501544093      0.721556399043      -0.336322018585     0.721556399043      -0.336322018585     0.268985653263      0.204501544093      
8100000000.0        0.271201043561      0.206202610867      0.71910058029       -0.339688870904     0.71910058029       -0.339688870904     0.271201043561      0.206202610867      
8200000000.0        0.273429906343      0.207877177995      0.71662812087       -0.343029881511     0.71662812087       -0.343029881511     0.273429906343      0.207877177995      
8300000000.0        0.275671881136      0.20952517361       0.714139373827      -0.346344986121     0.714139373827      -0.346344986121     0.275671881136      0.20952517361       
8400000000.0        0.277926608026      0.211146531823      0.711634691548      -0.349634126416     0.711634691548      -0.349634126416     0.277926608026      0.211146531823      
8500000000.0        0.280193727787      0.212741192661      0.709114425632      -0.352897249989     0.709114425632      -0.352897249989     0.280193727787      0.212741192661      
8600000000.0        0.282472882002      0.214309102011      0.706578926772      -0.356134310281     0.706578926772      -0.356134310281     0.282472882002      0.214309102011      
8700000000.0        0.284763713186      0.215850211557      0.704028544627      -0.359345266516     0.704028544627      -0.359345266516     0.284763713186      0.215850211557      
8800000000.0        0.287065864903      0.217364478711      0.70146362771       -0.362530083643     0.70146362771       -0.362530083643     0.287065864903      0.217364478711      
8900000000.0        0.289378981878      0.218851866551      0.698884523271      -0.365688732263     0.698884523271      -0.365688732263     0.289378981878      0.218851866551      
9000000000.0        0.291702710108      0.220312343749      0.696291577186      -0.368821188563     0.696291577186      -0.368821188563     0.291702710108      0.220312343749      
9100000000.0        0.294036696974      0.221745884504      0.69368513385       -0.371927434245     0.69368513385       -0.371927434245     0.294036696974      0.221745884504      
9200000000.0        0.296380591338      0.223152468467      0.691065536073      -0.375007456457     0.691065536073      -0.375007456457     0.296380591338      0.223152468467      
9300000000.0        0.298734043651      0.224532080673      0.688433124974      -0.378061247714     0.688433124974      -0.378061247714     0.298734043651      0.224532080673      
9400000000.0        0.301096706045      0.225884711459      0.685788239889      -0.381088805827     0.685788239889      -0.381088805827     0.301096706045      0.225884711459      
9500000000.0        0.303468232434      0.227210356392      0.68313121827       -0.384090133829     0.68313121827       -0.384090133829     0.303468232434      0.227210356392      
9600000000.0        0.305848278601      0.228509016193      0.680462395596      -0.38706523989      0.680462395596      -0.38706523989      0.305848278601      0.228509016193      
9700000000.0        0.308236502288      0.229780696653      0.677782105283      -0.390014137245     0.677782105283      -0.390014137245     0.308236502288      0.229780696653      
9800000000.0        0.310632563286      0.231025408561      0.675090678596      -0.392936844112     0.675090678596      -0.392936844112     0.310632563286      0.231025408561      
9900000000.0        0.31303612351       0.232243167614      0.672388444569      -0.395833383609     0.672388444569      -0.395833383609     0.31303612351       0.232243167614      
10000000000.0       0.315446847087      0.233433994342      0.669675729921      -0.398703783676     0.669675729921      -0.398703783676     0.315446847087      0.233433994342      
