# Hz S RI R 50.00 
100000000.0         0.000289500250303   -0.00395633565631   0.999658827748      -0.00518247574905   0.999658827748      -0.00518247574905   0.000289500250304   -0.00395633565631   
200000000.0         0.000225659866501   -0.00791218924423   0.999588472847      -0.0103644908856    0.999588472847      -0.0103644908856    0.0002256598665     -0.00791218924423   
300000000.0         0.000120271737297   -0.0118670828464    0.99947616094       -0.0155455899934    0.99947616094       -0.0155455899934    0.000120271737297   -0.0118670828464    
400000000.0         -2.63754533977e-05  -0.0158205229764    0.999321636512      -0.02072529621      0.999321636512      -0.02072529621      -2.63754533979e-05  -0.0158205229764    
500000000.0         -0.000214152786033  -0.0197720081042    0.999124819257      -0.0259031224208    0.999124819257      -0.0259031224208    -0.000214152786033  -0.0197720081042    
600000000.0         -0.000442974667922  -0.0237210316032    0.998885688132      -0.0310785751165    0.998885688132      -0.0310785751165    -0.000442974667922  -0.0237210316032    
700000000.0         -0.000712769173256  -0.027667083368     0.998604252015      -0.0362511564206    0.998604252015      -0.0362511564206    -0.000712769173256  -0.027667083368     
800000000.0         -0.00102346717437   -0.0316096508646    0.998280539079      -0.0414203653671    0.998280539079      -0.0414203653671    -0.00102346717437   -0.0316096508646    
900000000.0         -0.00137499747398   -0.0355482198887    0.997914592094      -0.0465856988028    0.997914592094      -0.0465856988028    -0.00137499747398   -0.0355482198887    
1000000000.0        -0.00176728432041   -0.0394822751565    0.997506466074      -0.0517466520738    0.997506466074      -0.0517466520738    -0.00176728432041   -0.0394822751565    
1100000000.0        -0.00220024601683   -0.0434113007896    0.997056226985      -0.0569027195801    0.997056226985      -0.0569027195801    -0.00220024601683   -0.0434113007896    
1200000000.0        -0.00267379408894   -0.0473347807307    0.996563950974      -0.062053395243     0.996563950974      -0.062053395243     -0.00267379408894   -0.0473347807307    
1300000000.0        -0.00318783276204   -0.0512521991108    0.996029723892      -0.0671981729119    0.996029723892      -0.0671981729119    -0.00318783276204   -0.0512521991108    
1400000000.0        -0.00374225862149   -0.0551630405806    0.995453640972      -0.0723365467276    0.995453640972      -0.0723365467276    -0.00374225862149   -0.0551630405806    
1500000000.0        -0.00433696038816   -0.0590667906166    0.994835806609      -0.0774680114533    0.994835806609      -0.0774680114533    -0.00433696038816   -0.0590667906166    
1600000000.0        -0.00497181876979   -0.0629629358065    0.994176334189      -0.0825920627813    0.994176334189      -0.0825920627813    -0.00497181876979   -0.0629629358065    
1700000000.0        -0.00564670636453   -0.066850964118     0.993475345965      -0.0877081976196    0.993475345965      -0.0877081976196    -0.00564670636453   -0.066850964118     
1800000000.0        -0.00636148760223   -0.0707303651561    0.992732972947      -0.0928159143635    0.992732972947      -0.0928159143635    -0.00636148760223   -0.0707303651561    
1900000000.0        -0.0071160187136    -0.0746006304082    0.991949354808      -0.0979147131536    0.991949354808      -0.0979147131536    -0.0071160187136    -0.0746006304082    
2000000000.0        -0.00791014772124   -0.078461253481     0.991124639798      -0.103004096124     0.991124639798      -0.103004096124     -0.00791014772124   -0.078461253481     
2100000000.0        -0.00874371444786   -0.0823117303288    0.990258984665      -0.108083567638     0.990258984665      -0.108083567638     -0.00874371444786   -0.0823117303288    
2200000000.0        -0.00961655053883   -0.0861515594754    0.989352554571      -0.113152634524     0.989352554571      -0.113152634524     -0.00961655053883   -0.0861515594754    
2300000000.0        -0.0105284794967    -0.0899802422295    0.988405523014      -0.118210806291     0.988405523014      -0.118210806291     -0.0105284794967    -0.0899802422295    
2400000000.0        -0.0114793167262    -0.0937972828943    0.987418071746      -0.123257595351     0.987418071746      -0.123257595351     -0.0114793167262    -0.0937972828943    
2500000000.0        -0.0124688695883    -0.0976021889716    0.986390390689      -0.128292517224     0.986390390689      -0.128292517224     -0.0124688695883    -0.0976021889716    
2600000000.0        -0.0134969374624    -0.101394471361     0.98532267785       -0.133315090747     0.98532267785       -0.133315090747     -0.0134969374624    -0.101394471361     
2700000000.0        -0.0145633118161    -0.105173644555     0.984215139227      -0.13832483827      0.984215139227      -0.13832483827      -0.0145633118161    -0.105173644555     
2800000000.0        -0.0156677762819    -0.108939226827     0.983067988721      -0.143321285854     0.983067988721      -0.143321285854     -0.0156677762819    -0.108939226827     
2900000000.0        -0.01681010674      -0.112690740419     0.981881448037      -0.148303963456     0.981881448037      -0.148303963456     -0.01681010674      -0.112690740419     
3000000000.0        -0.017990071407     -0.11642771172      0.980655746582      -0.153272405113     0.980655746582      -0.153272405113     -0.017990071407     -0.11642771172      
3100000000.0        -0.0192074309304    -0.120149671443     0.979391121363      -0.15822614913      0.979391121363      -0.15822614913      -0.0192074309304    -0.120149671443     
3200000000.0        -0.0204619384883    -0.123856154801     0.978087816878      -0.163164738243     0.978087816878      -0.163164738243     -0.0204619384883    -0.123856154801     
3300000000.0        -0.0217533398941    -0.127546701666     0.976746085003      -0.168087719799     0.976746085003      -0.168087719799     -0.0217533398941    -0.127546701666     
3400000000.0        -0.0230813737054    -0.131220856743     0.975366184881      -0.172994645919     0.975366184881      -0.172994645919     -0.0230813737054    -0.131220856743     
3500000000.0        -0.0244457713384    -0.134878169719     0.973948382797      -0.177885073659     0.973948382797      -0.177885073659     -0.0244457713384    -0.134878169719     
3600000000.0        -0.0258462571856    -0.138518195426     0.972492952058      -0.182758565169     0.972492952058      -0.182758565169     -0.0258462571856    -0.138518195426     
3700000000.0        -0.027282548738     -0.142140493988     0.971000172868      -0.187614687841     0.971000172868      -0.187614687841     -0.027282548738     -0.142140493988     
3800000000.0        -0.0287543567113    -0.145744630964     0.969470332196      -0.192453014464     0.969470332196      -0.192453014464     -0.0287543567113    -0.145744630964     
3900000000.0        -0.0302613851756    -0.149330177497     0.967903723645      -0.197273123362     0.967903723645      -0.197273123362     -0.0302613851756    -0.149330177497     
4000000000.0        -0.0318033316887    -0.152896710443     0.966300647315      -0.202074598536     0.966300647315      -0.202074598536     -0.0318033316887    -0.152896710443     
4100000000.0        -0.0333798874323    -0.15644381251      0.964661409664      -0.206857029795     0.964661409664      -0.206857029795     -0.0333798874323    -0.15644381251      
4200000000.0        -0.0349907373523    -0.159971072383     0.962986323368      -0.21162001289      0.962986323368      -0.21162001289      -0.0349907373523    -0.159971072383     
4300000000.0        -0.0366355603009    -0.163478084847     0.961275707173      -0.216363149636     0.961275707173      -0.216363149636     -0.0366355603009    -0.163478084847     
4400000000.0        -0.0383140291829    -0.16696445091      0.959529885751      -0.221086048034     0.959529885751      -0.221086048034     -0.0383140291829    -0.16696445091      
4500000000.0        -0.040025811103     -0.170429777913     0.957749189549      -0.225788322387     0.957749189549      -0.225788322387     -0.040025811103     -0.170429777913     
4600000000.0        -0.0417705675173    -0.173873679641     0.955933954636      -0.230469593408     0.955933954636      -0.230469593408     -0.0417705675173    -0.173873679641     
4700000000.0        -0.043547954386     -0.17729577643      0.95408452255       -0.235129488332     0.95408452255       -0.235129488332     -0.043547954386     -0.17729577643      
4800000000.0        -0.0453576223285    -0.180695695266     0.952201240143      -0.239767641012     0.952201240143      -0.239767641012     -0.0453576223285    -0.180695695266     
4900000000.0        -0.0471992167806    -0.18407306988      0.950284459418      -0.244383692019     0.950284459418      -0.244383692019     -0.0471992167806    -0.18407306988      
5000000000.0        -0.0490723781539    -0.187427540841     0.948334537376      -0.248977288733     0.948334537376      -0.248977288733     -0.0490723781539    -0.187427540841     
5100000000.0        -0.0509767419965    -0.190758755641     0.946351835847      -0.25354808543      0.946351835847      -0.25354808543      -0.0509767419965    -0.190758755641     
5200000000.0        -0.0529119391549    -0.194066368777     0.944336721332      -0.258095743368     0.944336721332      -0.258095743368     -0.0529119391549    -0.194066368777     
5300000000.0        -0.0548775959383    -0.197350041827     0.942289564837      -0.262619930859     0.942289564837      -0.262619930859     -0.0548775959383    -0.197350041827     
5400000000.0        -0.056873334283     -0.200609443524     0.940210741709      -0.267120323346     0.940210741709      -0.267120323346     -0.056873334283     -0.200609443524     
5500000000.0        -0.0588987719191    -0.203844249821     0.938100631466      -0.27159660347      0.938100631466      -0.27159660347      -0.0588987719191    -0.203844249821     
5600000000.0        -0.0609535225367    -0.207054143957     0.935959617631      -0.276048461134     0.935959617631      -0.276048461134     -0.0609535225367    -0.207054143957     
5700000000.0        -0.0630371959544    -0.21023881651      0.933788087567      -0.280475593562     0.933788087567      -0.280475593562     -0.0630371959544    -0.21023881651      
5800000000.0        -0.0651493982873    -0.213397965455     0.931586432301      -0.284877705352     0.931586432301      -0.284877705352     -0.0651493982873    -0.213397965455     
5900000000.0        -0.067289732116     -0.216531296211     0.929355046363      -0.289254508524     0.929355046363      -0.289254508524     -0.067289732116     -0.216531296211     
6000000000.0        -0.0694577966558    -0.219638521684     0.927094327609      -0.293605722569     0.927094327609      -0.293605722569     -0.0694577966558    -0.219638521684     
6100000000.0        -0.0716531879265    -0.222719362307     0.924804677058      -0.297931074485     0.924804677058      -0.297931074485     -0.0716531879265    -0.222719362307     
6200000000.0        -0.0738754989215    -0.225773546074     0.922486498714      -0.302230298814     0.922486498714      -0.302230298814     -0.0738754989215    -0.225773546074     
6300000000.0        -0.0761243197778    -0.228800808572     0.920140199404      -0.306503137672     0.920140199404      -0.306503137672     -0.0761243197778    -0.228800808572     
6400000000.0        -0.078399237945     -0.231800893004     0.917766188603      -0.310749340775     0.917766188603      -0.310749340775     -0.078399237945     -0.231800893004     
6500000000.0        -0.0806998383544    -0.234773550214     0.915364878268      -0.314968665463     0.915364878268      -0.314968665463     -0.0806998383544    -0.234773550214     
6600000000.0        -0.0830257035874    -0.237718538699     0.912936682667      -0.319160876715     0.912936682667      -0.319160876715     -0.0830257035874    -0.237718538699     
6700000000.0        -0.0853764140438    -0.240635624624     0.910482018213      -0.323325747161     0.910482018213      -0.323325747161     -0.0853764140438    -0.240635624624     
6800000000.0        -0.0877515481088    -0.243524581831     0.908001303292      -0.327463057095     0.908001303292      -0.327463057095     -0.0877515481088    -0.243524581831     
6900000000.0        -0.0901506823195    -0.24638519184      0.905494958102      -0.331572594474     0.905494958102      -0.331572594474     -0.0901506823195    -0.24638519184      
7000000000.0        -0.0925733915305    -0.249217243851     0.902963404484      -0.335654154921     0.902963404484      -0.335654154921     -0.0925733915305    -0.249217243851     
7100000000.0        -0.0950192490782    -0.252020534737     0.900407065759      -0.339707541721     0.900407065759      -0.339707541721     -0.0950192490782    -0.252020534737     
7200000000.0        -0.0974878269443    -0.254794869038     0.89782636656       -0.343732565809     0.89782636656       -0.343732565809     -0.0974878269443    -0.254794869038     
7300000000.0        -0.0999786959175    -0.257540058946     0.895221732677      -0.347729045765     0.895221732677      -0.347729045765     -0.0999786959175    -0.257540058946     
7400000000.0        -0.102491425754     -0.26025592429      0.89259359089       -0.351696807789     0.89259359089       -0.351696807789     -0.102491425754     -0.26025592429      
7500000000.0        -0.105025585339     -0.262942292515     0.889942368813      -0.355635685689     0.889942368813      -0.355635685689     -0.105025585339     -0.262942292515     
7600000000.0        -0.107580742839     -0.265598998656     0.887268494736      -0.359545520852     0.887268494736      -0.359545520852     -0.107580742839     -0.265598998656     
7700000000.0        -0.110156465864     -0.268225885314     0.884572397465      -0.363426162217     0.884572397465      -0.363426162217     -0.110156465864     -0.268225885314     
7800000000.0        -0.112752321616     -0.270822802618     0.881854506174      -0.367277466245     0.881854506174      -0.367277466245     -0.112752321616     -0.270822802618     
7900000000.0        -0.115367877047     -0.273389608197     0.879115250248      -0.371099296885     0.879115250248      -0.371099296885     -0.115367877047     -0.273389608197     
8000000000.0        -0.118002699003     -0.275926167137     0.876355059134      -0.374891525531     0.876355059134      -0.374891525531     -0.118002699003     -0.275926167137     
8100000000.0        -0.120656354378     -0.278432351938     0.87357436219       -0.378654030989     0.87357436219       -0.378654030989     -0.120656354378     -0.278432351938     
8200000000.0        -0.123328410256     -0.280908042474     0.870773588545      -0.382386699421     0.870773588545      -0.382386699421     -0.123328410256     -0.280908042474     
8300000000.0        -0.12601843406      -0.283353125938     0.867953166947      -0.386089424305     0.867953166947      -0.386089424305     -0.12601843406      -0.283353125938     
8400000000.0        -0.128725993688     -0.285767496795     0.865113525626      -0.389762106382     0.865113525626      -0.389762106382     -0.128725993688     -0.285767496795     
8500000000.0        -0.131450657656     -0.288151056724     0.862255092152      -0.393404653599     0.862255092152      -0.393404653599     -0.131450657656     -0.288151056724     
8600000000.0        -0.134191995234     -0.290503714564     0.859378293298      -0.397016981054     0.859378293298      -0.397016981054     -0.134191995234     -0.290503714564     
8700000000.0        -0.136949576582     -0.292825386249     0.856483554908      -0.400599010936     0.856483554908      -0.400599010936     -0.136949576582     -0.292825386249     
8800000000.0        -0.139722972883     -0.295115994752     0.853571301759      -0.404150672459     0.853571301759      -0.404150672459     -0.139722972883     -0.295115994752     
8900000000.0        -0.142511756468     -0.297375470009     0.850641957437      -0.407671901802     0.850641957437      -0.407671901802     -0.142511756468     -0.297375470009     
9000000000.0        -0.145315500949     -0.29960374886      0.847695944203      -0.411162642035     0.847695944203      -0.411162642035     -0.145315500949     -0.29960374886      
9100000000.0        -0.148133781339     -0.301800774974     0.844733682876      -0.414622843053     0.844733682876      -0.414622843053     -0.148133781339     -0.301800774974     
9200000000.0        -0.150966174177     -0.303966498775     0.841755592706      -0.4180524615       0.841755592706      -0.4180524615       -0.150966174177     -0.303966498775     
9300000000.0        -0.153812257645     -0.306100877369     0.838762091253      -0.421451460697     0.838762091253      -0.421451460697     -0.153812257645     -0.306100877369     
9400000000.0        -0.156671611687     -0.308203874465     0.835753594278      -0.424819810559     0.835753594278      -0.424819810559     -0.156671611687     -0.308203874465     
9500000000.0        -0.159543818119     -0.310275460296     0.832730515621      -0.428157487524     0.832730515621      -0.428157487524     -0.159543818119     -0.310275460296     
9600000000.0        -0.162428460741     -0.312315611535     0.829693267094      -0.431464474463     0.829693267094      -0.431464474463     -0.162428460741     -0.312315611535     
9700000000.0        -0.165325125449     -0.314324311216     0.826642258372      -0.434740760603     0.826642258372      -0.434740760603     -0.165325125449     -0.314324311216     
9800000000.0        -0.168233400334     -0.316301548645     0.82357789689       -0.437986341438     0.82357789689       -0.437986341438     -0.168233400334     -0.316301548645     
9900000000.0        -0.171152875787     -0.318247319316     0.820500587736      -0.441201218645     0.820500587736      -0.441201218645     -0.171152875787     -0.318247319316     
10000000000.0       -0.174083144602     -0.320161624819     0.817410733555      -0.444385399995     0.817410733555      -0.444385399995     -0.174083144602     -0.320161624819     
