# Hz S RI R 50.00 
100000000.0         0.00316266108722    0.000363530736666   0.996836195683      -0.000505706449003  0.996836195683      -0.000505706449003  0.00316266108722    0.000363530736666   
200000000.0         0.00318399170819    0.000727026647377   0.996814701593      -0.00101138003229   0.996814701593      -0.00101138003229   0.00318399170819    0.000727026647377   
300000000.0         0.00320006113826    0.00109050305508    0.996798448453      -0.00151703710003   0.996798448453      -0.00151703710003   0.00320006113826    0.00109050305508    
400000000.0         0.00321361984176    0.00145396548371    0.996784685795      -0.00202268396803   0.996784685795      -0.00202268396803   0.00321361984176    0.00145396548371    
500000000.0         0.0032257292607     0.00181741713461    0.996772352175      -0.00252832451047   0.996772352175      -0.00252832451047   0.0032257292607     0.00181741713461    
600000000.0         0.00323693180727    0.00218086016763    0.996760905177      -0.00303396148172   0.996760905177      -0.00303396148172   0.00323693180727    0.00218086016763    
700000000.0         0.00324754853694    0.00254429616613    0.996750023742      -0.00353959700224   0.996750023742      -0.00353959700224   0.00324754853694    0.00254429616613    
800000000.0         0.00325778787368    0.00290772635468    0.996739499442      -0.00404523278898   0.996739499442      -0.00404523278898   0.00325778787369    0.00290772635468    
900000000.0         0.00326779405629    0.00327115171713    0.996729188036      -0.00455087028157   0.996729188036      -0.00455087028157   0.00326779405629    0.00327115171713    
1000000000.0        0.00327767171235    0.00363457306725    0.996718984891      -0.00505651071847   0.996718984891      -0.00505651071847   0.00327767171235    0.00363457306725    
1100000000.0        0.00328749952909    0.00399799109355    0.996708811316      -0.00556215518659   0.996708811316      -0.00556215518659   0.00328749952909    0.00399799109355    
1200000000.0        0.00329733840498    0.00436140638994    0.996698606408      -0.00606780465476   0.996698606408      -0.00606780465476   0.00329733840498    0.00436140638994    
1300000000.0        0.00330723658212    0.00472481947692    0.99668832192       -0.00657345999793   0.99668832192       -0.00657345999793   0.00330723658212    0.00472481947692    
1400000000.0        0.00331723302213    0.00508823081731    0.996677918887      -0.0070791220145    0.996677918887      -0.0070791220145    0.00331723302213    0.00508823081731    
1500000000.0        0.00332735970824    0.00545164082767    0.996667365321      -0.00758479143983   0.996667365321      -0.00758479143983   0.00332735970824    0.00545164082767    
1600000000.0        0.00333764326323    0.0058150498872     0.996656634593      -0.00809046895647   0.996656634593      -0.00809046895647   0.00333764326323    0.0058150498872     
1700000000.0        0.0033481061163     0.0061784583447     0.99664570427       -0.00859615520218   0.99664570427       -0.00859615520218   0.0033481061163     0.0061784583447     
1800000000.0        0.00335876736334    0.00654186652395    0.99663455525       -0.0091018507765    0.99663455525       -0.0091018507765    0.00335876736334    0.00654186652395    
1900000000.0        0.0033696434137     0.00690527472809    0.996623171119      -0.009607556246     0.996623171119      -0.009607556246     0.0033696434137     0.00690527472809    
2000000000.0        0.00338074848463    0.00726868324322    0.996611537655      -0.0101132721486    0.996611537655      -0.0101132721486    0.00338074848463    0.00726868324322    
2100000000.0        0.00339209498515    0.00763209234128    0.996599642442      -0.0106189989971    0.996599642442      -0.0106189989971    0.00339209498515    0.00763209234128    
2200000000.0        0.00340369381792    0.00799550228247    0.996587474574      -0.0111247372825    0.996587474574      -0.0111247372825    0.00340369381792    0.00799550228247    
2300000000.0        0.00341555461971    0.00835891331733    0.996575024407      -0.0116304874761    0.996575024407      -0.0116304874761    0.00341555461971    0.00835891331733    
2400000000.0        0.00342768595489    0.0087223256884     0.996562283371      -0.0121362500323    0.996562283371      -0.0121362500323    0.00342768595489    0.0087223256884     
2500000000.0        0.00344009547276    0.00908573963168    0.996549243811      -0.0126420253898    0.996549243811      -0.0126420253898    0.00344009547276    0.00908573963168    
2600000000.0        0.00345279003661    0.00944915537794    0.996535898859      -0.013147813974     0.996535898859      -0.013147813974     0.00345279003661    0.00944915537794    
2700000000.0        0.00346577583047    0.00981257315363    0.996522242323      -0.0136536161976    0.996522242323      -0.0136536161976    0.00346577583047    0.00981257315363    
2800000000.0        0.00347905844807    0.010175993182      0.996508268605      -0.0141594324627    0.996508268605      -0.0141594324627    0.00347905844806    0.010175993182      
2900000000.0        0.00349264296747    0.0105394156836     0.996493972621      -0.0146652631612    0.996493972621      -0.0146652631612    0.00349264296747    0.0105394156836     
3000000000.0        0.00350653401418    0.0109028408774     0.996479349738      -0.0151711086762    0.996479349738      -0.0151711086762    0.00350653401418    0.0109028408774     
3100000000.0        0.00352073581474    0.0112662689811     0.996464395724      -0.0156769693827    0.996464395724      -0.0156769693827    0.00352073581474    0.0112662689811     
3200000000.0        0.00353525224248    0.0116297002115     0.9964491067        -0.0161828456484    0.9964491067        -0.0161828456484    0.00353525224248    0.0116297002115     
3300000000.0        0.00355008685692    0.0119931347855     0.996433479099      -0.0166887378343    0.996433479099      -0.0166887378343    0.00355008685692    0.0119931347855     
3400000000.0        0.0035652429377     0.01235657292       0.996417509635      -0.0171946462956    0.996417509635      -0.0171946462956    0.0035652429377     0.01235657292       
3500000000.0        0.00358072351405    0.0127200148325     0.996401195274      -0.017700571382     0.996401195274      -0.017700571382     0.00358072351405    0.0127200148325     
3600000000.0        0.00359653139041    0.0130834607413     0.996384533204      -0.0182065134381    0.996384533204      -0.0182065134381    0.00359653139041    0.0130834607413     
3700000000.0        0.00361266916891    0.013446910866      0.996367520817      -0.0187124728042    0.996367520817      -0.0187124728042    0.00361266916891    0.013446910866      
3800000000.0        0.00362913926899    0.0138103654276     0.996350155686      -0.0192184498167    0.996350155686      -0.0192184498167    0.00362913926899    0.0138103654276     
3900000000.0        0.00364594394481    0.0141738246486     0.996332435551      -0.019724444808     0.996332435551      -0.019724444808     0.00364594394481    0.0141738246486     
4000000000.0        0.00366308530052    0.0145372887534     0.996314358302      -0.0202304581072    0.996314358302      -0.0202304581072    0.00366308530052    0.0145372887534     
4100000000.0        0.0036805653039     0.0149007579685     0.996295921963      -0.0207364900406    0.996295921963      -0.0207364900406    0.0036805653039     0.0149007579685     
4200000000.0        0.00369838579842    0.0152642325224     0.996277124685      -0.0212425409316    0.996277124685      -0.0212425409316    0.00369838579842    0.0152642325224     
4300000000.0        0.00371654851402    0.015627712646      0.996257964732      -0.0217486111012    0.996257964732      -0.0217486111012    0.00371654851402    0.015627712646      
4400000000.0        0.0037350550768     0.0159911985726     0.99623844047       -0.0222547008679    0.99623844047       -0.0222547008679    0.0037350550768     0.0159911985726     
4500000000.0        0.00375390701763    0.0163546905382     0.996218550362      -0.0227608105487    0.996218550362      -0.0227608105487    0.00375390701763    0.0163546905382     
4600000000.0        0.00377310577994    0.0167181887812     0.996198292959      -0.0232669404582    0.996198292959      -0.0232669404582    0.00377310577994    0.0167181887812     
4700000000.0        0.00379265272674    0.0170816935429     0.996177666889      -0.0237730909098    0.996177666889      -0.0237730909098    0.00379265272674    0.0170816935429     
4800000000.0        0.00381254914696    0.0174452050672     0.996156670858      -0.0242792622152    0.996156670858      -0.0242792622152    0.00381254914696    0.0174452050672     
4900000000.0        0.00383279626116    0.0178087236011     0.996135303639      -0.0247854546849    0.996135303639      -0.0247854546849    0.00383279626116    0.0178087236011     
5000000000.0        0.00385339522674    0.0181722493943     0.996113564066      -0.0252916686284    0.996113564066      -0.0252916686284    0.00385339522674    0.0181722493943     
5100000000.0        0.00387434714267    0.0185357826998     0.996091451035      -0.0257979043538    0.996091451035      -0.0257979043538    0.00387434714267    0.0185357826998     
5200000000.0        0.00389565305382    0.0188993237734     0.996068963495      -0.0263041621686    0.996068963495      -0.0263041621686    0.00389565305382    0.0188993237734     
5300000000.0        0.00391731395485    0.0192628728738     0.996046100443      -0.0268104423796    0.996046100443      -0.0268104423796    0.00391731395485    0.0192628728738     
5400000000.0        0.00393933079381    0.0196264302633     0.996022860924      -0.0273167452926    0.996022860924      -0.0273167452926    0.00393933079381    0.0196264302633     
5500000000.0        0.00396170447547    0.0199899962068     0.995999244028      -0.0278230712132    0.995999244028      -0.0278230712132    0.00396170447547    0.0199899962068     
5600000000.0        0.00398443586426    0.0203535709728     0.995975248884      -0.0283294204462    0.995975248884      -0.0283294204462    0.00398443586426    0.0203535709728     
5700000000.0        0.00400752578712    0.0207171548326     0.995950874657      -0.0288357932964    0.995950874657      -0.0288357932964    0.00400752578712    0.0207171548326     
5800000000.0        0.00403097503599    0.021080748061      0.995926120549      -0.0293421900678    0.995926120549      -0.0293421900678    0.00403097503599    0.021080748061      
5900000000.0        0.0040547843702     0.0214443509358     0.995900985795      -0.0298486110646    0.995900985795      -0.0298486110646    0.0040547843702     0.0214443509358     
6000000000.0        0.0040789545186     0.0218079637381     0.995875469657      -0.0303550565907    0.995875469657      -0.0303550565907    0.0040789545186     0.0218079637381     
6100000000.0        0.00410348618158    0.0221715867523     0.995849571431      -0.0308615269498    0.995849571431      -0.0308615269498    0.00410348618158    0.0221715867523     
6200000000.0        0.00412838003294    0.0225352202659     0.995823290434      -0.0313680224457    0.995823290434      -0.0313680224457    0.00412838003294    0.0225352202659     
6300000000.0        0.00415363672158    0.0228988645698     0.995796626013      -0.0318745433822    0.995796626013      -0.0318745433822    0.00415363672158    0.0228988645698     
6400000000.0        0.00417925687308    0.0232625199579     0.995769577534      -0.032381090063     0.995769577534      -0.032381090063     0.00417925687308    0.0232625199579     
6500000000.0        0.00420524109122    0.0236261867276     0.995742144387      -0.0328876627921    0.995742144387      -0.0328876627921    0.00420524109122    0.0236261867276     
6600000000.0        0.00423158995932    0.0239898651794     0.995714325982      -0.0333942618736    0.995714325982      -0.0333942618736    0.00423158995932    0.0239898651794     
6700000000.0        0.00425830404153    0.024353555617      0.99568612175       -0.0339008876119    0.99568612175       -0.0339008876119    0.00425830404153    0.024353555617      
6800000000.0        0.00428538388402    0.0247172583474     0.995657531136      -0.0344075403114    0.995657531136      -0.0344075403114    0.00428538388402    0.0247172583474     
6900000000.0        0.0043128300161     0.0250809736808     0.995628553606      -0.0349142202771    0.995628553606      -0.0349142202771    0.0043128300161     0.0250809736808     
7000000000.0        0.00434064295123    0.0254447019306     0.995599188639      -0.0354209278141    0.995599188639      -0.0354209278141    0.00434064295123    0.0254447019306     
7100000000.0        0.00436882318802    0.0258084434134     0.995569435731      -0.0359276632278    0.995569435731      -0.0359276632278    0.00436882318802    0.0258084434134     
7200000000.0        0.00439737121115    0.026172198449      0.995539294391      -0.0364344268242    0.995539294391      -0.0364344268242    0.00439737121115    0.026172198449      
7300000000.0        0.00442628749216    0.0265359673605     0.995508764141      -0.0369412189094    0.995508764141      -0.0369412189094    0.00442628749216    0.0265359673605     
7400000000.0        0.0044555724903     0.026899750474      0.995477844515      -0.0374480397903    0.995477844515      -0.0374480397903    0.0044555724903     0.026899750474      
7500000000.0        0.00448522665327    0.0272635481187     0.995446535059      -0.0379548897738    0.995446535059      -0.0379548897738    0.00448522665327    0.0272635481187     
7600000000.0        0.0045152504179     0.0276273606272     0.99541483533       -0.0384617691677    0.99541483533       -0.0384617691677    0.0045152504179     0.0276273606272     
7700000000.0        0.00454564421083    0.0279911883351     0.995382744897      -0.03896867828      0.995382744897      -0.03896867828      0.00454564421083    0.0279911883351     
7800000000.0        0.00457640844911    0.0283550315811     0.995350263335      -0.0394756174194    0.995350263335      -0.0394756174194    0.00457640844911    0.0283550315811     
7900000000.0        0.00460754354083    0.0287188907071     0.99531739023       -0.0399825868948    0.99531739023       -0.0399825868948    0.00460754354083    0.0287188907071     
8000000000.0        0.0046390498856     0.0290827660578     0.995284125177      -0.0404895870161    0.995284125177      -0.0404895870161    0.0046390498856     0.0290827660578     
8100000000.0        0.00467092787514    0.0294466579814     0.995250467779      -0.0409966180934    0.995250467779      -0.0409966180934    0.00467092787514    0.0294466579814     
8200000000.0        0.00470317789371    0.029810566829      0.995216417644      -0.0415036804376    0.995216417644      -0.0415036804376    0.00470317789371    0.029810566829      
8300000000.0        0.00473580031862    0.0301744929545     0.995181974391      -0.0420107743599    0.995181974391      -0.0420107743599    0.00473580031862    0.0301744929545     
8400000000.0        0.00476879552063    0.0305384367151     0.995147137642      -0.0425179001724    0.995147137642      -0.0425179001724    0.00476879552063    0.0305384367151     
8500000000.0        0.0048021638644     0.030902398471      0.995111907027      -0.0430250581876    0.995111907027      -0.0430250581876    0.0048021638644     0.030902398471      
8600000000.0        0.00483590570884    0.0312663785854     0.995076282181      -0.0435322487186    0.995076282181      -0.0435322487186    0.00483590570884    0.0312663785854     
8700000000.0        0.00487002140751    0.0316303774242     0.995040262746      -0.0440394720794    0.995040262746      -0.0440394720794    0.00487002140751    0.0316303774242     
8800000000.0        0.00490451130897    0.0319943953568     0.995003848368      -0.0445467285843    0.995003848368      -0.0445467285843    0.00490451130897    0.0319943953568     
8900000000.0        0.0049393757571     0.032358432755      0.994967038696      -0.0450540185484    0.994967038696      -0.0450540185484    0.0049393757571     0.032358432755      
9000000000.0        0.00497461509143    0.0327224899939     0.994929833386      -0.0455613422874    0.994929833386      -0.0455613422874    0.00497461509143    0.0327224899939     
9100000000.0        0.0050102296474     0.0330865674513     0.994892232097      -0.0460687001177    0.994892232097      -0.0460687001177    0.0050102296474     0.0330865674513     
9200000000.0        0.00504621975673    0.0334506655081     0.994854234493      -0.0465760923562    0.994854234493      -0.0465760923562    0.00504621975673    0.0334506655081     
9300000000.0        0.00508258574758    0.0338147845479     0.994815840239      -0.0470835193207    0.994815840239      -0.0470835193207    0.00508258574758    0.0338147845479     
9400000000.0        0.00511932794492    0.0341789249574     0.994777049006      -0.0475909813294    0.994777049006      -0.0475909813294    0.00511932794492    0.0341789249574     
9500000000.0        0.00515644667068    0.0345430871258     0.994737860467      -0.0480984787015    0.994737860467      -0.0480984787015    0.00515644667068    0.0345430871258     
9600000000.0        0.00519394224405    0.0349072714455     0.994698274297      -0.0486060117566    0.994698274297      -0.0486060117566    0.00519394224405    0.0349072714455     
9700000000.0        0.00523181498166    0.0352714783116     0.994658290175      -0.049113580815     0.994658290175      -0.049113580815     0.00523181498166    0.0352714783116     
9800000000.0        0.00527006519782    0.0356357081218     0.994617907782      -0.0496211861978    0.994617907782      -0.0496211861978    0.00527006519782    0.0356357081218     
9900000000.0        0.00530869320471    0.0359999612769     0.994577126801      -0.0501288282268    0.994577126801      -0.0501288282268    0.00530869320471    0.0359999612769     
10000000000.0       0.00534769931258    0.0363642381804     0.994535946917      -0.0506365072243    0.994535946917      -0.0506365072243    0.00534769931258    0.0363642381804     
