# Hz S RI R 50.00 
100000000.0         0.000328428869814   -0.00221983425243   0.999642919358      -0.00431116045211   0.999642919358      -0.00431116045211   0.000328428869814   -0.00221983425243   
200000000.0         0.000298858692095   -0.00443968053891   0.999602173268      -0.00862241455964   0.999602173268      -0.00862241455964   0.000298858692095   -0.00443968053891   
300000000.0         0.000249545212242   -0.00665946314578   0.999538496643      -0.012933746476     0.999538496643      -0.012933746476     0.000249545212242   -0.00665946314578   
400000000.0         0.000180779133759   -0.00887907951187   0.999451588291      -0.0172450970304    0.999451588291      -0.0172450970304    0.000180779133759   -0.00887907951187   
500000000.0         9.26695156525e-05   -0.0110984121995    0.999341328662      -0.0215563853344    0.999341328662      -0.0215563853344    9.26695156525e-05   -0.0110984121995    
600000000.0         -1.47297937053e-05  -0.0133173335283    0.999207654119      -0.0258675160933    0.999207654119      -0.0258675160933    -1.47297937054e-05  -0.0133173335283    
700000000.0         -0.000141387896359  -0.0155357080319    0.999050525192      -0.0301783833271    0.999050525192      -0.0301783833271    -0.000141387896359  -0.0155357080319    
800000000.0         -0.000287284982333  -0.0177533939751    0.998869915105      -0.0344888726098    0.998869915105      -0.0344888726098    -0.000287284982332  -0.0177533939751    
900000000.0         -0.000452406982115  -0.019970244386     0.998665804766      -0.0387988625622    0.998665804766      -0.0387988625622    -0.000452406982116  -0.019970244386     
1000000000.0        -0.00063674280592   -0.0221861078031    0.998438180273      -0.0431082259158    0.998438180273      -0.0431082259158    -0.00063674280592   -0.0221861078031    
1100000000.0        -0.000840282769678  -0.0244008288462    0.998187031582      -0.0474168303114    0.998187031582      -0.0474168303114    -0.000840282769678  -0.0244008288462    
1200000000.0        -0.0010630176257    -0.0266142486676    0.997912351746      -0.0517245389227    0.997912351746      -0.0517245389227    -0.0010630176257    -0.0266142486676    
1300000000.0        -0.0013049379272    -0.0288262053205    0.997614136463      -0.056031210957     0.997614136463      -0.056031210957     -0.0013049379272    -0.0288262053205    
1400000000.0        -0.00156603358954   -0.0310365340677    0.997292383807      -0.0603367020696    0.997292383807      -0.0603367020696    -0.00156603358954   -0.0310365340677    
1500000000.0        -0.00184629357363   -0.0332450676451    0.99694709406       -0.0646408647132    0.99694709406       -0.0646408647132    -0.00184629357363   -0.0332450676451    
1600000000.0        -0.0021457056489    -0.0354516364919    0.996578269611      -0.0689435484374    0.996578269611      -0.0689435484374    -0.0021457056489    -0.0354516364919    
1700000000.0        -0.00246425620997   -0.0376560689527    0.996185914895      -0.0732446001507    0.996185914895      -0.0732446001507    -0.00246425620997   -0.0376560689527    
1800000000.0        -0.00280193013107   -0.0398581914599    0.995770036365      -0.0775438643517    0.995770036365      -0.0775438643517    -0.00280193013107   -0.0398581914599    
1900000000.0        -0.00315871064769   -0.0420578286978    0.995330642472      -0.0818411833364    0.995330642472      -0.0818411833364    -0.00315871064769   -0.0420578286978    
2000000000.0        -0.00353457925852   -0.0442548037533    0.994867743669      -0.0861363973849    0.994867743669      -0.0861363973849    -0.00353457925852   -0.0442548037533    
2100000000.0        -0.00392951564293   -0.0464489382547    0.994381352408      -0.0904293449324    0.994381352408      -0.0904293449324    -0.00392951564293   -0.0464489382547    
2200000000.0        -0.0043434975906    -0.0486400525006    0.993871483154      -0.094719862726     0.993871483154      -0.094719862726     -0.0043434975906    -0.0486400525006    
2300000000.0        -0.00477650094088   -0.0508279655812    0.9933381524        -0.0990077859704    0.9933381524        -0.0990077859704    -0.00477650094088   -0.0508279655812    
2400000000.0        -0.00522849953009   -0.0530124954911    0.992781378673      -0.103292948463     0.992781378673      -0.103292948463     -0.00522849953009   -0.0530124954911    
2500000000.0        -0.00569946514551   -0.0551934592375    0.992201182559      -0.10757518272      0.992201182559      -0.10757518272      -0.00569946514551   -0.0551934592375    
2600000000.0        -0.00618936748495   -0.0573706729418    0.991597586711      -0.111854320098     0.991597586711      -0.111854320098     -0.00618936748495   -0.0573706729418    
2700000000.0        -0.00669817412125   -0.0595439519375    0.990970615866      -0.116130190906     0.990970615866      -0.116130190906     -0.00669817412125   -0.0595439519375    
2800000000.0        -0.00722585047096   -0.061713110863     0.990320296863      -0.120402624511     0.990320296863      -0.120402624511     -0.00722585047096   -0.061713110863     
2900000000.0        -0.00777235976683   -0.0638779637511    0.98964665865       -0.124671449445     0.98964665865       -0.124671449445     -0.00777235976683   -0.0638779637511    
3000000000.0        -0.00833766303364   -0.0660383241156    0.988949732302      -0.128936493496     0.988949732302      -0.128936493496     -0.00833766303364   -0.0660383241156    
3100000000.0        -0.00892171906712   -0.0681940050337    0.988229551028      -0.133197583809     0.988229551028      -0.133197583809     -0.00892171906712   -0.0681940050337    
3200000000.0        -0.00952448441566   -0.0703448192272    0.987486150184      -0.137454546969     0.987486150184      -0.137454546969     -0.00952448441566   -0.0703448192272    
3300000000.0        -0.0101459133646    -0.0724905791397    0.986719567279      -0.141707209096     0.986719567279      -0.141707209096     -0.0101459133646    -0.0724905791397    
3400000000.0        -0.0107859579229    -0.0746310970123    0.985929841987      -0.14595539592      0.985929841987      -0.14595539592      -0.0107859579229    -0.0746310970123    
3500000000.0        -0.0114445678119    -0.0767661849572    0.985117016145      -0.150198932867     0.985117016145      -0.150198932867     -0.0114445678119    -0.0767661849572    
3600000000.0        -0.0121216904565    -0.078895655029     0.984281133766      -0.154437645139     0.984281133766      -0.154437645139     -0.0121216904565    -0.078895655029     
3700000000.0        -0.0128172709782    -0.0810193192938    0.983422241037      -0.158671357783     0.983422241037      -0.158671357783     -0.0128172709782    -0.0810193192938    
3800000000.0        -0.0135312521897    -0.0831369898978    0.98254038632       -0.162899895773     0.98254038632       -0.162899895773     -0.0135312521897    -0.0831369898978    
3900000000.0        -0.0142635745914    -0.0852484791326    0.981635620158      -0.167123084074     0.981635620158      -0.167123084074     -0.0142635745914    -0.0852484791326    
4000000000.0        -0.0150141763701    -0.0873535995003    0.98070799527       -0.171340747719     0.98070799527       -0.171340747719     -0.0150141763701    -0.0873535995003    
4100000000.0        -0.0157829933989    -0.0894521637762    0.979757566547      -0.17555271187      0.979757566547      -0.17555271187      -0.0157829933989    -0.0894521637762    
4200000000.0        -0.0165699592381    -0.0915439850707    0.978784391055      -0.179758801889     0.978784391055      -0.179758801889     -0.0165699592381    -0.0915439850707    
4300000000.0        -0.0173750051389    -0.0936288768892    0.977788528022      -0.183958843398     0.977788528022      -0.183958843398     -0.0173750051389    -0.0936288768892    
4400000000.0        -0.0181980600473    -0.0957066531913    0.976770038842      -0.188152662347     0.976770038842      -0.188152662347     -0.0181980600473    -0.0957066531913    
4500000000.0        -0.0190390506099    -0.0977771284487    0.975728987057      -0.19234008507      0.975728987057      -0.19234008507      -0.0190390506099    -0.0977771284487    
4600000000.0        -0.0198979011814    -0.0998401177007    0.974665438357      -0.196520938349     0.974665438357      -0.196520938349     -0.0198979011814    -0.0998401177007    
4700000000.0        -0.0207745338323    -0.101895436611     0.973579460567      -0.20069504947      0.973579460567      -0.20069504947      -0.0207745338323    -0.101895436611     
4800000000.0        -0.0216688683592    -0.103942901519     0.972471123636      -0.204862246278     0.972471123636      -0.204862246278     -0.0216688683592    -0.103942901519     
4900000000.0        -0.0225808222948    -0.105982329496     0.971340499629      -0.209022357237     0.971340499629      -0.209022357237     -0.0225808222948    -0.105982329496     
5000000000.0        -0.0235103109207    -0.108013538396     0.970187662708      -0.213175211482     0.970187662708      -0.213175211482     -0.0235103109207    -0.108013538396     
5100000000.0        -0.0244572472798    -0.110036346904     0.969012689124      -0.217320638871     0.969012689124      -0.217320638871     -0.0244572472798    -0.110036346904     
5200000000.0        -0.0254215421908    -0.112050574588     0.967815657198      -0.22145847004      0.967815657198      -0.22145847004      -0.0254215421908    -0.112050574588     
5300000000.0        -0.0264031042631    -0.114056041949     0.966596647308      -0.22558853645      0.966596647308      -0.22558853645      -0.0264031042631    -0.114056041949     
5400000000.0        -0.0274018399131    -0.116052570464     0.965355741873      -0.229710670437     0.965355741873      -0.229710670437     -0.0274018399131    -0.116052570464     
5500000000.0        -0.0284176533817    -0.118039982636     0.964093025329      -0.233824705263     0.964093025329      -0.233824705263     -0.0284176533817    -0.118039982636     
5600000000.0        -0.0294504467516    -0.120018102039     0.962808584118      -0.237930475161     0.962808584118      -0.237930475161     -0.0294504467516    -0.120018102039     
5700000000.0        -0.0305001199672    -0.121986753363     0.961502506666      -0.24202781538      0.961502506666      -0.24202781538      -0.0305001199672    -0.121986753363     
5800000000.0        -0.0315665708539    -0.123945762453     0.96017488336       -0.246116562232     0.96017488336       -0.246116562232     -0.0315665708539    -0.123945762453     
5900000000.0        -0.0326496951391    -0.125894956359     0.958825806529      -0.250196553135     0.958825806529      -0.250196553135     -0.0326496951391    -0.125894956359     
6000000000.0        -0.0337493864736    -0.127834163372     0.957455370422      -0.254267626656     0.957455370422      -0.254267626656     -0.0337493864736    -0.127834163372     
6100000000.0        -0.0348655364542    -0.129763213065     0.956063671186      -0.258329622549     0.956063671186      -0.258329622549     -0.0348655364542    -0.129763213065     
6200000000.0        -0.0359980346468    -0.131681936335     0.954650806839      -0.262382381803     0.954650806839      -0.262382381803     -0.0359980346468    -0.131681936335     
6300000000.0        -0.0371467686099    -0.133590165439     0.953216877251      -0.266425746675     0.953216877251      -0.266425746675     -0.0371467686099    -0.133590165439     
6400000000.0        -0.0383116239199    -0.135487734036     0.951761984113      -0.270459560731     0.951761984113      -0.270459560731     -0.0383116239199    -0.135487734036     
6500000000.0        -0.0394924841956    -0.137374477218     0.950286230918      -0.274483668883     0.950286230918      -0.274483668883     -0.0394924841956    -0.137374477218     
6600000000.0        -0.0406892311246    -0.139250231548     0.948789722928      -0.278497917426     0.948789722928      -0.278497917426     -0.0406892311246    -0.139250231548     
6700000000.0        -0.0419017444901    -0.141114835098     0.947272567153      -0.282502154075     0.947272567153      -0.282502154075     -0.0419017444901    -0.141114835098     
6800000000.0        -0.0431299021974    -0.142968127478     0.945734872318      -0.286496227994     0.945734872318      -0.286496227994     -0.0431299021974    -0.142968127478     
6900000000.0        -0.0443735803023    -0.144809949872     0.94417674884       -0.290479989835     0.94417674884       -0.290479989835     -0.0443735803023    -0.144809949872     
7000000000.0        -0.045632653039     -0.146640145069     0.942598308795      -0.294453291768     0.942598308795      -0.294453291768     -0.045632653039     -0.146640145069     
7100000000.0        -0.0469069928496    -0.148458557496     0.940999665892      -0.298415987515     0.940999665892      -0.298415987515     -0.0469069928496    -0.148458557496     
7200000000.0        -0.0481964704127    -0.150265033246     0.939380935442      -0.302367932375     0.939380935442      -0.302367932375     -0.0481964704127    -0.150265033246     
7300000000.0        -0.0495009546737    -0.152059420106     0.937742234327      -0.306308983259     0.937742234327      -0.306308983259     -0.0495009546737    -0.152059420106     
7400000000.0        -0.0508203128755    -0.15384156759      0.936083680971      -0.310238998717     0.936083680971      -0.310238998717     -0.0508203128755    -0.15384156759      
7500000000.0        -0.0521544105886    -0.155611326964     0.934405395306      -0.314157838964     0.934405395306      -0.314157838964     -0.0521544105886    -0.155611326964     
7600000000.0        -0.0535031117428    -0.15736855127      0.932707498745      -0.318065365909     0.932707498745      -0.318065365909     -0.0535031117428    -0.15736855127      
7700000000.0        -0.0548662786586    -0.159113095358     0.930990114145      -0.321961443178     0.930990114145      -0.321961443178     -0.0548662786586    -0.159113095358     
7800000000.0        -0.0562437720794    -0.160844815903     0.92925336578       -0.325845936143     0.92925336578       -0.325845936143     -0.0562437720794    -0.160844815903     
7900000000.0        -0.0576354512037    -0.162563571437     0.927497379302      -0.32971871194      0.927497379302      -0.32971871194      -0.0576354512037    -0.162563571437     
8000000000.0        -0.0590411737179    -0.164269222365     0.925722281713      -0.333579639498     0.925722281713      -0.333579639498     -0.0590411737179    -0.164269222365     
8100000000.0        -0.0604607958293    -0.165961630992     0.923928201332      -0.337428589555     0.923928201332      -0.337428589555     -0.0604607958293    -0.165961630992     
8200000000.0        -0.0618941722991    -0.167640661543     0.922115267757      -0.341265434687     0.922115267757      -0.341265434687     -0.0618941722991    -0.167640661543     
8300000000.0        -0.0633411564766    -0.169306180181     0.920283611833      -0.345090049318     0.920283611833      -0.345090049318     -0.0633411564766    -0.169306180181     
8400000000.0        -0.0648016003324    -0.17095805503      0.918433365622      -0.348902309748     0.918433365622      -0.348902309748     -0.0648016003324    -0.17095805503      
8500000000.0        -0.0662753544927    -0.172596156191     0.916564662361      -0.352702094168     0.916564662361      -0.352702094168     -0.0662753544927    -0.172596156191     
8600000000.0        -0.0677622682737    -0.174220355764     0.914677636433      -0.356489282676     0.914677636433      -0.356489282676     -0.0677622682737    -0.174220355764     
8700000000.0        -0.069262189716     -0.17583052786      0.912772423333      -0.360263757295     0.912772423333      -0.360263757295     -0.069262189716     -0.17583052786      
8800000000.0        -0.0707749656188    -0.177426548618     0.910849159627      -0.364025401992     0.910849159627      -0.364025401992     -0.0707749656188    -0.177426548618     
8900000000.0        -0.0723004415754    -0.179008296225     0.908907982923      -0.367774102686     0.908907982923      -0.367774102686     -0.0723004415754    -0.179008296225     
9000000000.0        -0.0738384620076    -0.180575650923     0.906949031832      -0.371509747267     0.906949031832      -0.371509747267     -0.0738384620076    -0.180575650923     
9100000000.0        -0.0753888702008    -0.182128495031     0.904972445937      -0.375232225608     0.904972445937      -0.375232225608     -0.0753888702008    -0.182128495031     
9200000000.0        -0.0769515083393    -0.183666712951     0.90297836575       -0.378941429578     0.90297836575       -0.378941429578     -0.0769515083393    -0.183666712951     
9300000000.0        -0.0785262175413    -0.185190191183     0.900966932686      -0.38263725305      0.900966932686      -0.38263725305      -0.0785262175413    -0.185190191183     
9400000000.0        -0.0801128378943    -0.186698818337     0.898938289019      -0.386319591916     0.898938289019      -0.386319591916     -0.0801128378943    -0.186698818337     
9500000000.0        -0.0817112084903    -0.18819248514      0.896892577851      -0.389988344096     0.896892577851      -0.389988344096     -0.0817112084903    -0.18819248514      
9600000000.0        -0.0833211674612    -0.189671084452     0.894829943077      -0.393643409542     0.894829943077      -0.393643409542     -0.0833211674612    -0.189671084452     
9700000000.0        -0.0849425520141    -0.191134511266     0.892750529345      -0.397284690254     0.892750529345      -0.397284690254     -0.0849425520141    -0.191134511266     
9800000000.0        -0.0865751984667    -0.192582662725     0.890654482024      -0.40091209028      0.890654482024      -0.40091209028      -0.0865751984667    -0.192582662725     
9900000000.0        -0.0882189422824    -0.194015438124     0.888541947169      -0.40452551573      0.888541947169      -0.40452551573      -0.0882189422824    -0.194015438124     
10000000000.0       -0.0898736181059    -0.195432738916     0.886413071481      -0.408124874773     0.886413071481      -0.408124874773     -0.0898736181059    -0.195432738916     
