# Hz S RI R 50.00 
100000000.0         -0.000140424212502  -0.0148127433339    0.999637007031      -0.0159142023503    0.999637007031      -0.0159142023503    -0.000140424212502  -0.0148127433339    
200000000.0         -0.000861555887123  -0.0296041848196    0.998912543794      -0.0318072570785    0.998912543794      -0.0318072570785    -0.000861555887123  -0.0296041848196    
300000000.0         -0.00205200870662   -0.044353473288     0.997717926746      -0.0476584025312    0.997717926746      -0.0476584025312    -0.00205200870662   -0.044353473288     
400000000.0         -0.00370860003019   -0.0590397956369    0.996056146112      -0.0634468972408    0.996056146112      -0.0634468972408    -0.00370860003019   -0.0590397956369    
500000000.0         -0.00582697893883   -0.0736425359857    0.993931478018      -0.0791521880336    0.993931478018      -0.0791521880336    -0.00582697893883   -0.0736425359857    
600000000.0         -0.00840160607734   -0.0881413900444    0.991349422881      -0.0947540274397    0.991349422881      -0.0947540274397    -0.00840160607734   -0.0881413900444    
700000000.0         -0.0114257739436    -0.102516465236     0.988316664381      -0.110232575358     0.988316664381      -0.110232575358     -0.0114257739436    -0.102516465236     
800000000.0         -0.0148916424455    -0.116748372342     0.984841026359      -0.125568491627     0.984841026359      -0.125568491627     -0.0148916424455    -0.116748372342     
900000000.0         -0.0187902843449    -0.130818310214     0.980931424024      -0.140743021353     0.980931424024      -0.140743021353     -0.0187902843449    -0.130818310214     
1000000000.0        -0.0231117385301    -0.144708143879     0.976597808993      -0.155738073449     0.976597808993      -0.155738073449     -0.0231117385301    -0.144708143879     
1100000000.0        -0.0278450698937    -0.158400475948     0.971851108473      -0.170536292368     0.971851108473      -0.170536292368     -0.0278450698937    -0.158400475948     
1200000000.0        -0.0329784348399    -0.17187871107      0.966703159204      -0.185121122813     0.966703159204      -0.185121122813     -0.0329784348399    -0.17187871107      
1300000000.0        -0.0384991515299    -0.185127113208     0.961166636869      -0.199476867209     0.961166636869      -0.199476867209     -0.0384991515299    -0.185127113208     
1400000000.0        -0.0443937739961    -0.198130855494     0.955254981749      -0.21358873573      0.955254981749      -0.21358873573      -0.0443937739961    -0.198130855494     
1500000000.0        -0.0506481692738    -0.210876062525     0.948982321443      -0.227442888724     0.948982321443      -0.227442888724     -0.0506481692738    -0.210876062525     
1600000000.0        -0.0572475967069    -0.223349845009     0.942363391457      -0.241026471483     0.942363391457      -0.241026471483     -0.0572475967069    -0.223349845009     
1700000000.0        -0.0641767886038    -0.235540326777     0.935413454471      -0.254327641355     0.935413454471      -0.254327641355     -0.0641767886038    -0.235540326777     
1800000000.0        -0.0714200314474    -0.247436664244     0.928148219075      -0.267335587291     0.928148219075      -0.267335587291     -0.0714200314474    -0.247436664244     
1900000000.0        -0.0789612468967    -0.259029058483     0.920583758728      -0.280040541995     0.920583758728      -0.280040541995     -0.0789612468967    -0.259029058483     
2000000000.0        -0.0867840718624    -0.270308760159     0.912736431652      -0.292433786935     0.912736431652      -0.292433786935     -0.0867840718624    -0.270308760159     
2100000000.0        -0.0948719369905    -0.281268067633     0.904622802324      -0.304507650501     0.904622802324      -0.304507650501     -0.0948719369905    -0.281268067633     
2200000000.0        -0.103208142944     -0.291900318605     0.896259565179      -0.31625549971      0.896259565179      -0.31625549971      -0.103208142944     -0.291900318605     
2300000000.0        -0.111775933935     -0.302199875719     0.887663471061      -0.327671725858     0.887663471061      -0.327671725858     -0.111775933935     -0.302199875719     
2400000000.0        -0.120558568034     -0.31216210659      0.878851256907      -0.338751724594     0.878851256907      -0.338751724594     -0.120558568034     -0.31216210659      
2500000000.0        -0.129539383828     -0.32178335875      0.869839579074      -0.349491870915     0.869839579074      -0.349491870915     -0.129539383828     -0.32178335875      
2600000000.0        -0.138701863105     -0.331060930037     0.860644950653      -0.359889489586     0.860644950653      -0.359889489586     -0.138701863105     -0.331060930037     
2700000000.0        -0.148029689278     -0.339993034949     0.851283683042      -0.369942821536     0.851283683042      -0.369942821536     -0.148029689278     -0.339993034949     
2800000000.0        -0.15750680133      -0.348578767508     0.841771831986      -0.379650986759     0.841771831986      -0.379650986759     -0.15750680133      -0.348578767508     
2900000000.0        -0.167117443167     -0.356818061176     0.83212514823       -0.38901394425      0.83212514823       -0.38901394425      -0.167117443167     -0.356818061176     
3000000000.0        -0.176846208266     -0.364711646329     0.822359032865      -0.398032449523     0.822359032865      -0.398032449523     -0.176846208266     -0.364711646329     
3100000000.0        -0.186678079602     -0.372261005818     0.812488497395      -0.406708010192     0.812488497395      -0.406708010192     -0.186678079602     -0.372261005818     
3200000000.0        -0.196598464887     -0.379468329105     0.802528128503      -0.415042840131     0.802528128503      -0.415042840131     -0.196598464887     -0.379468329105     
3300000000.0        -0.206593227179     -0.386336465419     0.792492057429      -0.423039812665     0.792492057429      -0.423039812665     -0.206593227179     -0.386336465419     
3400000000.0        -0.216648710993     -0.392868876391     0.782393933871      -0.430702413212     0.782393933871      -0.430702413212     -0.216648710993     -0.392868876391     
3500000000.0        -0.226751764038     -0.399069588546     0.772246904238      -0.438034691815     0.772246904238      -0.438034691815     -0.226751764038     -0.399069588546     
3600000000.0        -0.236889754783     -0.404943146035     0.76206359408       -0.44504121588      0.76206359408       -0.44504121588      -0.236889754783     -0.404943146035     
3700000000.0        -0.247050586049     -0.410494563934     0.751856094504      -0.451727023502     0.751856094504      -0.451727023502     -0.247050586049     -0.410494563934     
3800000000.0        -0.257222704843     -0.415729282397     0.741635952329      -0.458097577635     0.741635952329      -0.458097577635     -0.257222704843     -0.415729282397     
3900000000.0        -0.267395108694     -0.42065312194      0.731414163761      -0.46415872139      0.731414163761      -0.46415872139      -0.267395108694     -0.42065312194      
4000000000.0        -0.277557348712     -0.425272240058     0.721201171318      -0.469916634678     0.721201171318      -0.469916634678     -0.277557348712     -0.425272240058     
4100000000.0        -0.287699529664     -0.429593089388     0.711006863767      -0.475377792375     0.711006863767      -0.475377792375     -0.287699529664     -0.429593089388     
4200000000.0        -0.29781230729      -0.433622377555     0.700840578795      -0.480548924198     0.700840578795      -0.480548924198     -0.29781230729      -0.433622377555     
4300000000.0        -0.30788688315      -0.437367028843     0.690711108173      -0.485436976376     0.690711108173      -0.485436976376     -0.30788688315      -0.437367028843     
4400000000.0        -0.317914997226     -0.440834147773     0.680626705142      -0.490049075254     0.680626705142      -0.490049075254     -0.317914997226     -0.440834147773     
4500000000.0        -0.327888918561     -0.444030984678     0.670595093781      -0.494392492871     0.670595093781      -0.494392492871     -0.327888918561     -0.444030984678     
4600000000.0        -0.337801434148     -0.446964903294     0.660623480114      -0.498474614571     0.660623480114      -0.498474614571     -0.337801434148     -0.446964903294     
4700000000.0        -0.347645836318     -0.449643350418     0.650718564719      -0.502302908668     0.650718564719      -0.502302908668     -0.347645836318     -0.449643350418     
4800000000.0        -0.357415908837     -0.45207382762      0.640886556634      -0.50588489817      0.640886556634      -0.50588489817      -0.357415908837     -0.45207382762      
4900000000.0        -0.367105911926     -0.454263864991     0.631133188334      -0.509228134541     0.631133188334      -0.509228134541     -0.367105911926     -0.454263864991     
5000000000.0        -0.376710566395     -0.456220996919     0.621463731597      -0.512340173481     0.621463731597      -0.512340173481     -0.376710566395     -0.456220996919     
5100000000.0        -0.386225037065     -0.457952739825     0.611883014076      -0.515228552678     0.611883014076      -0.515228552678     -0.386225037065     -0.457952739825     
5200000000.0        -0.395644915667     -0.459466571819     0.602395436408      -0.517900771472     0.602395436408      -0.517900771472     -0.395644915667     -0.459466571819     
5300000000.0        -0.40496620334      -0.460769914215     0.593004989708      -0.520364272375     0.593004989708      -0.520364272375     -0.40496620334      -0.460769914215     
5400000000.0        -0.414185292892     -0.461870114821     0.583715273308      -0.522626424375     0.583715273308      -0.522626424375     -0.414185292892     -0.461870114821     
5500000000.0        -0.423298950941     -0.462774432941     0.574529512619      -0.524694507941     0.574529512619      -0.524694507941     -0.423298950941     -0.462774432941     
5600000000.0        -0.432304300043     -0.463490026001     0.565450576994      -0.526575701662     0.565450576994      -0.526575701662     -0.432304300043     -0.463490026001     
5700000000.0        -0.441198800925     -0.464023937711     0.556480997501      -0.528277070415     0.556480997501      -0.528277070415     -0.441198800925     -0.464023937711     
5800000000.0        -0.44998023489      -0.464383087693     0.547622984516      -0.529805554997     0.547622984516      -0.529805554997     -0.44998023489      -0.464383087693     
5900000000.0        -0.458646686481     -0.464574262462     0.53887844505       -0.531167963116     0.53887844505       -0.531167963116     -0.458646686481     -0.464574262462     
6000000000.0        -0.467196526487     -0.464604107694     0.530248999757      -0.532370961667     0.530248999757      -0.532370961667     -0.467196526487     -0.464604107694     
6100000000.0        -0.475628395309     -0.464479121694     0.521735999547      -0.533421070202     0.521735999547      -0.533421070202     -0.475628395309     -0.464479121694     
6200000000.0        -0.483941186782     -0.464205649959     0.513340541781      -0.534324655504     0.513340541781      -0.534324655504     -0.483941186782     -0.464205649959     
6300000000.0        -0.492134032447     -0.463789880779     0.505063485986      -0.53508792719      0.505063485986      -0.53508792719      -0.492134032447     -0.463789880779     
6400000000.0        -0.500206286345     -0.463237841775     0.496905469065      -0.53571693426      0.496905469065      -0.53571693426      -0.500206286345     -0.463237841775     
6500000000.0        -0.508157510323     -0.462555397317     0.488866919986      -0.536217562512     0.488866919986      -0.536217562512     -0.508157510323     -0.462555397317     
6600000000.0        -0.515987459901     -0.461748246721     0.480948073918      -0.536595532752     0.480948073918      -0.536595532752     -0.515987459901     -0.461748246721     
6700000000.0        -0.523696070686     -0.460821923178     0.47314898581       -0.536856399728     0.47314898581       -0.536856399728     -0.523696070686     -0.460821923178     
6800000000.0        -0.53128344537      -0.45978179334      0.465469543398      -0.537005551714     0.465469543398      -0.537005551714     -0.53128344537      -0.45978179334      
6900000000.0        -0.538749841283     -0.45863305749      0.457909479644      -0.537048210693     0.457909479644      -0.537048210693     -0.538749841283     -0.45863305749      
7000000000.0        -0.546095658534     -0.45738075025      0.450468384599      -0.536989433064     0.450468384599      -0.536989433064     -0.546095658534     -0.45738075025      
7100000000.0        -0.553321428703     -0.456029741761     0.443145716703      -0.536834110828     0.443145716703      -0.536834110828     -0.553321428703     -0.456029741761     
7200000000.0        -0.560427804112     -0.454584739284     0.435940813522      -0.536586973195     0.435940813522      -0.536586973195     -0.560427804112     -0.454584739284     
7300000000.0        -0.567415547634     -0.453050289175     0.428852901927      -0.536252588561     0.428852901927      -0.536252588561     -0.567415547634     -0.453050289175     
7400000000.0        -0.574285523049     -0.451430779186     0.421881107742      -0.535835366816     0.421881107742      -0.535835366816     -0.574285523049     -0.451430779186     
7500000000.0        -0.581038685929     -0.449730441048     0.415024464856      -0.535339561927     0.415024464856      -0.535339561927     -0.581038685929     -0.449730441048     
7600000000.0        -0.587676075033     -0.447953353304     0.408281923829      -0.534769274778     0.408281923829      -0.534769274778     -0.587676075033     -0.447953353304     
7700000000.0        -0.5941988042       -0.446103444342     0.401652359992      -0.534128456205     0.401652359992      -0.534128456205     -0.5941988042       -0.446103444342     
7800000000.0        -0.600608054723     -0.444184495612     0.395134581075      -0.533420910218     0.395134581075      -0.533420910218     -0.600608054723     -0.444184495612     
7900000000.0        -0.606905068186     -0.442200144983     0.388727334366      -0.532650297358     0.388727334366      -0.532650297358     -0.606905068186     -0.442200144983     
8000000000.0        -0.613091139749     -0.440153890214     0.382429313426      -0.531820138179     0.382429313426      -0.531820138179     -0.613091139749     -0.440153890214     
8100000000.0        -0.619167611855     -0.438049092525     0.376239164381      -0.530933816813     0.376239164381      -0.530933816813     -0.619167611855     -0.438049092525     
8200000000.0        -0.625135868354     -0.435888980231     0.370155491792      -0.529994584615     0.370155491792      -0.529994584615     -0.625135868354     -0.435888980231     
8300000000.0        -0.630997329007     -0.433676652425     0.364176864153      -0.529005563844     0.364176864153      -0.529005563844     -0.630997329007     -0.433676652425     
8400000000.0        -0.636753444373     -0.431415082693     0.358301818999      -0.527969751385     0.358301818999      -0.527969751385     -0.636753444373     -0.431415082693     
8500000000.0        -0.642405691047     -0.429107122842     0.35252886767       -0.526890022476     0.35252886767       -0.526890022476     -0.642405691047     -0.429107122842     
8600000000.0        -0.647955567228     -0.426755506622     0.346856499736      -0.525769134437     0.346856499736      -0.525769134437     -0.647955567228     -0.426755506622     
8700000000.0        -0.653404588622     -0.424362853442     0.341283187095      -0.524609730387     0.341283187095      -0.524609730387     -0.653404588622     -0.424362853442     
8800000000.0        -0.658754284632     -0.421931672051     0.335807387782      -0.523414342926     0.335807387782      -0.523414342926     -0.658754284632     -0.421931672051     
8900000000.0        -0.664006194841     -0.419464364185     0.330427549479      -0.522185397791     0.330427549479      -0.522185397791     -0.664006194841     -0.419464364185     
9000000000.0        -0.669161865771     -0.416963228174     0.32514211276       -0.520925217458     0.32514211276       -0.520925217458     -0.669161865771     -0.416963228174     
9100000000.0        -0.674222847887     -0.414430462488     0.31994951408       -0.519636024696     0.31994951408       -0.519636024696     -0.674222847887     -0.414430462488     
9200000000.0        -0.679190692846     -0.411868169227     0.314848188526      -0.518319946058     0.314848188526      -0.518319946058     -0.679190692846     -0.411868169227     
9300000000.0        -0.684066950975     -0.409278357545     0.309836572335      -0.516979015308     0.309836572335      -0.516979015308     -0.684066950975     -0.409278357545     
9400000000.0        -0.688853168957     -0.406662947007     0.304913105209      -0.515615176779     0.304913105209      -0.515615176779     -0.688853168957     -0.406662947007     
9500000000.0        -0.693550887716     -0.404023770862     0.300076232423      -0.514230288654     0.300076232423      -0.514230288654     -0.693550887716     -0.404023770862     
9600000000.0        -0.698161640496     -0.401362579253     0.295324406748      -0.512826126168     0.295324406748      -0.512826126168     -0.698161640496     -0.401362579253     
9700000000.0        -0.702686951104     -0.398681042334     0.290656090203      -0.511404384742     0.290656090203      -0.511404384742     -0.702686951104     -0.398681042334     
9800000000.0        -0.707128332328     -0.395980753312     0.286069755635      -0.509966683014     0.286069755635      -0.509966683014     -0.707128332328     -0.395980753312     
9900000000.0        -0.711487284502     -0.393263231408     0.281563888152      -0.50851456581      0.281563888152      -0.50851456581      -0.711487284502     -0.393263231408     
10000000000.0       -0.715765294209     -0.390529924723     0.277136986416      -0.507049507012     0.277136986416      -0.507049507012     -0.715765294209     -0.390529924723     
