# Hz S RI R 50.00 
100000000.0         0.0171878535701     0.00336875268954    0.982806673975      -0.00557178285305   0.982806673975      -0.00557178285305   0.0171878535701     0.00336875268954    
200000000.0         0.0173563909975     0.00673495813559    0.982628781959      -0.0111410277737    0.982628781959      -0.0111410277737    0.0173563909975     0.00673495813559    
300000000.0         0.0175332125885     0.0100989244091     0.982437722993      -0.0167080552823    0.982437722993      -0.0167080552823    0.0175332125885     0.0100989244091     
400000000.0         0.0177329772615     0.0134604240707     0.982218837439      -0.0222726489759    0.982218837439      -0.0222726489759    0.0177329772615     0.0134604240707     
500000000.0         0.0179613079641     0.0168191060035     0.981966501519      -0.0278344680634    0.981966501519      -0.0278344680634    0.0179613079641     0.0168191060035     
600000000.0         0.0182210479286     0.0201745649733     0.981677871039      -0.0333931171727    0.981677871039      -0.0333931171727    0.0182210479286     0.0201745649733     
700000000.0         0.0185138513308     0.0235263666756     0.981351290727      -0.0389481715226    0.981351290727      -0.0389481715226    0.0185138513308     0.0235263666756     
800000000.0         0.0188407638911     0.0268740594191     0.98098571363       -0.0444991886819    0.98098571363       -0.0444991886819    0.0188407638911     0.0268740594191     
900000000.0         0.0192024814094     0.0302171804667     0.980580442575      -0.0500457149586    0.980580442575      -0.0500457149586    0.0192024814094     0.0302171804667     
1000000000.0        0.0195994808258     0.033555259849      0.980134999107      -0.0555872892487    0.980134999107      -0.0555872892487    0.0195994808258     0.033555259849      
1100000000.0        0.0200320930893     0.0368878228408     0.979649050623      -0.0611234455379    0.979649050623      -0.0611234455379    0.0200320930893     0.0368878228408     
1200000000.0        0.0205005465921     0.0402143916708     0.979122366936      -0.06665371463      0.979122366936      -0.06665371463      0.0205005465921     0.0402143916708     
1300000000.0        0.0210049945114     0.0435344867607     0.97855479293       -0.0721776254016    0.97855479293       -0.0721776254016    0.0210049945114     0.0435344867607     
1400000000.0        0.0215455327981     0.0468476276633     0.977946230578      -0.0776947057523    0.977946230578      -0.0776947057523    0.0215455327981     0.0468476276633     
1500000000.0        0.0221222124506     0.0501533337981     0.977296626662      -0.0832044833497    0.977296626662      -0.0832044833497    0.0221222124506     0.0501533337981     
1600000000.0        0.0227350481542     0.0534511250468     0.976605964136      -0.088706486233     0.976605964136      -0.088706486233     0.0227350481542     0.0534511250468     
1700000000.0        0.0233840245242     0.0567405222484     0.975874255886      -0.0942002433156    0.975874255886      -0.0942002433156    0.0233840245242     0.0567405222484     
1800000000.0        0.0240691007254     0.0600210476216     0.975101540106      -0.0996852848122    0.975101540106      -0.0996852848122    0.0240691007254     0.0600210476216     
1900000000.0        0.0247902139608     0.0632922251313     0.974287876811      -0.105161142611     0.974287876811      -0.105161142611     0.0247902139608     0.0632922251313     
2000000000.0        0.0255472821561     0.0665535808134     0.973433345155      -0.110627350603     0.973433345155      -0.110627350603     0.0255472821561     0.0665535808134     
2100000000.0        0.0263402060617     0.0698046430664     0.972538041325      -0.116083444977     0.972538041325      -0.116083444977     0.0263402060617     0.0698046430664     
2200000000.0        0.027168870924      0.0730449429169     0.971602076874      -0.121528964486     0.971602076874      -0.121528964486     0.027168870924      0.0730449429169     
2300000000.0        0.0280331478352     0.0762740142631     0.970625577369      -0.126963450699     0.970625577369      -0.126963450699     0.0280331478352     0.0762740142631     
2400000000.0        0.0289328948383     0.0794913941018     0.969608681286      -0.132386448224     0.969608681286      -0.132386448224     0.0289328948383     0.0794913941018     
2500000000.0        0.0298679578439     0.0826966227394     0.968551539096      -0.137797504927     0.968551539096      -0.137797504927     0.0298679578439     0.0826966227394     
2600000000.0        0.0308381714015     0.085889243991      0.967454312488      -0.143196172129     0.967454312488      -0.143196172129     0.0308381714015     0.085889243991      
2700000000.0        0.0318433593563     0.0890688053688     0.966317173719      -0.148582004798     0.966317173719      -0.148582004798     0.0318433593563     0.0890688053688     
2800000000.0        0.0328833354148     0.0922348582602     0.965140305044      -0.153954561729     0.965140305044      -0.153954561729     0.0328833354148     0.0922348582602     
2900000000.0        0.0339579036393     0.095386958098      0.963923898225      -0.159313405714     0.963923898225      -0.159313405714     0.0339579036393     0.095386958098      
3000000000.0        0.0350668588828     0.0985246645227     0.962668154092      -0.164658103706     0.962668154092      -0.164658103706     0.0350668588828     0.0985246645227     
3100000000.0        0.0362099871784     0.101647541537      0.961373282157      -0.169988226977     0.961373282157      -0.169988226977     0.0362099871784     0.101647541537      
3200000000.0        0.0373870660897     0.104755157657      0.960039500263      -0.175303351266     0.960039500263      -0.175303351266     0.0373870660897     0.104755157657      
3300000000.0        0.0385978650302     0.107847086051      0.958667034262      -0.180603056924     0.958667034262      -0.180603056924     0.0385978650302     0.107847086051      
3400000000.0        0.0398421455569     0.110922904679      0.957256117726      -0.185886929049     0.957256117726      -0.185886929049     0.0398421455569     0.110922904679      
3500000000.0        0.0411196616428     0.113982196424      0.95580699167       -0.191154557621     0.95580699167       -0.191154557621     0.0411196616428     0.113982196424      
3600000000.0        0.0424301599324     0.117024549218      0.9543199043        -0.196405537628     0.9543199043        -0.196405537628     0.0424301599324     0.117024549218      
3700000000.0        0.0437733799814     0.120049556163      0.952795110771      -0.20163946919      0.952795110771      -0.20163946919      0.0437733799814     0.120049556163      
3800000000.0        0.0451490544851     0.123056815647      0.951232872959      -0.206855957671     0.951232872959      -0.206855957671     0.0451490544851     0.123056815647      
3900000000.0        0.0465569094969     0.126045931459      0.949633459244      -0.212054613795     0.949633459244      -0.212054613795     0.0465569094969     0.126045931459      
4000000000.0        0.0479966646367     0.12901651289       0.947997144298      -0.217235053753     0.947997144298      -0.217235053753     0.0479966646367     0.12901651289       
4100000000.0        0.0494680332943     0.131968174841      0.946324208887      -0.222396899306     0.946324208887      -0.222396899306     0.0494680332943     0.131968174841      
4200000000.0        0.0509707228242     0.134900537917      0.944614939671      -0.227539777882     0.944614939671      -0.227539777882     0.0509707228242     0.134900537917      
4300000000.0        0.0525044347375     0.137813228527      0.942869629014      -0.232663322672     0.942869629014      -0.232663322672     0.0525044347375     0.137813228527      
4400000000.0        0.0540688648877     0.140705878964      0.941088574797      -0.237767172718     0.941088574797      -0.237767172718     0.0540688648877     0.140705878964      
4500000000.0        0.0556637036534     0.143578127499      0.93927208024       -0.242850972999     0.93927208024       -0.242850972999     0.0556637036534     0.143578127499      
4600000000.0        0.057288636118      0.146429618456      0.937420453714      -0.247914374512     0.937420453714      -0.247914374512     0.057288636118      0.146429618456      
4700000000.0        0.0589433422457     0.149260002293      0.935534008572      -0.252957034351     0.935534008572      -0.252957034351     0.0589433422457     0.149260002293      
4800000000.0        0.0606274970559     0.15206893567       0.93361306297       -0.257978615774     0.93361306297       -0.257978615774     0.0606274970559     0.15206893567       
4900000000.0        0.062340770795      0.154856081523      0.931657939699      -0.262978788279     0.931657939699      -0.262978788279     0.062340770795      0.154856081523      
5000000000.0        0.0640828291063     0.157621109123      0.929668966011      -0.267957227662     0.929668966011      -0.267957227662     0.0640828291063     0.157621109123      
5100000000.0        0.0658533331979     0.160363694138      0.927646473452      -0.272913616082     0.927646473452      -0.272913616082     0.0658533331979     0.160363694138      
5200000000.0        0.06765194001       0.163083518693      0.925590797698      -0.277847642114     0.925590797698      -0.277847642114     0.06765194001       0.163083518693      
5300000000.0        0.0694783023793     0.165780271416      0.923502278384      -0.282759000804     0.923502278384      -0.282759000804     0.0694783023793     0.165780271416      
5400000000.0        0.0713320692033     0.168453647492      0.921381258947      -0.287647393715     0.921381258947      -0.287647393715     0.0713320692033     0.168453647492      
5500000000.0        0.0732128856028     0.171103348705      0.919228086455      -0.292512528974     0.919228086455      -0.292512528974     0.0732128856028     0.171103348705      
5600000000.0        0.0751203930828     0.173729083477      0.917043111454      -0.297354121311     0.917043111454      -0.297354121311     0.0751203930828     0.173729083477      
5700000000.0        0.0770542296931     0.176330566908      0.914826687801      -0.302171892094     0.914826687801      -0.302171892094     0.0770542296931     0.176330566908      
5800000000.0        0.079014030187      0.178907520808      0.91257917251       -0.306965569367     0.91257917251       -0.306965569367     0.079014030187      0.178907520808      
5900000000.0        0.0809994261792     0.181459673724      0.910300925588      -0.311734887873     0.910300925588      -0.311734887873     0.0809994261792     0.181459673724      
6000000000.0        0.0830100463023     0.183986760969      0.907992309884      -0.316479589084     0.907992309884      -0.316479589084     0.0830100463023     0.183986760969      
6100000000.0        0.0850455163624     0.186488524641      0.90565369093       -0.32119942122      0.90565369093       -0.32119942122      0.0850455163624     0.186488524641      
6200000000.0        0.0871054594934     0.188964713643      0.903285436787      -0.325894139269     0.903285436787      -0.325894139269     0.0871054594934     0.188964713643      
6300000000.0        0.0891894963098     0.191415083696      0.900887917894      -0.330563504999     0.900887917894      -0.330563504999     0.0891894963098     0.191415083696      
6400000000.0        0.0912972450593     0.193839397351      0.89846150691       -0.335207286972     0.89846150691       -0.335207286972     0.0912972450593     0.193839397351      
6500000000.0        0.0934283217723     0.196237423997      0.896006578569      -0.339825260549     0.896006578569      -0.339825260549     0.0934283217723     0.196237423997      
6600000000.0        0.0955823404121     0.198608939864      0.893523509528      -0.344417207893     0.893523509528      -0.344417207893     0.0955823404121     0.198608939864      
6700000000.0        0.0977589130223     0.200953728024      0.89101267822       -0.348982917973     0.89101267822       -0.348982917973     0.0977589130223     0.200953728024      
6800000000.0        0.0999576498738     0.20327157839       0.888474464704      -0.353522186559     0.888474464704      -0.353522186559     0.0999576498738     0.20327157839       
6900000000.0        0.102178159609      0.205562287707      0.885909250524      -0.358034816216     0.885909250524      -0.358034816216     0.102178159609      0.205562287707      
7000000000.0        0.104420049388      0.207825659546      0.883317418561      -0.362520616294     0.883317418561      -0.362520616294     0.104420049388      0.207825659546      
7100000000.0        0.106682925025      0.21006150429       0.880699352893      -0.366979402917     0.880699352893      -0.366979402917     0.106682925025      0.21006150429       
7200000000.0        0.108966391137      0.21226963912       0.878055438654      -0.371410998967     0.878055438654      -0.371410998967     0.108966391137      0.21226963912       
7300000000.0        0.111270051275      0.214449887993      0.875386061893      -0.375815234064     0.875386061893      -0.375815234064     0.111270051275      0.214449887993      
7400000000.0        0.113593508067      0.216602081626      0.872691609437      -0.380191944545     0.872691609437      -0.380191944545     0.113593508067      0.216602081626      
7500000000.0        0.11593636335       0.218726057468      0.869972468758      -0.384540973441     0.869972468758      -0.384540973441     0.11593636335       0.218726057468      
7600000000.0        0.118298218305      0.220821659674      0.867229027834      -0.388862170448     0.867229027834      -0.388862170448     0.118298218305      0.220821659674      
7700000000.0        0.12067867359       0.222888739075      0.864461675019      -0.393155391895     0.864461675019      -0.393155391895     0.12067867359       0.222888739075      
7800000000.0        0.123077329468      0.224927153145      0.861670798914      -0.397420500716     0.861670798914      -0.397420500716     0.123077329468      0.224927153145      
7900000000.0        0.125493785937      0.226936765968      0.858856788236      -0.401657366409     0.858856788236      -0.401657366409     0.125493785937      0.226936765968      
8000000000.0        0.127927642858      0.228917448195      0.85602003169       -0.405865865002     0.85602003169       -0.405865865002     0.127927642858      0.228917448195      
8100000000.0        0.130378500073      0.23086907701       0.853160917849      -0.410045879008     0.853160917849      -0.410045879008     0.130378500073      0.23086907701       
8200000000.0        0.132845957536      0.232791536082      0.850279835025      -0.414197297388     0.850279835025      -0.414197297388     0.132845957536      0.232791536082      
8300000000.0        0.135329615428      0.234684715523      0.847377171153      -0.418320015498     0.847377171153      -0.418320015498     0.135329615428      0.234684715523      
8400000000.0        0.137829074275      0.23654851184       0.844453313671      -0.422413935048     0.844453313671      -0.422413935048     0.137829074275      0.23654851184       
8500000000.0        0.140343935068      0.238382827884      0.841508649401      -0.426478964046     0.841508649401      -0.426478964046     0.140343935068      0.238382827884      
8600000000.0        0.142873799374      0.240187572801      0.838543564438      -0.430515016752     0.838543564438      -0.430515016752     0.142873799374      0.240187572801      
8700000000.0        0.145418269448      0.241962661974      0.835558444034      -0.434522013619     0.835558444034      -0.434522013619     0.145418269448      0.241962661974      
8800000000.0        0.147976948344      0.24370801697       0.832553672492      -0.438499881236     0.832553672492      -0.438499881236     0.147976948344      0.24370801697       
8900000000.0        0.150549440025      0.245423565484      0.829529633054      -0.442448552275     0.829529633054      -0.442448552275     0.150549440025      0.245423565484      
9000000000.0        0.153135349461      0.247109241274      0.826486707795      -0.446367965427     0.826486707795      -0.446367965427     0.153135349461      0.247109241274      
9100000000.0        0.155734282741      0.248764984104      0.823425277525      -0.450258065339     0.823425277525      -0.450258065339     0.155734282741      0.248764984104      
9200000000.0        0.158345847165      0.250390739681      0.820345721681      -0.454118802556     0.820345721681      -0.454118802556     0.158345847165      0.250390739681      
9300000000.0        0.16096965135       0.251986459586      0.817248418232      -0.457950133447     0.817248418232      -0.457950133447     0.16096965135       0.251986459586      
9400000000.0        0.163605305323      0.253552101213      0.81413374358       -0.461752020148     0.81413374358       -0.461752020148     0.163605305323      0.253552101213      
9500000000.0        0.166252420613      0.255087627696      0.811002072469      -0.465524430487     0.811002072469      -0.465524430487     0.166252420613      0.255087627696      
9600000000.0        0.168910610348      0.256593007845      0.807853777887      -0.469267337916     0.807853777887      -0.469267337916     0.168910610348      0.256593007845      
9700000000.0        0.171579489338      0.258068216072      0.804689230982      -0.472980721439     0.804689230982      -0.472980721439     0.171579489338      0.258068216072      
9800000000.0        0.174258674166      0.25951323232       0.801508800973      -0.476664565544     0.801508800973      -0.476664565544     0.174258674166      0.25951323232       
9900000000.0        0.17694778327       0.26092804199       0.798312855062      -0.480318860122     0.798312855062      -0.480318860122     0.17694778327       0.26092804199       
10000000000.0       0.179646437029      0.262312635867      0.795101758355      -0.4839436004       0.795101758355      -0.4839436004       0.179646437029      0.262312635867      
