# Hz S RI R 50.00 
100000000.0         -0.0121599201299    -0.109087513888     0.987824948676      -0.109178949996     0.987824948676      -0.109178949996     -0.0121599201299    -0.109087513888     
200000000.0         -0.0467302875263    -0.210485943472     0.953254465118      -0.210668877793     0.953254465118      -0.210668877793     -0.0467302875263    -0.210485943472     
300000000.0         -0.0991734119491    -0.298268240107     0.900811242023      -0.298542764902     0.900811242023      -0.298542764902     -0.0991734119491    -0.298268240107     
400000000.0         -0.163514317838     -0.369158628556     0.836470241924      -0.369524857166     0.836470241924      -0.369524857166     -0.163514317838     -0.369158628556     
500000000.0         -0.233793615109     -0.422518646987     0.76619084989       -0.422976708506     0.76619084989       -0.422976708506     -0.233793615109     -0.422518646987     
600000000.0         -0.305073766003     -0.459667191869     0.694910601113      -0.460217227251     0.694910601113      -0.460217227251     -0.305073766003     -0.459667191869     
700000000.0         -0.373840187195     -0.483003048927     0.626144077389      -0.483645207904     0.626144077389      -0.483645207904     -0.373840187195     -0.483003048927     
800000000.0         -0.437944372154     -0.495267887084     0.562039784247      -0.496002325658     0.562039784247      -0.496002325658     -0.437944372154     -0.495267887084     
900000000.0         -0.496320901586     -0.499072894904     0.503663140281      -0.499899773268     0.503663140281      -0.499899773268     -0.496320901586     -0.499072894904     
1000000000.0        -0.548657010369     -0.496665992617     0.451326910088      -0.497585473427     0.451326910088      -0.497585473427     -0.548657010369     -0.496665992617     
1100000000.0        -0.595107619355     -0.489863007187     0.404876172422      -0.490875254131     0.404876172422      -0.490875254131     -0.595107619355     -0.489863007187     
1200000000.0        -0.636084755846     -0.480069091289     0.363898899661      -0.481174267904     0.363898899661      -0.481174267904     -0.636084755846     -0.480069091289     
1300000000.0        -0.672117086627     -0.468338916656     0.327866424763      -0.469537185364     0.327866424763      -0.469537185364     -0.672117086627     -0.468338916656     
1400000000.0        -0.703763644175     -0.455446031444     0.296219715039      -0.45673755277      0.296219715039      -0.45673755277      -0.703763644175     -0.455446031444     
1500000000.0        -0.731565088595     -0.441947094174     0.2684181102        -0.443332026132     0.2684181102        -0.443332026132     -0.731565088595     -0.441947094174     
1600000000.0        -0.756019106203     -0.42823566704      0.243963923778      -0.429714164644     0.243963923778      -0.429714164644     -0.756019106203     -0.42823566704      
1700000000.0        -0.777570423663     -0.414584808253     0.222412428972      -0.416157023162     0.222412428972      -0.416157023162     -0.777570423663     -0.414584808253     
1800000000.0        -0.79660915869      -0.401179665833     0.203373507951      -0.402845746083     0.203373507951      -0.402845746083     -0.79660915869      -0.401179665833     
1900000000.0        -0.8134735787       -0.388141885898     0.186508893193      -0.389901975729     0.186508893193      -0.389901975729     -0.8134735787       -0.388141885898     
2000000000.0        -0.828454914409     -0.375547635155     0.17152735389       -0.377401874905     0.17152735389       -0.377401874905     -0.828454914409     -0.375547635155     
2100000000.0        -0.841802879565     -0.363440784025     0.15817917621       -0.365389310083     0.15817917621       -0.365389310083     -0.841802879565     -0.363440784025     
2200000000.0        -0.853731164607     -0.351842488084     0.146250669636      -0.353885432896     0.146250669636      -0.353885432896     -0.853731164607     -0.351842488084     
2300000000.0        -0.864422538762     -0.340758119375     0.135559064876      -0.342895611486     0.135559064876      -0.342895611486     -0.864422538762     -0.340758119375     
2400000000.0        -0.874033406101     -0.330182261636     0.125947957793      -0.332414425771     0.125947957793      -0.332414425771     -0.874033406101     -0.330182261636     
2500000000.0        -0.882697777699     -0.320102297331     0.117283337255      -0.322429254494     0.117283337255      -0.322429254494     -0.882697777699     -0.320102297331     
2600000000.0        -0.890530682712     -0.310500973147     0.109450174053      -0.312922840749     0.109450174053      -0.312922840749     -0.890530682712     -0.310500973147     
2700000000.0        -0.897631069503     -0.301358225649     0.102349519774      -0.303875117643     0.102349519774      -0.303875117643     -0.897631069503     -0.301358225649     
2800000000.0        -0.904084258256     -0.292652471664     0.0958960541865     -0.295264498696     0.0958960541865     -0.295264498696     -0.904084258256     -0.292652471664     
2900000000.0        -0.909964007046     -0.284361511776     0.0900160191741     -0.287068781344     0.0900160191741     -0.287068781344     -0.909964007046     -0.284361511776     
3000000000.0        -0.915334249113     -0.276463154483     0.0846454814559     -0.279265771101     0.0846454814559     -0.279265771101     -0.915334249113     -0.276463154483     
3100000000.0        -0.920250552816     -0.26893563903      0.0797288726339     -0.271833704393     0.0797288726339     -0.271833704393     -0.920250552816     -0.26893563903      
3200000000.0        -0.924761348913     -0.261757913492     0.0752177619136     -0.264751526641     0.0752177619136     -0.264751526641     -0.924761348913     -0.261757913492     
3300000000.0        -0.928908963244     -0.254909809208     0.0710698234213     -0.257999066698     0.0710698234213     -0.257999066698     -0.928908963244     -0.254909809208     
3400000000.0        -0.932730486922     -0.248372141398     0.0672479660099     -0.25155713746      0.0672479660099     -0.25155713746      -0.932730486922     -0.248372141398     
3500000000.0        -0.936258510926     -0.242126757641     0.0637195986688     -0.245407584344     0.0637195986688     -0.245407584344     -0.936258510926     -0.242126757641     
3600000000.0        -0.939521747484     -0.236156549962     0.0604560091402     -0.239533297368     0.0604560091402     -0.239533297368     -0.939521747484     -0.236156549962     
3700000000.0        -0.942545556866     -0.230445441935     0.0574318371232     -0.23391819825      0.0574318371232     -0.23391819825      -0.942545556866     -0.230445441935     
3800000000.0        -0.945352395044     -0.224978359066     0.0546246266184     -0.22854721079      0.0546246266184     -0.22854721079      -0.945352395044     -0.224978359066     
3900000000.0        -0.947962195019     -0.219741188428     0.0520144445972     -0.223406220494     0.0520144445972     -0.223406220494     -0.947962195019     -0.219741188428     
4000000000.0        -0.950392692459     -0.214720731804     0.0495835553625     -0.218482027716     0.0495835553625     -0.218482027716     -0.950392692459     -0.214720731804     
4100000000.0        -0.952659704483     -0.209904655405     0.0473161417703     -0.213762297367     0.0473161417703     -0.213762297367     -0.952659704483     -0.209904655405     
4200000000.0        -0.954777368917     -0.205281438292     0.0451980659679     -0.209235507334     0.0451980659679     -0.209235507334     -0.954777368917     -0.205281438292     
4300000000.0        -0.956758350156     -0.20084032101      0.0432166635338     -0.204890897107     0.0432166635338     -0.204890897107     -0.956758350156     -0.20084032101      
4400000000.0        -0.958614016727     -0.196571255426     0.0413605659163     -0.200718417611     0.0413605659163     -0.200718417611     -0.958614016727     -0.196571255426     
4500000000.0        -0.960354594815     -0.192464856456     0.0396195469049     -0.19670868293      0.0396195469049     -0.19670868293      -0.960354594815     -0.192464856456     
4600000000.0        -0.961989301332     -0.188512356079     0.0379843895617     -0.192852924314     0.0379843895617     -0.192852924314     -0.961989301332     -0.188512356079     
4700000000.0        -0.96352645953      -0.184705559878     0.036446770611      -0.189142946715     0.036446770611      -0.189142946715     -0.96352645953      -0.184705559878     
4800000000.0        -0.964973599672     -0.181036806214     0.034999159764      -0.185571087956     0.034999159764      -0.185571087956     -0.964973599672     -0.181036806214     
4900000000.0        -0.966337546905     -0.177498928046     0.0336347318486     -0.182130180545     0.0336347318486     -0.182130180545     -0.966337546905     -0.177498928046     
5000000000.0        -0.967624498125     -0.174085217346     0.0323472899441     -0.178813516089     0.0323472899441     -0.178813516089     -0.967624498125     -0.174085217346     
5100000000.0        -0.968840089362     -0.170789392036     0.0311311979963     -0.175614812223     0.0311311979963     -0.175614812223     -0.968840089362     -0.170789392036     
5200000000.0        -0.969989454977     -0.16760556531      0.029981321618      -0.172528181931     0.029981321618      -0.172528181931     -0.969989454977     -0.16760556531      
5300000000.0        -0.971077279783     -0.16452821724      0.0288929759719     -0.169548105145     0.0288929759719     -0.169548105145     -0.971077279783     -0.16452821724      
5400000000.0        -0.972107845016     -0.161552168498     0.0278618797957     -0.166669402465     0.0278618797957     -0.166669402465     -0.972107845016     -0.161552168498     
5500000000.0        -0.973085068975     -0.158672556081     0.0268841147654     -0.163887210879     0.0268841147654     -0.163887210879     -0.973085068975     -0.158672556081     
5600000000.0        -0.974012543007     -0.155884810883     0.0259560895078     -0.161196961334     0.0259560895078     -0.161196961334     -0.974012543007     -0.155884810883     
5700000000.0        -0.974893563439     -0.15318463699      0.02507450767       -0.158594358026     0.02507450767       -0.158594358026     -0.974893563439     -0.15318463699      
5800000000.0        -0.975731159961     -0.150567992559     0.0242363395368     -0.156075359277     0.0242363395368     -0.156075359277     -0.975731159961     -0.150567992559     
5900000000.0        -0.976528120896     -0.148031072178     0.023438796757      -0.15363615989      0.023438796757      -0.15363615989      -0.976528120896     -0.148031072178     
6000000000.0        -0.977287015751     -0.145570290568     0.0226793097984     -0.15127317485      0.0226793097984     -0.15127317485      -0.977287015751     -0.145570290568     
6100000000.0        -0.978010215356     -0.143182267537     0.0219555078033     -0.148983024278     0.0219555078033     -0.148983024278     -0.978010215356     -0.143182267537     
6200000000.0        -0.978699909896     -0.14086381409      0.0212652005588     -0.14676251953      0.0212652005588     -0.14676251953      -0.978699909896     -0.14086381409      
6300000000.0        -0.979358125075     -0.138611919578     0.020606362334      -0.144608650357     0.020606362334      -0.144608650357     -0.979358125075     -0.138611919578     
6400000000.0        -0.979986736625     -0.136423739837     0.0199771173683     -0.142518573027     0.0199771173683     -0.142518573027     -0.979986736625     -0.136423739837     
6500000000.0        -0.980587483357     -0.134296586202     0.0193757268218     -0.140489599351     0.0193757268218     -0.140489599351     -0.980587483357     -0.134296586202     
6600000000.0        -0.981161978914     -0.132227915358     0.0188005770234     -0.138519186519     0.0188005770234     -0.138519186519     -0.981161978914     -0.132227915358     
6700000000.0        -0.981711722368     -0.13021531993      0.0182501688714     -0.136604927701     0.0182501688714     -0.136604927701     -0.981711722368     -0.13021531993      
6800000000.0        -0.982238107794     -0.128256519775     0.0177231082617     -0.134744543326     0.0177231082617     -0.134744543326     -0.982238107794     -0.128256519775     
6900000000.0        -0.982742432926     -0.126349353909     0.0172180974297     -0.132935873015     0.0172180974297     -0.132935873015     -0.982742432926     -0.126349353909     
7000000000.0        -0.983225907        -0.124491773021     0.0167339271098     -0.13117686809      0.0167339271098     -0.13117686809      -0.983225907        -0.124491773021     
7100000000.0        -0.98368965786      -0.122681832525     0.0162694694261     -0.129465584627     0.0162694694261     -0.129465584627     -0.98368965786      -0.122681832525     
7200000000.0        -0.984134738417     -0.120917686109     0.0158236714362     -0.127800176999     0.0158236714362     -0.127800176999     -0.984134738417     -0.120917686109     
7300000000.0        -0.984562132518     -0.119197579742     0.0153955492622     -0.126178891888     0.0153955492622     -0.126178891888     -0.984562132518     -0.119197579742     
7400000000.0        -0.984972760286     -0.117519846101     0.0149841827491     -0.124600062708     0.0149841827491     -0.124600062708     -0.984972760286     -0.117519846101     
7500000000.0        -0.985367482989     -0.11588289939      0.0145887105958     -0.123062104419     0.0145887105958     -0.123062104419     -0.985367482989     -0.11588289939      
7600000000.0        -0.985747107482     -0.11428523051      0.0142083259136     -0.121563508706     0.0142083259136     -0.121563508706     -0.985747107482     -0.11428523051      
7700000000.0        -0.986112390266     -0.112725402569     0.0138422721688     -0.120102839474     0.0138422721688     -0.120102839474     -0.986112390266     -0.112725402569     
7800000000.0        -0.986464041195     -0.111202046689     0.0134898394729     -0.118678728668     0.0134898394729     -0.118678728668     -0.986464041195     -0.111202046689     
7900000000.0        -0.986802726875     -0.109713858097     0.0131503611858     -0.117289872355     0.0131503611858     -0.117289872355     -0.986802726875     -0.109713858097     
8000000000.0        -0.987129073774     -0.108259592482     0.0128232108039     -0.115935027083     0.0128232108039     -0.115935027083     -0.987129073774     -0.108259592482     
8100000000.0        -0.987443671079     -0.106838062589     0.0125077991045     -0.11461300647      0.0125077991045     -0.11461300647      -0.987443671079     -0.106838062589     
8200000000.0        -0.987747073318     -0.105448135031     0.0122035715242     -0.113322678024     0.0122035715242     -0.113322678024     -0.987747073318     -0.105448135031     
8300000000.0        -0.988039802769     -0.10408872732      0.0119100057489     -0.112062960164     0.0119100057489     -0.112062960164     -0.988039802769     -0.10408872732      
8400000000.0        -0.988322351676     -0.102758805077     0.0116266094961     -0.110832819437     0.0116266094961     -0.110832819437     -0.988322351676     -0.102758805077     
8500000000.0        -0.988595184295     -0.10145737943      0.0113529184731     -0.109631267908     0.0113529184731     -0.109631267908     -0.988595184295     -0.10145737943      
8600000000.0        -0.988858738774     -0.100183504569     0.0110884944945     -0.108457360722     0.0110884944945     -0.108457360722     -0.988858738774     -0.100183504569     
8700000000.0        -0.989113428889     -0.0989362754578    0.0108329237451     -0.107310193809     0.0108329237451     -0.107310193809     -0.989113428889     -0.0989362754578    
8800000000.0        -0.989359645649     -0.097714825689     0.0105858151759     -0.106188901744     0.0105858151759     -0.106188901744     -0.989359645649     -0.097714825689     
8900000000.0        -0.98959775878      -0.096518325468     0.010346799022      -0.105092655726     0.010346799022      -0.105092655726     -0.98959775878      -0.096518325468     
9000000000.0        -0.989828118095     -0.0953459797223    0.0101155254308     -0.104020661687     0.0101155254308     -0.104020661687     -0.989828118095     -0.0953459797223    
9100000000.0        -0.990051054762     -0.094197026324     0.00989166319228    -0.10297215852      0.00989166319228    -0.10297215852      -0.990051054762     -0.094197026324     
9200000000.0        -0.990266882484     -0.0930707344196    0.0096748985628     -0.101946416401     0.0096748985628     -0.101946416401     -0.990266882484     -0.0930707344196    
9300000000.0        -0.990475898588     -0.0919664028586    0.00946493417374    -0.100942735222     0.00946493417374    -0.100942735222     -0.990475898588     -0.0919664028586    
9400000000.0        -0.990678385036     -0.0908833587149    0.0092614880191     -0.0999604431101    0.0092614880191     -0.0999604431101    -0.990678385036     -0.0908833587149    
9500000000.0        -0.990874609371     -0.0898209558948    0.00906429251503    -0.0989988950353    0.00906429251503    -0.0989988950353    -0.990874609371     -0.0898209558948    
9600000000.0        -0.991064825585     -0.0887785738248    0.0088730936257     -0.0980574714991    0.0088730936257     -0.0980574714991    -0.991064825585     -0.0887785738248    
9700000000.0        -0.991249274933     -0.0877556162157    0.00868765005025    -0.0971355772975    0.00868765005025    -0.0971355772975    -0.991249274933     -0.0877556162157    
9800000000.0        -0.991428186694     -0.0867515098965    0.00850773246589    -0.0962326403547    0.00850773246589    -0.0962326403547    -0.991428186694     -0.0867515098965    
9900000000.0        -0.991601778873     -0.0857657037141    0.00833312282291    -0.0953481106227    0.00833312282291    -0.0953481106227    -0.991601778873     -0.0857657037141    
10000000000.0       -0.991770258857     -0.0847976674948    0.00816361368748    -0.0944814590428    0.00816361368748    -0.0944814590428    -0.991770258857     -0.0847976674948    
