# Hz S RI R 50.00 
100000000.0         0.116670629699      0.00429520636841    0.88332515573       -0.00605092811102   0.88332515573       -0.00605092811102   0.116670629699      0.00429520636841    
200000000.0         0.117436042688      0.00857343091734    0.882553308042      -0.0120848844421    0.882553308042      -0.0120848844421    0.117436042688      0.00857343091734    
300000000.0         0.118075080254      0.012840222703      0.881904613842      -0.0181074318706    0.881904613842      -0.0181074318706    0.118075080254      0.012840222703      
400000000.0         0.1186779273        0.0170968661482     0.881288886799      -0.0241198681345    0.881288886799      -0.0241198681345    0.1186779273        0.0170968661482     
500000000.0         0.119279299134      0.0213436568912     0.880671410285      -0.0301225019328    0.880671410285      -0.0301225019328    0.119279299134      0.0213436568912     
600000000.0         0.119896851787      0.025580455193      0.880034526968      -0.0361152064229    0.880034526968      -0.0361152064229    0.119896851787      0.025580455193      
700000000.0         0.120540955178      0.0298068848815     0.879367865597      -0.0420976182093    0.879367865597      -0.0420976182093    0.120540955178      0.0298068848815     
800000000.0         0.121218262719      0.0340224258182     0.878664771379      -0.0480692298376    0.878664771379      -0.0480692298376    0.121218262719      0.0340224258182     
900000000.0         0.121933301774      0.0382264637516     0.877920715495      -0.0540294396659    0.877920715495      -0.0540294396659    0.121933301774      0.0382264637516     
1000000000.0        0.122689280354      0.042418320014      0.877132488403      -0.059977581574     0.877132488403      -0.059977581574     0.122689280354      0.042418320014      
1100000000.0        0.123488535849      0.046597270548      0.876297751088      -0.0659129439998    0.876297751088      -0.0659129439998    0.123488535849      0.046597270548      
1200000000.0        0.124332802613      0.0507625588028     0.875414767477      -0.0718347828419    0.875414767477      -0.0718347828419    0.124332802613      0.0507625588028     
1300000000.0        0.125223380466      0.0549134048812     0.874482235935      -0.0777423306128    0.874482235935      -0.0777423306128    0.125223380466      0.0549134048812     
1400000000.0        0.126161245569      0.0590490122756     0.87349917838       -0.0836348031791    0.87349917838       -0.0836348031791    0.126161245569      0.0590490122756     
1500000000.0        0.127147126084      0.0631685729904     0.872464864619      -0.0895114048877    0.872464864619      -0.0895114048877    0.127147126084      0.0631685729904     
1600000000.0        0.128181555425      0.0672712715449     0.871378759106      -0.0953713325719    0.871378759106      -0.0953713325719    0.128181555425      0.0672712715449     
1700000000.0        0.129264910714      0.0713562881786     0.870240482469      -0.101213778759     0.870240482469      -0.101213778759     0.129264910714      0.0713562881786     
1800000000.0        0.130397441223      0.0754228014724     0.869049783079      -0.107037934295     0.869049783079      -0.107037934295     0.130397441223      0.0754228014724     
1900000000.0        0.131579289823      0.0794699905319     0.867806515589      -0.112842990526     0.867806515589      -0.112842990526     0.131579289823      0.0794699905319     
2000000000.0        0.132810509466      0.0834970368362     0.86651062446       -0.118628141156     0.86651062446       -0.118628141156     0.132810509466      0.0834970368362     
2100000000.0        0.134091076058      0.0875031258271     0.865162131079      -0.124392583828     0.865162131079      -0.124392583828     0.134091076058      0.0875031258271     
2200000000.0        0.135420898666      0.0914874482906     0.863761123557      -0.130135521515     0.863761123557      -0.130135521515     0.135420898666      0.0914874482906     
2300000000.0        0.136799827726      0.0954492015735     0.862307748517      -0.135856163734     0.862307748517      -0.135856163734     0.136799827726      0.0954492015735     
2400000000.0        0.138227661734      0.099387590663      0.860802204403      -0.141553727628     0.860802204403      -0.141553727628     0.138227661734      0.099387590663      
2500000000.0        0.139704152763      0.103301829153      0.859244735963      -0.147227438931     0.859244735963      -0.147227438931     0.139704152763      0.103301829153      
2600000000.0        0.141229011069      0.107191140118      0.857635629637      -0.152876532844     0.857635629637      -0.152876532844     0.141229011069      0.107191140118      
2700000000.0        0.142801908986      0.111054756899      0.855975209672      -0.158500254825     0.855975209672      -0.158500254825     0.142801908986      0.111054756899      
2800000000.0        0.144422484244      0.114891923828      0.854263834793      -0.164097861309     0.854263834793      -0.164097861309     0.144422484244      0.114891923828      
2900000000.0        0.146090342834      0.118701896885      0.852501895345      -0.169668620367     0.852501895345      -0.169668620367     0.146090342834      0.118701896885      
3000000000.0        0.147805061504      0.1224839443        0.850689810789      -0.175211812311     0.850689810789      -0.175211812311     0.147805061504      0.1224839443        
3100000000.0        0.149566189956      0.126237347112      0.848828027512      -0.18072673025      0.848828027512      -0.18072673025      0.149566189956      0.126237347112      
3200000000.0        0.151373252799      0.129961399672      0.846917016868      -0.186212680601     0.846917016868      -0.186212680601     0.151373252799      0.129961399672      
3300000000.0        0.153225751292      0.133655410124      0.844957273437      -0.191668983558     0.844957273437      -0.191668983558     0.153225751292      0.133655410124      
3400000000.0        0.155123164931      0.137318700827      0.84294931344       -0.197094973526     0.84294931344       -0.197094973526     0.155123164931      0.137318700827      
3500000000.0        0.15706495288       0.140950608761      0.8408936733        -0.20248999952      0.8408936733        -0.20248999952      0.15706495288       0.140950608761      
3600000000.0        0.159050555297      0.144550485887      0.838790908323      -0.207853425531     0.838790908323      -0.207853425531     0.159050555297      0.144550485887      
3700000000.0        0.161079394555      0.148117699486      0.836641591474      -0.213184630862     0.836641591474      -0.213184630862     0.161079394555      0.148117699486      
3800000000.0        0.163150876374      0.151651632464      0.834446312242      -0.218483010431     0.834446312242      -0.218483010431     0.163150876374      0.151651632464      
3900000000.0        0.165264390888      0.155151683629      0.832205675579      -0.223747975055     0.832205675579      -0.223747975055     0.165264390888      0.155151683629      
4000000000.0        0.167419313642      0.158617267945      0.829920300895      -0.2289789517       0.829920300895      -0.2289789517       0.167419313642      0.158617267945      
4100000000.0        0.169615006539      0.162047816762      0.827590821115      -0.234175383709     0.827590821115      -0.234175383709     0.169615006539      0.162047816762      
4200000000.0        0.171850818738      0.165442778011      0.825217881779      -0.239336731004     0.825217881779      -0.239336731004     0.171850818738      0.165442778011      
4300000000.0        0.174126087511      0.168801616392      0.822802140186      -0.244462470268     0.822802140186      -0.244462470268     0.174126087511      0.168801616392      
4400000000.0        0.176440139063      0.172123813528      0.820344264575      -0.249552095101     0.820344264575      -0.249552095101     0.176440139063      0.172123813528      
4500000000.0        0.178792289316      0.1754088681        0.817844933333      -0.254605116157     0.817844933333      -0.254605116157     0.178792289316      0.1754088681        
4600000000.0        0.181181844668      0.178656295961      0.815304834245      -0.259621061259     0.815304834245      -0.259621061259     0.181181844668      0.178656295961      
4700000000.0        0.183608102726      0.181865630234      0.812724663755      -0.264599475491     0.812724663755      -0.264599475491     0.183608102726      0.181865630234      
4800000000.0        0.186070353006      0.18503642138       0.810105126269      -0.269539921274     0.810105126269      -0.269539921274     0.186070353006      0.18503642138       
4900000000.0        0.18856787762       0.188168237261      0.807446933461      -0.274441978422     0.807446933461      -0.274441978422     0.18856787762       0.188168237261      
5000000000.0        0.191099951939      0.191260663168      0.804750803617      -0.279305244178     0.804750803617      -0.279305244178     0.191099951939      0.191260663168      
5100000000.0        0.193665845235      0.194313301849      0.802017460991      -0.284129333235     0.802017460991      -0.284129333235     0.193665845235      0.194313301849      
5200000000.0        0.196264821306      0.197325773503      0.799247635176      -0.288913877734     0.799247635176      -0.288913877734     0.196264821306      0.197325773503      
5300000000.0        0.198896139083      0.200297715767      0.796442060497      -0.29365852725      0.796442060497      -0.29365852725      0.198896139083      0.200297715767      
5400000000.0        0.201559053221      0.203228783686      0.793601475424      -0.298362948761     0.793601475424      -0.298362948761     0.201559053221      0.203228783686      
5500000000.0        0.204252814677      0.206118649662      0.79072662199       -0.303026826601     0.79072662199       -0.303026826601     0.204252814677      0.206118649662      
5600000000.0        0.206976671266      0.208967003394      0.787818245234      -0.307649862396     0.787818245234      -0.307649862396     0.206976671266      0.208967003394      
5700000000.0        0.209729868208      0.211773551797      0.784877092657      -0.312231774986     0.784877092657      -0.312231774986     0.209729868208      0.211773551797      
5800000000.0        0.212511648655      0.214538018916      0.781903913688      -0.316772300334     0.781903913688      -0.316772300334     0.212511648655      0.214538018916      
5900000000.0        0.215321254215      0.217260145812      0.778899459167      -0.32127119142      0.778899459167      -0.32127119142      0.215321254215      0.217260145812      
6000000000.0        0.218157925445      0.21993969045       0.775864480847      -0.325728218123     0.775864480847      -0.325728218123     0.218157925445      0.21993969045       
6100000000.0        0.221020902348      0.222576427566      0.772799730897      -0.330143167089     0.772799730897      -0.330143167089     0.221020902348      0.222576427566      
6200000000.0        0.223909424841      0.22517014852       0.769705961434      -0.334515841588     0.769705961434      -0.334515841588     0.223909424841      0.22517014852       
6300000000.0        0.226822733224      0.227720661146      0.766583924055      -0.338846061358     0.766583924055      -0.338846061358     0.226822733224      0.227720661146      
6400000000.0        0.229760068621      0.230227789582      0.76343436939       -0.343133662441     0.76343436939       -0.343133662441     0.229760068621      0.230227789582      
6500000000.0        0.232720673423      0.232691374094      0.760258046667      -0.347378497002     0.760258046667      -0.347378497002     0.232720673423      0.232691374094      
6600000000.0        0.235703791704      0.23511127089       0.757055703286      -0.351580433146     0.757055703286      -0.351580433146     0.235703791704      0.23511127089       
6700000000.0        0.238708669636      0.237487351922      0.753828084412      -0.355739354718     0.753828084412      -0.355739354718     0.238708669636      0.237487351922      
6800000000.0        0.241734555881      0.239819504681      0.750575932574      -0.359855161102     0.750575932574      -0.359855161102     0.241734555881      0.239819504681      
6900000000.0        0.244780701979      0.242107631982      0.747299987287      -0.363927767001     0.747299987287      -0.363927767001     0.244780701979      0.242107631982      
7000000000.0        0.247846362716      0.244351651742      0.74400098467       -0.367957102219     0.74400098467       -0.367957102219     0.247846362716      0.244351651742      
7100000000.0        0.250930796483      0.24655149675       0.740679657099      -0.371943111428     0.740679657099      -0.371943111428     0.250930796483      0.24655149675       
7200000000.0        0.254033265623      0.248707114431      0.73733673285       -0.375885753934     0.73733673285       -0.375885753934     0.254033265623      0.248707114431      
7300000000.0        0.257153036766      0.250818466599      0.73397293577       -0.379785003429     0.73397293577       -0.379785003429     0.257153036766      0.250818466599      
7400000000.0        0.260289381145      0.25288552921       0.730588984957      -0.383640847746     0.730588984957      -0.383640847746     0.260289381145      0.25288552921       
7500000000.0        0.263441574909      0.254908292105      0.727185594446      -0.387453288597     0.727185594446      -0.387453288597     0.263441574909      0.254908292105      
7600000000.0        0.266608899417      0.256886758748      0.723763472914      -0.391222341318     0.723763472914      -0.391222341318     0.266608899417      0.256886758748      
7700000000.0        0.269790641524      0.258820945964      0.720323323398      -0.394948034601     0.720323323398      -0.394948034601     0.269790641524      0.258820945964      
7800000000.0        0.272986093853      0.260710883662      0.716865843016      -0.39863041022      0.716865843016      -0.39863041022      0.272986093853      0.260710883662      
7900000000.0        0.276194555053      0.262556614568      0.713391722711      -0.402269522763     0.713391722711      -0.402269522763     0.276194555053      0.262556614568      
8000000000.0        0.27941533005       0.264358193942      0.709901647001      -0.40586543935      0.709901647001      -0.40586543935      0.27941533005       0.264358193942      
8100000000.0        0.282647730281      0.266115689299      0.706396293741      -0.409418239353     0.706396293741      -0.409418239353     0.282647730281      0.266115689299      
8200000000.0        0.285891073922      0.267829180126      0.702876333895      -0.412928014111     0.702876333895      -0.412928014111     0.285891073922      0.267829180126      
8300000000.0        0.289144686102      0.269498757596      0.699342431327      -0.416394866649     0.699342431327      -0.416394866649     0.289144686102      0.269498757596      
8400000000.0        0.2924078991        0.271124524278      0.695795242591      -0.419818911384     0.695795242591      -0.419818911384     0.2924078991        0.271124524278      
8500000000.0        0.295680052544      0.272706593849      0.692235416743      -0.423200273839     0.692235416743      -0.423200273839     0.295680052544      0.272706593849      
8600000000.0        0.298960493585      0.274245090806      0.688663595162      -0.426539090349     0.688663595162      -0.426539090349     0.298960493585      0.274245090806      
8700000000.0        0.302248577071      0.275740150168      0.685080411372      -0.429835507774     0.685080411372      -0.429835507774     0.302248577071      0.275740150168      
8800000000.0        0.305543665703      0.27719191719       0.68148649089       -0.433089683204     0.68148649089       -0.433089683204     0.305543665703      0.27719191719       
8900000000.0        0.308845130184      0.278600547067      0.677882451074      -0.436301783665     0.677882451074      -0.436301783665     0.308845130184      0.278600547067      
9000000000.0        0.312152349361      0.279966204644      0.674268900981      -0.43947198583      0.674268900981      -0.43947198583      0.312152349361      0.279966204644      
9100000000.0        0.315464710346      0.281289064123      0.670646441243      -0.442600475726     0.670646441243      -0.442600475726     0.315464710346      0.281289064123      
9200000000.0        0.318781608641      0.282569308771      0.667015663942      -0.445687448441     0.667015663942      -0.445687448441     0.318781608641      0.282569308771      
9300000000.0        0.322102448244      0.283807130632      0.663377152505      -0.448733107835     0.663377152505      -0.448733107835     0.322102448244      0.283807130632      
9400000000.0        0.325426641748      0.285002730238      0.659731481604      -0.451737666254     0.659731481604      -0.451737666254     0.325426641748      0.285002730238      
9500000000.0        0.328753610433      0.286156316318      0.656079217061      -0.454701344236     0.656079217061      -0.454701344236     0.328753610433      0.286156316318      
9600000000.0        0.332082784345      0.287268105517      0.652420915768      -0.457624370231     0.652420915768      -0.457624370231     0.332082784345      0.287268105517      
9700000000.0        0.335413602368      0.288338322112      0.648757125615      -0.460506980314     0.648757125615      -0.460506980314     0.335413602368      0.288338322112      
9800000000.0        0.33874551229       0.289367197726      0.645088385426      -0.463349417907     0.645088385426      -0.463349417907     0.33874551229       0.289367197726      
9900000000.0        0.342077970856      0.290354971054      0.641415224897      -0.466151933495     0.641415224897      -0.466151933495     0.342077970856      0.290354971054      
10000000000.0       0.345410443818      0.291301887585      0.637738164556      -0.468914784353     0.637738164556      -0.468914784353     0.345410443818      0.291301887585      
