# Hz S RI R 50.00 
100000000.0         0.129778486035      0.00229617860948    0.870218899722      -0.00337720319008   0.870218899722      -0.00337720319008   0.129778486035      0.00229617860948    
200000000.0         0.130543659751      0.00458247934953    0.869450884279      -0.00674453066106   0.869450884279      -0.00674453066106   0.130543659751      0.00458247934953    
300000000.0         0.131122411522      0.0068627656941     0.868868062591      -0.0101058492782    0.868868062591      -0.0101058492782    0.131122411522      0.0068627656941     
400000000.0         0.131613994399      0.00913828602758    0.868371181105      -0.0134624105709    0.868371181105      -0.0134624105709    0.131613994399      0.00913828602758    
500000000.0         0.132056756128      0.011409679379      0.867921891654      -0.0168148565903    0.867921891654      -0.0168148565903    0.132056756128      0.011409679379      
600000000.0         0.132470310055      0.0136773145853     0.86750058052       -0.020163559116     0.86750058052       -0.020163559116     0.132470310055      0.0136773145853     
700000000.0         0.132866272007      0.0159414121971     0.86709563153       -0.0235087415836    0.86709563153       -0.0235087415836    0.132866272007      0.0159414121971     
800000000.0         0.13325218442       0.0182021010551     0.866699501913      -0.0268505356746    0.866699501913      -0.0268505356746    0.13325218442       0.0182021010551     
900000000.0         0.133633265901      0.020459448696      0.86630697274       -0.0301890117308    0.86630697274       -0.0301890117308    0.133633265901      0.020459448696      
1000000000.0        0.134013299188      0.0227134793671     0.86591426095       -0.033524196775     0.86591426095       -0.033524196775     0.134013299188      0.0227134793671     
1100000000.0        0.134395125386      0.0249641854751     0.865518525115      -0.0368560859642    0.865518525115      -0.0368560859642    0.134395125386      0.0249641854751     
1200000000.0        0.134780938828      0.0272115352618     0.865117570577      -0.0401846502688    0.865117570577      -0.0401846502688    0.134780938828      0.0272115352618     
1300000000.0        0.135172472818      0.0294554781687     0.864709663701      -0.0435098418397    0.864709663701      -0.0435098418397    0.135172472818      0.0294554781687     
1400000000.0        0.135571121861      0.0316959487187     0.864293409642      -0.0468315978924    0.864293409642      -0.0468315978924    0.135571121861      0.0316959487187     
1500000000.0        0.135978025059      0.033932869403      0.863867668954      -0.0501498435956    0.863867668954      -0.0501498435956    0.135978025059      0.033932869403      
1600000000.0        0.136394124748      0.0361661528817     0.863431498943      -0.0534644942729    0.863431498943      -0.0534644942729    0.136394124748      0.0361661528817     
1700000000.0        0.136820208808      0.038395703695      0.862984111364      -0.0567754571155    0.862984111364      -0.0567754571155    0.136820208808      0.038395703695      
1800000000.0        0.137256941872      0.0406214196176     0.862524841206      -0.060082632538     0.862524841206      -0.060082632538     0.137256941872      0.0406214196176     
1900000000.0        0.137704888801      0.0428431927491     0.862053123219      -0.0633859152687    0.862053123219      -0.0633859152687    0.137704888801      0.0428431927491     
2000000000.0        0.13816453264       0.0450609104016     0.861568473957      -0.0666851952392    0.861568473957      -0.0666851952392    0.13816453264       0.0450609104016     
2100000000.0        0.138636288564      0.0472744558345     0.861070477832      -0.0699803583188    0.861070477832      -0.0699803583188    0.138636288564      0.0472744558345     
2200000000.0        0.139120514854      0.0494837088664     0.860558776138      -0.0732712869279    0.860558776138      -0.0732712869279    0.139120514854      0.0494837088664     
2300000000.0        0.139617521644      0.051688546393      0.860033058298      -0.0765578605556    0.860033058298      -0.0765578605556    0.139617521644      0.051688546393      
2400000000.0        0.140127577966      0.0538888428267     0.859493054829      -0.0798399562006    0.859493054829      -0.0798399562006    0.140127577966      0.0538888428267     
2500000000.0        0.140650917484      0.056084470476      0.8589385316        -0.0831174487501    0.8589385316        -0.0831174487501    0.140650917484      0.056084470476      
2600000000.0        0.141187743194      0.058275299872      0.85836928513       -0.0863902113077    0.85836928513       -0.0863902113077    0.141187743194      0.058275299872      
2700000000.0        0.141738231329      0.0604612000554     0.857785138695      -0.08965811548      0.857785138695      -0.08965811548      0.141738231329      0.0604612000554     
2800000000.0        0.142302534603      0.0626420388271     0.857185939067      -0.0929210316276    0.857185939067      -0.0929210316276    0.142302534603      0.0626420388271     
2900000000.0        0.142880784945      0.0648176829702     0.856571553795      -0.0961788290879    0.856571553795      -0.0961788290879    0.142880784945      0.0648176829702     
3000000000.0        0.143473095811      0.0669879984481     0.855941868881      -0.0994313763729    0.855941868881      -0.0994313763729    0.143473095811      0.0669879984481     
3100000000.0        0.144079564148      0.0691528505807     0.855296786823      -0.102678541346     0.855296786823      -0.102678541346     0.144079564148      0.0691528505807     
3200000000.0        0.144700272082      0.0713121042036     0.854636224926      -0.105920191381     0.854636224926      -0.105920191381     0.144700272082      0.0713121042036     
3300000000.0        0.145335288366      0.0734656238119     0.853960113852      -0.109156193506     0.853960113852      -0.109156193506     0.145335288366      0.0734656238119     
3400000000.0        0.145984669632      0.0756132736901     0.853268396368      -0.112386414536     0.853268396368      -0.112386414536     0.145984669632      0.0756132736901     
3500000000.0        0.146648461484      0.0777549180317     0.852561026253      -0.115610721187     0.852561026253      -0.115610721187     0.146648461484      0.0777549180317     
3600000000.0        0.147326699451      0.0798904210475     0.851837967347      -0.118828980191     0.851837967347      -0.118828980191     0.147326699451      0.0798904210475     
3700000000.0        0.148019409823      0.0820196470662     0.851099192714      -0.122041058393     0.851099192714      -0.122041058393     0.148019409823      0.0820196470662     
3800000000.0        0.148726610384      0.0841424606264     0.850344683904      -0.125246822843     0.850344683904      -0.125246822843     0.148726610384      0.0841424606264     
3900000000.0        0.149448311068      0.0862587265623     0.849574430307      -0.128446140884     0.849574430307      -0.128446140884     0.149448311068      0.0862587265623     
4000000000.0        0.150184514536      0.0883683100828     0.848788428566      -0.131638880228     0.848788428566      -0.131638880228     0.150184514536      0.0883683100828     
4100000000.0        0.150935216688      0.0904710768457     0.84798668207       -0.134824909036     0.84798668207       -0.134824909036     0.150935216688      0.0904710768457     
4200000000.0        0.151700407133      0.0925668930263     0.847169200485      -0.138004095978     0.847169200485      -0.138004095978     0.151700407133      0.0925668930263     
4300000000.0        0.152480069592      0.0946556253825     0.846335999345      -0.141176310307     0.846335999345      -0.141176310307     0.152480069592      0.0946556253825     
4400000000.0        0.153274182281      0.0967371413149     0.845487099677      -0.144341421915     0.845487099677      -0.144341421915     0.153274182281      0.0967371413149     
4500000000.0        0.154082718242      0.0988113089237     0.844622527663      -0.147499301388     0.844622527663      -0.147499301388     0.154082718242      0.0988113089237     
4600000000.0        0.154905645652      0.100877997063      0.843742314336      -0.150649820065     0.843742314336      -0.150649820065     0.154905645652      0.100877997063      
4700000000.0        0.155742928097      0.10293707539       0.842846495301      -0.153792850084     0.842846495301      -0.153792850084     0.155742928097      0.10293707539       
4800000000.0        0.15659452483       0.104988414415      0.841935110482      -0.156928264435     0.841935110482      -0.156928264435     0.15659452483       0.104988414415      
4900000000.0        0.157460391001      0.107031885545      0.84100820389       -0.160055936998     0.84100820389       -0.160055936998     0.157460391001      0.107031885545      
5000000000.0        0.158340477869      0.109067361126      0.840065823407      -0.163175742594     0.840065823407      -0.163175742594     0.158340477869      0.109067361126      
5100000000.0        0.159234732999      0.111094714486      0.839108020597      -0.16628755702      0.839108020597      -0.16628755702      0.159234732999      0.111094714486      
5200000000.0        0.160143100443      0.113113819973      0.838134850519      -0.16939125709      0.838134850519      -0.16939125709      0.160143100443      0.113113819973      
5300000000.0        0.161065520907      0.115124552989      0.83714637156       -0.172486720672     0.83714637156       -0.172486720672     0.161065520907      0.115124552989      
5400000000.0        0.162001931904      0.11712679003       0.836142645283      -0.175573826721     0.836142645283      -0.175573826721     0.162001931904      0.11712679003       
5500000000.0        0.162952267903      0.119120408714      0.835123736283      -0.178652455318     0.835123736283      -0.178652455318     0.162952267903      0.119120408714      
5600000000.0        0.163916460459      0.121105287817      0.834089712047      -0.181722487693     0.834089712047      -0.181722487693     0.163916460459      0.121105287817      
5700000000.0        0.164894438343      0.1230813073        0.833040642833      -0.184783806263     0.833040642833      -0.184783806263     0.164894438343      0.1230813073        
5800000000.0        0.165886127657      0.125048348341      0.831976601549      -0.187836294657     0.831976601549      -0.187836294657     0.165886127657      0.125048348341      
5900000000.0        0.166891451946      0.127006293359      0.830897663646      -0.190879837745     0.830897663646      -0.190879837745     0.166891451946      0.127006293359      
6000000000.0        0.167910332301      0.128955026043      0.829803907007      -0.193914321662     0.829803907007      -0.193914321662     0.167910332301      0.128955026043      
6100000000.0        0.168942687463      0.130894431376      0.828695411855      -0.196939633838     0.828695411855      -0.196939633838     0.168942687463      0.130894431376      
6200000000.0        0.169988433908      0.132824395658      0.827572260656      -0.199955663014     0.827572260656      -0.199955663014     0.169988433908      0.132824395658      
6300000000.0        0.171047485944      0.13474480653       0.826434538031      -0.202962299273     0.826434538031      -0.202962299273     0.171047485944      0.13474480653       
6400000000.0        0.172119755788      0.136655552996      0.825282330671      -0.205959434057     0.825282330671      -0.205959434057     0.172119755788      0.136655552996      
6500000000.0        0.173205153651      0.138556525439      0.824115727259      -0.208946960187     0.824115727259      -0.208946960187     0.173205153651      0.138556525439      
6600000000.0        0.174303587812      0.14044761565       0.822934818393      -0.211924771886     0.822934818393      -0.211924771886     0.174303587812      0.14044761565       
6700000000.0        0.175414964691      0.142328716834      0.821739696511      -0.214892764795     0.821739696511      -0.214892764795     0.175414964691      0.142328716834      
6800000000.0        0.176539188921      0.144199723641      0.820530455823      -0.217850835991     0.820530455823      -0.217850835991     0.176539188921      0.144199723641      
6900000000.0        0.177676163413      0.146060532172      0.819307192242      -0.220798884005     0.819307192242      -0.220798884005     0.177676163413      0.146060532172      
7000000000.0        0.178825789422      0.147911040001      0.818070003324      -0.223736808837     0.818070003324      -0.223736808837     0.178825789422      0.147911040001      
7100000000.0        0.179987966607      0.149751146187      0.816818988199      -0.226664511972     0.816818988199      -0.226664511972     0.179987966607      0.149751146187      
7200000000.0        0.181162593093      0.151580751291      0.815554247515      -0.229581896392     0.815554247515      -0.229581896392     0.181162593093      0.151580751291      
7300000000.0        0.182349565529      0.153399757386      0.814275883382      -0.232488866592     0.814275883382      -0.232488866592     0.182349565529      0.153399757386      
7400000000.0        0.183548779142      0.155208068074      0.812983999313      -0.235385328593     0.812983999313      -0.235385328593     0.183548779142      0.155208068074      
7500000000.0        0.184760127791      0.157005588493      0.811678700168      -0.238271189949     0.811678700168      -0.238271189949     0.184760127791      0.157005588493      
7600000000.0        0.185983504024      0.158792225331      0.810360092107      -0.241146359765     0.810360092107      -0.241146359765     0.185983504024      0.158792225331      
7700000000.0        0.187218799122      0.160567886838      0.809028282537      -0.244010748703     0.809028282537      -0.244010748703     0.187218799122      0.160567886838      
7800000000.0        0.188465903154      0.16233248283       0.807683380058      -0.246864268992     0.807683380058      -0.246864268992     0.188465903154      0.16233248283       
7900000000.0        0.189724705023      0.164085924706      0.806325494421      -0.249706834439     0.806325494421      -0.249706834439     0.189724705023      0.164085924706      
8000000000.0        0.190995092511      0.165828125447      0.80495473648       -0.252538360437     0.80495473648       -0.252538360437     0.190995092511      0.165828125447      
8100000000.0        0.19227695233       0.167558999632      0.803571218141      -0.255358763969     0.803571218141      -0.255358763969     0.19227695233       0.167558999632      
8200000000.0        0.193570170161      0.169278463441      0.802175052324      -0.258167963619     0.802175052324      -0.258167963619     0.193570170161      0.169278463441      
8300000000.0        0.194874630701      0.17098643466       0.800766352916      -0.260965879579     0.800766352916      -0.260965879579     0.194874630701      0.17098643466       
8400000000.0        0.196190217704      0.17268283269       0.799345234729      -0.26375243365      0.799345234729      -0.26375243365      0.196190217704      0.17268283269       
8500000000.0        0.197516814023      0.174367578551      0.797911813459      -0.266527549252     0.797911813459      -0.266527549252     0.197516814023      0.174367578551      
8600000000.0        0.19885430165       0.176040594884      0.796466205643      -0.269291151425     0.796466205643      -0.269291151425     0.19885430165       0.176040594884      
8700000000.0        0.200202561757      0.17770180596       0.795008528624      -0.272043166835     0.795008528624      -0.272043166835     0.200202561757      0.17770180596       
8800000000.0        0.201561474735      0.179351137678      0.793538900506      -0.274783523777     0.793538900506      -0.274783523777     0.201561474735      0.179351137678      
8900000000.0        0.202930920232      0.180988517571      0.792057440121      -0.277512152177     0.792057440121      -0.277512152177     0.202930920232      0.180988517571      
9000000000.0        0.204310777189      0.182613874806      0.790564266986      -0.280228983596     0.790564266986      -0.280228983596     0.204310777189      0.182613874806      
9100000000.0        0.205700923878      0.184227140189      0.789059501272      -0.282933951226     0.789059501272      -0.282933951226     0.205700923878      0.184227140189      
9200000000.0        0.20710123794       0.185828246162      0.787543263764      -0.285626989901     0.787543263764      -0.285626989901     0.20710123794       0.185828246162      
9300000000.0        0.208511596417      0.187417126805      0.786015675827      -0.288308036089     0.786015675827      -0.288308036089     0.208511596417      0.187417126805      
9400000000.0        0.209931875788      0.188993717839      0.78447685937       -0.290977027893     0.78447685937       -0.290977027893     0.209931875788      0.188993717839      
9500000000.0        0.211361952005      0.190557956622      0.782926936813      -0.293633905057     0.782926936813      -0.293633905057     0.211361952005      0.190557956622      
9600000000.0        0.212801700525      0.192109782148      0.781366031053      -0.296278608958     0.781366031053      -0.296278608958     0.212801700525      0.192109782148      
9700000000.0        0.214250996341      0.193649135048      0.779794265431      -0.298911082606     0.779794265431      -0.298911082606     0.214250996341      0.193649135048      
9800000000.0        0.215709714021      0.195175957585      0.7782117637        -0.301531270645     0.7782117637        -0.301531270645     0.215709714021      0.195175957585      
9900000000.0        0.217177727731      0.196690193656      0.77661864999       -0.304139119349     0.77661864999       -0.304139119349     0.217177727731      0.196690193656      
10000000000.0       0.218654911273      0.198191788784      0.775015048782      -0.306734576618     0.775015048782      -0.306734576618     0.218654911273      0.198191788784      
