# Hz S RI R 50.00 
100000000.0         0.000960921659319   0.000346180243667   0.999037766473      -0.000634341098527  0.999037766473      -0.000634341098527  0.000960921659319   0.000346180243667   
200000000.0         0.000967842263458   0.000692349145859   0.999030450928      -0.0012686761135    0.999030450928      -0.0012686761135    0.000967842263458   0.000692349145859   
300000000.0         0.000973501591218   0.00103851204851    0.999024313576      -0.00190301315007   0.999024313576      -0.00190301315007   0.000973501591217   0.00103851204851    
400000000.0         0.000978734643591   0.00138467084742    0.999018519403      -0.00253735622022   0.999018519403      -0.00253735622022   0.000978734643591   0.00138467084742    
500000000.0         0.000983863137971   0.00173082660922    0.999012746678      -0.00317170817586   0.999012746678      -0.00317170817586   0.000983863137971   0.00173082660922    
600000000.0         0.000989051221644   0.00207698002733    0.999006831239      -0.00380607127881   0.999006831239      -0.00380607127881   0.000989051221644   0.00207698002733    
700000000.0         0.000994395906707   0.00242313159077    0.999000676057      -0.0044404474255    0.999000676057      -0.0044404474255    0.000994395906707   0.00242313159077    
800000000.0         0.00099996007863    0.00276928166309    0.998994218229      -0.00507483826163   0.998994218229      -0.00507483826163   0.00099996007863    0.00276928166309    
900000000.0         0.00100578719418    0.00311543052632    0.998987414279      -0.00570924524804   0.998987414279      -0.00570924524804   0.00100578719418    0.00311543052632    
1000000000.0        0.00101190873219    0.00346157840683    0.998980232709      -0.00634366970324   0.998980232709      -0.00634366970324   0.00101190873219    0.00346157840683    
1100000000.0        0.00101834833547    0.00380772549222    0.998972649856      -0.00697811283205   0.998972649856      -0.00697811283205   0.00101834833547    0.00380772549222    
1200000000.0        0.00102512427895    0.00415387194269    0.998964647421      -0.0076125757462    0.998964647421      -0.0076125757462    0.00102512427895    0.00415387194269    
1300000000.0        0.00103225102274    0.00450001789897    0.998956210923      -0.00824705947964   0.998956210923      -0.00824705947964   0.00103225102274    0.00450001789897    
1400000000.0        0.00103974023283    0.0048461634882     0.998947328673      -0.00888156500007   0.998947328673      -0.00888156500007   0.00103974023283    0.0048461634882     
1500000000.0        0.00104760147675    0.00519230882814    0.998937991079      -0.00951609321827   0.998937991079      -0.00951609321827   0.00104760147675    0.00519230882814    
1600000000.0        0.00105584271215    0.00553845403057    0.998928190159      -0.0101506449952    0.998928190159      -0.0101506449952    0.00105584271215    0.00553845403057    
1700000000.0        0.00106447063888    0.00588459920367    0.998917919187      -0.0107852211484    0.998917919187      -0.0107852211484    0.00106447063888    0.00588459920367    
1800000000.0        0.00107349095847    0.00623074445413    0.998907172435      -0.0114198224563    0.998907172435      -0.0114198224563    0.00107349095847    0.00623074445413    
1900000000.0        0.00108290856898    0.00657688988856    0.99889594498       -0.0120544496629    0.99889594498       -0.0120544496629    0.00108290856898    0.00657688988856    
2000000000.0        0.00109272771392    0.00692303561495    0.998884232551      -0.0126891034812    0.998884232551      -0.0126891034812    0.00109272771392    0.00692303561495    
2100000000.0        0.00110295209779    0.00726918174346    0.998872031415      -0.0133237845959    0.998872031415      -0.0133237845959    0.00110295209779    0.00726918174346    
2200000000.0        0.00111358497685    0.00761532838741    0.998859338289      -0.0139584936663    0.998859338289      -0.0139584936663    0.00111358497685    0.00761532838741    
2300000000.0        0.00112462923137    0.00796147566383    0.998846150263      -0.0145932313283    0.998846150263      -0.0145932313283    0.00112462923137    0.00796147566383    
2400000000.0        0.00113608742379    0.00830762369404    0.998832464747      -0.0152279981968    0.998832464747      -0.0152279981968    0.00113608742379    0.00830762369404    
2500000000.0        0.0011479618459     0.00865377260414    0.998818279418      -0.015862794867     0.998818279418      -0.015862794867     0.0011479618459     0.00865377260414    
2600000000.0        0.00116025455755    0.0089999225253     0.998803592189      -0.016497621916     0.998803592189      -0.016497621916     0.00116025455755    0.0089999225253     
2700000000.0        0.00117296741867    0.00934607359409    0.998788401168      -0.0171324799044    0.998788401168      -0.0171324799044    0.00117296741867    0.00934607359409    
2800000000.0        0.00118610211591    0.00969222595276    0.998772704638      -0.0177673693775    0.998772704638      -0.0177673693775    0.00118610211591    0.00969222595276    
2900000000.0        0.00119966018497    0.0100383797493     0.998756501034      -0.0184022908662    0.998756501034      -0.0184022908662    0.00119966018497    0.0100383797493     
3000000000.0        0.00121364302948    0.0103845351379     0.998739788921      -0.0190372448881    0.998739788921      -0.0190372448881    0.00121364302948    0.0103845351379     
3100000000.0        0.00122805193704    0.0107306922787     0.99872256698       -0.0196722319486    0.99872256698       -0.0196722319486    0.00122805193704    0.0107306922787     
3200000000.0        0.00124288809288    0.011076851338      0.998704833995      -0.0203072525414    0.998704833995      -0.0203072525414    0.00124288809288    0.011076851338      
3300000000.0        0.00125815259161    0.0114230124887     0.998686588839      -0.0209423071494    0.998686588839      -0.0209423071494    0.00125815259161    0.0114230124887     
3400000000.0        0.00127384644739    0.0117691759097     0.998667830466      -0.0215773962454    0.998667830466      -0.0215773962454    0.00127384644739    0.0117691759097     
3500000000.0        0.00128997060266    0.0121153417867     0.998648557901      -0.0222125202928    0.998648557901      -0.0222125202928    0.00128997060266    0.0121153417867     
3600000000.0        0.00130652593584    0.0124615103114     0.998628770235      -0.022847679746     0.998628770235      -0.022847679746     0.00130652593584    0.0124615103114     
3700000000.0        0.00132351326797    0.0128076816822     0.998608466614      -0.0234828750511    0.998608466614      -0.0234828750511    0.00132351326797    0.0128076816822     
3800000000.0        0.0013409333686     0.0131538561038     0.998587646236      -0.0241181066463    0.998587646236      -0.0241181066463    0.0013409333686     0.0131538561038     
3900000000.0        0.00135878696095    0.0135000337876     0.998566308344      -0.0247533749622    0.998566308344      -0.0247533749622    0.00135878696095    0.0135000337876     
4000000000.0        0.00137707472645    0.013846214951      0.998544452226      -0.0253886804227    0.998544452226      -0.0253886804227    0.00137707472644    0.013846214951      
4100000000.0        0.00139579730879    0.0141923998182     0.998522077204      -0.0260240234447    0.998522077204      -0.0260240234447    0.00139579730879    0.0141923998182     
4200000000.0        0.00141495531755    0.0145385886194     0.998499182635      -0.0266594044392    0.998499182635      -0.0266594044392    0.00141495531755    0.0145385886194     
4300000000.0        0.00143454933136    0.0148847815915     0.998475767909      -0.0272948238111    0.998475767909      -0.0272948238111    0.00143454933136    0.0148847815915     
4400000000.0        0.00145457990077    0.0152309789774     0.998451832442      -0.0279302819597    0.998451832442      -0.0279302819597    0.00145457990077    0.0152309789774     
4500000000.0        0.00147504755086    0.0155771810264     0.998427375675      -0.0285657792789    0.998427375675      -0.0285657792789    0.00147504755086    0.0155771810264     
4600000000.0        0.00149595278349    0.0159233879939     0.998402397073      -0.0292013161577    0.998402397073      -0.0292013161577    0.00149595278349    0.0159233879939     
4700000000.0        0.00151729607943    0.0162696001417     0.998376896124      -0.0298368929803    0.998376896124      -0.0298368929803    0.00151729607943    0.0162696001417     
4800000000.0        0.00153907790023    0.0166158177375     0.998350872332      -0.0304725101262    0.998350872332      -0.0304725101262    0.00153907790023    0.0166158177375     
4900000000.0        0.00156129868991    0.016962041055      0.998324325219      -0.0311081679708    0.998324325219      -0.0311081679708    0.00156129868991    0.016962041055      
5000000000.0        0.00158395887648    0.0173082703742     0.998297254326      -0.0317438668852    0.998297254326      -0.0317438668852    0.00158395887648    0.0173082703742     
5100000000.0        0.0016070588734     0.0176545059808     0.998269659204      -0.0323796072367    0.998269659204      -0.0323796072367    0.0016070588734     0.0176545059808     
5200000000.0        0.00163059908084    0.0180007481666     0.998241539422      -0.0330153893887    0.998241539422      -0.0330153893887    0.00163059908084    0.0180007481666     
5300000000.0        0.00165457988679    0.018346997229      0.998212894558      -0.0336512137012    0.998212894558      -0.0336512137012    0.00165457988679    0.018346997229      
5400000000.0        0.00167900166821    0.0186932534714     0.998183724202      -0.0342870805309    0.998183724202      -0.0342870805309    0.00167900166821    0.0186932534714     
5500000000.0        0.00170386479193    0.0190395172028     0.998154027955      -0.0349229902309    0.998154027955      -0.0349229902309    0.00170386479193    0.0190395172028     
5600000000.0        0.00172916961563    0.019385788738      0.998123805425      -0.0355589431517    0.998123805425      -0.0355589431517    0.00172916961563    0.019385788738      
5700000000.0        0.00175491648856    0.0197320683973     0.998093056232      -0.0361949396403    0.998093056232      -0.0361949396403    0.00175491648856    0.0197320683973     
5800000000.0        0.00178110575238    0.0200783565065     0.998061780001      -0.0368309800413    0.998061780001      -0.0368309800413    0.00178110575238    0.0200783565065     
5900000000.0        0.00180773774183    0.0204246533971     0.998029976364      -0.0374670646964    0.998029976364      -0.0374670646964    0.00180773774183    0.0204246533971     
6000000000.0        0.00183481278536    0.0207709594059     0.99799764496       -0.0381031939448    0.99799764496       -0.0381031939448    0.00183481278536    0.0207709594059     
6100000000.0        0.00186233120574    0.021117274875      0.997964785435      -0.0387393681231    0.997964785435      -0.0387393681231    0.00186233120574    0.021117274875      
6200000000.0        0.00189029332062    0.0214636001519     0.997931397439      -0.0393755875656    0.997931397439      -0.0393755875656    0.00189029332062    0.0214636001519     
6300000000.0        0.00191869944303    0.0218099355893     0.997897480627      -0.0400118526043    0.997897480627      -0.0400118526043    0.00191869944303    0.0218099355893     
6400000000.0        0.00194754988183    0.0221562815453     0.997863034657      -0.0406481635689    0.997863034657      -0.0406481635689    0.00194754988183    0.0221562815453     
6500000000.0        0.0019768449422     0.0225026383828     0.997828059193      -0.0412845207873    0.997828059193      -0.0412845207873    0.0019768449422     0.0225026383828     
6600000000.0        0.00200658492602    0.02284900647       0.997792553902      -0.0419209245851    0.997792553902      -0.0419209245851    0.00200658492602    0.02284900647       
6700000000.0        0.00203677013225    0.0231953861801     0.997756518453      -0.0425573752859    0.997756518453      -0.0425573752859    0.00203677013225    0.0231953861801     
6800000000.0        0.0020674008573     0.0235417778911     0.997719952519      -0.0431938732117    0.997719952519      -0.0431938732117    0.0020674008573     0.0235417778911     
6900000000.0        0.00209847739536    0.0238881819862     0.997682855773      -0.0438304186825    0.997682855773      -0.0438304186825    0.00209847739536    0.0238881819862     
7000000000.0        0.0021300000387     0.024234598853      0.997645227894      -0.0444670120165    0.997645227894      -0.0444670120165    0.0021300000387     0.024234598853      
7100000000.0        0.00216196907797    0.0245810288844     0.99760706856       -0.0451036535304    0.99760706856       -0.0451036535304    0.00216196907797    0.0245810288844     
7200000000.0        0.00219438480247    0.0249274724776     0.99756837745       -0.0457403435391    0.99756837745       -0.0457403435391    0.00219438480247    0.0249274724776     
7300000000.0        0.0022272475004     0.0252739300347     0.997529154247      -0.0463770823561    0.997529154247      -0.0463770823561    0.0022272475004     0.0252739300347     
7400000000.0        0.00226055745914    0.0256204019623     0.997489398632      -0.0470138702933    0.997489398632      -0.0470138702933    0.00226055745914    0.0256204019623     
7500000000.0        0.0022943149654     0.0259668886717     0.99744911029       -0.0476507076611    0.99744911029       -0.0476507076611    0.0022943149654     0.0259668886717     
7600000000.0        0.00232852030551    0.0263133905786     0.997408288905      -0.0482875947684    0.997408288905      -0.0482875947684    0.00232852030551    0.0263133905786     
7700000000.0        0.00236317376556    0.0266599081032     0.99736693416       -0.0489245319229    0.99736693416       -0.0489245319229    0.00236317376556    0.0266599081032     
7800000000.0        0.00239827563162    0.0270064416699     0.997325045742      -0.0495615194309    0.997325045742      -0.0495615194309    0.00239827563162    0.0270064416699     
7900000000.0        0.00243382618993    0.0273529917078     0.997282623334      -0.0501985575974    0.997282623334      -0.0501985575974    0.00243382618993    0.0273529917078     
8000000000.0        0.00246982572702    0.02769955865       0.997239666621      -0.0508356467259    0.997239666621      -0.0508356467259    0.00246982572702    0.02769955865       
8100000000.0        0.00250627452993    0.0280461429339     0.997196175288      -0.051472787119     0.997196175288      -0.051472787119     0.00250627452993    0.0280461429339     
8200000000.0        0.00254317288629    0.0283927450013     0.99715214902       -0.052109979078     0.99715214902       -0.052109979078     0.00254317288629    0.0283927450013     
8300000000.0        0.00258052108452    0.0287393652977     0.997107587499      -0.052747222903     0.997107587499      -0.052747222903     0.00258052108452    0.0287393652977     
8400000000.0        0.00261831941396    0.0290860042731     0.99706249041       -0.0533845188928    0.99706249041       -0.0533845188928    0.00261831941396    0.0290860042731     
8500000000.0        0.00265656816495    0.0294326623814     0.997016857434      -0.0540218673453    0.997016857434      -0.0540218673453    0.00265656816495    0.0294326623814     
8600000000.0        0.00269526762899    0.0297793400803     0.996970688253      -0.0546592685573    0.996970688253      -0.0546592685573    0.00269526762899    0.0297793400803     
8700000000.0        0.00273441809886    0.0301260378316     0.996923982547      -0.0552967228244    0.996923982547      -0.0552967228244    0.00273441809886    0.0301260378316     
8800000000.0        0.00277401986872    0.030472756101      0.996876739996      -0.0559342304411    0.996876739996      -0.0559342304411    0.00277401986872    0.030472756101      
8900000000.0        0.00281407323418    0.030819495358      0.996828960279      -0.0565717917012    0.996828960279      -0.0565717917012    0.00281407323418    0.030819495358      
9000000000.0        0.00285457849245    0.0311662560759     0.996780643071      -0.057209406897     0.996780643071      -0.057209406897     0.00285457849245    0.0311662560759     
9100000000.0        0.00289553594242    0.0315130387316     0.996731788049      -0.0578470763203    0.996731788049      -0.0578470763203    0.00289553594242    0.0315130387316     
9200000000.0        0.00293694588472    0.0318598438059     0.996682394887      -0.0584848002615    0.996682394887      -0.0584848002615    0.00293694588472    0.0318598438059     
9300000000.0        0.00297880862185    0.032206671783      0.996632463257      -0.0591225790103    0.996632463257      -0.0591225790103    0.00297880862185    0.032206671783      
9400000000.0        0.00302112445822    0.032553523151      0.996581992831      -0.0597604128554    0.996581992831      -0.0597604128554    0.00302112445822    0.032553523151      
9500000000.0        0.00306389370026    0.0329003984014     0.996530983278      -0.0603983020845    0.996530983278      -0.0603983020845    0.00306389370026    0.0329003984014     
9600000000.0        0.00310711665649    0.033247298029      0.996479434265      -0.0610362469843    0.996479434265      -0.0610362469843    0.00310711665649    0.033247298029      
9700000000.0        0.00315079363756    0.0335942225324     0.996427345459      -0.0616742478408    0.996427345459      -0.0616742478408    0.00315079363756    0.0335942225324     
9800000000.0        0.00319492495635    0.0339411724135     0.996374716524      -0.062312304939     0.996374716524      -0.062312304939     0.00319492495635    0.0339411724135     
9900000000.0        0.00323951092804    0.0342881481774     0.99632154712       -0.0629504185627    0.99632154712       -0.0629504185627    0.00323951092804    0.0342881481774     
10000000000.0       0.00328455187015    0.0346351503327     0.996267836909      -0.0635885889954    0.996267836909      -0.0635885889954    0.00328455187015    0.0346351503327     
