# Hz S RI R 50.00 
100000000.0         0.00625853925208    0.00291894563158    0.993734770146      -0.0054892547124    0.993734770146      -0.0054892547124    0.00625853925208    0.00291894563158    
200000000.0         0.0063471860815     0.00583680009315    0.993633811839      -0.0109774501896    0.993633811839      -0.0109774501896    0.0063471860815     0.00583680009315    
300000000.0         0.00645714045752    0.00875344078254    0.993504924213      -0.0164644875962    0.993504924213      -0.0164644875962    0.00645714045752    0.00875344078254    
400000000.0         0.00659377490415    0.0116685617239     0.993342733579      -0.0219500797234    0.993342733579      -0.0219500797234    0.00659377490415    0.0116685617239     
500000000.0         0.00675914186032    0.0145818146189     0.993145186066      -0.0274338944903    0.993145186066      -0.0274338944903    0.00675914186032    0.0145818146189     
600000000.0         0.00695427097767    0.0174928327697     0.992911250332      -0.0329155797314    0.992911250332      -0.0329155797314    0.00695427097767    0.0174928327697     
700000000.0         0.00717975298053    0.0204012397378     0.992640333713      -0.0383947722982    0.992640333713      -0.0383947722982    0.00717975298053    0.0204012397378     
800000000.0         0.00743595270137    0.0233066534156     0.992332069196      -0.0438711023965    0.992332069196      -0.0438711023965    0.00743595270137    0.0233066534156     
900000000.0         0.00772310391146    0.0262086882599     0.991986220594      -0.0493441959954    0.991986220594      -0.0493441959954    0.00772310391146    0.0262086882599     
1000000000.0        0.00804135737947    0.0291069566556     0.991602634492      -0.0548136763153    0.991602634492      -0.0548136763153    0.00804135737947    0.0291069566556     
1100000000.0        0.00839080758511    0.0320010698189     0.991181213538      -0.0602791648234    0.991181213538      -0.0602791648234    0.00839080758511    0.0320010698189     
1200000000.0        0.00877150863979    0.0348906384356     0.990721900532      -0.0657402819416    0.990721900532      -0.0657402819416    0.00877150863979    0.0348906384356     
1300000000.0        0.00918348430851    0.0377752731365     0.990224668399      -0.0711966475779    0.990224668399      -0.0711966475779    0.00918348430851    0.0377752731365     
1400000000.0        0.00962673460441    0.040654584869      0.989689513607      -0.0766478815433    0.989689513607      -0.0766478815433    0.00962673460441    0.040654584869      
1500000000.0        0.0101012402906     0.0435281851985     0.989116451661      -0.082093603889     0.989116451661      -0.082093603889     0.0101012402906     0.0435281851985     
1600000000.0        0.0106069660513     0.0463956865608     0.988505513942      -0.0875334351906    0.988505513942      -0.0875334351906    0.0106069660513     0.0463956865608     
1700000000.0        0.0111438627863     0.0492567024797     0.987856745409      -0.0929669967911    0.987856745409      -0.0929669967911    0.0111438627863     0.0492567024797     
1800000000.0        0.0117118693122     0.0521108477591     0.987170202902      -0.098393911016     0.987170202902      -0.098393911016     0.0117118693122     0.0521108477591     
1900000000.0        0.01231091365       0.0549577386556     0.98644595386       -0.103813801365     0.98644595386       -0.103813801365     0.01231091365       0.0549577386556     
2000000000.0        0.0129409140202     0.0577969930361     0.985684075323      -0.109226292685     0.985684075323      -0.109226292685     0.0129409140202     0.0577969930361     
2100000000.0        0.0136017796247     0.0606282305237     0.984884653158      -0.114631011334     0.984884653158      -0.114631011334     0.0136017796247     0.0606282305237     
2200000000.0        0.0142934112729     0.0634510726343     0.984047781427      -0.120027585329     0.984047781427      -0.120027585329     0.0142934112729     0.0634510726343     
2300000000.0        0.0150157018902     0.0662651429053     0.983173561889      -0.125415644485     0.983173561889      -0.125415644485     0.0150157018902     0.0662651429053     
2400000000.0        0.0157685369383     0.0690700670178     0.982262103574      -0.13079482055      0.982262103574      -0.13079482055      0.0157685369383     0.0690700670178     
2500000000.0        0.0165517947679     0.0718654729131     0.981313522436      -0.13616474733      0.981313522436      -0.13616474733      0.0165517947679     0.0718654729131     
2600000000.0        0.0173653469182     0.0746509909052     0.980327941054      -0.141525060809     0.980327941054      -0.141525060809     0.0173653469182     0.0746509909052     
2700000000.0        0.0182090583756     0.0774262537879     0.979305488373      -0.146875399268     0.979305488373      -0.146875399268     0.0182090583756     0.0774262537879     
2800000000.0        0.0190827878008     0.0801908969393     0.978246299482      -0.15221540339      0.978246299482      -0.15221540339      0.0190827878008     0.0801908969393     
2900000000.0        0.0199863877289     0.0829445584225     0.977150515409      -0.157544716373     0.977150515409      -0.157544716373     0.0199863877289     0.0829445584225     
3000000000.0        0.0209197047503     0.0856868790824     0.97601828295       -0.162862984028     0.97601828295       -0.162862984028     0.0209197047503     0.0856868790824     
3100000000.0        0.0218825796742     0.0884175026409     0.974849754496      -0.168169854884     0.974849754496      -0.168169854884     0.0218825796742     0.0884175026409     
3200000000.0        0.0228748476803     0.0911360757886     0.973645087891      -0.173464980281     0.973645087891      -0.173464980281     0.0228748476803     0.0911360757886     
3300000000.0        0.0238963384576     0.0938422482734     0.972404446291      -0.178748014466     0.972404446291      -0.178748014466     0.0238963384576     0.0938422482734     
3400000000.0        0.024946876337      0.0965356729879     0.971127998029      -0.184018614682     0.971127998029      -0.184018614682     0.024946876337      0.0965356729879     
3500000000.0        0.0260262804149     0.0992160060533     0.9698159165        -0.189276441258     0.9698159165        -0.189276441258     0.0260262804149     0.0992160060533     
3600000000.0        0.0271343646723     0.101882906901      0.968468380034      -0.194521157695     0.968468380034      -0.194521157695     0.0271343646723     0.101882906901      
3700000000.0        0.0282709380886     0.104536038353      0.967085571788      -0.199752430744     0.967085571788      -0.199752430744     0.0282709380886     0.104536038353      
3800000000.0        0.0294358047517     0.107175066697      0.965667679638      -0.204969930493     0.965667679638      -0.204969930493     0.0294358047517     0.107175066697      
3900000000.0        0.0306287639654     0.109799661765      0.964214896065      -0.210173330441     0.964214896065      -0.210173330441     0.0306287639654     0.109799661765      
4000000000.0        0.0318496103535     0.112409497004      0.962727418061      -0.215362307574     0.962727418061      -0.215362307574     0.0318496103535     0.112409497004      
4100000000.0        0.0330981339629     0.115004249544      0.961205447019      -0.220536542439     0.961205447019      -0.220536542439     0.0330981339629     0.115004249544      
4200000000.0        0.0343741203642     0.117583600272      0.959649188636      -0.225695719215     0.959649188636      -0.225695719215     0.0343741203642     0.117583600272      
4300000000.0        0.0356773507512     0.120147233894      0.958058852814      -0.23083952578      0.958058852814      -0.23083952578      0.0356773507512     0.120147233894      
4400000000.0        0.0370076020396     0.122694839002      0.956434653561      -0.235967653778     0.956434653561      -0.235967653778     0.0370076020396     0.122694839002      
4500000000.0        0.0383646469649     0.125226108133      0.954776808895      -0.241079798684     0.954776808895      -0.241079798684     0.0383646469649     0.125226108133      
4600000000.0        0.0397482541791     0.127740737829      0.953085540746      -0.246175659861     0.953085540746      -0.246175659861     0.0397482541791     0.127740737829      
4700000000.0        0.0411581883472     0.130238428699      0.951361074859      -0.251254940628     0.951361074859      -0.251254940628     0.0411581883472     0.130238428699      
4800000000.0        0.0425942102436     0.132718885469      0.949603640702      -0.256317348306     0.949603640702      -0.256317348306     0.0425942102436     0.132718885469      
4900000000.0        0.044056076848      0.135181817038      0.947813471365      -0.261362594282     0.947813471365      -0.261362594282     0.044056076848      0.135181817038      
5000000000.0        0.0455435414406     0.137626936529      0.94599080347       -0.266390394056     0.94599080347       -0.266390394056     0.0455435414406     0.137626936529      
5100000000.0        0.0470563536978     0.140053961338      0.944135877073      -0.271400467296     0.944135877073      -0.271400467296     0.0470563536978     0.140053961338      
5200000000.0        0.0485942597873     0.142462613179      0.942248935569      -0.27639253788      0.942248935569      -0.27639253788      0.0485942597873     0.142462613179      
5300000000.0        0.0501570024637     0.144852618133      0.940330225598      -0.281366333947     0.940330225598      -0.281366333947     0.0501570024637     0.144852618133      
5400000000.0        0.0517443211629     0.147223706686      0.938379996947      -0.286321587938     0.938379996947      -0.286321587938     0.0517443211629     0.147223706686      
5500000000.0        0.0533559520979     0.149575613773      0.936398502463      -0.291258036637     0.936398502463      -0.291258036637     0.0533559520979     0.149575613773      
5600000000.0        0.0549916283531     0.151908078813      0.934385997947      -0.296175421214     0.934385997947      -0.296175421214     0.0549916283531     0.151908078813      
5700000000.0        0.0566510799797     0.154220845749      0.932342742069      -0.301073487257     0.932342742069      -0.301073487257     0.0566510799797     0.154220845749      
5800000000.0        0.05833403409       0.156513663079      0.930268996268      -0.30595198481      0.930268996268      -0.30595198481      0.05833403409       0.156513663079      
5900000000.0        0.0600402149526     0.15878628389       0.928165024659      -0.310810668405     0.928165024659      -0.310810668405     0.0600402149526     0.15878628389       
6000000000.0        0.0617693440866     0.161038465885      0.926031093936      -0.315649297092     0.926031093936      -0.315649297092     0.0617693440866     0.161038465885      
6100000000.0        0.0635211403563     0.163269971417      0.923867473285      -0.320467634467     0.923867473285      -0.320467634467     0.0635211403563     0.163269971417      
6200000000.0        0.0652953200655     0.165480567507      0.921674434278      -0.325265448701     0.921674434278      -0.325265448701     0.0652953200655     0.165480567507      
6300000000.0        0.0670915970514     0.167670025873      0.919452250791      -0.33004251256      0.919452250791      -0.33004251256      0.0670915970514     0.167670025873      
6400000000.0        0.0689096827787     0.16983812295       0.9172011989        -0.33479860343      0.9172011989        -0.33479860343      0.0689096827787     0.16983812295       
6500000000.0        0.0707492864334     0.17198463991       0.914921556796      -0.339533503337     0.914921556796      -0.339533503337     0.0707492864334     0.17198463991       
6600000000.0        0.0726101150157     0.174109362677      0.912613604682      -0.344246998962     0.912613604682      -0.344246998962     0.0726101150157     0.174109362677      
6700000000.0        0.0744918734338     0.176212081948      0.910277624691      -0.348938881661     0.910277624691      -0.348938881661     0.0744918734338     0.176212081948      
6800000000.0        0.0763942645961     0.178292593202      0.907913900782      -0.353608947474     0.907913900782      -0.353608947474     0.0763942645961     0.178292593202      
6900000000.0        0.0783169895038     0.180350696712      0.905522718655      -0.358256997142     0.905522718655      -0.358256997142     0.0783169895038     0.180350696712      
7000000000.0        0.0802597473429     0.182386197558      0.903104365659      -0.362882836112     0.903104365659      -0.362882836112     0.0802597473429     0.182386197558      
7100000000.0        0.0822222355757     0.184398905629      0.900659130692      -0.36748627455      0.900659130692      -0.36748627455      0.0822222355757     0.184398905629      
7200000000.0        0.0842041500321     0.186388635637      0.898187304122      -0.37206712734      0.898187304122      -0.37206712734      0.0842041500321     0.186388635637      
7300000000.0        0.0862051849997     0.188355207112      0.895689177686      -0.376625214095     0.895689177686      -0.376625214095     0.0862051849997     0.188355207112      
7400000000.0        0.0882250333143     0.19029844441       0.893165044406      -0.381160359154     0.893165044406      -0.381160359154     0.0882250333143     0.19029844441       
7500000000.0        0.0902633864491     0.192218176711      0.890615198495      -0.385672391587     0.890615198495      -0.385672391587     0.0902633864491     0.192218176711      
7600000000.0        0.0923199346036     0.19411423802       0.888039935271      -0.390161145187     0.888039935271      -0.390161145187     0.0923199346036     0.19411423802       
7700000000.0        0.0943943667921     0.195986467159      0.885439551069      -0.394626458472     0.885439551069      -0.394626458472     0.0943943667921     0.195986467159      
7800000000.0        0.0964863709306     0.197834707766      0.88281434315       -0.399068174678     0.88281434315       -0.399068174678     0.0964863709306     0.197834707766      
7900000000.0        0.0985956339241     0.199658808285      0.880164609616      -0.40348614175      0.880164609616      -0.40348614175      0.0985956339241     0.199658808285      
8000000000.0        0.100721841753      0.201458621962      0.877490649326      -0.407880212338     0.877490649326      -0.407880212338     0.100721841753      0.201458621962      
8100000000.0        0.102864679556      0.20323400683       0.874792761804      -0.412250243781     0.874792761804      -0.412250243781     0.102864679556      0.20323400683       
8200000000.0        0.105023831721      0.204984825698      0.872071247162      -0.416596098098     0.872071247162      -0.416596098098     0.105023831721      0.204984825698      
8300000000.0        0.107198981959      0.206710946142      0.869326406008      -0.420917641975     0.869326406008      -0.420917641975     0.107198981959      0.206710946142      
8400000000.0        0.109389813396      0.208412240481      0.866558539371      -0.425214746746     0.866558539371      -0.425214746746     0.109389813396      0.208412240481      
8500000000.0        0.11159600865       0.210088585772      0.863767948613      -0.429487288381     0.863767948613      -0.429487288381     0.11159600865       0.210088585772      
8600000000.0        0.113817249913      0.211739863782      0.860954935349      -0.433735147463     0.860954935349      -0.433735147463     0.113817249913      0.211739863782      
8700000000.0        0.116053219032      0.213365960971      0.858119801367      -0.43795820917      0.858119801367      -0.43795820917      0.116053219032      0.213365960971      
8800000000.0        0.118303597586      0.214966768476      0.855262848551      -0.442156363253     0.855262848551      -0.442156363253     0.118303597586      0.214966768476      
8900000000.0        0.120568066968      0.21654218208       0.852384378796      -0.446329504014     0.852384378796      -0.446329504014     0.120568066968      0.21654218208       
9000000000.0        0.122846308458      0.218092102196      0.849484693939      -0.450477530281     0.849484693939      -0.450477530281     0.122846308458      0.218092102196      
9100000000.0        0.125138003301      0.219616433836      0.846564095674      -0.454600345381     0.846564095674      -0.454600345381     0.125138003301      0.219616433836      
9200000000.0        0.127442832781      0.221115086588      0.843622885485      -0.458697857115     0.843622885485      -0.458697857115     0.127442832781      0.221115086588      
9300000000.0        0.129760478297      0.222587974585      0.840661364563      -0.462769977728     0.840661364563      -0.462769977728     0.129760478297      0.222587974585      
9400000000.0        0.132090621434      0.224035016479      0.837679833742      -0.466816623881     0.837679833742      -0.466816623881     0.132090621434      0.224035016479      
9500000000.0        0.134432944036      0.22545613541       0.834678593417      -0.470837716619     0.834678593417      -0.470837716619     0.134432944036      0.22545613541       
9600000000.0        0.136787128273      0.226851258971      0.831657943483      -0.474833181337     0.831657943483      -0.474833181337     0.136787128273      0.226851258971      
9700000000.0        0.139152856716      0.228220319182      0.828618183256      -0.47880294775      0.828618183256      -0.47880294775      0.139152856716      0.228220319182      
9800000000.0        0.141529812402      0.229563252449      0.825559611411      -0.482746949859     0.825559611411      -0.482746949859     0.141529812402      0.229563252449      
9900000000.0        0.1439176789        0.230879999533      0.822482525912      -0.486665125909     0.822482525912      -0.486665125909     0.1439176789        0.230879999533      
10000000000.0       0.146316140381      0.232170505516      0.819387223944      -0.490557418361     0.819387223944      -0.490557418361     0.146316140381      0.232170505516      
