# Hz S RI R 50.00 
100000000.0         -0.0140898346024    -0.117403168209     0.985852382929      -0.117557654919     0.985852382929      -0.117557654919     -0.0140898346024    -0.117403168209     
200000000.0         -0.0539282731269    -0.225278984126     0.94601351268       -0.225587988089     0.94601351268       -0.225587988089     -0.0539282731269    -0.225278984126     
300000000.0         -0.113544999584     -0.316561220309     0.886396429208      -0.317024789069     0.886396429208      -0.317024789069     -0.113544999584     -0.316561220309     
400000000.0         -0.185358123296     -0.387801562116     0.814582973516      -0.388419756754     0.814582973516      -0.388419756754     -0.185358123296     -0.387801562116     
500000000.0         -0.262165508552     -0.438940203578     0.737775262261      -0.439713096885     0.737775262261      -0.439713096885     -0.262165508552     -0.438940203578     
600000000.0         -0.338372034768     -0.472200010963     0.661568406334      -0.473127686195     0.661568406334      -0.473127686195     -0.338372034768     -0.472200010963     
700000000.0         -0.41031931081      -0.490853116307     0.589620791152      -0.491935666235     0.589620791152      -0.491935666235     -0.41031931081      -0.490853116307     
800000000.0         -0.476036219245     -0.498304795751     0.523903530437      -0.499542321886     0.523903530437      -0.499542321886     -0.476036219245     -0.498304795751     
900000000.0         -0.534774225197     -0.497586968149     0.465165156496      -0.498979580088     0.465165156496      -0.498979580088     -0.534774225197     -0.497586968149     
1000000000.0        -0.586556860066     -0.49116713725      0.413382136055      -0.492714952111     0.413382136055      -0.492714952111     -0.586556860066     -0.49116713725      
1100000000.0        -0.631834347051     -0.480941548164     0.368104244498      -0.482644690078     0.368104244498      -0.482644690078     -0.631834347051     -0.480941548164     
1200000000.0        -0.671252581616     -0.468311633833     0.328685585255      -0.470170233502     0.328685585255      -0.470170233502     -0.671252581616     -0.468311633833     
1300000000.0        -0.705513417522     -0.454284079846     0.29442430367       -0.456298274131     0.29442430367       -0.456298274131     -0.705513417522     -0.454284079846     
1400000000.0        -0.735297880332     -0.439565716369     0.264639373451      -0.441735647921     0.264639373451      -0.441735647921     -0.735297880332     -0.439565716369     
1500000000.0        -0.761228920427     -0.424642578789     0.238707843601      -0.426968395711     0.238707843601      -0.426968395711     -0.761228920427     -0.424642578789     
1600000000.0        -0.783857297115     -0.40984146109      0.216078954289      -0.412323316622     0.216078954289      -0.412323316622     -0.783857297115     -0.40984146109      
1700000000.0        -0.803660079743     -0.395375981009     0.196275635714      -0.39801403324      0.196275635714      -0.39801403324      -0.803660079743     -0.395375981009     
1800000000.0        -0.821045432499     -0.381380226529     0.178889723287      -0.384174638132     0.178889723287      -0.384174638132     -0.821045432499     -0.381380226529     
1900000000.0        -0.836360057397     -0.367932956457     0.163574514635      -0.370883894445     0.163574514635      -0.370883894445     -0.836360057397     -0.367932956457     
2000000000.0        -0.849897326444     -0.355074833851     0.150036637432      -0.358182469344     0.150036637432      -0.358182469344     -0.849897326444     -0.355074833851     
2100000000.0        -0.861905105599     -0.342820615211     0.138028225425      -0.346085123228     0.138028225425      -0.346085123228     -0.861905105599     -0.342820615211     
2200000000.0        -0.87259282226      -0.33116772875      0.127339850944      -0.334589288014     0.127339850944      -0.334589288014     -0.87259282226      -0.33116772875      
2300000000.0        -0.882137625933     -0.320102285365     0.117794364233      -0.323681078121     0.117794364233      -0.323681078121     -0.882137625933     -0.320102285365     
2400000000.0        -0.890689644623     -0.309603271646     0.109241637053      -0.313339483496     0.109241637053      -0.313339483496     -0.890689644623     -0.309603271646     
2500000000.0        -0.898376411041     -0.299645458575     0.10155413647       -0.303539278319     0.10155413647       -0.303539278319     -0.898376411041     -0.299645458575     
2600000000.0        -0.905306560031     -0.290201404233     0.0946232274294     -0.29425302373      0.0946232274294     -0.29425302373      -0.905306560031     -0.290201404233     
2700000000.0        -0.911572902948     -0.281242818152     0.0883560983769     -0.28545243219      0.0883560983769     -0.28545243219      -0.911572902948     -0.281242818152     
2800000000.0        -0.917254978031     -0.2727414765       0.0826732108793     -0.277109282674     0.0826732108793     -0.277109282674     -0.917254978031     -0.2727414765       
2900000000.0        -0.922421164533     -0.264669821844     0.0775061854969     -0.269196020443     0.0775061854969     -0.269196020443     -0.922421164533     -0.264669821844     
3000000000.0        -0.927130435906     -0.257001342111     0.0727960485998     -0.261686136022     0.0727960485998     -0.261686136022     -0.927130435906     -0.257001342111     
3100000000.0        -0.931433815389     -0.249710795736     0.0684917767726     -0.25455439035      0.0684917767726     -0.25455439035      -0.931433815389     -0.249710795736     
3200000000.0        -0.935375586659     -0.242774330418     0.0645490861659     -0.247776933545     0.0645490861659     -0.247776933545     -0.935375586659     -0.242774330418     
3300000000.0        -0.938994302942     -0.236169529074     0.0609294233882     -0.24133135087      0.0609294233882     -0.24133135087      -0.938994302942     -0.236169529074     
3400000000.0        -0.94232363019      -0.229875406768     0.0575991223223     -0.235196659665     0.0575991223223     -0.235196659665     -0.94232363019      -0.229875406768     
3500000000.0        -0.945393053496     -0.223872375394     0.054528697714      -0.229353274038     0.054528697714      -0.229353274038     -0.945393053496     -0.223872375394     
3600000000.0        -0.948228470561     -0.218142187931     0.0516922517006     -0.223782949133     0.0516922517006     -0.223782949133     -0.948228470561     -0.218142187931     
3700000000.0        -0.950852691715     -0.212667870563     0.0490669737955     -0.218468713244     0.0490669737955     -0.218468713244     -0.950852691715     -0.212667870563     
3800000000.0        -0.953285862413     -0.2074336484       0.0466327183877     -0.213394793554     0.0466327183877     -0.213394793554     -0.953285862413     -0.2074336484       
3900000000.0        -0.955545821276     -0.202424868765     0.0443716466995     -0.208546539421     0.0443716466995     -0.208546539421     -0.955545821276     -0.202424868765     
4000000000.0        -0.957648404397     -0.197627924723     0.0422679224832     -0.203910345913     0.0422679224832     -0.203910345913     -0.957648404397     -0.197627924723     
4100000000.0        -0.959607704715     -0.193030180604     0.0403074526478     -0.199473579339     0.0403074526478     -0.199473579339     -0.959607704715     -0.193030180604     
4200000000.0        -0.961436293717     -0.188619900644     0.0384776655503     -0.19522450589      0.0384776655503     -0.19522450589      -0.961436293717     -0.188619900644     
4300000000.0        -0.963145411491     -0.184386181406     0.0367673209521     -0.191152224069     0.0367673209521     -0.191152224069     -0.963145411491     -0.184386181406     
4400000000.0        -0.964745130066     -0.180318888328     0.0351663466698     -0.18724660124      0.0351663466698     -0.18724660124      -0.964745130066     -0.180318888328     
4500000000.0        -0.966244494199     -0.176408596519     0.0336656977936     -0.183498214429     0.0336656977936     -0.183498214429     -0.966244494199     -0.176408596519     
4600000000.0        -0.967651643025     -0.172646535799     0.0322572350346     -0.179898295367     0.0322572350346     -0.179898295367     -0.967651643025     -0.172646535799     
4700000000.0        -0.96897391545      -0.169024539837     0.0309336193339     -0.176438679635     0.0309336193339     -0.176438679635     -0.96897391545      -0.169024539837     
4800000000.0        -0.970217941682     -0.165534999242     0.0296882203282     -0.173111759751     0.0296882203282     -0.173111759751     -0.970217941682     -0.165534999242     
4900000000.0        -0.971389722926     -0.162170818358     0.0285150366592     -0.169910441973     0.0285150366592     -0.169910441973     -0.971389722926     -0.162170818358     
5000000000.0        -0.972494700927     -0.158925375544     0.0274086264258     -0.166828106585     0.0274086264258     -0.166828106585     -0.972494700927     -0.158925375544     
5100000000.0        -0.973537818806     -0.155792486701     0.0263640463507     -0.163858571417     0.0263640463507     -0.163858571417     -0.973537818806     -0.155792486701     
5200000000.0        -0.974523574393     -0.152766371786     0.0253767984476     -0.160996058372     0.0253767984476     -0.160996058372     -0.974523574393     -0.152766371786     
5300000000.0        -0.975456067082     -0.149841624101     0.0244427831626     -0.158235162708     0.0244427831626     -0.158235162708     -0.975456067082     -0.149841624101     
5400000000.0        -0.976339039095     -0.14701318212      0.0235582581157     -0.155570824876     0.0235582581157     -0.155570824876     -0.976339039095     -0.14701318212      
5500000000.0        -0.977175911879     -0.144276303653     0.0227198016983     -0.152998304677     0.0227198016983     -0.152998304677     -0.977175911879     -0.144276303653     
5600000000.0        -0.977969818294     -0.14162654214      0.0219242808898     -0.150513157566     0.0219242808898     -0.150513157566     -0.977969818294     -0.14162654214      
5700000000.0        -0.978723631117     -0.139059724904     0.0211688227489     -0.148111212901     0.0211688227489     -0.148111212901     -0.978723631117     -0.139059724904     
5800000000.0        -0.979439988349     -0.136571933192     0.0204507891121     -0.145788553988     0.0204507891121     -0.145788553988     -0.979439988349     -0.136571933192     
5900000000.0        -0.980121315705     -0.13415948384      0.0197677540955     -0.143541499749     0.0197677540955     -0.143541499749     -0.980121315705     -0.13415948384      
6000000000.0        -0.980769846663     -0.131818912437     0.0191174840559     -0.141366587883     0.0191174840559     -0.141366587883     -0.980769846663     -0.131818912437     
6100000000.0        -0.981387640338     -0.12954695784      0.0184979197078     -0.139260559387     0.0184979197078     -0.139260559387     -0.981387640338     -0.12954695784      
6200000000.0        -0.98197659747      -0.127340547938     0.0179071601399     -0.137220344318     0.0179071601399     -0.137220344318     -0.98197659747      -0.127340547938     
6300000000.0        -0.982538474736     -0.125196786546     0.0173434485037     -0.135243048689     0.0173434485037     -0.135243048689     -0.982538474736     -0.125196786546     
6400000000.0        -0.98307489758      -0.123112941329     0.0168051591795     -0.133325942396     0.0168051591795     -0.133325942396     -0.98307489758      -0.123112941329     
6500000000.0        -0.983587371745     -0.121086432688     0.0162907862488     -0.1314664481       0.0162907862488     -0.1314664481       -0.983587371745     -0.121086432688     
6600000000.0        -0.984077293638     -0.119114823489     0.0157989331246     -0.129662130964     0.0157989331246     -0.129662130964     -0.984077293638     -0.119114823489     
6700000000.0        -0.984545959678     -0.117195809599     0.0153283032083     -0.127910689184     0.0153283032083     -0.127910689184     -0.984545959678     -0.117195809599     
6800000000.0        -0.98499457472      -0.115327211138     0.0148776914611     -0.126209945243     0.0148776914611     -0.126209945243     -0.98499457472      -0.115327211138     
6900000000.0        -0.985424259676     -0.113506964395     0.0144459767877     -0.12455783783      0.0144459767877     -0.12455783783      -0.985424259676     -0.113506964395     
7000000000.0        -0.9858360584       -0.111733114348     0.0140321151459     -0.122952414358     0.0140321151459     -0.122952414358     -0.9858360584       -0.111733114348     
7100000000.0        -0.986230943935     -0.110003807739     0.013635133304      -0.121391824042     0.013635133304      -0.121391824042     -0.986230943935     -0.110003807739     
7200000000.0        -0.986609824174     -0.108317286668     0.0132541231769     -0.11987431149      0.0132541231769     -0.11987431149      -0.986609824174     -0.108317286668     
7300000000.0        -0.986973547005     -0.106671882637     0.0128882366829     -0.118398210752     0.0128882366829     -0.118398210752     -0.986973547005     -0.106671882637     
7400000000.0        -0.987322904988     -0.105066011044     0.0125366810644     -0.116961939811     0.0125366810644     -0.116961939811     -0.987322904988     -0.105066011044     
7500000000.0        -0.987658639618     -0.103498166053     0.012198714628      -0.115563995456     0.012198714628      -0.115563995456     -0.987658639618     -0.103498166053     
7600000000.0        -0.987981445205     -0.10196691584      0.0118736428612     -0.114202948526     0.0118736428612     -0.114202948526     -0.987981445205     -0.10196691584      
7700000000.0        -0.988291972423     -0.100470898169     0.0115608148868     -0.112877439487     0.0115608148868     -0.112877439487     -0.988291972423     -0.100470898169     
7800000000.0        -0.988590831545     -0.0990088162688    0.0112596202242     -0.111586174311     0.0112596202242     -0.111586174311     -0.988590831545     -0.0990088162688    
7900000000.0        -0.988878595409     -0.0975794350085    0.0109694858261     -0.110327920651     0.0109694858261     -0.110327920651     -0.988878595409     -0.0975794350085    
8000000000.0        -0.989155802128     -0.0961815773186    0.0106898733653     -0.109101504259     0.0106898733653     -0.109101504259     -0.989155802128     -0.0961815773186    
8100000000.0        -0.989422957583     -0.0948141208631    0.0104202767469     -0.107905805666     0.0104202767469     -0.107905805666     -0.989422957583     -0.0948141208631    
8200000000.0        -0.989680537701     -0.0934759949311    0.0101602198256     -0.106739757064     0.0101602198256     -0.106739757064     -0.989680537701     -0.0934759949311    
8300000000.0        -0.989928990552     -0.092166177535     0.00990925430872    -0.105602339413     0.00990925430872    -0.105602339413     -0.989928990552     -0.092166177535     
8400000000.0        -0.99016873828      -0.0908836926995    0.00966695782814    -0.104492579726     0.00966695782814    -0.104492579726     -0.99016873828      -0.0908836926995    
8500000000.0        -0.990400178877     -0.0896276079261    0.00943293216542    -0.103409548536     0.00943293216542    -0.103409548536     -0.990400178877     -0.0896276079261    
8600000000.0        -0.990623687815     -0.0883970318219    0.00920680161692    -0.102352357522     0.00920680161692    -0.102352357522     -0.990623687815     -0.0883970318219    
8700000000.0        -0.990839619557     -0.0871911118792    0.00898821148605    -0.10132015729      0.00898821148605    -0.10132015729      -0.990839619557     -0.0871911118792    
8800000000.0        -0.991048308947     -0.0860090323955    0.00877682669186    -0.100312135296     0.00877682669186    -0.100312135296     -0.991048308947     -0.0860090323955    
8900000000.0        -0.991250072495     -0.0848500125242    0.00857233048349    -0.0993275138922    0.00857233048349    -0.0993275138922    -0.991250072495     -0.0848500125242    
9000000000.0        -0.991445209566     -0.0837133044459    0.00837442325175    -0.0983655485033    0.00837442325175    -0.0983655485033    -0.991445209566     -0.0837133044459    
9100000000.0        -0.991634003482     -0.0825981916524    0.00818282142932    -0.0974255259065    0.00818282142932    -0.0974255259065    -0.991634003482     -0.0825981916524    
9200000000.0        -0.991816722534     -0.0815039873349    0.00799725647218    -0.0965067626226    0.00799725647218    -0.0965067626226    -0.991816722534     -0.0815039873349    
9300000000.0        -0.991993620933     -0.0804300328702    0.00781747391558    -0.0956086034013    0.00781747391558    -0.0956086034013    -0.991993620933     -0.0804300328702    
9400000000.0        -0.992164939683     -0.0793756963969    0.00764323249827    -0.0947304197977    0.00764323249827    -0.0947304197977    -0.992164939683     -0.0793756963969    
9500000000.0        -0.992330907393     -0.0783403714763    0.00747430334953    -0.0938716088336    0.00747430334953    -0.0938716088336    -0.992330907393     -0.0783403714763    
9600000000.0        -0.992491741033     -0.0773234758319    0.00731046923385    -0.0930315917371    0.00731046923385    -0.0930315917371    -0.992491741033     -0.0773234758319    
9700000000.0        -0.992647646636     -0.0763244501623    0.00715152384864    -0.0922098127558    0.00715152384864    -0.0922098127558    -0.992647646636     -0.0763244501623    
9800000000.0        -0.992798819952     -0.0753427570231    0.00699727117087    -0.0914057380384    0.00699727117087    -0.0914057380384    -0.992798819952     -0.0753427570231    
9900000000.0        -0.992945447056     -0.0743778797719    0.00684752484864    -0.0906188545808    0.00684752484864    -0.0906188545808    -0.992945447056     -0.0743778797719    
10000000000.0       -0.993087704916     -0.0734293215742    0.00670210763428    -0.0898486692312    0.00670210763428    -0.0898486692312    -0.993087704916     -0.0734293215742    
