# Hz S RI R 50.00 
100000000.0         0.0791560753197     0.00415860344921    0.920839925641      -0.00583387575133   0.920839925641      -0.00583387575133   0.0791560753197     0.00415860344921    
200000000.0         0.0797145215546     0.00830591726489    0.92027559227       -0.0116564757743    0.92027559227       -0.0116564757743    0.0797145215546     0.00830591726489    
300000000.0         0.0801949487634     0.0124453849322     0.91978638866       -0.0174712578794    0.91978638866       -0.0174712578794    0.0801949487634     0.0124453849322     
400000000.0         0.0806610372006     0.0165776669737     0.919308633574      -0.0232788957268    0.919308633574      -0.0232788957268    0.0806610372006     0.0165776669737     
500000000.0         0.0811372969162     0.0207027785884     0.918817816011      -0.0290794170572    0.918817816011      -0.0290794170572    0.0811372969162     0.0207027785884     
600000000.0         0.0816361910341     0.0248204508389     0.918301471869      -0.0348725650875    0.918301471869      -0.0348725650875    0.0816361910341     0.0248204508389     
700000000.0         0.0821650366785     0.0289302605338     0.917752282999      -0.0406579284984    0.917752282999      -0.0406579284984    0.0821650366785     0.0289302605338     
800000000.0         0.0827285254132     0.0330316906213     0.917165556751      -0.046435001892     0.917165556751      -0.046435001892     0.0827285254132     0.0330316906213     
900000000.0         0.0833298462076     0.0371241627736     0.916538102995      -0.0522032184169    0.916538102995      -0.0522032184169    0.0833298462076     0.0371241627736     
1000000000.0        0.0839712550047     0.0412070568134     0.915867664553      -0.0579619692252    0.915867664553      -0.0579619692252    0.0839712550047     0.0412070568134     
1100000000.0        0.0846543915434     0.0452797231768     0.91515260037       -0.0637106159559    0.91515260037       -0.0637106159559    0.0846543915434     0.0452797231768     
1200000000.0        0.0853804682796     0.0493414913735     0.914391696588      -0.0694484992123    0.914391696588      -0.0694484992123    0.0853804682796     0.0493414913735     
1300000000.0        0.0861503893478     0.053391676         0.913584047583      -0.0751749445879    0.913584047583      -0.0751749445879    0.0861503893478     0.053391676         
1400000000.0        0.0869648288382     0.0574295811784     0.91272897769       -0.0808892671156    0.91272897769       -0.0808892671156    0.0869648288382     0.0574295811784     
1500000000.0        0.0878242842098     0.0614545039418     0.911825987782      -0.0865907746614    0.911825987782      -0.0865907746614    0.0878242842098     0.0614545039418     
1600000000.0        0.0887291138731     0.0654657368895     0.910874717693      -0.0922787705873    0.910874717693      -0.0922787705873    0.0887291138731     0.0654657368895     
1700000000.0        0.0896795643395     0.0694625703205     0.909874919062      -0.0979525558904    0.909874919062      -0.0979525558904    0.0896795643395     0.0694625703205     
1800000000.0        0.090675790287      0.073444293987      0.908826435269      -0.103611430961     0.908826435269      -0.103611430961     0.090675790287      0.073444293987      
1900000000.0        0.0917178696964     0.0774101985612     0.9077291863        -0.109254697057     0.9077291863        -0.109254697057     0.0917178696964     0.0774101985612     
2000000000.0        0.0928058154754     0.0813595768849     0.906583157119      -0.11488165755      0.906583157119      -0.11488165755      0.0928058154754     0.0813595768849     
2100000000.0        0.0939395845356     0.0852917250492     0.905388388592      -0.120491619018     0.905388388592      -0.120491619018     0.0939395845356     0.0852917250492     
2200000000.0        0.0951190849869     0.0892059433394     0.904144970293      -0.126083892186     0.904144970293      -0.126083892186     0.0951190849869     0.0892059433394     
2300000000.0        0.0963441819205     0.0931015370722     0.90285303472       -0.131657792769     0.90285303472       -0.131657792769     0.0963441819205     0.0931015370722     
2400000000.0        0.0976147021188     0.0969778173437     0.901512752583      -0.137212642222     0.901512752583      -0.137212642222     0.0976147021188     0.0969778173437     
2500000000.0        0.0989304379384     0.100834101705      0.900124328926      -0.142747768417     0.900124328926      -0.142747768417     0.0989304379384     0.100834101705      
2600000000.0        0.10029115055       0.104669714775      0.89868799988       -0.14826250626      0.89868799988       -0.14826250626      0.10029115055       0.104669714775      
2700000000.0        0.101696572674      0.108483988801      0.897204029932      -0.153756198249     0.897204029932      -0.153756198249     0.101696572674      0.108483988801      
2800000000.0        0.103146410909      0.112276264173      0.895672709596      -0.159228194994     0.895672709596      -0.159228194994     0.103146410909      0.112276264173      
2900000000.0        0.104640347743      0.116045889899      0.894094353398      -0.164677855695     0.894094353398      -0.164677855695     0.104640347743      0.116045889899      
3000000000.0        0.106178043307      0.119792224048      0.892469298126      -0.170104548578     0.892469298126      -0.170104548578     0.106178043307      0.119792224048      
3100000000.0        0.107759136909      0.12351463415       0.890797901294      -0.175507651308     0.890797901294      -0.175507651308     0.107759136909      0.12351463415       
3200000000.0        0.109383248402      0.127212497584      0.889080539774      -0.180886551368     0.889080539774      -0.180886551368     0.109383248402      0.127212497584      
3300000000.0        0.11104997941       0.130885201926      0.887317608573      -0.186240646415     0.887317608573      -0.186240646415     0.11104997941       0.130885201926      
3400000000.0        0.112758914429      0.134532145278      0.885509519726      -0.191569344607     0.885509519726      -0.191569344607     0.112758914429      0.134532145278      
3500000000.0        0.114509621835      0.138152736578      0.88365670129       -0.196872064913     0.88365670129       -0.196872064913     0.114509621835      0.138152736578      
3600000000.0        0.11630165481       0.141746395883      0.88175959642       -0.202148237398     0.88175959642       -0.202148237398     0.11630165481       0.141746395883      
3700000000.0        0.118134552197      0.145312554633      0.879818662515      -0.20739730349      0.879818662515      -0.20739730349      0.118134552197      0.145312554633      
3800000000.0        0.12000783929       0.1488506559        0.87783437042       -0.212618716227     0.87783437042       -0.212618716227     0.12000783929       0.1488506559        
3900000000.0        0.121921028584      0.152360154616      0.875807203684      -0.217811940486     0.875807203684      -0.217811940486     0.121921028584      0.152360154616      
4000000000.0        0.123873620478      0.155840517786      0.873737657856      -0.222976453197     0.873737657856      -0.222976453197     0.123873620478      0.155840517786      
4100000000.0        0.125865103932      0.15929122468       0.87162623982       -0.228111743536     0.87162623982       -0.228111743536     0.125865103932      0.15929122468       
4200000000.0        0.127894957108      0.162711767015      0.869473467165      -0.233217313108     0.869473467165      -0.233217313108     0.127894957108      0.162711767015      
4300000000.0        0.129962647969      0.166101649114      0.867279867578      -0.238292676106     0.867279867578      -0.238292676106     0.129962647969      0.166101649114      
4400000000.0        0.132067634861      0.16946038806       0.865045978264      -0.243337359466     0.865045978264      -0.243337359466     0.132067634861      0.16946038806       
4500000000.0        0.134209367066      0.172787513828      0.862772345392      -0.248350902998     0.862772345392      -0.248350902998     0.134209367066      0.172787513828      
4600000000.0        0.136387285348      0.176082569404      0.860459523554      -0.253332859506     0.860459523554      -0.253332859506     0.136387285348      0.176082569404      
4700000000.0        0.138600822465      0.179345110891      0.858108075243      -0.258282794898     0.858108075243      -0.258282794898     0.138600822465      0.179345110891      
4800000000.0        0.14084940368       0.182574707603      0.855718570349      -0.263200288275     0.855718570349      -0.263200288275     0.14084940368       0.182574707603      
4900000000.0        0.143132447249      0.185770942145      0.853291585672      -0.268084932015     0.853291585672      -0.268084932015     0.143132447249      0.185770942145      
5000000000.0        0.145449364898      0.188933410478      0.850827704437      -0.272936331836     0.850827704437      -0.272936331836     0.145449364898      0.188933410478      
5100000000.0        0.147799562291      0.192061721976      0.848327515835      -0.277754106856     0.848327515835      -0.277754106856     0.147799562291      0.192061721976      
5200000000.0        0.150182439481      0.195155499466      0.845791614566      -0.282537889633     0.845791614566      -0.282537889633     0.150182439481      0.195155499466      
5300000000.0        0.152597391353      0.198214379259      0.843220600395      -0.287287326194     0.843220600395      -0.287287326194     0.152597391353      0.198214379259      
5400000000.0        0.155043808059      0.201238011173      0.84061507772       -0.292002076059     0.84061507772       -0.292002076059     0.155043808059      0.201238011173      
5500000000.0        0.157521075441      0.204226058532      0.837975655148      -0.296681812244     0.837975655148      -0.296681812244     0.157521075441      0.204226058532      
5600000000.0        0.160028575446      0.207178198174      0.835302945081      -0.301326221263     0.835302945081      -0.301326221263     0.160028575446      0.207178198174      
5700000000.0        0.162565686527      0.210094120427      0.832597563309      -0.30593500311      0.832597563309      -0.30593500311      0.162565686527      0.210094120427      
5800000000.0        0.165131784047      0.212973529091      0.829860128614      -0.31050787124      0.829860128614      -0.31050787124      0.165131784047      0.212973529091      
5900000000.0        0.16772624066       0.215816141403      0.827091262382      -0.315044552529     0.827091262382      -0.315044552529     0.16772624066       0.215816141403      
6000000000.0        0.170348426695      0.218621687989      0.824291588219      -0.319544787236     0.824291588219      -0.319544787236     0.170348426695      0.218621687989      
6100000000.0        0.172997710527      0.221389912816      0.821461731587      -0.324008328944     0.821461731587      -0.324008328944     0.172997710527      0.221389912816      
6200000000.0        0.175673458942      0.224120573124      0.81860231943       -0.328434944504     0.81860231943       -0.328434944504     0.175673458942      0.224120573124      
6300000000.0        0.178375037488      0.226813439358      0.815713979828      -0.332824413957     0.815713979828      -0.332824413957     0.178375037488      0.226813439358      
6400000000.0        0.181101810828      0.229468295087      0.812797341639      -0.337176530457     0.812797341639      -0.337176530457     0.181101810828      0.229468295087      
6500000000.0        0.183853143077      0.232084936912      0.809853034168      -0.341491100184     0.809853034168      -0.341491100184     0.183853143077      0.232084936912      
6600000000.0        0.186628398137      0.234663174374      0.806881686827      -0.345767942244     0.806881686827      -0.345767942244     0.186628398137      0.234663174374      
6700000000.0        0.189426940016      0.237202829846      0.803883928817      -0.350006888566     0.803883928817      -0.350006888566     0.189426940016      0.237202829846      
6800000000.0        0.192248133148      0.239703738425      0.800860388806      -0.354207783793     0.800860388806      -0.354207783793     0.192248133148      0.239703738425      
6900000000.0        0.195091342703      0.242165747806      0.797811694622      -0.358370485159     0.797811694622      -0.358370485159     0.195091342703      0.242165747806      
7000000000.0        0.197955934881      0.244588718165      0.794738472956      -0.362494862365     0.794738472956      -0.362494862365     0.197955934881      0.244588718165      
7100000000.0        0.200841277214      0.246972522019      0.791641349062      -0.366580797447     0.791641349062      -0.366580797447     0.200841277214      0.246972522019      
7200000000.0        0.203746738842      0.249317044091      0.788520946475      -0.370628184637     0.788520946475      -0.370628184637     0.203746738842      0.249317044091      
7300000000.0        0.206671690796      0.251622181167      0.785377886736      -0.37463693022      0.785377886736      -0.37463693022      0.206671690796      0.251622181167      
7400000000.0        0.209615506266      0.253887841938      0.782212789118      -0.378606952381     0.782212789118      -0.378606952381     0.209615506266      0.253887841938      
7500000000.0        0.21257756086       0.256113946856      0.779026270366      -0.38253818105      0.779026270366      -0.38253818105      0.21257756086       0.256113946856      
7600000000.0        0.21555723286       0.258300427961      0.775818944444      -0.386430557744     0.775818944444      -0.386430557744     0.21555723286       0.258300427961      
7700000000.0        0.218553903469      0.260447228724      0.772591422288      -0.390284035397     0.772591422288      -0.390284035397     0.218553903469      0.260447228724      
7800000000.0        0.221566957043      0.262554303874      0.769344311567      -0.394098578196     0.769344311567      -0.394098578196     0.221566957043      0.262554303874      
7900000000.0        0.224595781327      0.264621619223      0.766078216454      -0.397874161401     0.766078216454      -0.397874161401     0.224595781327      0.264621619223      
8000000000.0        0.227639767677      0.266649151486      0.762793737402      -0.401610771168     0.762793737402      -0.401610771168     0.227639767677      0.266649151486      
8100000000.0        0.23069831127       0.268636888105      0.759491470929      -0.405308404369     0.759491470929      -0.405308404369     0.23069831127       0.268636888105      
8200000000.0        0.233770811315      0.270584827055      0.756172009412      -0.408967068405     0.756172009412      -0.408967068405     0.233770811315      0.270584827055      
8300000000.0        0.236856671251      0.272492976664      0.752835940886      -0.41258678102      0.752835940886      -0.41258678102      0.236856671251      0.272492976664      
8400000000.0        0.239955298937      0.274361355415      0.749483848853      -0.416167570104     0.749483848853      -0.416167570104     0.239955298937      0.274361355415      
8500000000.0        0.243066106839      0.276189991755      0.746116312096      -0.419709473505     0.746116312096      -0.419709473505     0.243066106839      0.276189991755      
8600000000.0        0.246188512204      0.277978923897      0.742733904506      -0.423212538829     0.742733904506      -0.423212538829     0.246188512204      0.277978923897      
8700000000.0        0.249321937227      0.279728199622      0.739337194907      -0.426676823241     0.739337194907      -0.426676823241     0.249321937227      0.279728199622      
8800000000.0        0.252465809219      0.28143787608       0.735926746899      -0.430102393267     0.735926746899      -0.430102393267     0.252465809219      0.28143787608       
8900000000.0        0.255619560755      0.283108019583      0.7325031187        -0.433489324592     0.7325031187        -0.433489324592     0.255619560755      0.283108019583      
9000000000.0        0.258782629821      0.284738705407      0.729066863001      -0.436837701851     0.729066863001      -0.436837701851     0.258782629821      0.284738705407      
9100000000.0        0.261954459959      0.286330017585      0.725618526825      -0.440147618431     0.725618526825      -0.440147618431     0.261954459959      0.286330017585      
9200000000.0        0.265134500392      0.287882048698      0.722158651394      -0.443419176262     0.722158651394      -0.443419176262     0.265134500392      0.287882048698      
9300000000.0        0.268322206158      0.289394899674      0.718687772001      -0.446652485609     0.718687772001      -0.446652485609     0.268322206158      0.289394899674      
9400000000.0        0.271517038221      0.290868679576      0.715206417894      -0.449847664869     0.715206417894      -0.449847664869     0.271517038221      0.290868679576      
9500000000.0        0.274718463586      0.292303505399      0.711715112163      -0.453004840359     0.711715112163      -0.453004840359     0.274718463586      0.292303505399      
9600000000.0        0.277925955404      0.293699501858      0.708214371633      -0.456124146112     0.708214371633      -0.456124146112     0.277925955404      0.293699501858      
9700000000.0        0.281138993072      0.295056801183      0.704704706765      -0.459205723668     0.704704706765      -0.459205723668     0.281138993072      0.295056801183      
9800000000.0        0.284357062321      0.296375542911      0.701186621566      -0.462249721864     0.701186621566      -0.462249721864     0.284357062321      0.296375542911      
9900000000.0        0.287579655305      0.29765587368       0.697660613498      -0.465256296632     0.697660613498      -0.465256296632     0.287579655305      0.29765587368       
10000000000.0       0.290806270677      0.298897947021      0.694127173406      -0.46822561079      0.694127173406      -0.46822561079      0.290806270677      0.298897947021      
