# Hz S RI R 50.00 
100000000.0         0.00109582967257    0.00025769300166    0.998902103394      -0.00105168394365   0.998902103394      -0.00105168394365   0.00109582967257    0.00025769300166    
200000000.0         0.00110357898258    0.000515365408307   0.99889265647       -0.00210335461381   0.99889265647       -0.00210335461381   0.00110357898258    0.000515365408307   
300000000.0         0.0011099364518     0.000773023243978   0.99888397067       -0.00315502224022   0.99888397067       -0.00315502224022   0.0011099364518     0.000773023243978   
400000000.0         0.00111585332102    0.00103066766005    0.998875094703      -0.00420669113789   0.998875094703      -0.00420669113789   0.00111585332102    0.00103066766005    
500000000.0         0.00112169588594    0.00128829871816    0.998865662219      -0.00525836400637   0.998865662219      -0.00525836400637   0.00112169588594    0.00128829871816    
600000000.0         0.00112765092541    0.00154591601607    0.998855486374      -0.00631004273838   0.998855486374      -0.00631004273838   0.00112765092541    0.00154591601607    
700000000.0         0.00113382875223    0.00180351890939    0.998844456787      -0.00736172873319   0.998844456787      -0.00736172873319   0.00113382875223    0.00180351890939    
800000000.0         0.00114030081852    0.00206110661214    0.998832501928      -0.00841342305309   0.998832501928      -0.00841342305309   0.00114030081852    0.00206110661214    
900000000.0         0.00114711645741    0.00231867824976    0.998819572382      -0.00946512651318   0.998819572382      -0.00946512651318   0.00114711645741    0.00231867824976    
1000000000.0        0.00115431136773    0.00257623289015    0.998805632364      -0.0105168397377    0.998805632364      -0.0105168397377    0.00115431136773    0.00257623289015    
1100000000.0        0.00116191233006    0.00283376956252    0.998790655         -0.0115685631982    0.998790655         -0.0115685631982    0.00116191233006    0.00283376956252    
1200000000.0        0.0011699400163     0.00309128727007    0.998774619522      -0.0126202972408    0.998774619522      -0.0126202972408    0.0011699400163     0.00309128727007    
1300000000.0        0.0011784107572     0.00334878499836    0.998757509498      -0.0136720421058    0.998757509498      -0.0136720421058    0.0011784107572     0.00334878499836    
1400000000.0        0.00118733770391    0.00360626172134    0.998739311671      -0.0147237979428    0.998739311671      -0.0147237979428    0.00118733770391    0.00360626172134    
1500000000.0        0.00119673161932    0.00386371640559    0.998720015169      -0.0157755648231    0.998720015169      -0.0157755648231    0.00119673161932    0.00386371640559    
1600000000.0        0.00120660143385    0.00412114801345    0.998699610947      -0.0168273427483    0.998699610947      -0.0168273427483    0.00120660143385    0.00412114801345    
1700000000.0        0.00121695464584    0.00437855550536    0.998678091392      -0.0178791316589    0.998678091392      -0.0178791316589    0.00121695464584    0.00437855550536    
1800000000.0        0.00122779761652    0.00463593784169    0.99865545002       -0.0189309314398    0.99865545002       -0.0189309314398    0.00122779761652    0.00463593784169    
1900000000.0        0.0012391357916     0.00489329398398    0.998631681263      -0.0199827419263    0.998631681263      -0.0199827419263    0.0012391357916     0.00489329398398    
2000000000.0        0.00125097387047    0.00515062289611    0.998606780295      -0.021034562908     0.998606780295      -0.021034562908     0.00125097387047    0.00515062289611    
2100000000.0        0.00126331593747    0.00540792354498    0.998580742901      -0.0220863941331    0.998580742901      -0.0220863941331    0.00126331593747    0.00540792354498    
2200000000.0        0.00127616556507    0.00566519490126    0.998553565375      -0.0231382353115    0.998553565375      -0.0231382353115    0.00127616556507    0.00566519490126    
2300000000.0        0.00128952589588    0.00592243593976    0.998525244441      -0.0241900861178    0.998525244441      -0.0241900861178    0.00128952589588    0.00592243593976    
2400000000.0        0.00130339970872    0.00617964563989    0.99849577718       -0.0252419461937    0.99849577718       -0.0252419461937    0.00130339970872    0.00617964563989    
2500000000.0        0.00131778947217    0.00643682298594    0.998465160984      -0.0262938151503    0.998465160984      -0.0262938151503    0.00131778947217    0.00643682298594    
2600000000.0        0.00133269738857    0.00669396696725    0.998433393506      -0.0273456925702    0.998433393506      -0.0273456925702    0.00133269738857    0.00669396696725    
2700000000.0        0.00134812543024    0.00695107657847    0.998400472628      -0.028397578009     0.998400472628      -0.028397578009     0.00134812543024    0.00695107657847    
2800000000.0        0.00136407536982    0.00720815081962    0.998366396431      -0.0294494709974    0.998366396431      -0.0294494709974    0.00136407536982    0.00720815081962    
2900000000.0        0.00138054880554    0.00746518869619    0.998331163165      -0.0305013710421    0.998331163165      -0.0305013710421    0.00138054880554    0.00746518869619    
3000000000.0        0.00139754718265    0.00772218921923    0.998294771233      -0.0315532776273    0.998294771233      -0.0315532776273    0.00139754718265    0.00772218921923    
3100000000.0        0.00141507181158    0.00797915140537    0.99825721917       -0.032605190216     0.99825721917       -0.032605190216     0.00141507181158    0.00797915140537    
3200000000.0        0.00143312388346    0.00823607427684    0.998218505628      -0.033657108251     0.998218505628      -0.033657108251     0.00143312388346    0.00823607427684    
3300000000.0        0.00145170448341    0.00849295686147    0.998178629366      -0.034709031156     0.998178629366      -0.034709031156     0.00145170448341    0.00849295686147    
3400000000.0        0.00147081460207    0.0087497981927     0.998137589231      -0.0357609583361    0.998137589231      -0.0357609583361    0.00147081460207    0.0087497981927     
3500000000.0        0.00149045514548    0.00900659730953    0.998095384155      -0.0368128891794    0.998095384155      -0.0368128891794    0.00149045514548    0.00900659730953    
3600000000.0        0.0015106269438     0.00926335325651    0.998052013147      -0.0378648230569    0.998052013147      -0.0378648230569    0.0015106269438     0.00926335325651    
3700000000.0        0.00153133075883    0.00952006508371    0.998007475278      -0.0389167593239    0.998007475278      -0.0389167593239    0.00153133075883    0.00952006508371    
3800000000.0        0.00155256729068    0.00977673184664    0.997961769681      -0.0399686973203    0.997961769681      -0.0399686973203    0.00155256729068    0.00977673184664    
3900000000.0        0.00157433718356    0.0100333526063     0.997914895545      -0.0410206363716    0.997914895545      -0.0410206363716    0.00157433718356    0.0100333526063     
4000000000.0        0.001596641031      0.0102899264289     0.997866852107      -0.0420725757888    0.997866852107      -0.0420725757888    0.001596641031      0.0102899264289     
4100000000.0        0.00161947938036    0.0105464523861     0.997817638647      -0.0431245148698    0.997817638647      -0.0431245148698    0.00161947938036    0.0105464523861     
4200000000.0        0.00164285273693    0.0108029295548     0.997767254489      -0.0441764528993    0.997767254489      -0.0441764528993    0.00164285273693    0.0108029295548     
4300000000.0        0.00166676156753    0.0110593570171     0.997715698992      -0.0452283891493    0.997715698992      -0.0452283891493    0.00166676156753    0.0110593570171     
4400000000.0        0.00169120630375    0.0113157338602     0.99766297155       -0.0462803228799    0.99766297155       -0.0462803228799    0.00169120630375    0.0113157338602     
4500000000.0        0.00171618734485    0.0115720591764     0.997609071588      -0.0473322533396    0.997609071588      -0.0473322533396    0.00171618734485    0.0115720591764     
4600000000.0        0.00174170506036    0.0118283320629     0.997553998559      -0.0483841797655    0.997553998559      -0.0483841797655    0.00174170506036    0.0118283320629     
4700000000.0        0.00176775979244    0.0120845516219     0.997497751942      -0.0494361013838    0.997497751942      -0.0494361013838    0.00176775979244    0.0120845516219     
4800000000.0        0.00179435185799    0.0123407169607     0.997440331242      -0.0504880174102    0.997440331242      -0.0504880174102    0.00179435185799    0.0123407169607     
4900000000.0        0.00182148155055    0.012596827191      0.997381735984      -0.0515399270503    0.997381735984      -0.0515399270503    0.00182148155055    0.012596827191      
5000000000.0        0.00184914914207    0.0128528814297     0.997321965717      -0.0525918294996    0.997321965717      -0.0525918294996    0.00184914914207    0.0128528814297     
5100000000.0        0.00187735488445    0.013108878798      0.997261020005      -0.0536437239443    0.997261020005      -0.0536437239443    0.00187735488445    0.013108878798      
5200000000.0        0.001906099011      0.0133648184219     0.997198898433      -0.0546956095611    0.997198898433      -0.0546956095611    0.001906099011      0.0133648184219     
5300000000.0        0.00193538173775    0.013620699432      0.997135600601      -0.0557474855178    0.997135600601      -0.0557474855178    0.00193538173775    0.013620699432      
5400000000.0        0.00196520326464    0.0138765209632     0.997071126124      -0.0567993509734    0.997071126124      -0.0567993509734    0.00196520326464    0.0138765209632     
5500000000.0        0.00199556377661    0.0141322821552     0.997005474632      -0.0578512050784    0.997005474632      -0.0578512050784    0.00199556377661    0.0141322821552     
5600000000.0        0.0020264634446     0.0143879821516     0.996938645768      -0.0589030469751    0.996938645768      -0.0589030469751    0.0020264634446     0.0143879821516     
5700000000.0        0.0020579024265     0.0146436201007     0.996870639187      -0.0599548757977    0.996870639187      -0.0599548757977    0.0020579024265     0.0146436201007     
5800000000.0        0.00208988086795    0.0148991951547     0.996801454558      -0.0610066906726    0.996801454558      -0.0610066906726    0.00208988086795    0.0148991951547     
5900000000.0        0.00212239890317    0.0151547064704     0.996731091556      -0.0620584907186    0.996731091556      -0.0620584907186    0.00212239890317    0.0151547064704     
6000000000.0        0.00215545665563    0.0154101532082     0.996659549871      -0.0631102750471    0.996659549871      -0.0631102750471    0.00215545665563    0.0154101532082     
6100000000.0        0.00218905423876    0.0156655345331     0.996586829199      -0.0641620427622    0.996586829199      -0.0641620427622    0.00218905423876    0.0156655345331     
6200000000.0        0.00222319175654    0.0159208496137     0.996512929248      -0.065213792961     0.996512929248      -0.065213792961     0.00222319175654    0.0159208496137     
6300000000.0        0.00225786930405    0.0161760976228     0.996437849732      -0.0662655247339    0.996437849732      -0.0662655247339    0.00225786930405    0.0161760976228     
6400000000.0        0.00229308696805    0.0164312777368     0.996361590374      -0.0673172371644    0.996361590374      -0.0673172371644    0.00229308696805    0.0164312777368     
6500000000.0        0.00232884482741    0.0166863891363     0.996284150903      -0.0683689293295    0.996284150903      -0.0683689293295    0.00232884482741    0.0166863891363     
6600000000.0        0.0023651429536     0.0169414310055     0.996205531057      -0.0694206002999    0.996205531057      -0.0694206002999    0.0023651429536     0.0169414310055     
6700000000.0        0.00240198141113    0.0171964025322     0.996125730581      -0.0704722491399    0.996125730581      -0.0704722491399    0.00240198141113    0.0171964025322     
6800000000.0        0.00243936025788    0.0174513029081     0.996044749223      -0.071523874908     0.996044749223      -0.071523874908     0.00243936025788    0.0174513029081     
6900000000.0        0.00247727954554    0.0177061313283     0.995962586739      -0.0725754766564    0.995962586739      -0.0725754766564    0.00247727954554    0.0177061313283     
7000000000.0        0.0025157393199     0.0179608869915     0.995879242892      -0.0736270534318    0.995879242892      -0.0736270534318    0.0025157393199     0.0179608869915     
7100000000.0        0.00255473962119    0.0182155691002     0.995794717448      -0.0746786042751    0.995794717448      -0.0746786042751    0.00255473962119    0.0182155691002     
7200000000.0        0.0025942804844     0.0184701768599     0.995709010179      -0.0757301282215    0.995709010179      -0.0757301282215    0.0025942804844     0.0184701768599     
7300000000.0        0.00263436193952    0.0187247094798     0.995622120861      -0.076781624301     0.995622120861      -0.076781624301     0.00263436193952    0.0187247094798     
7400000000.0        0.00267498401184    0.0189791661724     0.995534049276      -0.0778330915381    0.995534049276      -0.0778330915381    0.00267498401184    0.0189791661724     
7500000000.0        0.00271614672215    0.0192335461535     0.995444795209      -0.0788845289521    0.995444795209      -0.0788845289521    0.00271614672216    0.0192335461535     
7600000000.0        0.00275785008705    0.0194878486421     0.995354358449      -0.0799359355573    0.995354358449      -0.0799359355573    0.00275785008705    0.0194878486421     
7700000000.0        0.00280009411908    0.0197420728605     0.99526273879       -0.0809873103629    0.99526273879       -0.0809873103629    0.00280009411908    0.0197420728605     
7800000000.0        0.00284287882698    0.0199962180341     0.995169936029      -0.0820386523733    0.995169936029      -0.0820386523733    0.00284287882698    0.0199962180341     
7900000000.0        0.00288620421585    0.0202502833915     0.995075949967      -0.0830899605878    0.995075949967      -0.0830899605878    0.00288620421585    0.0202502833915     
8000000000.0        0.00293007028738    0.0205042681642     0.994980780408      -0.0841412340014    0.994980780408      -0.0841412340014    0.00293007028738    0.0205042681642     
8100000000.0        0.00297447703995    0.020758171587      0.994884427159      -0.0851924716042    0.994884427159      -0.0851924716042    0.00297447703995    0.020758171587      
8200000000.0        0.00301942446886    0.0210119928973     0.994786890031      -0.0862436723819    0.994786890031      -0.0862436723819    0.00301942446886    0.0210119928973     
8300000000.0        0.00306491256644    0.0212657313359     0.994688168836      -0.0872948353157    0.994688168836      -0.0872948353157    0.00306491256644    0.0212657313359     
8400000000.0        0.0031109413222     0.021519386146      0.994588263392      -0.0883459593824    0.994588263392      -0.0883459593824    0.0031109413222     0.021519386146      
8500000000.0        0.00315751072299    0.0217729565741     0.994487173517      -0.0893970435546    0.994487173517      -0.0893970435546    0.00315751072299    0.0217729565741     
8600000000.0        0.00320462075309    0.0220264418693     0.994384899033      -0.0904480868007    0.994384899033      -0.0904480868007    0.00320462075309    0.0220264418693     
8700000000.0        0.00325227139436    0.0222798412833     0.994281439763      -0.0914990880848    0.994281439763      -0.0914990880848    0.00325227139436    0.0222798412833     
8800000000.0        0.00330046262636    0.0225331540709     0.994176795535      -0.0925500463672    0.994176795535      -0.0925500463672    0.00330046262636    0.0225331540709     
8900000000.0        0.00334919442642    0.0227863794893     0.994070966176      -0.0936009606041    0.994070966176      -0.0936009606041    0.00334919442642    0.0227863794893     
9000000000.0        0.00339846676979    0.0230395167984     0.993963951519      -0.0946518297476    0.993963951519      -0.0946518297476    0.00339846676979    0.0230395167984     
9100000000.0        0.00344827962972    0.0232925652607     0.993855751396      -0.0957026527463    0.993855751396      -0.0957026527463    0.00344827962972    0.0232925652607     
9200000000.0        0.00349863297755    0.0235455241415     0.993746365643      -0.0967534285448    0.993746365643      -0.0967534285448    0.00349863297755    0.0235455241415     
9300000000.0        0.00354952678279    0.0237983927083     0.993635794097      -0.0978041560839    0.993635794097      -0.0978041560839    0.00354952678279    0.0237983927083     
9400000000.0        0.00360096101324    0.0240511702313     0.993524036597      -0.0988548343011    0.993524036597      -0.0988548343011    0.00360096101324    0.0240511702313     
9500000000.0        0.00365293563502    0.024303855983      0.993411092985      -0.0999054621298    0.993411092985      -0.0999054621298    0.00365293563502    0.024303855983      
9600000000.0        0.00370545061268    0.0245564492384     0.993296963102      -0.1009560385       0.993296963102      -0.1009560385       0.00370545061268    0.0245564492384     
9700000000.0        0.00375850590928    0.024808949275      0.993181646795      -0.102006562339     0.993181646795      -0.102006562339     0.00375850590928    0.024808949275      
9800000000.0        0.00381210148644    0.0250613553725     0.993065143909      -0.10305703257      0.993065143909      -0.10305703257      0.00381210148644    0.0250613553725     
9900000000.0        0.00386623730439    0.0253136668128     0.992947454292      -0.104107448111     0.992947454292      -0.104107448111     0.00386623730439    0.0253136668128     
10000000000.0       0.00392091332208    0.0255658828804     0.992828577795      -0.105157807881     0.992828577795      -0.105157807881     0.00392091332208    0.0255658828804     
