# Hz S RI R 50.00 
100000000.0         0.00476558602169    0.00124175432703    0.995231111062      -0.00264207720234   0.995231111062      -0.00264207720234   0.00476558602169    0.00124175432703    
200000000.0         0.00480638361893    0.00248322813733    0.995186046401      -0.00528388664519   0.995186046401      -0.00528388664519   0.00480638361893    0.00248322813733    
300000000.0         0.00484538023909    0.00372448255639    0.995140818407      -0.00792549775489   0.995140818407      -0.00792549775489   0.00484538023909    0.00372448255639    
400000000.0         0.00488669784567    0.00496551403431    0.995091304917      -0.0105669133053    0.995091304917      -0.0105669133053    0.00488669784567    0.00496551403431    
500000000.0         0.00493192388392    0.00620630399375    0.995035918254      -0.0132081200444    0.995035918254      -0.0132081200444    0.00493192388392    0.00620630399375    
600000000.0         0.00498186755635    0.00744682721986    0.994973848953      -0.0158490974278    0.994973848953      -0.0158490974278    0.00498186755635    0.00744682721986    
700000000.0         0.00503700633974    0.00868705487454    0.994904619243      -0.0184898208094    0.994904619243      -0.0184898208094    0.00503700633974    0.00868705487454    
800000000.0         0.00509764896444    0.00992695589493    0.994827920069      -0.0211302629442    0.994827920069      -0.0211302629442    0.00509764896444    0.00992695589493    
900000000.0         0.00516400798622    0.0111664977448     0.994743538525      -0.0237703948095    0.994743538525      -0.0237703948095    0.00516400798622    0.0111664977448     
1000000000.0        0.00523623657358    0.0124056468596     0.994651321065      -0.0264101860991    0.994651321065      -0.0264101860991    0.00523623657358    0.0124056468596     
1100000000.0        0.00531444895831    0.0136443689295     0.994551153054      -0.0290496055419    0.994551153054      -0.0290496055419    0.00531444895831    0.0136443689295     
1200000000.0        0.00539873262179    0.0148826290892     0.994442946583      -0.0316886211193    0.994442946583      -0.0316886211193    0.00539873262179    0.0148826290892     
1300000000.0        0.00548915596229    0.0161203920504     0.9943266328        -0.0343272002199    0.9943266328        -0.0343272002199    0.00548915596229    0.0161203920504     
1400000000.0        0.00558577333468    0.0173576221983     0.994202156877      -0.0369653097531    0.994202156877      -0.0369653097531    0.00558577333468    0.0173576221983     
1500000000.0        0.00568862848476    0.0185942836628     0.99406947457       -0.0396029162348    0.99406947457       -0.0396029162348    0.00568862848476    0.0185942836628     
1600000000.0        0.00579775696127    0.0198303403738     0.993928549811      -0.0422399858547    0.993928549811      -0.0422399858547    0.00579775696127    0.0198303403738     
1700000000.0        0.0059131878542     0.0210657561031     0.993779352969      -0.0448764845284    0.993779352969      -0.0448764845284    0.0059131878542     0.0210657561031     
1800000000.0        0.0060349450756     0.0223004944991     0.993621859571      -0.0475123779407    0.993621859571      -0.0475123779407    0.0060349450756     0.0223004944991     
1900000000.0        0.00616304832175    0.0235345191136     0.993456049338      -0.0501476315801    0.993456049338      -0.0501476315801    0.00616304832175    0.0235345191136     
2000000000.0        0.00629751380838    0.0247677934247     0.993281905453      -0.052782210768     0.993281905453      -0.052782210768     0.00629751380838    0.0247677934247     
2100000000.0        0.00643835484096    0.0260002808552     0.99309941399       -0.0554160806831    0.99309941399       -0.0554160806831    0.00643835484096    0.0260002808552     
2200000000.0        0.00658558226313    0.0272319447884     0.992908563465      -0.0580492063823    0.992908563465      -0.0580492063823    0.00658558226313    0.0272319447884     
2300000000.0        0.00673920481351    0.0284627485813     0.992709344481      -0.0606815528187    0.992709344481      -0.0606815528187    0.00673920481351    0.0284627485813     
2400000000.0        0.00689922941281    0.0296926555766     0.99250174944       -0.063313084857     0.99250174944       -0.063313084857     0.00689922941281    0.0296926555766     
2500000000.0        0.0070656613972     0.0309216291121     0.992285772312      -0.0659437672873    0.992285772312      -0.0659437672873    0.0070656613972     0.0309216291121     
2600000000.0        0.0072385047096     0.0321496325297     0.992061408443      -0.0685735648374    0.992061408443      -0.0685735648374    0.0072385047096     0.0321496325297     
2700000000.0        0.00741776205791    0.0333766291835     0.991828654394      -0.0712024421834    0.991828654394      -0.0712024421834    0.00741776205791    0.0333766291835     
2800000000.0        0.00760343504688    0.034602582446      0.991587507815      -0.0738303639594    0.991587507815      -0.0738303639594    0.00760343504688    0.034602582446      
2900000000.0        0.00779552428881    0.0358274557148     0.991337967331      -0.0764572947664    0.991337967331      -0.0764572947664    0.00779552428881    0.0358274557148     
3000000000.0        0.007994029497      0.0370512124183     0.991080032449      -0.0790831991801    0.991080032449      -0.0790831991801    0.007994029497      0.0370512124183     
3100000000.0        0.00819894956526    0.0382738160202     0.990813703481      -0.0817080417586    0.990813703481      -0.0817080417586    0.00819894956526    0.0382738160202     
3200000000.0        0.00841028263593    0.0394952300249     0.990538981473      -0.0843317870485    0.990538981473      -0.0843317870485    0.00841028263593    0.0394952300249     
3300000000.0        0.00862802615826    0.0407154179816     0.99025586815       -0.0869543995915    0.99025586815       -0.0869543995915    0.00862802615826    0.0407154179816     
3400000000.0        0.00885217693893    0.0419343434879     0.989964365864      -0.0895758439304    0.989964365864      -0.0895758439304    0.00885217693893    0.0419343434879     
3500000000.0        0.00908273118591    0.0431519701941     0.989664477549      -0.0921960846137    0.989664477549      -0.0921960846137    0.00908273118591    0.0431519701941     
3600000000.0        0.00931968454672    0.0443682618065     0.989356206686      -0.0948150862016    0.989356206686      -0.0948150862016    0.00931968454672    0.0443682618065     
3700000000.0        0.00956303214196    0.0455831820905     0.989039557269      -0.0974328132697    0.989039557269      -0.0974328132697    0.00956303214196    0.0455831820905     
3800000000.0        0.00981276859477    0.046796694874      0.988714533773      -0.100049230414     0.988714533773      -0.100049230414     0.00981276859477    0.046796694874      
3900000000.0        0.0100688880569     0.0480087640502     0.988381141132      -0.102664302257     0.988381141132      -0.102664302257     0.0100688880569     0.0480087640502     
4000000000.0        0.0103313842319     0.0492193535806     0.988039384713      -0.105277993446     0.988039384713      -0.105277993446     0.0103313842319     0.0492193535806     
4100000000.0        0.0106002503956     0.0504284274973     0.987689270298      -0.107890268664     0.987689270298      -0.107890268664     0.0106002503956     0.0504284274973     
4200000000.0        0.0108754794143     0.051635949906      0.987330804063      -0.11050109263      0.987330804063      -0.11050109263      0.0108754794143     0.051635949906      
4300000000.0        0.0111570637619     0.0528418849882     0.986963992565      -0.1131104301       0.986963992565      -0.1131104301       0.0111570637619     0.0528418849882     
4400000000.0        0.0114449955338     0.0540461970037     0.986588842725      -0.115718245876     0.986588842725      -0.115718245876     0.0114449955338     0.0540461970037     
4500000000.0        0.0117392664611     0.0552488502929     0.986205361814      -0.118324504803     0.986205361814      -0.118324504803     0.0117392664611     0.0552488502929     
4600000000.0        0.0120398679221     0.0564498092791     0.985813557445      -0.120929171779     0.985813557445      -0.120929171779     0.0120398679221     0.0564498092791     
4700000000.0        0.0123467909537     0.0576490384703     0.985413437559      -0.123532211751     0.985413437559      -0.123532211751     0.0123467909537     0.0576490384703     
4800000000.0        0.0126600262613     0.0588465024619     0.985005010414      -0.126133589724     0.985005010414      -0.126133589724     0.0126600262613     0.0588465024619     
4900000000.0        0.0129795642279     0.0600421659383     0.984588284581      -0.128733270757     0.984588284581      -0.128733270757     0.0129795642279     0.0600421659383     
5000000000.0        0.0133053949224     0.0612359936749     0.984163268929      -0.131331219973     0.984163268929      -0.131331219973     0.0133053949224     0.0612359936749     
5100000000.0        0.0136375081076     0.0624279505405     0.983729972623      -0.133927402557     0.983729972623      -0.133927402557     0.0136375081076     0.0624279505405     
5200000000.0        0.0139758932471     0.0636180014985     0.983288405115      -0.136521783761     0.983288405115      -0.136521783761     0.0139758932471     0.0636180014985     
5300000000.0        0.014320539512      0.0648061116093     0.982838576138      -0.139114328904     0.982838576138      -0.139114328904     0.014320539512      0.0648061116093     
5400000000.0        0.0146714357869     0.065992246032      0.982380495697      -0.141705003375     0.982380495697      -0.141705003375     0.0146714357869     0.065992246032      
5500000000.0        0.0150285706755     0.0671763700262     0.981914174068      -0.144293772638     0.981914174068      -0.144293772638     0.0150285706755     0.0671763700262     
5600000000.0        0.0153919325061     0.0683584489534     0.981439621791      -0.146880602232     0.981439621791      -0.146880602232     0.0153919325061     0.0683584489534     
5700000000.0        0.0157615093365     0.0695384482795     0.980956849665      -0.149465457773     0.980956849665      -0.149465457773     0.0157615093365     0.0695384482795     
5800000000.0        0.0161372889584     0.0707163335757     0.980465868743      -0.152048304958     0.980465868743      -0.152048304958     0.0161372889584     0.0707163335757     
5900000000.0        0.0165192589021     0.0718920705205     0.979966690326      -0.154629109564     0.979966690326      -0.154629109564     0.0165192589021     0.0718920705205     
6000000000.0        0.0169074064403     0.0730656249015     0.979459325967      -0.157207837455     0.979459325967      -0.157207837455     0.0169074064403     0.0730656249015     
6100000000.0        0.0173017185922     0.0742369626168     0.978943787455      -0.159784454579     0.978943787455      -0.159784454579     0.0173017185922     0.0742369626168     
6200000000.0        0.0177021821271     0.0754060496765     0.978420086822      -0.162358926973     0.978420086822      -0.162358926973     0.0177021821271     0.0754060496765     
6300000000.0        0.0181087835678     0.0765728522047     0.977888236334      -0.164931220764     0.977888236334      -0.164931220764     0.0181087835678     0.0765728522047     
6400000000.0        0.0185215091941     0.0777373364405     0.97734824849       -0.167501302172     0.97734824849       -0.167501302172     0.0185215091941     0.0777373364405     
6500000000.0        0.0189403450457     0.0788994687399     0.976800136018      -0.170069137512     0.976800136018      -0.170069137512     0.0189403450457     0.0788994687399     
6600000000.0        0.0193652769255     0.0800592155771     0.976243911871      -0.172634693191     0.976243911871      -0.172634693191     0.0193652769255     0.0800592155771     
6700000000.0        0.0197962904024     0.0812165435462     0.975679589227      -0.175197935719     0.975679589227      -0.175197935719     0.0197962904024     0.0812165435462     
6800000000.0        0.0202333708141     0.0823714193626     0.975107181485      -0.177758831703     0.975107181485      -0.177758831703     0.0202333708141     0.0823714193626     
6900000000.0        0.0206765032698     0.0835238098641     0.974526702261      -0.180317347851     0.974526702261      -0.180317347851     0.0206765032698     0.0835238098641     
7000000000.0        0.0211256726527     0.0846736820128     0.973938165386      -0.182873450975     0.973938165386      -0.182873450975     0.0211256726527     0.0846736820128     
7100000000.0        0.0215808636225     0.0858210028964     0.973341584907      -0.185427107993     0.973341584907      -0.185427107993     0.0215808636225     0.0858210028964     
7200000000.0        0.0220420606182     0.0869657397293     0.972736975078      -0.187978285929     0.972736975078      -0.187978285929     0.0220420606182     0.0869657397293     
7300000000.0        0.0225092478597     0.0881078598543     0.972124350366      -0.190526951915     0.972124350366      -0.190526951915     0.0225092478597     0.0881078598543     
7400000000.0        0.0229824093509     0.0892473307439     0.971503725441      -0.193073073193     0.971503725441      -0.193073073192     0.0229824093509     0.0892473307439     
7500000000.0        0.0234615288813     0.0903841200015     0.970875115178      -0.195616617116     0.970875115178      -0.195616617116     0.0234615288813     0.0903841200015     
7600000000.0        0.0239465900288     0.0915181953629     0.970238534656      -0.198157551153     0.970238534656      -0.198157551153     0.0239465900288     0.0915181953629     
7700000000.0        0.024437576161      0.0926495246973     0.96959399915       -0.200695842885     0.96959399915       -0.200695842885     0.024437576161      0.0926495246973     
7800000000.0        0.0249344704379     0.0937780760091     0.968941524138      -0.203231460011     0.968941524138      -0.203231460011     0.0249344704379     0.0937780760091     
7900000000.0        0.025437255814      0.0949038174386     0.968281125291      -0.205764370347     0.968281125291      -0.205764370347     0.025437255814      0.0949038174386     
8000000000.0        0.0259459150398     0.0960267172638     0.967612818475      -0.208294541828     0.967612818475      -0.208294541828     0.0259459150398     0.0960267172638     
8100000000.0        0.026460430664      0.0971467439012     0.966936619747      -0.210821942512     0.966936619747      -0.210821942512     0.026460430664      0.0971467439012     
8200000000.0        0.0269807850355     0.0982638659073     0.966252545358      -0.213346540577     0.966252545358      -0.213346540577     0.0269807850355     0.0982638659073     
8300000000.0        0.0275069603053     0.0993780519798     0.965560611744      -0.215868304326     0.965560611744      -0.215868304326     0.0275069603053     0.0993780519798     
8400000000.0        0.0280389384282     0.100489270959      0.964860835528      -0.218387202187     0.964860835528      -0.218387202187     0.0280389384282     0.100489270959      
8500000000.0        0.0285767011648     0.101597491827      0.964153233522      -0.220903202715     0.964153233522      -0.220903202715     0.0285767011648     0.101597491827      
8600000000.0        0.0291202300832     0.102702683714      0.963437822715      -0.223416274593     0.963437822715      -0.223416274593     0.0291202300832     0.102702683714      
8700000000.0        0.029669506561      0.103804815893      0.962714620283      -0.225926386632     0.962714620283      -0.225926386632     0.029669506561      0.103804815893      
8800000000.0        0.0302245117867     0.104903857784      0.96198364358       -0.228433507775     0.96198364358       -0.228433507775     0.0302245117867     0.104903857784      
8900000000.0        0.030785226762      0.105999778958      0.961244910135      -0.230937607097     0.961244910135      -0.230937607097     0.030785226762      0.105999778958      
9000000000.0        0.0313516323031     0.107092549132      0.960498437659      -0.233438653805     0.960498437659      -0.233438653805     0.0313516323031     0.107092549132      
9100000000.0        0.0319237090426     0.108182138175      0.959744244033      -0.235936617243     0.959744244033      -0.235936617243     0.0319237090426     0.108182138175      
9200000000.0        0.0325014374311     0.109268516107      0.958982347314      -0.238431466888     0.958982347314      -0.238431466888     0.0325014374311     0.109268516107      
9300000000.0        0.0330847977392     0.110351653101      0.958212765728      -0.240923172356     0.958212765728      -0.240923172356     0.0330847977392     0.110351653101      
9400000000.0        0.0336737700589     0.111431519482      0.957435517672      -0.2434117034       0.957435517672      -0.2434117034       0.0336737700589     0.111431519482      
9500000000.0        0.0342683343054     0.112508085732      0.956650621712      -0.245897029915     0.956650621712      -0.245897029915     0.0342683343054     0.112508085732      
9600000000.0        0.0348684702187     0.113581322485      0.955858096579      -0.248379121932     0.955858096579      -0.248379121932     0.0348684702187     0.113581322485      
9700000000.0        0.0354741573653     0.114651200536      0.955057961169      -0.250857949629     0.955057961169      -0.250857949629     0.0354741573653     0.114651200536      
9800000000.0        0.0360853751401     0.115717690834      0.954250234542      -0.253333483323     0.954250234542      -0.253333483323     0.0360853751401     0.115717690834      
9900000000.0        0.0367021027676     0.116780764488      0.953434935918      -0.255805693477     0.953434935918      -0.255805693477     0.0367021027676     0.116780764488      
10000000000.0       0.0373243193039     0.117840392766      0.95261208468       -0.2582745507       0.95261208468       -0.2582745507       0.0373243193039     0.117840392766      
