# Hz S RI R 50.00 
100000000.0         -0.0140347494122    -0.117206739081     0.985892655084      -0.11736073226      0.985892655084      -0.11736073226      -0.0140347494122    -0.117206739081     
200000000.0         -0.0537466665293    -0.224935050604     0.946180204991      -0.225243058934     0.946180204991      -0.225243058934     -0.0537466665293    -0.224935050604     
300000000.0         -0.113196586734     -0.316145882302     0.886729851978      -0.316607940487     0.886729851978      -0.316607940487     -0.113196586734     -0.316145882302     
400000000.0         -0.184844030528     -0.38739134029      0.815082013147      -0.388007493393     0.815082013147      -0.388007493393     -0.184844030528     -0.38739134029      
500000000.0         -0.261516254918     -0.43859320287      0.73840940757       -0.439363505093     0.73840940757       -0.439363505093     -0.261516254918     -0.43859320287      
600000000.0         -0.337631084995     -0.47194960299      0.662294198003      -0.47287411685      0.662294198003      -0.47287411685      -0.337631084995     -0.47194960299      
700000000.0         -0.409530077842     -0.49071085564      0.590394820201      -0.491789651355     0.590394820201      -0.491789651355     -0.409530077842     -0.49071085564      
800000000.0         -0.475234960904     -0.498267125428     0.524689542085      -0.499500280416     0.524689542085      -0.499500280416     -0.475234960904     -0.498267125428     
900000000.0         -0.533987771434     -0.497641865126     0.465936323202      -0.49902946359      0.465936323202      -0.49902946359      -0.533987771434     -0.497641865126     
1000000000.0        -0.585803144247     -0.491299080127     0.414120526416      -0.492841212699     0.414120526416      -0.492841212699     -0.585803144247     -0.491299080127     
1100000000.0        -0.631124097348     -0.481134628496     0.368799131972      -0.482831391919     0.368799131972      -0.482831391919     -0.631124097348     -0.481134628496     
1200000000.0        -0.670591208687     -0.468551217345     0.329331560561      -0.470402714192     0.329331560561      -0.470402714192     -0.670591208687     -0.468551217345     
1300000000.0        -0.704902663727     -0.454557515703     0.295019625634      -0.456563854124     0.295019625634      -0.456563854124     -0.704902663727     -0.454557515703     
1400000000.0        -0.734737102102     -0.43986249444      0.265184686674      -0.442023787927     0.265184686674      -0.442023787927     -0.734737102102     -0.43986249444      
1500000000.0        -0.760716018467     -0.424954203659     0.23920524829       -0.427270570837     0.23920524829       -0.427270570837     -0.760716018467     -0.424954203659     
1600000000.0        -0.783389359624     -0.41016120463      0.216531363058      -0.412632769056     0.216531363058      -0.412632769056     -0.783389359624     -0.41016120463      
1700000000.0        -0.803233810588     -0.395698602573     0.196686345427      -0.398325492558     0.196686345427      -0.398325492558     -0.803233810588     -0.395698602573     
1800000000.0        -0.820657426218     -0.381701705234     0.179262140075      -0.384484053668     0.179262140075      -0.384484053668     -0.820657426218     -0.381701705234     
1900000000.0        -0.836006968771     -0.368250254563     0.163911984333      -0.371188198762     0.163911984333      -0.371188198762     -0.836006968771     -0.368250254563     
2000000000.0        -0.849575969367     -0.355385696728     0.150342346716      -0.358479378286     0.150342346716      -0.358479378286     -0.849575969367     -0.355385696728     
2100000000.0        -0.861612505599     -0.343123406743     0.138305149299      -0.34637297139      0.138305149299      -0.34637297139      -0.861612505599     -0.343123406743     
2200000000.0        -0.872326239344     -0.331461298193     0.127590729906      -0.334866895669     0.127590729906      -0.334866895669     -0.872326239344     -0.331461298193     
2300000000.0        -0.881894558936     -0.320385860839     0.118021699925      -0.323947644773     0.118021699925      -0.323947644773     -0.881894558936     -0.320385860839     
2400000000.0        -0.890467824477     -0.309876375538     0.109447698998      -0.313594503333     0.109447698998      -0.313594503333     -0.890467824477     -0.309876375538     
2500000000.0        -0.898173787803     -0.299907840663     0.101740975048      -0.303782473391     0.101740975048      -0.303782473391     -0.898173787803     -0.299907840663     
2600000000.0        -0.905121286765     -0.290452988978     0.0947926900012     -0.294484291279     0.0947926900012     -0.294484291279     -0.905121286765     -0.290452988978     
2700000000.0        -0.911403318413     -0.281483663235     0.0885098465911     -0.285671803226     0.0885098465911     -0.285671803226     -0.911403318413     -0.281483663235     
2800000000.0        -0.917099589379     -0.272971740249     0.0828127379839     -0.277316889434     0.0828127379839     -0.277316889434     -0.917099589379     -0.272971740249     
2900000000.0        -0.9222786307       -0.264889737668     0.0776328329458     -0.269392070858     0.0776328329458     -0.269392070858     -0.9222786307       -0.264889737668     
3000000000.0        -0.926999552088     -0.257211198456     0.072911021578      -0.261870893693     0.072911021578      -0.261870893693     -0.926999552088     -0.257211198456     
3100000000.0        -0.931313498778     -0.249910920386     0.0685961584631     -0.254728158874     0.0685961584631     -0.254728158874     -0.931313498778     -0.249910920386     
3200000000.0        -0.935264863487     -0.242965078218     0.0646438507067     -0.247940044251     0.0646438507067     -0.247940044251     -0.935264863487     -0.242965078218     
3300000000.0        -0.938892296809     -0.236351272346     0.0610154475446     -0.241484153251     0.0610154475446     -0.241484153251     -0.938892296809     -0.236351272346     
3400000000.0        -0.942229551608     -0.230048527854     0.0576771959421     -0.235339513934     0.0576771959421     -0.235339513934     -0.942229551608     -0.230048527854     
3500000000.0        -0.945306190562     -0.224037260874     0.0545995330557     -0.229486545355     0.0545995330557     -0.229486545355     -0.945306190562     -0.224037260874     
3600000000.0        -0.948148180659     -0.218299224171     0.0517564917351     -0.223907003151     0.0517564917351     -0.223907003151     -0.948148180659     -0.218299224171     
3700000000.0        -0.950778394137     -0.212817440302     0.0491251995809     -0.218583912708     0.0491251995809     -0.218583912708     -0.950778394137     -0.212817440302     
3800000000.0        -0.953217031815     -0.207576128167     0.0466854556152     -0.213501495716     0.0466854556152     -0.213501495716     -0.953217031815     -0.207576128167     
3900000000.0        -0.955481981873     -0.202560626953     0.0444193715        -0.20864509411      0.0444193715        -0.20864509411      -0.955481981873     -0.202560626953     
4000000000.0        -0.957589124809     -0.197757320177     0.04231106658       -0.204001094125     0.04231106658       -0.204001094125     -0.957589124809     -0.197757320177     
4100000000.0        -0.959552593394     -0.193153561614     0.040346407928      -0.199556852221     0.040346407928      -0.199556852221     -0.959552593394     -0.193153561614     
4200000000.0        -0.961384994892     -0.188737604268     0.0385127881251     -0.195300624058     0.0385127881251     -0.195300624058     -0.961384994892     -0.188737604268     
4300000000.0        -0.963097601555     -0.184498533036     0.0367989347642     -0.191221497168     0.0367989347642     -0.191221497168     -0.963097601555     -0.184498533036     
4400000000.0        -0.96470051437      -0.180426201463     0.0351947467025     -0.187309327706     0.0351947467025     -0.187309327706     -0.96470051437      -0.180426201463     
4500000000.0        -0.966202804195     -0.176511172688     0.0336911529274     -0.183554681405     0.0336911529274     -0.183554681405     -0.966202804195     -0.176511172688     
4600000000.0        -0.967612633719     -0.172744664604     0.0322799905941     -0.179948778731     0.0322799905941     -0.179948778731     -0.967612633719     -0.172744664604     
4700000000.0        -0.968937363129     -0.169118499094     0.0309538993593     -0.176483444129     0.0309538993593     -0.176483444129     -0.968937363129     -0.169118499094     
4800000000.0        -0.970183641887     -0.165625055184     0.0297062296061     -0.173151059176     0.0297062296061     -0.173151059176     -0.970183641887     -0.165625055184     
4900000000.0        -0.971357488631     -0.162257225895     0.028530962538      -0.169944519432     0.028530962538      -0.169944519432     -0.971357488631     -0.162257225895     
5000000000.0        -0.972464360917     -0.159008378565     0.0274226404424     -0.16685719477      0.0274226404424     -0.16685719477      -0.972464360917     -0.159008378565     
5100000000.0        -0.973509216216     -0.155872318396     0.0263763056891     -0.163882892919     0.0263763056891     -0.163882892919     -0.973509216216     -0.155872318396     
5200000000.0        -0.974496565398     -0.152843254991     0.0253874472483     -0.161015826009     0.0253874472483     -0.161015826009     -0.974496565398     -0.152843254991     
5300000000.0        -0.975430519723     -0.149915771657     0.0244519536998     -0.158250579868     0.0244519536998     -0.158250579868     -0.975430519723     -0.149915771657     
5400000000.0        -0.976314832215     -0.147084797231     0.0235660718574     -0.155582085862     0.0235660718574     -0.155582085862     -0.976314832215     -0.147084797231     
5500000000.0        -0.977152934171     -0.144345580249     0.0227263702611     -0.153005595054     0.0227263702611     -0.153005595054     -0.977152934171     -0.144345580249     
5600000000.0        -0.977947967437     -0.141693665241     0.0219297069011     -0.150516654504     0.0219297069011     -0.150516654504     -0.977947967437     -0.141693665241     
5700000000.0        -0.978702812998     -0.139124870977     0.0211732006251     -0.148111085521     0.0211732006251     -0.148111085521     -0.978702812998     -0.139124870977     
5800000000.0        -0.979420116358     -0.136635270498     0.0204542057628     -0.14578496369      0.0204542057628     -0.14578496369      -0.979420116358     -0.136635270498     
5900000000.0        -0.980102310101     -0.13422117278      0.0197702895615     -0.143534600542     0.0197702895615     -0.143534600542     -0.980102310101     -0.13422117278      
6000000000.0        -0.98075163399      -0.131879105882     0.019119212087      -0.1413565267       0.019119212087      -0.1413565267       -0.98075163399      -0.131879105882     
6100000000.0        -0.981370152904     -0.129605801457     0.0184989082875     -0.139247476392     0.0184989082875     -0.139247476392     -0.981370152904     -0.129605801457     
6200000000.0        -0.981959772872     -0.127398180501     0.0179074719618     -0.137204373204     0.0179074719618     -0.137204373204     -0.981959772872     -0.127398180501     
6300000000.0        -0.982522255421     -0.125253340237     0.0173431414051     -0.135224316961     0.0173431414051     -0.135224316961     -0.982522255421     -0.125253340237     
6400000000.0        -0.983059230456     -0.123168542034     0.0168042865361     -0.13330457165      0.0168042865361     -0.13330457165      -0.983059230456     -0.123168542034     
6500000000.0        -0.983572207818     -0.12114120027      0.016289397334      -0.131442554284     0.016289397334      -0.131442554284     -0.983572207818     -0.12114120027      
6600000000.0        -0.984062587686     -0.119168872063     0.0157970734375     -0.129635824633     0.0157970734375     -0.129635824633     -0.984062587686     -0.119168872063     
6700000000.0        -0.984531669949     -0.117249247788     0.0153260147735     -0.127882075743     0.0153260147735     -0.127882075743     -0.984531669949     -0.117249247788     
6800000000.0        -0.984980662663     -0.115380142321     0.014875013102      -0.12617912518      0.014875013102      -0.12617912518      -0.984980662663     -0.115380142321     
6900000000.0        -0.985410689684     -0.113559486944     0.0144429443769     -0.124524906937     0.0144429443769     -0.124524906937     -0.985410689684     -0.113559486944     
7000000000.0        -0.985822797587     -0.111785321855     0.0140287618344     -0.122917463945     0.0140287618344     -0.122917463945     -0.985822797587     -0.111785321855     
7100000000.0        -0.986217961923     -0.110055789237     0.0136314897311     -0.121354941142     0.0136314897311     -0.121354941142     -0.986217961923     -0.110055789237     
7200000000.0        -0.9865970929       -0.108369126835     0.0132502176627     -0.119835579049     0.0132502176627     -0.119835579049     -0.9865970929       -0.108369126835     
7300000000.0        -0.986961040546     -0.106723661998     0.0128840954049     -0.118357707819     0.0128840954049     -0.118357707819     -0.986961040546     -0.106723661998     
7400000000.0        -0.987310599399     -0.10511780616      0.0125323282198     -0.116919741712     0.0125323282198     -0.116919741712     -0.987310599399     -0.10511780616      
7500000000.0        -0.987646512781     -0.103550049705     0.012194172583      -0.115520173963     0.012194172583      -0.115520173963     -0.987646512781     -0.103550049705     
7600000000.0        -0.987969476695     -0.102018957199     0.0118689322877     -0.11415757202      0.0118689322877     -0.11415757202      -0.987969476695     -0.102018957199     
7700000000.0        -0.988280143377     -0.100523162966     0.0115559548889     -0.112830573108     0.0115559548889     -0.112830573108     -0.988280143377     -0.100523162966     
7800000000.0        -0.988579124551     -0.099061366953     0.0112546284545     -0.111537880111     0.0112546284545     -0.111537880111     -0.988579124551     -0.099061366953     
7900000000.0        -0.988866994395     -0.0976323308969    0.0109643785927     -0.110278257725     0.0109643785927     -0.110278257725     -0.988866994395     -0.0976323308969    
8000000000.0        -0.989144292266     -0.0962348747424    0.0106846657307     -0.109050528886     0.0106846657307     -0.109050528886     -0.989144292266     -0.0962348747424    
8100000000.0        -0.989411525196     -0.0948678733056    0.0104149826188     -0.10785357143      0.0104149826188     -0.10785357143      -0.989411525196     -0.0948678733056    
8200000000.0        -0.989669170178     -0.0935302531597    0.0101548520416     -0.106686314979     0.0101548520416     -0.106686314979     -0.989669170178     -0.0935302531597    
8300000000.0        -0.989917676276     -0.0922209897275    0.00990382471371    -0.105547738038     0.00990382471371    -0.105547738038     -0.989917676276     -0.0922209897275    
8400000000.0        -0.990157466549     -0.0909391045641    0.00966147734622    -0.104436865273     0.00966147734622    -0.104436865273     -0.990157466549     -0.0909391045641    
8500000000.0        -0.990388939841     -0.0896836628169    0.0094274108664     -0.103352764975     0.0094274108664     -0.103352764975     -0.990388939841     -0.0896836628169    
8600000000.0        -0.990612472415     -0.0884537708483    0.00920124877778    -0.102294546683     0.00920124877778    -0.102294546683     -0.990612472415     -0.0884537708483    
8700000000.0        -0.990828419466     -0.087248574011     0.00898263564792    -0.101261358957     0.00898263564792    -0.101261358957     -0.990828419466     -0.087248574011     
8800000000.0        -0.991037116521     -0.0860672545628    0.00877123571265    -0.100252387299     0.00877123571265    -0.100252387299     -0.991037116521     -0.0860672545628    
8900000000.0        -0.991238880721     -0.0849090297133    0.00856673158682    -0.0992668521932    0.00856673158682    -0.0992668521932    -0.991238880721     -0.0849090297133    
9000000000.0        -0.991434012018     -0.0837731497903    0.0083688230722     -0.0983040072774    0.0083688230722     -0.0983040072774    -0.991434012018     -0.0837731497903    
9100000000.0        -0.991622794277     -0.0826588965201    0.00817722605442    -0.097363137623     0.00817722605442    -0.097363137623     -0.991622794277     -0.0826588965201    
9200000000.0        -0.991805496297     -0.0815655814119    0.0079916714814     -0.0964435581192    0.0079916714814     -0.0964435581192    -0.991805496297     -0.0815655814119    
9300000000.0        -0.991982372759     -0.0804925442396    0.00781190441649    -0.0955446119558    0.00781190441649    -0.0955446119558    -0.991982372759     -0.0804925442396    
9400000000.0        -0.992153665102     -0.0794391516154    0.0076376831601     -0.0946656691965    0.0076376831601     -0.0946656691965    -0.992153665102     -0.0794391516154    
9500000000.0        -0.992319602341     -0.0784047956463    0.00746877843438    -0.093806125437     0.00746877843438    -0.093806125437     -0.992319602341     -0.0784047956463    
9600000000.0        -0.992480401823     -0.0773888926711    0.00730497262565    -0.0929654005412    0.00730497262565    -0.0929654005412    -0.992480401823     -0.0773888926711    
9700000000.0        -0.992636269929     -0.07639088207      0.00714605908013    -0.0921429374523    0.00714605908013    -0.0921429374523    -0.992636269929     -0.07639088207      
9800000000.0        -0.992787402736     -0.0754102251432    0.00699184144859    -0.0913382010709    0.00699184144859    -0.0913382010709    -0.992787402736     -0.0754102251432    
9900000000.0        -0.992933986619     -0.0744464040536    0.00684213307624    -0.0905506771988    0.00684213307624    -0.0905506771988    -0.992933986619     -0.0744464040536    
10000000000.0       -0.993076198824     -0.0734989208294    0.00669675643424    -0.089779871542     0.00669675643424    -0.089779871542     -0.993076198824     -0.0734989208294    
