# Hz S RI R 50.00 
100000000.0         0.00521843637367    0.00125069889586    0.994777115333      -0.00310418113843   0.994777115333      -0.00310418113843   0.00521843637367    0.00125069889586    
200000000.0         0.00526388016559    0.0025010458466     0.9947247817        -0.00620801297392   0.9947247817        -0.00620801297392   0.00526388016559    0.0025010458466     
300000000.0         0.00530795953806    0.00375110909517    0.99467037075       -0.00931156742702   0.99467037075       -0.00931156742702   0.00530795953806    0.00375110909517    
400000000.0         0.00535518315067    0.00500087779942    0.994609373603      -0.0124148360381    0.994609373603      -0.0124148360381    0.00535518315067    0.00500087779942    
500000000.0         0.00540728646471    0.00625032281355    0.99454005454       -0.0155177913937    0.99454005454       -0.0155177913937    0.00540728646471    0.00625032281355    
600000000.0         0.00546515345873    0.00749940692845    0.994461529288      -0.0186203975929    0.994461529288      -0.0186203975929    0.00546515345873    0.00749940692845    
700000000.0         0.00552930514991    0.00874808854306    0.994373276499      -0.0217226140341    0.994373276499      -0.0217226140341    0.00552930514991    0.00874808854306    
800000000.0         0.00560007788522    0.00999632336465    0.994274959457      -0.0248243971837    0.994274959457      -0.0248243971837    0.00560007788522    0.00999632336465    
900000000.0         0.00567770272283    0.0112440653212     0.994166346703      -0.027925701534     0.994166346703      -0.027925701534     0.00567770272283    0.0112440653212     
1000000000.0        0.00576234566699    0.0124912671014     0.994047271792      -0.031026480175     0.994047271792      -0.031026480175     0.00576234566699    0.0124912671014     
1100000000.0        0.00585413003265    0.0137378804976     0.993917610937      -0.0341266851607    0.993917610937      -0.0341266851607    0.00585413003265    0.0137378804976     
1200000000.0        0.00595314977112    0.0149838566363     0.99377726968       -0.0372262677569    0.99377726968       -0.0372262677569    0.00595314977112    0.0149838566363     
1300000000.0        0.00605947785324    0.0162291461388     0.993626174511      -0.040325178617     0.993626174511      -0.040325178617     0.00605947785324    0.0162291461388     
1400000000.0        0.00617317177919    0.0174736992387     0.993464267356      -0.0434233679092    0.993464267356      -0.0434233679092    0.00617317177919    0.0174736992387     
1500000000.0        0.00629427733273    0.0187174658687     0.993291501828      -0.0465207854136    0.993291501828      -0.0465207854136    0.00629427733273    0.0187174658687     
1600000000.0        0.00642283121777    0.019960395728      0.993107840586      -0.0496173805966    0.993107840586      -0.0496173805966    0.00642283121777    0.019960395728      
1700000000.0        0.00655886295829    0.0212024383343     0.992913253438      -0.0527131026699    0.992913253438      -0.0527131026699    0.00655886295829    0.0212024383343     
1800000000.0        0.00670239629822    0.0224435430661     0.992707715942      -0.0558079006376    0.992707715942      -0.0558079006376    0.00670239629822    0.0224435430661     
1900000000.0        0.00685345025293    0.0236836591965     0.992491208352      -0.0589017233351    0.992491208352      -0.0589017233351    0.00685345025293    0.0236836591965     
2000000000.0        0.00701203991273    0.0249227359216     0.99226371482       -0.0619945194614    0.99226371482       -0.0619945194614    0.00701203991273    0.0249227359216     
2100000000.0        0.00717817706614    0.026160722384      0.992025222766      -0.0650862376063    0.992025222766      -0.0650862376063    0.00717817706614    0.026160722384      
2200000000.0        0.00735187068994    0.0273975676927     0.991775722396      -0.0681768262734    0.991775722396      -0.0681768262734    0.00735187068994    0.0273975676927     
2300000000.0        0.00753312733918    0.0286332209409     0.991515206305      -0.0712662339007    0.991515206305      -0.0712662339007    0.00753312733918    0.0286332209409     
2400000000.0        0.00772195146105    0.0298676312204     0.99124366917       -0.0743544088772    0.99124366917       -0.0743544088772    0.00772195146105    0.0298676312204     
2500000000.0        0.00791834564993    0.0311007476351     0.990961107489      -0.0774412995594    0.990961107489      -0.0774412995594    0.00791834564993    0.0311007476351     
2600000000.0        0.00812231085668    0.0323325193128     0.990667519378      -0.0805268542843    0.990667519378      -0.0805268542843    0.00812231085668    0.0323325193128     
2700000000.0        0.00833384656171    0.0335628954158     0.990362904393      -0.0836110213819    0.990362904393      -0.0836110213819    0.00833384656171    0.0335628954158     
2800000000.0        0.00855295091928    0.03479182515       0.990047263389      -0.0866937491866    0.990047263389      -0.0866937491866    0.00855295091928    0.03479182515       
2900000000.0        0.00877962087868    0.0360192577744     0.989720598399      -0.0897749860474    0.989720598399      -0.0897749860474    0.00877962087868    0.0360192577744     
3000000000.0        0.00901385228669    0.0372451426079     0.989382912529      -0.0928546803367    0.989382912529      -0.0928546803367    0.00901385228669    0.0372451426079     
3100000000.0        0.00925563997475    0.038469429038      0.989034209874      -0.0959327804598    0.989034209874      -0.0959327804598    0.00925563997475    0.038469429038      
3200000000.0        0.00950497783354    0.0396920665266     0.988674495443      -0.099009234862     0.988674495443      -0.099009234862     0.00950497783354    0.0396920665266     
3300000000.0        0.00976185887722    0.0409130046169     0.988303775095      -0.102083992037     0.988303775095      -0.102083992037     0.00976185887722    0.0409130046169     
3400000000.0        0.010026275299      0.0421321929395     0.987922055481      -0.105157000533     0.987922055481      -0.105157000533     0.010026275299      0.0421321929395     
3500000000.0        0.0102982185193     0.043349581218      0.987529344001      -0.10822820896      0.987529344001      -0.10822820896      0.0102982185193     0.043349581218      
3600000000.0        0.0105776792283     0.0445651192743     0.987125648757      -0.111297565996     0.987125648757      -0.111297565996     0.0105776792283     0.0445651192743     
3700000000.0        0.0108646474227     0.045778757034      0.986710978518      -0.114365020393     0.986710978518      -0.114365020393     0.0108646474227     0.045778757034      
3800000000.0        0.0111591124387     0.0469904445312     0.986285342689      -0.117430520981     0.986285342689      -0.117430520981     0.0111591124387     0.0469904445312     
3900000000.0        0.0114610629806     0.0482001319134     0.985848751279      -0.120494016678     0.985848751279      -0.120494016678     0.0114610629806     0.0482001319134     
4000000000.0        0.011770487147      0.0494077694459     0.985401214879      -0.123555456488     0.985401214879      -0.123555456488     0.011770487147      0.0494077694459     
4100000000.0        0.0120873724534     0.0506133075164     0.984942744635      -0.126614789514     0.984942744635      -0.126614789514     0.0120873724534     0.0506133075164     
4200000000.0        0.0124117058531     0.051816696639      0.984473352232      -0.129671964957     0.984473352232      -0.129671964957     0.0124117058531     0.051816696639      
4300000000.0        0.0127434737556     0.0530178874587     0.983993049872      -0.132726932123     0.983993049872      -0.132726932123     0.0127434737556     0.0530178874587     
4400000000.0        0.0130826620436     0.0542168307553     0.98350185026       -0.135779640427     0.98350185026       -0.135779640427     0.0130826620436     0.0542168307553     
4500000000.0        0.013429256088      0.0554134774472     0.982999766585      -0.138830039397     0.982999766585      -0.138830039397     0.013429256088      0.0554134774472     
4600000000.0        0.0137832407618     0.0566077785954     0.982486812512      -0.141878078681     0.982486812512      -0.141878078681     0.0137832407618     0.0566077785954     
4700000000.0        0.0141446004529     0.0577996854072     0.981963002165      -0.144923708047     0.981963002165      -0.144923708047     0.0141446004529     0.0577996854072     
4800000000.0        0.0145133190755     0.0589891492397     0.981428350116      -0.147966877389     0.981428350116      -0.147966877389     0.0145133190755     0.0589891492397     
4900000000.0        0.0148893800811     0.0601761216036     0.980882871376      -0.151007536732     0.980882871376      -0.151007536732     0.0148893800811     0.0601761216036     
5000000000.0        0.0152727664677     0.0613605541668     0.980326581384      -0.154045636234     0.980326581384      -0.154045636234     0.0152727664677     0.0613605541668     
5100000000.0        0.01566346079       0.0625423987573     0.979759496001      -0.15708112619      0.979759496001      -0.15708112619      0.01566346079       0.0625423987573     
5200000000.0        0.0160614451667     0.0637216073675     0.979181631496      -0.160113957038     0.979181631496      -0.160113957038     0.0160614451667     0.0637216073675     
5300000000.0        0.0164667012895     0.0648981321563     0.978593004543      -0.16314407936      0.978593004543      -0.16314407936      0.0164667012895     0.0648981321563     
5400000000.0        0.0168792104298     0.0660719254538     0.97799363221       -0.166171443885     0.97799363221       -0.166171443885     0.0168792104298     0.0660719254538     
5500000000.0        0.0172989534458     0.0672429397631     0.977383531958      -0.169196001496     0.977383531958      -0.169196001496     0.0172989534458     0.0672429397631     
5600000000.0        0.0177259107895     0.0684111277645     0.976762721625      -0.17221770323      0.976762721625      -0.17221770323      0.0177259107895     0.0684111277645     
5700000000.0        0.0181600625123     0.0695764423181     0.976131219432      -0.175236500282     0.976131219432      -0.175236500282     0.0181600625123     0.0695764423181     
5800000000.0        0.0186013882712     0.0707388364672     0.975489043964      -0.178252344011     0.975489043964      -0.178252344011     0.0186013882712     0.0707388364672     
5900000000.0        0.0190498673344     0.0718982634409     0.974836214178      -0.181265185939     0.974836214178      -0.181265185939     0.0190498673344     0.0718982634409     
6000000000.0        0.0195054785867     0.0730546766573     0.974172749385      -0.184274977756     0.974172749385      -0.184274977756     0.0195054785867     0.0730546766573     
6100000000.0        0.0199682005341     0.0742080297267     0.973498669254      -0.187281671326     0.973498669254      -0.187281671326     0.0199682005341     0.0742080297267     
6200000000.0        0.0204380113095     0.075358276454      0.972813993805      -0.190285218685     0.972813993805      -0.190285218685     0.0204380113095     0.075358276454      
6300000000.0        0.0209148886765     0.0765053708418     0.972118743401      -0.193285572046     0.972118743401      -0.193285572046     0.0209148886765     0.0765053708418     
6400000000.0        0.0213988100348     0.0776492670934     0.971412938748      -0.196282683805     0.971412938748      -0.196282683805     0.0213988100348     0.0776492670934     
6500000000.0        0.0218897524239     0.0787899196151     0.970696600889      -0.199276506538     0.970696600889      -0.199276506538     0.0218897524239     0.0787899196151     
6600000000.0        0.0223876925276     0.0799272830195     0.969969751197      -0.202266993011     0.969969751197      -0.202266993011     0.0223876925276     0.0799272830195     
6700000000.0        0.0228926066781     0.0810613121279     0.969232411377      -0.205254096176     0.969232411377      -0.205254096176     0.0228926066781     0.0810613121279     
6800000000.0        0.02340447086       0.0821919619727     0.968484603456      -0.208237769177     0.968484603456      -0.208237769177     0.02340447086       0.0821919619727     
6900000000.0        0.0239232607141     0.0833191878006     0.967726349784      -0.211217965354     0.967726349784      -0.211217965354     0.0239232607141     0.0833191878006     
7000000000.0        0.0244489515416     0.084442945075      0.966957673027      -0.214194638243     0.966957673027      -0.214194638243     0.0244489515416     0.084442945075      
7100000000.0        0.0249815183069     0.0855631894782     0.966178596164      -0.21716774158      0.966178596164      -0.21716774158      0.0249815183069     0.0855631894782     
7200000000.0        0.0255209356424     0.0866798769144     0.965389142486      -0.220137229306     0.965389142486      -0.220137229306     0.0255209356424     0.0866798769144     
7300000000.0        0.0260671778513     0.087792963512      0.964589335588      -0.223103055562     0.964589335588      -0.223103055562     0.0260671778513     0.087792963512      
7400000000.0        0.0266202189111     0.0889024056259     0.96377919937       -0.226065174701     0.96377919937       -0.226065174701     0.0266202189111     0.0889024056259     
7500000000.0        0.0271800324776     0.0900081598404     0.962958758029      -0.229023541285     0.962958758029      -0.229023541285     0.0271800324776     0.0900081598404     
7600000000.0        0.0277465918878     0.091110182971      0.962128036061      -0.231978110087     0.962128036061      -0.231978110087     0.0277465918878     0.091110182971      
7700000000.0        0.0283198701635     0.092208432067      0.961287058253      -0.234928836097     0.961287058253      -0.234928836097     0.0283198701635     0.092208432067      
7800000000.0        0.0288998400147     0.0933028644142     0.960435849684      -0.237875674522     0.960435849684      -0.237875674522     0.0288998400147     0.0933028644142     
7900000000.0        0.0294864738424     0.0943934375366     0.959574435715      -0.240818580787     0.959574435715      -0.240818580787     0.0294864738424     0.0943934375366     
8000000000.0        0.0300797437426     0.0954801091988     0.958702841996      -0.243757510541     0.958702841996      -0.243757510541     0.0300797437426     0.0954801091988     
8100000000.0        0.0306796215088     0.0965628374087     0.957821094452      -0.246692419657     0.957821094452      -0.246692419657     0.0306796215088     0.0965628374087     
8200000000.0        0.0312860786356     0.097641580419      0.956929219288      -0.249623264233     0.956929219288      -0.249623264233     0.0312860786356     0.097641580419      
8300000000.0        0.031899086322      0.0987162967298     0.956027242982      -0.252550000598     0.956027242982      -0.252550000598     0.031899086322      0.0987162967298     
8400000000.0        0.0325186154741     0.0997869450908     0.955115192282      -0.255472585311     0.955115192282      -0.255472585311     0.0325186154741     0.0997869450908     
8500000000.0        0.0331446367084     0.100853484503      0.954193094204      -0.258390975163     0.954193094204      -0.258390975163     0.0331446367084     0.100853484503      
8600000000.0        0.0337771203552     0.101915874221      0.95326097603       -0.261305127181     0.95326097603       -0.261305127181     0.0337771203552     0.101915874221      
8700000000.0        0.0344160364614     0.102974073755      0.952318865302      -0.26421499863      0.952318865302      -0.26421499863      0.0344160364614     0.102974073755      
8800000000.0        0.0350613547934     0.104028042873      0.95136678982       -0.267120547012     0.95136678982       -0.267120547012     0.0350613547934     0.104028042873      
8900000000.0        0.0357130448408     0.105077741603      0.950404777642      -0.270021730072     0.950404777642      -0.270021730072     0.0357130448408     0.105077741603      
9000000000.0        0.0363710758188     0.106123130232      0.949432857074      -0.272918505797     0.949432857074      -0.272918505797     0.0363710758188     0.106123130232      
9100000000.0        0.0370354166717     0.107164169315      0.948451056677      -0.275810832421     0.948451056677      -0.275810832421     0.0370354166717     0.107164169315      
9200000000.0        0.0377060360756     0.108200819668      0.947459405255      -0.278698668423     0.947459405255      -0.278698668423     0.0377060360756     0.108200819668      
9300000000.0        0.0383829024418     0.109233042377      0.946457931855      -0.281581972531     0.946457931855      -0.281581972531     0.0383829024418     0.109233042377      
9400000000.0        0.0390659839194     0.110260798794      0.945446665767      -0.284460703723     0.945446665767      -0.284460703723     0.0390659839194     0.110260798794      
9500000000.0        0.0397552483987     0.111284050545      0.944425636517      -0.287334821232     0.944425636517      -0.287334821232     0.0397552483987     0.111284050545      
9600000000.0        0.040450663514      0.112302759526      0.943394873865      -0.290204284541     0.943394873865      -0.290204284541     0.040450663514      0.112302759526      
9700000000.0        0.0411521966467     0.113316887909      0.942354407804      -0.293069053392     0.942354407804      -0.293069053392     0.0411521966467     0.113316887909      
9800000000.0        0.0418598149283     0.11432639814       0.941304268555      -0.295929087784     0.941304268555      -0.295929087784     0.0418598149283     0.11432639814       
9900000000.0        0.0425734852433     0.115331252943      0.940244486564      -0.298784347973     0.940244486564      -0.298784347973     0.0425734852433     0.115331252943      
10000000000.0       0.0432931742323     0.116331415322      0.939175092501      -0.301634794478     0.939175092501      -0.301634794478     0.0432931742323     0.116331415322      
