# Hz S RI R 50.00 
100000000.0         0.051296014032      0.00442318368746    0.948701097103      -0.00564906541966   0.948701097103      -0.00564906541966   0.051296014032      0.00442318368746    
200000000.0         0.0516955474799     0.00883873982331    0.948298144491      -0.011290521249     0.948298144491      -0.011290521249     0.0516955474799     0.00883873982331    
300000000.0         0.0520606318772     0.0132486407724     0.947928110157      -0.0169263532038    0.947928110157      -0.0169263532038    0.0520606318772     0.0132486407724     
400000000.0         0.052433691816      0.0176530480562     0.947548569073      -0.0225567343573    0.947548569073      -0.0225567343573    0.052433691816      0.0176530480562     
500000000.0         0.052831038332      0.0220517035515     0.947143209759      -0.0281814172272    0.947143209759      -0.0281814172272    0.052831038332      0.0220517035515     
600000000.0         0.0532609493952     0.0264441647127     0.94670375377       -0.0337999693103    0.94670375377       -0.0337999693103    0.0532609493952     0.0264441647127     
700000000.0         0.0537282693798     0.0308298892514     0.946225356224      -0.0394118579217    0.946225356224      -0.0394118579217    0.0537282693798     0.0308298892514     
800000000.0         0.054236088708      0.0352082745862     0.945704926155      -0.0450164897404    0.945704926155      -0.0450164897404    0.054236088708      0.0352082745862     
900000000.0         0.0547864921152     0.0395786791869     0.945140378244      -0.0506132322159    0.945140378244      -0.0506132322159    0.0547864921152     0.0395786791869     
1000000000.0        0.0553809381339     0.0439404353517     0.944530253332      -0.0562014263904    0.944530253332      -0.0562014263904    0.0553809381339     0.0439404353517     
1100000000.0        0.0560204701695     0.0482928574482     0.94387350735       -0.0617803951729    0.94387350735       -0.0617803951729    0.0560204701695     0.0482928574482     
1200000000.0        0.0567058423645     0.052635247548      0.943169385448      -0.0673494489983    0.943169385448      -0.0673494489983    0.0567058423645     0.052635247548      
1300000000.0        0.0574375988602     0.0569668994648     0.942417342734      -0.072907889886     0.942417342734      -0.072907889886     0.0574375988602     0.0569668994648     
1400000000.0        0.0582161259604     0.0612871017666     0.941616992114      -0.0784550144677    0.941616992114      -0.0784550144677    0.0582161259604     0.0612871017666     
1500000000.0        0.0590416877385     0.0655951400999     0.940768068683      -0.0839901163248    0.940768068683      -0.0839901163248    0.0590416877385     0.0655951400999     
1600000000.0        0.0599144511049     0.0698902990361     0.939870404654      -0.0895124878459    0.939870404654      -0.0895124878459    0.0599144511049     0.0698902990361     
1700000000.0        0.0608345039296     0.0741718635766     0.938923911242      -0.0950214217418    0.938923911242      -0.0950214217418    0.0608345039296     0.0741718635766     
1800000000.0        0.0618018684516     0.0784391204084     0.937928565249      -0.100516212308     0.937928565249      -0.100516212308     0.0618018684516     0.0784391204084     
1900000000.0        0.062816511409      0.082691358971      0.936884398938      -0.1059961565       0.936884398938      -0.1059961565       0.062816511409      0.082691358971      
2000000000.0        0.0638783518345     0.086927872379      0.935791492235      -0.111460554859     0.935791492235      -0.111460554859     0.0638783518345     0.086927872379      
2100000000.0        0.0649872671577     0.0911479582324     0.93464996663       -0.116908712333     0.93464996663       -0.116908712333     0.0649872671577     0.0911479582324     
2200000000.0        0.0661430980573     0.0953509193366     0.933459980319      -0.122339938996     0.933459980319      -0.122339938996     0.0661430980573     0.0953509193366     
2300000000.0        0.0673456523773     0.0995360643495     0.932221724296      -0.127753550703     0.932221724296      -0.127753550703     0.0673456523773     0.0995360643495     
2400000000.0        0.0685947083305     0.103702708369      0.930935419143      -0.133148869678     0.930935419143      -0.133148869678     0.0685947083305     0.103702708369      
2500000000.0        0.0698900171555     0.107850173469      0.929601312376      -0.138525225058     0.929601312376      -0.138525225058     0.0698900171555     0.107850173469      
2600000000.0        0.0712313053474     0.111977789192      0.928219676215      -0.143881953385     0.928219676215      -0.143881953385     0.0712313053474     0.111977789192      
2700000000.0        0.072618276555      0.11608489301       0.926790805686      -0.149218399072     0.926790805686      -0.149218399072     0.072618276555      0.11608489301       
2800000000.0        0.0740506132113     0.120170830743      0.925315016989      -0.154533914822     0.925315016989      -0.154533914822     0.0740506132113     0.120170830743      
2900000000.0        0.0755279779537     0.124234956959      0.923792646081      -0.159827862032     0.923792646081      -0.159827862032     0.0755279779537     0.124234956959      
3000000000.0        0.0770500148725     0.128276635338      0.922224047427      -0.165099611161     0.922224047427      -0.165099611161     0.0770500148725     0.128276635338      
3100000000.0        0.0786163506208     0.132295239025      0.920609592887      -0.170348542081     0.920609592887      -0.170348542081     0.0786163506208     0.132295239025      
3200000000.0        0.0802265954116     0.136290150949      0.918949670726      -0.175574044399     0.918949670726      -0.175574044399     0.0802265954116     0.136290150949      
3300000000.0        0.0818803439212     0.140260764126      0.9172446847        -0.180775517767     0.9172446847        -0.180775517767     0.0818803439212     0.140260764126      
3400000000.0        0.0835771761165     0.144206481948      0.91549505324       -0.185952372165     0.91549505324       -0.185952372165     0.0835771761165     0.144206481948      
3500000000.0        0.0853166580174     0.14812671845       0.913701208684      -0.191104028174     0.913701208684      -0.191104028174     0.0853166580174     0.14812671845       
3600000000.0        0.0870983424061     0.152020898555      0.911863596567      -0.196229917225     0.911863596567      -0.196229917225     0.0870983424061     0.152020898555      
3700000000.0        0.0889217694913     0.155888458318      0.909982674959      -0.201329481833     0.909982674959      -0.201329481833     0.0889217694913     0.155888458318      
3800000000.0        0.0907864675341     0.159728845134      0.908058913839      -0.206402175825     0.908058913839      -0.206402175825     0.0907864675341     0.159728845134      
3900000000.0        0.0926919534415     0.16354151795       0.906092794501      -0.211447464536     0.906092794501      -0.211447464536     0.0926919534415     0.16354151795       
4000000000.0        0.0946377333323     0.167325947451      0.90408480899       -0.216464825004     0.90408480899       -0.216464825004     0.0946377333323     0.167325947451      
4100000000.0        0.0966233030793     0.171081616237      0.902035459555      -0.221453746147     0.902035459555      -0.221453746147     0.0966233030793     0.171081616237      
4200000000.0        0.0986481488298     0.174808018983      0.899945258134      -0.226413728927     0.899945258134      -0.226413728927     0.0986481488298     0.174808018983      
4300000000.0        0.100711747509      0.178504662588      0.89781472585       -0.231344286494     0.89781472585       -0.231344286494     0.100711747509      0.178504662588      
4400000000.0        0.102813567308      0.182171066312      0.895644392519      -0.23624494433      0.895644392519      -0.23624494433      0.102813567308      0.182171066312      
4500000000.0        0.104953068155      0.185806761897      0.893434796182      -0.241115240365     0.893434796182      -0.241115240365     0.104953068155      0.185806761897      
4600000000.0        0.107129702177      0.189411293678      0.891186482644      -0.245954725095     0.891186482644      -0.245954725095     0.107129702177      0.189411293678      
4700000000.0        0.109342914148      0.192984218682      0.888900005023      -0.250762961677     0.888900005023      -0.250762961677     0.109342914148      0.192984218682      
4800000000.0        0.111592141929      0.196525106712      0.886575923314      -0.255539526017     0.886575923314      -0.255539526017     0.111592141929      0.196525106712      
4900000000.0        0.113876816895      0.200033540425      0.884214803956      -0.260284006848     0.884214803956      -0.260284006848     0.113876816895      0.200033540425      
5000000000.0        0.116196364359      0.203509115391      0.881817219418      -0.264996005788     0.881817219418      -0.264996005788     0.116196364359      0.203509115391      
5100000000.0        0.118550203977      0.206951440148      0.879383747781      -0.2696751374       0.879383747781      -0.2696751374       0.118550203977      0.206951440148      
5200000000.0        0.120937750161      0.210360136244      0.876914972337      -0.274321029226     0.876914972337      -0.274321029226     0.120937750161      0.210360136244      
5300000000.0        0.123358412468      0.213734838262      0.874411481191      -0.278933321824     0.874411481191      -0.278933321824     0.123358412468      0.213734838262      
5400000000.0        0.125811595994      0.217075193845      0.871873866874      -0.283511668786     0.871873866874      -0.283511668786     0.125811595994      0.217075193845      
5500000000.0        0.128296701754      0.220380863701      0.869302725958      -0.288055736748     0.869302725958      -0.288055736748     0.128296701754      0.220380863701      
5600000000.0        0.130813127061      0.223651521608      0.86669865868       -0.29256520539      0.86669865868       -0.29256520539      0.130813127061      0.223651521608      
5700000000.0        0.133360265891      0.226886854397      0.864062268575      -0.297039767425     0.864062268575      -0.297039767425     0.133360265891      0.226886854397      
5800000000.0        0.135937509248      0.230086561937      0.861394162114      -0.301479128583     0.861394162114      -0.301479128583     0.135937509248      0.230086561937      
5900000000.0        0.138544245519      0.233250357102      0.858694948343      -0.305883007577     0.858694948343      -0.305883007577     0.138544245519      0.233250357102      
6000000000.0        0.141179860825      0.236377965735      0.85596523854       -0.310251136071     0.85596523854       -0.310251136071     0.141179860825      0.236377965735      
6100000000.0        0.143843739363      0.239469126601      0.853205645867      -0.314583258627     0.853205645867      -0.314583258627     0.143843739363      0.239469126601      
6200000000.0        0.146535263741      0.242523591327      0.850416785036      -0.318879132655     0.850416785036      -0.318879132655     0.146535263741      0.242523591327      
6300000000.0        0.149253815313      0.245541124344      0.847599271979      -0.323138528346     0.847599271979      -0.323138528346     0.149253815313      0.245541124344      
6400000000.0        0.151998774496      0.24852150281       0.844753723521      -0.327361228603     0.844753723521      -0.327361228603     0.151998774496      0.24852150281       
6500000000.0        0.154769521093      0.25146451653       0.841880757067      -0.331547028956     0.841880757067      -0.331547028956     0.154769521093      0.25146451653       
6600000000.0        0.1575654346        0.254369967871      0.838980990289      -0.335695737481     0.838980990289      -0.335695737481     0.1575654346        0.254369967871      
6700000000.0        0.160385894513      0.257237671667      0.836055040824      -0.339807174703     0.836055040824      -0.339807174703     0.160385894513      0.257237671667      
6800000000.0        0.16323028062       0.260067455112      0.833103525974      -0.343881173492     0.833103525974      -0.343881173492     0.16323028062       0.260067455112      
6900000000.0        0.166097973297      0.262859157657      0.830127062416      -0.347917578959     0.830127062416      -0.347917578959     0.166097973297      0.262859157657      
7000000000.0        0.16898835379       0.265612630893      0.827126265923      -0.351916248337     0.827126265923      -0.351916248337     0.16898835379       0.265612630893      
7100000000.0        0.17190080449       0.268327738426      0.824101751079      -0.355877050862     0.824101751079      -0.355877050862     0.17190080449       0.268327738426      
7200000000.0        0.174834709205      0.271004355755      0.821054131015      -0.359799867647     0.821054131015      -0.359799867647     0.174834709205      0.271004355755      
7300000000.0        0.177789453423      0.273642370135      0.817984017144      -0.363684591546     0.817984017144      -0.363684591546     0.177789453423      0.273642370135      
7400000000.0        0.18076442457       0.276241680438      0.814892018904      -0.367531127017     0.814892018904      -0.367531127017     0.18076442457       0.276241680438      
7500000000.0        0.183759012254      0.278802197012      0.811778743507      -0.371339389979     0.811778743507      -0.371339389979     0.183759012254      0.278802197012      
7600000000.0        0.186772608513      0.28132384153       0.808644795701      -0.375109307665     0.808644795701      -0.375109307665     0.186772608513      0.28132384153       
7700000000.0        0.189804608048      0.283806546835      0.805490777532      -0.378840818464     0.805490777532      -0.378840818464     0.189804608048      0.283806546835      
7800000000.0        0.192854408452      0.286250256788      0.802317288115      -0.382533871768     0.802317288115      -0.382533871768     0.192854408452      0.286250256788      
7900000000.0        0.19592141043       0.288654926097      0.799124923412      -0.386188427809     0.799124923412      -0.386188427809     0.19592141043       0.288654926097      
8000000000.0        0.199005018014      0.29102052016       0.795914276022      -0.389804457491     0.795914276022      -0.389804457491     0.199005018014      0.29102052016       
8100000000.0        0.202104638772      0.293347014888      0.792685934967      -0.393381942225     0.792685934967      -0.393381942225     0.202104638772      0.293347014888      
8200000000.0        0.205219684005      0.295634396537      0.789440485498      -0.396920873753     0.789440485498      -0.396920873753     0.205219684005      0.295634396537      
8300000000.0        0.208349568944      0.29788266153       0.786178508897      -0.400421253973     0.786178508897      -0.400421253973     0.208349568944      0.29788266153       
8400000000.0        0.211493712932      0.300091816278      0.782900582294      -0.40388309476      0.782900582294      -0.40388309476      0.211493712932      0.300091816278      
8500000000.0        0.214651539607      0.302261876997      0.779607278486      -0.407306417785     0.779607278486      -0.407306417785     0.214651539607      0.302261876997      
8600000000.0        0.217822477073      0.304392869526      0.776299165762      -0.410691254331     0.776299165762      -0.410691254331     0.217822477073      0.304392869526      
8700000000.0        0.221005958066      0.306484829138      0.772976807743      -0.414037645107     0.772976807743      -0.414037645107     0.221005958066      0.306484829138      
8800000000.0        0.224201420111      0.308537800356      0.769640763219      -0.41734564006      0.769640763219      -0.41734564006      0.224201420111      0.308537800356      
8900000000.0        0.227408305676      0.310551836758      0.766291585998      -0.420615298183     0.766291585998      -0.420615298183     0.227408305676      0.310551836758      
9000000000.0        0.230626062316      0.312527000786      0.762929824762      -0.423846687327     0.762929824762      -0.423846687327     0.230626062316      0.312527000786      
9100000000.0        0.233854142812      0.314463363558      0.759556022925      -0.427039884006     0.759556022925      -0.427039884006     0.233854142812      0.314463363558      
9200000000.0        0.237092005304      0.316361004667      0.756170718505      -0.430194973205     0.756170718505      -0.430194973205     0.237092005304      0.316361004667      
9300000000.0        0.240339113411      0.31822001199       0.752774443997      -0.433312048182     0.752774443997      -0.433312048182     0.240339113411      0.31822001199       
9400000000.0        0.243594936359      0.320040481492      0.749367726253      -0.436391210275     0.749367726253      -0.436391210275     0.243594936359      0.320040481492      
9500000000.0        0.246858949086      0.321822517027      0.745951086372      -0.439432568706     0.745951086372      -0.439432568706     0.246858949086      0.321822517027      
9600000000.0        0.250130632348      0.323566230146      0.742525039589      -0.442436240383     0.742525039589      -0.442436240383     0.250130632348      0.323566230146      
9700000000.0        0.253409472827      0.325271739895      0.73909009518       -0.445402349705     0.73909009518       -0.445402349705     0.253409472827      0.325271739895      
9800000000.0        0.256694963216      0.326939172622      0.735646756366      -0.448331028365     0.735646756366      -0.448331028365     0.256694963216      0.326939172622      
9900000000.0        0.25998660231       0.328568661779      0.732195520224      -0.451222415153     0.732195520224      -0.451222415153     0.25998660231       0.328568661779      
10000000000.0       0.26328389509       0.330160347726      0.728736877604      -0.454076655758     0.728736877604      -0.454076655758     0.26328389509       0.330160347726      
