# Hz S RI R 50.00 
100000000.0         -0.000142058061579  -0.0134522872689    0.999738362954      -0.0139554383571    0.999738362954      -0.0139554383571    -0.000142058061579  -0.0134522872689    
200000000.0         -0.000718049168659  -0.0268887000189    0.999161178664      -0.0278950663276    0.999161178664      -0.0278950663276    -0.000718049168659  -0.0268887000189    
300000000.0         -0.00166798948535   -0.0402940559817    0.998209997743      -0.0418037365928    0.998209997743      -0.0418037365928    -0.00166798948535   -0.0402940559817    
400000000.0         -0.00298974317229   -0.0536532590639    0.996886852965      -0.0556663803387    0.996886852965      -0.0556663803387    -0.00298974317229   -0.0536532590639    
500000000.0         -0.0046803981923    -0.0669513667046    0.995194616677      -0.0694680783995    0.995194616677      -0.0694680783995    -0.0046803981923    -0.0669513667046    
600000000.0         -0.00673625870086   -0.0801736480716    0.993136964403      -0.0831941207576    0.993136964403      -0.0831941207576    -0.00673625870086   -0.0801736480716    
700000000.0         -0.00915285845168   -0.093305638522     0.990718350285      -0.0968300616694    0.990718350285      -0.0968300616694    -0.00915285845168   -0.093305638522     
800000000.0         -0.0119249819977    -0.106333191177     0.987943981811      -0.110361771639     0.987943981811      -0.110361771639     -0.0119249819977    -0.106333191177     
900000000.0         -0.0150466909634    -0.119242525677     0.984819791745      -0.123775486435     0.984819791745      -0.123775486435     -0.0150466909634    -0.119242525677     
1000000000.0        -0.0185113543979    -0.132020273975     0.981352406854      -0.137057853076     0.981352406854      -0.137057853076     -0.0185113543979    -0.132020273975     
1100000000.0        -0.0223116826419    -0.144653522973     0.977549113545      -0.150195972605     0.977549113545      -0.150195972605     -0.0223116826419    -0.144653522973     
1200000000.0        -0.0264397642665    -0.157129853791     0.973417820617      -0.163177439466     0.973417820617      -0.163177439466     -0.0264397642665    -0.157129853791     
1300000000.0        -0.0308871056775    -0.169437377484     0.968967019475      -0.175990377305     0.968967019475      -0.175990377305     -0.0308871056775    -0.169437377484     
1400000000.0        -0.0356446729906    -0.181564767042     0.964205742128      -0.188623471046     0.964205742128      -0.188623471046     -0.0356446729906    -0.181564767042     
1500000000.0        -0.0407029357835    -0.193501285558     0.959143517358      -0.201065995114     0.959143517358      -0.201065995114     -0.0407029357835    -0.193501285558     
1600000000.0        -0.0460519123313    -0.205236810476     0.953790325421      -0.213307837733     0.953790325421      -0.213307837733     -0.0460519123313    -0.205236810476     
1700000000.0        -0.0516812159355    -0.216761853869     0.948156551679      -0.225339521252     0.948156551679      -0.225339521252     -0.0516812159355    -0.216761853869     
1800000000.0        -0.0575801019634    -0.228067578748     0.942252939532      -0.237152218486     0.942252939532      -0.237152218486     -0.0575801019634    -0.228067578748     
1900000000.0        -0.0637375152252    -0.239145811426     0.936090543015      -0.248737765114     0.936090543015      -0.248737765114     -0.0637375152252    -0.239145811426     
2000000000.0        -0.0701421373266    -0.24998905001      0.929680679429      -0.260088668202     0.929680679429      -0.260088668202     -0.0701421373266    -0.24998905001      
2100000000.0        -0.0767824336585    -0.260590469113     0.923034882341      -0.271198110945     0.923034882341      -0.271198110945     -0.0767824336585    -0.260590469113     
2200000000.0        -0.0836466996986    -0.27094392093      0.916164855267      -0.282059953762     0.916164855267      -0.282059953762     -0.0836466996986    -0.27094392093      
2300000000.0        -0.0907231063281    -0.281043932831     0.909082426354      -0.29266873191      0.909082426354      -0.29266873191      -0.0907231063281    -0.281043932831     
2400000000.0        -0.0979997438903    -0.290885701645     0.901799504309      -0.303019649793     0.901799504309      -0.303019649793     -0.0979997438903    -0.290885701645     
2500000000.0        -0.105464664742     -0.300465084858     0.894328035844      -0.313108572178     0.894328035844      -0.313108572178     -0.105464664742     -0.300465084858     
2600000000.0        -0.113105924085     -0.309778588927     0.886679964843      -0.322932012521     0.886679964843      -0.322932012521     -0.113105924085     -0.309778588927     
2700000000.0        -0.12091161888      -0.318823354959     0.878867193443      -0.332487118668     0.878867193443      -0.332487118668     -0.12091161888      -0.318823354959     
2800000000.0        -0.12886992469      -0.327597141984     0.870901545186      -0.341771656137     0.870901545186      -0.341771656137     -0.12886992469      -0.327597141984     
2900000000.0        -0.136969130321     -0.336098308084     0.862794730379      -0.350783989267     0.862794730379      -0.350783989267     -0.136969130321     -0.336098308084     
3000000000.0        -0.145197670153     -0.344325789619     0.854558313763      -0.35952306045      0.854558313763      -0.35952306045      -0.145197670153     -0.344325789619     
3100000000.0        -0.153544154086     -0.352279078812     0.846203684558      -0.367988367736     0.846203684558      -0.367988367736     -0.153544154086     -0.352279078812     
3200000000.0        -0.161997395055     -0.359958199934     0.837742028953      -0.376179941023     0.837742028953      -0.376179941023     -0.161997395055     -0.359958199934     
3300000000.0        -0.17054643409      -0.367363684339     0.829184305043      -0.384098317103     0.829184305043      -0.384098317103     -0.17054643409      -0.367363684339     
3400000000.0        -0.179180562914     -0.37449654457      0.820541220234      -0.391744513784     0.820541220234      -0.391744513784     -0.179180562914     -0.37449654457      
3500000000.0        -0.187889344096     -0.381358247789     0.811823211079      -0.399120003324     0.811823211079      -0.399120003324     -0.187889344096     -0.381358247789     
3600000000.0        -0.196662628809     -0.387950688711     0.803040425531      -0.406226685376     0.803040425531      -0.406226685376     -0.196662628809     -0.387950688711     
3700000000.0        -0.205490572234     -0.394276162271     0.794202707531      -0.413066859663     0.794202707531      -0.413066859663     -0.205490572234     -0.394276162271     
3800000000.0        -0.214363646693     -0.4003373362       0.785319583878      -0.419643198564     0.785319583878      -0.419643198564     -0.214363646693     -0.4003373362       
3900000000.0        -0.223272652578     -0.406137223681     0.776400253298      -0.425958719775     0.776400253298      -0.425958719775     -0.223272652578     -0.406137223681     
4000000000.0        -0.232208727189     -0.411679156253     0.767453577607      -0.432016759223     0.767453577607      -0.432016759223     -0.232208727189     -0.411679156253     
4100000000.0        -0.241163351564     -0.416966757096     0.758488074878      -0.437820944358     0.758488074878      -0.437820944358     -0.241163351564     -0.416966757096     
4200000000.0        -0.250128355429     -0.422003914837     0.749511914493      -0.443375167959     0.749511914493      -0.443375167959     -0.250128355429     -0.422003914837     
4300000000.0        -0.259095920368     -0.426794757971     0.740532913974      -0.448683562575     0.740532913974      -0.448683562575     -0.259095920368     -0.426794757971     
4400000000.0        -0.268058581338     -0.431343630026     0.731558537466      -0.453750475683     0.731558537466      -0.453750475683     -0.268058581338     -0.431343630026     
4500000000.0        -0.277009226652     -0.435655065521     0.722595895751      -0.458580445659     0.722595895751      -0.458580445659     -0.277009226652     -0.435655065521     
4600000000.0        -0.285941096543     -0.439733766818     0.71365174769       -0.463178178631     0.71365174769       -0.463178178631     -0.285941096543     -0.439733766818     
4700000000.0        -0.294847780444     -0.443584581906     0.704732502939      -0.467548526274     0.704732502939      -0.467548526274     -0.294847780444     -0.443584581906     
4800000000.0        -0.303723213081     -0.447212483171     0.695844225853      -0.471696464579     0.695844225853      -0.471696464579     -0.303723213081     -0.447212483171     
4900000000.0        -0.312561669525     -0.450622547191     0.686992640443      -0.475627073658     0.686992640443      -0.475627073658     -0.312561669525     -0.450622547191     
5000000000.0        -0.321357759285     -0.453819935565     0.678183136275      -0.479345518574     0.678183136275      -0.479345518574     -0.321357759285     -0.453819935565     
5100000000.0        -0.330106419575     -0.456809876811     0.669420775202      -0.482857031243     0.669420775202      -0.482857031243     -0.330106419575     -0.456809876811     
5200000000.0        -0.338802907853     -0.459597649315     0.660710298832      -0.486166893392     0.660710298832      -0.486166893392     -0.338802907853     -0.459597649315     
5300000000.0        -0.347442793725     -0.462188565355     0.652056136619      -0.489280420581     0.652056136619      -0.489280420581     -0.347442793725     -0.462188565355     
5400000000.0        -0.356021950316     -0.464587956165     0.643462414492      -0.492202947277     0.643462414492      -0.492202947277     -0.356021950316     -0.464587956165     
5500000000.0        -0.364536545196     -0.466801158044     0.634932963928      -0.494939812961     0.634932963928      -0.494939812961     -0.364536545196     -0.466801158044     
5600000000.0        -0.372983030944     -0.468833499482     0.626471331396      -0.497496349259     0.626471331396      -0.497496349259     -0.372983030944     -0.468833499482     
5700000000.0        -0.381358135417     -0.47069028927      0.618080788073      -0.499877868058     0.618080788073      -0.499877868058     -0.381358135417     -0.47069028927      
5800000000.0        -0.389658851822     -0.472376805579     0.609764339787      -0.502089650587     0.609764339787      -0.502089650587     -0.389658851822     -0.472376805579     
5900000000.0        -0.397882428623     -0.473898285968     0.6015247371        -0.504136937426     0.6015247371        -0.504136937426     -0.397882428623     -0.473898285968     
6000000000.0        -0.406026359371     -0.475259918286     0.593364485485      -0.506024919412     0.593364485485      -0.506024919412     -0.406026359371     -0.475259918286     
6100000000.0        -0.414088372493     -0.47646683243      0.585285855526      -0.507758729404     0.585285855526      -0.507758729404     -0.414088372493     -0.47646683243      
6200000000.0        -0.422066421109     -0.477524092929     0.577290893118      -0.509343434861     0.577290893118      -0.509343434861     -0.422066421109     -0.477524092929     
6300000000.0        -0.429958672892     -0.478436692304     0.569381429587      -0.510784031211     0.569381429587      -0.510784031211     -0.429958672892     -0.478436692304     
6400000000.0        -0.437763500051     -0.479209545166     0.561559091725      -0.512085435954     0.561559091725      -0.512085435954     -0.437763500051     -0.479209545166     
6500000000.0        -0.445479469424     -0.47984748302      0.553825311684      -0.513252483458     0.553825311684      -0.513252483458     -0.445479469424     -0.47984748302      
6600000000.0        -0.453105332762     -0.480355249724     0.546181336699      -0.514289920433     0.546181336699      -0.514289920433     -0.453105332762     -0.480355249724     
6700000000.0        -0.460640017185     -0.480737497571     0.538628238629      -0.515202402002     0.538628238629      -0.515202402002     -0.460640017185     -0.480737497571     
6800000000.0        -0.468082615864     -0.480998783946     0.531166923275      -0.515994488373     0.531166923275      -0.515994488373     -0.468082615864     -0.480998783946     
6900000000.0        -0.475432378938     -0.481143568532     0.523798139466      -0.516670642038     0.523798139466      -0.516670642038     -0.475432378938     -0.481143568532     
7000000000.0        -0.482688704676     -0.481176211015     0.516522487891      -0.517235225481     0.516522487891      -0.517235225481     -0.482688704676     -0.481176211015     
7100000000.0        -0.489851130905     -0.481100969256     0.509340429676      -0.517692499357     0.509340429676      -0.517692499357     -0.489851130905     -0.481100969256     
7200000000.0        -0.496919326713     -0.480921997903     0.502252294679      -0.5180466211       0.502252294679      -0.5180466211       -0.496919326713     -0.480921997903     
7300000000.0        -0.503893084435     -0.480643347393     0.495258289506      -0.518301643928     0.495258289506      -0.518301643928     -0.503893084435     -0.480643347393     
7400000000.0        -0.510772311917     -0.480268963326     0.488358505242      -0.518461516221     0.488358505242      -0.518461516221     -0.510772311917     -0.480268963326     
7500000000.0        -0.517557025085     -0.479802686174     0.481552924888      -0.518530081231     0.481552924888      -0.518530081231     -0.517557025085     -0.479802686174     
7600000000.0        -0.524247340793     -0.479248251295     0.474841430506      -0.518511077092     0.474841430506      -0.518511077092     -0.524247340793     -0.479248251295     
7700000000.0        -0.530843469971     -0.478609289225     0.468223810079      -0.518408137124     0.468223810079      -0.518408137124     -0.530843469971     -0.478609289225     
7800000000.0        -0.537345711062     -0.477889326225     0.461699764067      -0.518224790369     0.461699764067      -0.518224790369     -0.537345711062     -0.477889326225     
7900000000.0        -0.543754443744     -0.477091785052     0.455268911689      -0.517964462372     0.455268911689      -0.517964462372     -0.543754443744     -0.477091785052     
8000000000.0        -0.550070122942     -0.476219985936     0.448930796907      -0.517630476156     0.448930796907      -0.517630476156     -0.550070122942     -0.476219985936     
8100000000.0        -0.556293273117     -0.475277147735     0.442684894143      -0.517226053378     0.442684894143      -0.517226053378     -0.556293273117     -0.475277147735     
8200000000.0        -0.562424482828     -0.474266389256     0.436530613712      -0.516754315655     0.436530613712      -0.516754315655     -0.562424482828     -0.474266389256     
8300000000.0        -0.568464399562     -0.473190730716     0.430467306991      -0.516218286018     0.430467306991      -0.516218286018     -0.568464399562     -0.473190730716     
8400000000.0        -0.574413724832     -0.472053095329     0.424494271326      -0.515620890506     0.424494271326      -0.515620890506     -0.574413724832     -0.472053095329     
8500000000.0        -0.580273209516     -0.470856310994     0.418610754689      -0.514964959856     0.418610754689      -0.514964959856     -0.580273209516     -0.470856310994     
8600000000.0        -0.586043649456     -0.469603112087     0.412815960079      -0.514253231291     0.412815960079      -0.514253231291     -0.586043649456     -0.469603112087     
8700000000.0        -0.591725881287     -0.46829614132      0.407109049695      -0.513488350384     0.407109049695      -0.513488350384     -0.591725881287     -0.46829614132      
8800000000.0        -0.597320778498     -0.466937951673     0.401489148873      -0.512672872988     0.401489148873      -0.512672872988     -0.597320778498     -0.466937951673     
8900000000.0        -0.60282924772      -0.465531008376     0.395955349799      -0.511809267221     0.395955349799      -0.511809267221     -0.60282924772      -0.465531008376     
9000000000.0        -0.608252225218     -0.464077690932     0.390506715016      -0.510899915488     0.390506715016      -0.510899915488     -0.608252225218     -0.464077690932     
9100000000.0        -0.613590673598     -0.462580295176     0.385142280717      -0.509947116543     0.385142280717      -0.509947116543     -0.613590673598     -0.462580295176     
9200000000.0        -0.618845578709     -0.461041035357     0.379861059846      -0.508953087567     0.379861059846      -0.508953087567     -0.618845578709     -0.461041035357     
9300000000.0        -0.624017946726     -0.459462046227     0.374662045008      -0.507919966265     0.374662045008      -0.507919966265     -0.624017946726     -0.459462046227     
9400000000.0        -0.629108801426     -0.457845385149     0.3695442112        -0.506849812968     0.3695442112        -0.506849812968     -0.629108801426     -0.457845385149     
9500000000.0        -0.634119181625     -0.456193034198     0.36450651837       -0.505744612738     0.36450651837       -0.505744612738     -0.634119181625     -0.456193034198     
9600000000.0        -0.639050138789     -0.454506902259     0.359547913807      -0.504606277463     0.359547913807      -0.504606277463     -0.639050138789     -0.454506902259     
9700000000.0        -0.643902734794     -0.452788827109     0.354667334379      -0.503436647946     0.354667334379      -0.503436647946     -0.643902734794     -0.452788827109     
9800000000.0        -0.648678039843     -0.451040577492     0.349863708621      -0.502237495976     0.349863708621      -0.502237495976     -0.648678039843     -0.451040577492     
9900000000.0        -0.653377130516     -0.449263855168     0.34513595868       -0.501010526375     0.34513595868       -0.501010526375     -0.653377130516     -0.449263855168     
10000000000.0       -0.658001087961     -0.447460296937     0.340483002124      -0.499757379029     0.340483002124      -0.499757379029     -0.658001087961     -0.447460296937     
