# Hz S RI R 50.00 
100000000.0         -0.00893253521164   -0.0936860586274    0.991015090543      -0.0937643001782    0.991015090543      -0.0937643001782    -0.00893253521164   -0.0936860586274    
200000000.0         -0.034689538236     -0.18248090512      0.965257719871      -0.18263739466      0.965257719871      -0.18263739466      -0.034689538236     -0.18248090512      
300000000.0         -0.0747054953838    -0.262340690353     0.925241478702      -0.262575437958     0.925241478702      -0.262575437958     -0.0747054953838    -0.262340690353     
400000000.0         -0.125421786261     -0.330569500436     0.874524942436      -0.330882519098     0.874524942436      -0.330882519098     -0.125421786261     -0.330569500436     
500000000.0         -0.18296823684      -0.38596572921      0.816978267868      -0.386357034476     0.816978267868      -0.386357034476     -0.18296823684      -0.38596572921      
600000000.0         -0.24376044554      -0.428629655682     0.756185847834      -0.429099265411     0.756185847834      -0.429099265411     -0.24376044554      -0.428629655682     
700000000.0         -0.304865110334     -0.459585922868     0.695080979223      -0.460133857049     0.695080979223      -0.460133857049     -0.304865110334     -0.459585922868     
800000000.0         -0.364129457073     -0.480377479026     0.635816432871      -0.481003759635     0.635816432871      -0.481003759635     -0.364129457073     -0.480377479026     
900000000.0         -0.420140941666     -0.492730763097     0.579804750592      -0.493435413978     0.579804750592      -0.493435413978     -0.420140941666     -0.492730763097     
1000000000.0        -0.472098202324     -0.498327821938     0.527847292535      -0.499110868698     0.527847292535      -0.499110868698     -0.472098202324     -0.498327821938     
1100000000.0        -0.519656576304     -0.498678168121     0.480288720213      -0.499539638043     0.480288720213      -0.499539638043     -0.519656576304     -0.498678168121     
1200000000.0        -0.562785358408     -0.495064974742     0.437159737884      -0.496004896704     0.437159737884      -0.496004896704     -0.562785358408     -0.495064974742     
1300000000.0        -0.601652566542     -0.488538426328     0.398292326896      -0.489556830729     0.398292326896      -0.489556830729     -0.601652566542     -0.488538426328     
1400000000.0        -0.636539783047     -0.479934606936     0.363404904312      -0.481031525632     0.363404904312      -0.481031525632     -0.636539783047     -0.479934606936     
1500000000.0        -0.667783302224     -0.46990536371      0.332161175342      -0.47108082995      0.332161175342      -0.47108082995      -0.667783302224     -0.46990536371      
1600000000.0        -0.695735781113     -0.458950516781     0.304208482541      -0.460204565156     0.304208482541      -0.460204565156     -0.695735781113     -0.458950516781     
1700000000.0        -0.720742740111     -0.447447937104     0.279201305175      -0.448780603488     0.279201305175      -0.448780603488     -0.720742740111     -0.447447937104     
1800000000.0        -0.743129259366     -0.4356795893       0.256814562804      -0.437090910807     0.256814562804      -0.437090910807     -0.743129259366     -0.4356795893       
1900000000.0        -0.763193372642     -0.423853079947     0.236750221417      -0.425343094879     0.236750221417      -0.425343094879     -0.763193372642     -0.423853079947     
2000000000.0        -0.781203677816     -0.412118972913     0.218739682924      -0.41368772072      0.218739682924      -0.41368772072      -0.781203677816     -0.412118972913     
2100000000.0        -0.797399476898     -0.40058443307      0.202543645128      -0.402231954309     0.202543645128      -0.402231954309     -0.797399476898     -0.40058443307      
2200000000.0        -0.811992336314     -0.38932383324      0.187950541438      -0.391050169534     0.187950541438      -0.391050169534     -0.811992336314     -0.38932383324      
2300000000.0        -0.825168360303     -0.378386923239     0.174774267469      -0.380192117243     0.174774267469      -0.380192117243     -0.825168360303     -0.378386923239     
2400000000.0        -0.837090741239     -0.367805079661     0.162851630718      -0.369689175024     0.162851630718      -0.369689175024     -0.837090741239     -0.367805079661     
2500000000.0        -0.847902328491     -0.357596064325     0.152039781699      -0.359559105659     0.152039781699      -0.359559105659     -0.847902328491     -0.357596064325     
2600000000.0        -0.857728071582     -0.347767634076     0.142213770785      -0.349809666923     0.142213770785      -0.349809666923     -0.857728071582     -0.347767634076     
2700000000.0        -0.866677264866     -0.338320271103     0.133264303526      -0.340441341908     0.133264303526      -0.340441341908     -0.866677264866     -0.338320271103     
2800000000.0        -0.874845564541     -0.329249242559     0.125095723636      -0.331449398636     0.125095723636      -0.331449398636     -0.874845564541     -0.329249242559     
2900000000.0        -0.882316774442     -0.320546149974     0.117624227204      -0.322825439482     0.117624227204      -0.322825439482     -0.882316774442     -0.320546149974     
3000000000.0        -0.889164411282     -0.312200091244     0.11077629744       -0.314558563163     0.11077629744       -0.314558563163     -0.889164411282     -0.312200091244     
3100000000.0        -0.895453067266     -0.30419852874      0.104487342075      -0.306636232841     0.104487342075      -0.306636232841     -0.895453067266     -0.30419852874      
3200000000.0        -0.901239590858     -0.296527934659     0.0987005125801     -0.299044921486     0.0987005125801     -0.299044921486     -0.901239590858     -0.296527934659     
3300000000.0        -0.906574106988     -0.289174267672     0.0933656839679     -0.291770588516     0.0933656839679     -0.291770588516     -0.906574106988     -0.289174267672     
3400000000.0        -0.911500896963     -0.282123321887     0.0884385748763     -0.284799028764     0.0884385748763     -0.284799028764     -0.911500896963     -0.282123321887     
3500000000.0        -0.916059156745     -0.27536097928      0.0838799892914     -0.278116124915     0.0838799892914     -0.278116124915     -0.916059156745     -0.27536097928      
3600000000.0        -0.920283650283     -0.268873389271     0.0796551632174     -0.271708027074     0.0796551632174     -0.271708027074     -0.920283650283     -0.268873389271     
3700000000.0        -0.924205272604     -0.262647093413     0.0757332015798     -0.265561277464     0.0757332015798     -0.265561277464     -0.924205272604     -0.262647093413     
3800000000.0        -0.927851535498     -0.256669108873     0.0720865925467     -0.259662893902     0.0720865925467     -0.259662893902     -0.927851535498     -0.256669108873     
3900000000.0        -0.931246986846     -0.250926981092     0.0686907881957     -0.254000422462     0.0686907881957     -0.254000422462     -0.931246986846     -0.250926981092     
4000000000.0        -0.934413573128     -0.245408813541     0.0655238420062     -0.248561967234     0.0655238420062     -0.248561967234     -0.934413573128     -0.245408813541     
4100000000.0        -0.937370953256     -0.240103280571     0.06256609503       -0.243336203175     0.06256609503       -0.243336203175     -0.937370953256     -0.240103280571     
4200000000.0        -0.940136770683     -0.234999627941     0.0597999037767     -0.23831237663      0.0597999037767     -0.23831237663      -0.940136770683     -0.234999627941     
4300000000.0        -0.942726889742     -0.230087664467     0.0572094038792     -0.233480296992     0.0572094038792     -0.233480296992     -0.942726889742     -0.230087664467     
4400000000.0        -0.945155601259     -0.225357747439     0.0547803044772     -0.228830322115     0.0547803044772     -0.228830322115     -0.945155601259     -0.225357747439     
4500000000.0        -0.947435801764     -0.220800763781     0.0524997090091     -0.224353339472     0.0524997090091     -0.224353339472     -0.947435801764     -0.220800763781     
4600000000.0        -0.949579149964     -0.216408108438     0.0503559587362     -0.220040744549     0.0503559587362     -0.220040744549     -0.949579149964     -0.216408108438     
4700000000.0        -0.951596203619     -0.212171661121     0.0483384958668     -0.215884417586     0.0483384958668     -0.215884417586     -0.951596203619     -0.212171661121     
4800000000.0        -0.953496539497     -0.208083762231     0.0464377436043     -0.211876699501     0.0464377436043     -0.211876699501     -0.953496539497     -0.208083762231     
4900000000.0        -0.955288858683     -0.204137188568     0.0446450008341     -0.208010367605     0.0446450008341     -0.208010367605     -0.955288858683     -0.204137188568     
5000000000.0        -0.95698107921      -0.20032512928      0.0429523494945     -0.204278611546     0.0429523494945     -0.204278611546     -0.95698107921      -0.20032512928      
5100000000.0        -0.958580417681     -0.196641162357     0.0413525729548     -0.200675009806     0.0413525729548     -0.200675009806     -0.958580417681     -0.196641162357     
5200000000.0        -0.960093461318     -0.193079231888     0.0398390839662     -0.197193506957     0.0398390839662     -0.197193506957     -0.960093461318     -0.193079231888     
5300000000.0        -0.961526231675     -0.189633626236     0.0384058609478     -0.19382839184      0.0384058609478     -0.19382839184      -0.961526231675     -0.189633626236     
5400000000.0        -0.962884241077     -0.186298957207     0.0370473915465     -0.190574276731     0.0370473915465     -0.190574276731     -0.962884241077     -0.186298957207     
5500000000.0        -0.964172542708     -0.183070140278     0.0357586225548     -0.187426077571     0.0357586225548     -0.187426077571     -0.964172542708     -0.183070140278     
5600000000.0        -0.965395775119     -0.179942375884     0.0345349153941     -0.184378995253     0.0345349153941     -0.184378995253     -0.965395775119     -0.179942375884     
5700000000.0        -0.966558201869     -0.176911131775     0.0333720064804     -0.181428497979     0.0333720064804     -0.181428497979     -0.966558201869     -0.176911131775     
5800000000.0        -0.967663746867     -0.173972126412     0.0322659718799     -0.178570304658     0.0322659718799     -0.178570304658     -0.967663746867     -0.173972126412     
5900000000.0        -0.968716025943     -0.171121313379     0.0312131957384     -0.175800369316     0.0312131957384     -0.175800369316     -0.968716025943     -0.171121313379     
6000000000.0        -0.969718375088     -0.168354866762     0.0302103420391     -0.173114866481     0.0302103420391     -0.173114866481     -0.969718375088     -0.168354866762     
6100000000.0        -0.970673875761     -0.165669167467     0.0292543292984     -0.170510177492     0.0292543292984     -0.170510177492     -0.970673875761     -0.165669167467     
6200000000.0        -0.971585377594     -0.163060790404     0.0283423078602     -0.167982877691     0.0283423078602     -0.167982877691     -0.971585377594     -0.163060790404     
6300000000.0        -0.972455518796     -0.160526492519     0.027471639492      -0.165529724454     0.027471639492      -0.165529724454     -0.972455518796     -0.160526492519     
6400000000.0        -0.973286744513     -0.158063201603     0.0266398790234     -0.163147645998     0.0266398790234     -0.163147645998     -0.973286744513     -0.158063201603     
6500000000.0        -0.974081323377     -0.15566800584      0.0258447577986     -0.160833730931     0.0258447577986     -0.160833730931     -0.974081323377     -0.15566800584      
6600000000.0        -0.974841362437     -0.153338144049     0.0250841687439     -0.158585218494     0.0250841687439     -0.158585218494     -0.974841362437     -0.153338144049     
6700000000.0        -0.975568820654     -0.151070996568     0.0243561528745     -0.156399489446     0.0243561528745     -0.156399489446     -0.975568820654     -0.151070996568     
6800000000.0        -0.97626552111      -0.148864076751     0.0236588870854     -0.154274057558     0.0236588870854     -0.154274057558     -0.97626552111      -0.148864076751     
6900000000.0        -0.976933162068     -0.146715023014     0.0229906730897     -0.152206561668     0.0229906730897     -0.152206561668     -0.976933162068     -0.146715023014     
7000000000.0        -0.977573327006     -0.144621591428     0.0223499273847     -0.15019475826      0.0223499273847     -0.15019475826      -0.977573327006     -0.144621591428     
7100000000.0        -0.978187493733     -0.142581648779     0.021735172139      -0.148236514539     0.021735172139      -0.148236514539     -0.978187493733     -0.142581648779     
7200000000.0        -0.978777042671     -0.140593166102     0.021145026905      -0.146329801955     0.021145026905      -0.146329801955     -0.978777042671     -0.140593166102     
7300000000.0        -0.979343264406     -0.138654212629     0.0205782010745     -0.144472690158     0.0205782010745     -0.144472690158     -0.979343264406     -0.138654212629     
7400000000.0        -0.979887366559     -0.136762950137     0.0200334870022     -0.142663341341     0.0200334870022     -0.142663341341     -0.979887366559     -0.136762950137     
7500000000.0        -0.980410480063     -0.134917627662     0.0195097537309     -0.140900004956     0.0195097537309     -0.140900004956     -0.980410480063     -0.134917627662     
7600000000.0        -0.980913664896     -0.133116576554     0.0190059412596     -0.139181012771     0.0190059412596     -0.139181012771     -0.980913664896     -0.133116576554     
7700000000.0        -0.981397915319     -0.13135820585      0.0185210553016     -0.137504774241     0.0185210553016     -0.137504774241     -0.981397915319     -0.13135820585      
7800000000.0        -0.981864164679     -0.129640997945     0.0180541624862     -0.135869772181     0.0180541624862     -0.135869772181     -0.981864164679     -0.129640997945     
7900000000.0        -0.982313289805     -0.127963504534     0.0176043859616     -0.134274558708     0.0176043859616     -0.134274558708     -0.982313289805     -0.127963504534     
8000000000.0        -0.982746115039     -0.126324342818     0.0171709013607     -0.132717751442     0.0171709013607     -0.132717751442     -0.982746115039     -0.126324342818     
8100000000.0        -0.983163415942     -0.124722191937     0.0167529330974     -0.131198029949     0.0167529330974     -0.131198029949     -0.983163415942     -0.124722191937     
8200000000.0        -0.983565922699     -0.123155789634     0.0163497509628     -0.129714132396     0.0163497509628     -0.129714132396     -0.983565922699     -0.123155789634     
8300000000.0        -0.98395432325      -0.121623929122     0.0159606669924     -0.128264852426     0.0159606669924     -0.128264852426     -0.98395432325      -0.121623929122     
8400000000.0        -0.984329266173     -0.120125456146     0.0155850325828     -0.12684903621      0.0155850325828     -0.12684903621      -0.984329266173     -0.120125456146     
8500000000.0        -0.984691363345     -0.11865926622      0.0152222358333     -0.125465579697     0.0152222358333     -0.125465579697     -0.984691363345     -0.11865926622      
8600000000.0        -0.98504119239      -0.117224302037     0.0148716990936     -0.124113426011     0.0148716990936     -0.124113426011     -0.98504119239      -0.117224302037     
8700000000.0        -0.985379298948     -0.115819551027     0.0145328766998     -0.122791563021     0.0145328766998     -0.122791563021     -0.985379298948     -0.115819551027     
8800000000.0        -0.985706198762     -0.114444043073     0.0142052528821     -0.121499021047     0.0142052528821     -0.121499021047     -0.985706198762     -0.114444043073     
8900000000.0        -0.986022379619     -0.113096848346     0.0138883398294     -0.120234870703     0.0138883398294     -0.120234870703     -0.986022379619     -0.113096848346     
9000000000.0        -0.986328303135     -0.111777075284     0.0135816758985     -0.118998220873     0.0135816758985     -0.118998220873     -0.986328303135     -0.111777075284     
9100000000.0        -0.986624406421     -0.110483868678     0.0132848239541     -0.117788216794     0.0132848239541     -0.117788216794     -0.986624406421     -0.110483868678     
9200000000.0        -0.986911103616     -0.109216407873     0.0129973698309     -0.116604038263     0.0129973698309     -0.116604038263     -0.986911103616     -0.109216407873     
9300000000.0        -0.987188787317     -0.107973905071     0.0127189209057     -0.115444897935     0.0127189209057     -0.115444897935     -0.987188787317     -0.107973905071     
9400000000.0        -0.987457829903     -0.106755603731     0.0124491047719     -0.114310039727     0.0124491047719     -0.114310039727     -0.987457829903     -0.106755603731     
9500000000.0        -0.987718584771     -0.105560777065     0.0121875680081     -0.113198737312     0.0121875680081     -0.113198737312     -0.987718584771     -0.105560777065     
9600000000.0        -0.987971387474     -0.104388726606     0.0119339750323     -0.112110292687     0.0119339750323     -0.112110292687     -0.987971387474     -0.104388726606     
9700000000.0        -0.988216556795     -0.10323878087      0.0116880070364     -0.111044034835     0.0116880070364     -0.111044034835     -0.988216556795     -0.10323878087      
9800000000.0        -0.988454395733     -0.102110294083     0.0114493609931     -0.109999318455     0.0114493609931     -0.109999318455     -0.988454395733     -0.102110294083     
9900000000.0        -0.988685192433     -0.101002644981     0.0112177487313     -0.108975522758     0.0112177487313     -0.108975522758     -0.988685192433     -0.101002644981     
10000000000.0       -0.988909221044     -0.0999152356763    0.0109928960731     -0.107972050334     0.0109928960731     -0.107972050334     -0.988909221044     -0.0999152356763    
