# Hz S RI R 50.00 
100000000.0         0.0498438953863     0.00195596465607    0.95015462715       -0.00238215597956   0.95015462715       -0.00238215597956   0.0498438953863     0.00195596465607    
200000000.0         0.0501691984174     0.00390902628983    0.949828661791      -0.00476141148308   0.949828661791      -0.00476141148308   0.0501691984174     0.00390902628983    
300000000.0         0.0504190069752     0.00586029243688    0.949578005998      -0.00713887568419   0.949578005998      -0.00713887568419   0.0504190069752     0.00586029243688    
400000000.0         0.0506348034673     0.00781011068673    0.949361177327      -0.0095148975118    0.949361177327      -0.0095148975118    0.0506348034673     0.00781011068673    
500000000.0         0.0508326137346     0.00975865148294    0.949162149908      -0.0118896485991    0.949162149908      -0.0118896485991    0.0508326137346     0.00975865148294    
600000000.0         0.0510206344929     0.0117060066897     0.948972726993      -0.0142632219023    0.948972726993      -0.0142632219023    0.0510206344929     0.0117060066897     
700000000.0         0.0512037207985     0.0136522250247     0.948788053499      -0.0166356671598    0.948788053499      -0.0166356671598    0.0512037207985     0.0136522250247     
800000000.0         0.0513850259697     0.015597328506      0.948604976076      -0.0190070073555    0.948604976076      -0.0190070073555    0.0513850259697     0.015597328506      
900000000.0         0.0515667326787     0.0175413212915     0.948421312026      -0.0213772475679    0.948421312026      -0.0213772475679    0.0515667326787     0.0175413212915     
1000000000.0        0.0517504239804     0.0194841949166     0.948235478261      -0.0237463802158    0.948235478261      -0.0237463802158    0.0517504239804     0.0194841949166     
1100000000.0        0.0519372898112     0.0214259316224     0.948046284818      -0.0261143883914    0.948046284818      -0.0261143883914    0.0519372898112     0.0214259316224     
1200000000.0        0.0521282501817     0.0233665065866     0.947852811653      -0.0284812480957    0.947852811653      -0.0284812480957    0.0521282501817     0.0233665065866     
1300000000.0        0.0523240327754     0.0253058894829     0.947654331051      -0.0308469298007    0.947654331051      -0.0308469298007    0.0523240327754     0.0253058894829     
1400000000.0        0.0525252240127     0.027244045608      0.947450256561      -0.0332113995795    0.947450256561      -0.0332113995795    0.0525252240127     0.027244045608      
1500000000.0        0.0527323038888     0.0291809367202     0.947240108153      -0.0355746199465    0.947240108153      -0.0355746199465    0.0527323038888     0.0291809367202     
1600000000.0        0.0529456704685     0.0311165216774     0.947023487728      -0.0379365504976    0.947023487728      -0.0379365504976    0.0529456704685     0.0311165216774     
1700000000.0        0.05316565756       0.0330507569328     0.946800061444      -0.0402971484072    0.946800061444      -0.0402971484072    0.05316565756       0.0330507569328     
1800000000.0        0.053392547751      0.0349835969275     0.946569546677      -0.042656368822     0.946569546677      -0.042656368822     0.053392547751      0.0349835969275     
1900000000.0        0.0536265822137     0.0369149944054     0.946331702216      -0.0450141651771    0.946331702216      -0.0450141651771    0.0536265822137     0.0369149944054     
2000000000.0        0.0538679682039     0.0388449006692     0.94608632077       -0.0473704894532    0.94608632077       -0.0473704894532    0.0538679682039     0.0388449006692     
2100000000.0        0.0541168848852     0.0407732657923     0.945833223135      -0.0497252923885    0.945833223135      -0.0497252923885    0.0541168848852     0.0407732657923     
2200000000.0        0.0543734879128     0.0427000387944     0.945572253617      -0.0520785236564    0.945572253617      -0.0520785236564    0.0543734879128     0.0427000387944     
2300000000.0        0.0546379130848     0.0446251677903     0.945303276377      -0.0544301320135    0.945303276377      -0.0544301320135    0.0546379130848     0.0446251677903     
2400000000.0        0.0549102792835     0.0465486001154     0.94502617249       -0.0567800654268    0.94502617249       -0.0567800654268    0.0549102792835     0.0465486001154     
2500000000.0        0.055190690867      0.0484702824339     0.944740837556      -0.0591282711818    0.944740837556      -0.0591282711818    0.055190690867      0.0484702824339     
2600000000.0        0.0554792396327     0.0503901608316     0.944447179735      -0.0614746959762    0.944447179735      -0.0614746959762    0.0554792396327     0.0503901608316     
2700000000.0        0.0557760064427     0.0523081808974     0.944145118119      -0.0638192860015    0.944145118119      -0.0638192860015    0.0557760064427     0.0523081808974     
2800000000.0        0.0560810625784     0.0542242877937     0.943834581381      -0.0661619870139    0.943834581381      -0.0661619870139    0.0560810625784     0.0542242877937     
2900000000.0        0.0563944708786     0.0561384263194     0.943515506638      -0.0685027443977    0.943515506638      -0.0685027443977    0.0563944708786     0.0561384263194     
3000000000.0        0.0567162867021     0.0580505409647     0.943187838481      -0.0708415032206    0.943187838481      -0.0708415032206    0.0567162867021     0.0580505409647     
3100000000.0        0.0570465587459     0.059960575961      0.942851528167      -0.0731782082834    0.942851528167      -0.0731782082834    0.0570465587459     0.059960575961      
3200000000.0        0.0573853297448     0.0618684753245     0.942506532912      -0.0755128041649    0.942506532912      -0.0755128041649    0.0573853297448     0.0618684753245     
3300000000.0        0.0577326370734     0.0637741828968     0.942152815289      -0.0778452352611    0.942152815289      -0.0778452352611    0.0577326370734     0.0637741828968     
3400000000.0        0.0580885132667     0.0656776423799     0.941790342715      -0.0801754458224    0.941790342715      -0.0801754458224    0.0580885132667     0.0656776423799     
3500000000.0        0.0584529864709     0.0675787973696     0.941419086989      -0.0825033799859    0.941419086989      -0.0825033799859    0.0584529864709     0.0675787973696     
3600000000.0        0.0588260808379     0.0694775913854     0.941039023909      -0.0848289818055    0.941039023909      -0.0848289818055    0.0588260808379     0.0694775913854     
3700000000.0        0.05920781687       0.071373967897      0.940650132917      -0.0871521952796    0.940650132917      -0.0871521952796    0.05920781687       0.071373967897      
3800000000.0        0.0595982117227     0.0732678703504     0.940252396805      -0.0894729643766    0.940252396805      -0.0894729643766    0.0595982117227     0.0732678703504     
3900000000.0        0.0599972794728     0.0751592421903     0.939845801438      -0.0917912330574    0.939845801438      -0.0917912330574    0.0599972794728     0.0751592421903     
4000000000.0        0.0604050313554     0.077048026882      0.939430335527      -0.0941069452981    0.939430335527      -0.0941069452981    0.0604050313554     0.077048026882      
4100000000.0        0.060821475974      0.0789341679312     0.93900599041       -0.0964200451094    0.93900599041       -0.0964200451094    0.060821475974      0.0789341679312     
4200000000.0        0.0612466194887     0.0808176089025     0.938572759869      -0.0987304765553    0.938572759869      -0.0987304765553    0.0612466194887     0.0808176089025     
4300000000.0        0.061680465784      0.0826982934367     0.93813063996       -0.101038183771     0.93813063996       -0.101038183771     0.061680465784      0.0826982934367     
4400000000.0        0.0621230166197     0.0845761652675     0.937679628865      -0.103343110979     0.937679628865      -0.103343110979     0.0621230166197     0.0845761652675     
4500000000.0        0.0625742717659     0.0864511682359     0.937219726752      -0.105645202505     0.937219726752      -0.105645202505     0.0625742717659     0.0864511682359     
4600000000.0        0.0630342291259     0.0883232463053     0.936750935657      -0.10794440279      0.936750935657      -0.10794440279      0.0630342291259     0.0883232463053     
4700000000.0        0.0635028848466     0.090192343575      0.93627325937       -0.110240656409     0.93627325937       -0.110240656409     0.0635028848466     0.090192343575      
4800000000.0        0.0639802334185     0.0920584042926     0.935786703338      -0.112533908078     0.935786703338      -0.112533908078     0.0639802334185     0.0920584042926     
4900000000.0        0.0644662677677     0.0939213728667     0.93529127457       -0.114824102671     0.93529127457       -0.114824102671     0.0644662677677     0.0939213728667     
5000000000.0        0.0649609793383     0.0957811938779     0.934786981558      -0.117111185229     0.934786981558      -0.117111185229     0.0649609793383     0.0957811938779     
5100000000.0        0.065464358169      0.0976378120904     0.934273834198      -0.119395100973     0.934273834198      -0.119395100973     0.065464358169      0.0976378120904     
5200000000.0        0.0659763929623     0.099491172462      0.93375184372       -0.12167579531      0.93375184372       -0.12167579531      0.0659763929623     0.099491172462      
5300000000.0        0.0664970711486     0.101341220154      0.933221022626      -0.123953213852     0.933221022626      -0.123953213852     0.0664970711486     0.101341220154      
5400000000.0        0.0670263789451     0.103187900542      0.932681384633      -0.126227302415     0.932681384633      -0.126227302415     0.0670263789451     0.103187900542      
5500000000.0        0.0675643014098     0.105031159224      0.932132944612      -0.128498007037     0.932132944612      -0.128498007037     0.0675643014098     0.105031159224      
5600000000.0        0.0681108224917     0.106870942027      0.931575718546      -0.130765273981     0.931575718546      -0.130765273981     0.0681108224917     0.106870942027      
5700000000.0        0.0686659250772     0.108707195021      0.931009723477      -0.133029049748     0.931009723477      -0.133029049748     0.0686659250772     0.108707195021      
5800000000.0        0.0692295910332     0.110539864522      0.930434977468      -0.135289281081     0.930434977468      -0.135289281081     0.0692295910332     0.110539864522      
5900000000.0        0.069801801247      0.112368897101      0.929851499558      -0.137545914975     0.929851499558      -0.137545914975     0.069801801247      0.112368897101      
6000000000.0        0.0703825356638     0.114194239595      0.929259309731      -0.139798898687     0.929259309731      -0.139798898687     0.0703825356638     0.114194239595      
6100000000.0        0.0709717733212     0.116015839108      0.928658428876      -0.142048179738     0.928658428876      -0.142048179738     0.0709717733212     0.116015839108      
6200000000.0        0.0715694923823     0.117833643023      0.928048878754      -0.144293705923     0.928048878754      -0.144293705923     0.0715694923823     0.117833643023      
6300000000.0        0.0721756701657     0.119647599008      0.927430681973      -0.146535425319     0.927430681973      -0.146535425319     0.0721756701657     0.119647599008      
6400000000.0        0.0727902831743     0.12145765502       0.926803861954      -0.148773286289     0.926803861954      -0.148773286289     0.0727902831743     0.12145765502       
6500000000.0        0.0734133071226     0.123263759313      0.926168442906      -0.15100723749      0.926168442906      -0.15100723749      0.0734133071226     0.123263759313      
6600000000.0        0.0740447169616     0.125065860445      0.925524449801      -0.153237227878     0.925524449801      -0.153237227878     0.0740447169616     0.125065860445      
6700000000.0        0.0746844869032     0.126863907283      0.924871908348      -0.155463206716     0.924871908348      -0.155463206716     0.0746844869032     0.126863907283      
6800000000.0        0.0753325904426     0.128657849006      0.924210844975      -0.157685123577     0.924210844975      -0.157685123577     0.0753325904426     0.128657849006      
6900000000.0        0.0759890003803     0.130447635117      0.923541286802      -0.159902928352     0.923541286802      -0.159902928352     0.0759890003803     0.130447635117      
7000000000.0        0.0766536888416     0.132233215441      0.922863261622      -0.162116571252     0.922863261622      -0.162116571252     0.0766536888416     0.132233215441      
7100000000.0        0.0773266272971     0.134014540136      0.922176797885      -0.16432600282      0.922176797885      -0.16432600282      0.0773266272971     0.134014540136      
7200000000.0        0.0780077865803     0.135791559695      0.921481924675      -0.166531173926     0.921481924675      -0.166531173926     0.0780077865803     0.135791559695      
7300000000.0        0.0786971369058     0.137564224951      0.920778671697      -0.168732035782     0.920778671697      -0.168732035782     0.0786971369058     0.137564224951      
7400000000.0        0.0793946478858     0.139332487082      0.920067069254      -0.170928539941     0.920067069254      -0.170928539941     0.0793946478858     0.139332487082      
7500000000.0        0.0801002885462     0.141096297618      0.919347148238      -0.173120638302     0.919347148238      -0.173120638302     0.0801002885462     0.141096297618      
7600000000.0        0.0808140273425     0.142855608441      0.918618940108      -0.175308283116     0.918618940108      -0.175308283116     0.0808140273425     0.142855608441      
7700000000.0        0.0815358321742     0.144610371792      0.91788247688       -0.17749142699      0.91788247688       -0.17749142699      0.0815358321742     0.144610371792      
7800000000.0        0.082265670399      0.146360540275      0.917137791111      -0.179670022891     0.917137791111      -0.179670022891     0.082265670399      0.146360540275      
7900000000.0        0.0830035088469     0.148106066863      0.916384915885      -0.181844024149     0.916384915885      -0.181844024149     0.0830035088469     0.148106066863      
8000000000.0        0.0837493138331     0.149846904895      0.915623884799      -0.184013384465     0.915623884799      -0.184013384465     0.0837493138331     0.149846904895      
8100000000.0        0.0845030511709     0.151583008089      0.914854731953      -0.186178057908     0.914854731953      -0.186178057908     0.0845030511709     0.151583008089      
8200000000.0        0.0852646861841     0.15331433054       0.914077491934      -0.188337998925     0.914077491934      -0.188337998925     0.0852646861841     0.15331433054       
8300000000.0        0.0860341837189     0.155040826723      0.913292199807      -0.190493162342     0.913292199807      -0.190493162342     0.0860341837189     0.155040826723      
8400000000.0        0.0868115081552     0.156762451501      0.912498891103      -0.192643503367     0.912498891103      -0.192643503367     0.0868115081552     0.156762451501      
8500000000.0        0.0875966234184     0.158479160124      0.911697601805      -0.194788977595     0.911697601805      -0.194788977595     0.0875966234184     0.158479160124      
8600000000.0        0.0883894929897     0.160190908234      0.910888368343      -0.196929541009     0.910888368343      -0.196929541009     0.0883894929897     0.160190908234      
8700000000.0        0.0891900799173     0.161897651868      0.910071227575      -0.199065149986     0.910071227575      -0.199065149986     0.0891900799173     0.161897651868      
8800000000.0        0.089998346826      0.163599347463      0.909246216786      -0.201195761298     0.909246216786      -0.201195761298     0.089998346826      0.163599347463      
8900000000.0        0.090814255928      0.165295951855      0.908413373669      -0.203321332115     0.908413373669      -0.203321332115     0.090814255928      0.165295951855      
9000000000.0        0.0916377690322     0.166987422283      0.907572736324      -0.205441820011     0.907572736324      -0.205441820011     0.0916377690322     0.166987422283      
9100000000.0        0.0924688475541     0.168673716396      0.906724343239      -0.20755718296      0.906724343239      -0.20755718296      0.0924688475541     0.168673716396      
9200000000.0        0.0933074525249     0.170354792248      0.905868233289      -0.209667379347     0.905868233289      -0.209667379347     0.0933074525249     0.170354792248      
9300000000.0        0.0941535446007     0.172030608309      0.905004445723      -0.211772367964     0.905004445723      -0.211772367964     0.0941535446007     0.172030608309      
9400000000.0        0.0950070840718     0.173701123459      0.904133020154      -0.213872108016     0.904133020154      -0.213872108016     0.0950070840718     0.173701123459      
9500000000.0        0.0958680308709     0.175366296999      0.903253996553      -0.215966559121     0.903253996553      -0.215966559121     0.0958680308709     0.175366296999      
9600000000.0        0.0967363445822     0.177026088646      0.902367415239      -0.218055681316     0.902367415239      -0.218055681316     0.0967363445822     0.177026088646      
9700000000.0        0.0976119844496     0.178680458538      0.901473316869      -0.220139435054     0.901473316869      -0.220139435054     0.0976119844496     0.178680458538      
9800000000.0        0.0984949093851     0.180329367237      0.900571742434      -0.222217781212     0.900571742434      -0.222217781212     0.0984949093851     0.180329367237      
9900000000.0        0.0993850779768     0.181972775731      0.899662733246      -0.224290681087     0.899662733246      -0.224290681087     0.0993850779768     0.181972775731      
10000000000.0       0.100282448497      0.183610645432      0.898746330934      -0.226358096403     0.898746330934      -0.226358096403     0.100282448497      0.183610645432      
