# Hz S RI R 50.00 
100000000.0         9.89941100809e-05   -0.00545836879266   0.999821028257      -0.00617007196462   0.999821028257      -0.00617007196462   9.89941100811e-05   -0.00545836879266   
200000000.0         -6.77779923108e-06  -0.0109156103099    0.999712612659      -0.0123390404219    0.999712612659      -0.0123390404219    -6.77779923086e-06  -0.0109156103099    
300000000.0         -0.000180108226324  -0.0163706495228    0.999536613022      -0.0185058461444    0.999536613022      -0.0185058461444    -0.000180108226324  -0.0163706495228    
400000000.0         -0.000420820515233  -0.0218223936337    0.999292966405      -0.0246694086438    0.999292966405      -0.0246694086438    -0.000420820515233  -0.0218223936337    
500000000.0         -0.000728788039024  -0.0272697418755    0.998981707395      -0.0308286378965    0.998981707395      -0.0308286378965    -0.000728788039024  -0.0272697418755    
600000000.0         -0.00110388271687   -0.0327115894457    0.998602917197      -0.0369824388571    0.998602917197      -0.0369824388571    -0.00110388271687   -0.0327115894457    
700000000.0         -0.00154596185901   -0.0381468298593    0.998156710814      -0.0431297140921    0.998156710814      -0.0431297140921    -0.00154596185901   -0.0381468298593    
800000000.0         -0.00205486335022   -0.0435743566357    0.997643232392      -0.049269365632     0.997643232392      -0.049269365632     -0.00205486335022   -0.0435743566357    
900000000.0         -0.00263040352211   -0.0489930646473    0.997062653144      -0.0554002964251    0.997062653144      -0.0554002964251    -0.00263040352211   -0.0489930646473    
1000000000.0        -0.00327237611291   -0.0544018512713    0.996415170257      -0.0615214115636    0.996415170257      -0.0615214115636    -0.00327237611291   -0.0544018512713    
1100000000.0        -0.00398055174227   -0.0597996174172    0.99570100624       -0.0676316193647    0.99570100624       -0.0676316193647    -0.00398055174227   -0.0597996174172    
1200000000.0        -0.00475467766199   -0.0651852684692    0.994920408469      -0.0737298323543    0.994920408469      -0.0737298323543    -0.00475467766199   -0.0651852684692    
1300000000.0        -0.00559447767095   -0.0705577151692    0.994073648829      -0.0798149681814    0.994073648829      -0.0798149681814    -0.00559447767095   -0.0705577151692    
1400000000.0        -0.00649965213683   -0.075915874452     0.993161023407      -0.0858859504793    0.993161023407      -0.0858859504793    -0.00649965213683   -0.075915874452     
1500000000.0        -0.00746987809343   -0.0812586702443    0.992182852194      -0.0919417096855    0.992182852194      -0.0919417096855    -0.00746987809343   -0.0812586702443    
1600000000.0        -0.00850480939501   -0.0865850342324    0.991139478796      -0.0979811838268    0.991139478796      -0.0979811838268    -0.00850480939501   -0.0865850342324    
1700000000.0        -0.00960407691636   -0.0918939066028    0.99003127013       -0.104003319275     0.99003127013       -0.104003319275     -0.00960407691636   -0.0918939066028    
1800000000.0        -0.0107672887913    -0.0971842367594    0.98885861612       -0.110007071475     0.98885861612       -0.110007071475     -0.0107672887913    -0.0971842367594    
1900000000.0        -0.0119940306844    -0.102454984018     0.987621929365      -0.115991405653     0.987621929365      -0.115991405653     -0.0119940306844    -0.102454984018     
2000000000.0        -0.0132838660926    -0.107705118278     0.986321644797      -0.121955297495     0.986321644797      -0.121955297495     -0.0132838660926    -0.107705118278     
2100000000.0        -0.0146363366732    -0.112933620677     0.984958219323      -0.127897733813     0.984958219323      -0.127897733813     -0.0146363366732    -0.112933620677     
2200000000.0        -0.0160509625978    -0.118139484225     0.983532131443      -0.13381771318      0.983532131443      -0.13381771318      -0.0160509625978    -0.118139484225     
2300000000.0        -0.0175272429284    -0.123321714413     0.982043880857      -0.139714246554     0.982043880857      -0.139714246554     -0.0175272429284    -0.123321714413     
2400000000.0        -0.0190646560153    -0.12847932981      0.980493988048      -0.145586357876     0.980493988048      -0.145586357876     -0.0190646560153    -0.12847932981      
2500000000.0        -0.0206626599159    -0.133611362637     0.978882993851      -0.151433084646     0.978882993851      -0.151433084646     -0.0206626599159    -0.133611362637     
2600000000.0        -0.0223206928316    -0.138716859318     0.977211459009      -0.157253478488     0.977211459009      -0.157253478488     -0.0223206928316    -0.138716859318     
2700000000.0        -0.0240381735633    -0.143794881019     0.975479963704      -0.163046605684     0.975479963704      -0.163046605684     -0.0240381735633    -0.143794881019     
2800000000.0        -0.025814501984     -0.148844504155     0.973689107081      -0.168811547693     0.973689107081      -0.168811547693     -0.025814501984     -0.148844504155     
2900000000.0        -0.0276490595265    -0.153864820891     0.97183950675       -0.174547401649     0.97183950675       -0.174547401649     -0.0276490595265    -0.153864820891     
3000000000.0        -0.0295412096864    -0.158854939608     0.969931798284      -0.180253280833     0.969931798284      -0.180253280833     -0.0295412096864    -0.158854939608     
3100000000.0        -0.0314902985391    -0.163813985359     0.967966634692      -0.185928315135     0.967966634692      -0.185928315135     -0.0314902985391    -0.163813985359     
3200000000.0        -0.0334956552696    -0.168741100297     0.965944685888      -0.191571651483     0.965944685888      -0.191571651483     -0.0334956552696    -0.168741100297     
3300000000.0        -0.0355565927139    -0.173635444088     0.963866638147      -0.197182454255     0.963866638147      -0.197182454255     -0.0355565927139    -0.173635444088     
3400000000.0        -0.037672407912     -0.178496194295     0.96173319355       -0.202759905672     0.96173319355       -0.202759905672     -0.037672407912     -0.178496194295     
3500000000.0        -0.0398423826703    -0.183322546747     0.959545069417      -0.208303206164     0.959545069417      -0.208303206164     -0.0398423826703    -0.183322546747     
3600000000.0        -0.0420657841337    -0.188113715881     0.957302997733      -0.213811574719     0.957302997733      -0.213811574719     -0.0420657841337    -0.188113715881     
3700000000.0        -0.0443418653657    -0.192868935069     0.95500772457       -0.219284249207     0.95500772457       -0.219284249207     -0.0443418653657    -0.192868935069     
3800000000.0        -0.0466698659353    -0.197587456914     0.952660009493      -0.224720486683     0.952660009493      -0.224720486683     -0.0466698659353    -0.197587456914     
3900000000.0        -0.0490490125112    -0.202268553532     0.95026062497       -0.230119563668     0.95026062497       -0.230119563668     -0.0490490125112    -0.202268553532     
4000000000.0        -0.0514785194605    -0.206911516806     0.947810355768      -0.235480776406     0.947810355768      -0.235480776406     -0.0514785194605    -0.206911516806     
4100000000.0        -0.0539575894525    -0.211515658623     0.94530999835       -0.240803441101     0.94530999835       -0.240803441101     -0.0539575894525    -0.211515658623     
4200000000.0        -0.0564854140659    -0.216080311088     0.942760360268      -0.246086894134     0.942760360268      -0.246086894134     -0.0564854140659    -0.216080311088     
4300000000.0        -0.059061174399     -0.220604826711     0.940162259549      -0.251330492253     0.940162259549      -0.251330492253     -0.059061174399     -0.220604826711     
4400000000.0        -0.0616840416817    -0.22508857858      0.937516524086      -0.256533612743     0.937516524086      -0.256533612743     -0.0616840416817    -0.22508857858      
4500000000.0        -0.0643531778885    -0.229530960507     0.93482399102       -0.261695653578     0.93482399102       -0.261695653578     -0.0643531778885    -0.229530960507     
4600000000.0        -0.0670677363521    -0.233931387154     0.932085506131      -0.266816033548     0.932085506131      -0.266816033548     -0.0670677363521    -0.233931387154     
4700000000.0        -0.0698268623757    -0.238289294141     0.92930192322       -0.271894192363     0.92930192322       -0.271894192363     -0.0698268623757    -0.238289294141     
4800000000.0        -0.0726296938449    -0.242604138126     0.926474103502      -0.276929590742     0.926474103502      -0.276929590742     -0.0726296938449    -0.242604138126     
4900000000.0        -0.0754753618368    -0.246875396874     0.923602914991      -0.281921710477     0.923602914991      -0.281921710477     -0.0754753618368    -0.246875396874     
5000000000.0        -0.0783629912265    -0.251102569295     0.920689231898      -0.286870054475     0.920689231898      -0.286870054475     -0.0783629912265    -0.251102569295     
5100000000.0        -0.0812917012895    -0.255285175471     0.917733934025      -0.291774146786     0.917733934025      -0.291774146786     -0.0812917012895    -0.255285175471     
5200000000.0        -0.0842606063007    -0.259422756658     0.914737906167      -0.296633532605     0.914737906167      -0.296633532605     -0.0842606063007    -0.259422756658     
5300000000.0        -0.0872688161275    -0.263514875272     0.911702037519      -0.301447778257     0.911702037519      -0.301447778257     -0.0872688161275    -0.263514875272     
5400000000.0        -0.0903154368174    -0.267561114852     0.908627221087      -0.306216471169     0.908627221087      -0.306216471169     -0.0903154368174    -0.267561114852     
5500000000.0        -0.0933995711799    -0.271561080009     0.905514353108      -0.310939219809     0.905514353108      -0.310939219809     -0.0933995711799    -0.271561080009     
5600000000.0        -0.0965203193604    -0.275514396353     0.902364332473      -0.315615653624     0.902364332473      -0.315615653624     -0.0965203193604    -0.275514396353     
5700000000.0        -0.0996767794077    -0.279420710409     0.899178060161      -0.320245422948     0.899178060161      -0.320245422948     -0.0996767794077    -0.279420710409     
5800000000.0        -0.102868047832     -0.283279689504     0.895956438682      -0.324828198897     0.895956438682      -0.324828198897     -0.102868047832     -0.283279689504     
5900000000.0        -0.106093220158     -0.287091021653     0.892700371521      -0.32936367325      0.892700371521      -0.32936367325      -0.106093220158     -0.287091021653     
6000000000.0        -0.10935139146      -0.290854415414     0.889410762604      -0.333851558311     0.889410762604      -0.333851558311     -0.10935139146      -0.290854415414     
6100000000.0        -0.1126416569       -0.294569599737     0.886088515761      -0.338291586753     0.886088515761      -0.338291586753     -0.1126416569       -0.294569599737     
6200000000.0        -0.115963112246     -0.298236323795     0.882734534206      -0.342683511454     0.882734534206      -0.342683511454     -0.115963112246     -0.298236323795     
6300000000.0        -0.119314854384     -0.301854356803     0.879349720027      -0.34702710531      0.879349720027      -0.34702710531      -0.119314854384     -0.301854356803     
6400000000.0        -0.122695981817     -0.305423487815     0.875934973683      -0.351322161043     0.875934973683      -0.351322161043     -0.122695981817     -0.305423487815     
6500000000.0        -0.126105595154     -0.308943525518     0.872491193518      -0.355568490989     0.872491193518      -0.355568490989     -0.126105595154     -0.308943525518     
6600000000.0        -0.129542797589     -0.312414298007     0.869019275281      -0.359765926873     0.869019275281      -0.359765926873     -0.129542797589     -0.312414298007     
6700000000.0        -0.133006695365     -0.315835652552     0.865520111662      -0.363914319578     0.865520111662      -0.363914319578     -0.133006695365     -0.315835652552     
6800000000.0        -0.13649639823      -0.319207455345     0.861994591839      -0.368013538895     0.861994591839      -0.368013538895     -0.13649639823      -0.319207455345     
6900000000.0        -0.140011019872     -0.322529591249     0.858443601035      -0.37206347327      0.858443601035      -0.37206347327      -0.140011019872     -0.322529591249     
7000000000.0        -0.143549678356     -0.325801963522     0.854868020089      -0.37606402953      0.854868020089      -0.37606402953      -0.143549678356     -0.325801963522     
7100000000.0        -0.147111496531     -0.329024493546     0.851268725045      -0.380015132609     0.851268725045      -0.380015132609     -0.147111496531     -0.329024493546     
7200000000.0        -0.150695602438     -0.332197120531     0.847646586746      -0.383916725258     0.847646586746      -0.383916725258     -0.150695602438     -0.332197120531     
7300000000.0        -0.154301129697     -0.335319801227     0.844002470441      -0.387768767752     0.844002470441      -0.387768767752     -0.154301129697     -0.335319801227     
7400000000.0        -0.157927217886     -0.338392509611     0.840337235418      -0.391571237585     0.840337235418      -0.391571237585     -0.157927217886     -0.338392509611     
7500000000.0        -0.161573012898     -0.341415236582     0.836651734633      -0.395324129154     0.836651734633      -0.395324129154     -0.161573012898     -0.341415236582     
7600000000.0        -0.165237667298     -0.344387989635     0.832946814365      -0.399027453447     0.832946814365      -0.399027453447     -0.165237667298     -0.344387989635     
7700000000.0        -0.168920340651     -0.347310792541     0.829223313876      -0.402681237713     0.829223313876      -0.402681237713     -0.168920340651     -0.347310792541     
7800000000.0        -0.17262019985      -0.350183685012     0.825482065096      -0.406285525132     0.825482065096      -0.406285525132     -0.17262019985      -0.350183685012     
7900000000.0        -0.176336419423     -0.353006722365     0.821723892305      -0.409840374478     0.821723892305      -0.409840374478     -0.176336419423     -0.353006722365     
8000000000.0        -0.180068181826     -0.355779975179     0.817949611846      -0.413345859778     0.817949611846      -0.413345859778     -0.180068181826     -0.355779975179     
8100000000.0        -0.183814677728     -0.358503528953     0.814160031838      -0.41680206997      0.814160031838      -0.41680206997      -0.183814677728     -0.358503528953     
8200000000.0        -0.187575106279     -0.36117748375      0.810355951908      -0.420209108545     0.810355951908      -0.420209108545     -0.187575106279     -0.36117748375      
8300000000.0        -0.191348675362     -0.363801953849     0.80653816294       -0.423567093201     0.80653816294       -0.423567093201     -0.191348675362     -0.363801953849     
8400000000.0        -0.195134601838     -0.366377067386     0.802707446827      -0.426876155489     0.802707446827      -0.426876155489     -0.195134601838     -0.366377067386     
8500000000.0        -0.198932111774     -0.368902965996     0.798864576249      -0.430136440447     0.798864576249      -0.430136440447     -0.198932111774     -0.368902965996     
8600000000.0        -0.202740440656     -0.371379804456     0.795010314452      -0.433348106249     0.795010314452      -0.433348106249     -0.202740440656     -0.371379804456     
8700000000.0        -0.206558833594     -0.373807750321     0.791145415049      -0.436511323839     0.791145415049      -0.436511323839     -0.206558833594     -0.373807750321     
8800000000.0        -0.210386545513     -0.376186983561     0.787270621827      -0.439626276569     0.787270621827      -0.439626276569     -0.210386545513     -0.376186983561     
8900000000.0        -0.214222841327     -0.3785176962       0.783386668572      -0.44269315984      0.783386668572      -0.44269315984      -0.214222841327     -0.3785176962       
9000000000.0        -0.218066996107     -0.380800091953     0.779494278903      -0.445712180737     0.779494278903      -0.445712180737     -0.218066996107     -0.380800091953     
9100000000.0        -0.22191829523      -0.383034385861     0.77559416612       -0.448683557665     0.77559416612       -0.448683557665     -0.22191829523      -0.383034385861     
9200000000.0        -0.225776034526     -0.385220803932     0.771687033062      -0.451607519991     0.771687033062      -0.451607519991     -0.225776034526     -0.385220803932     
9300000000.0        -0.229639520401     -0.387359582781     0.767773571977      -0.454484307682     0.767773571977      -0.454484307682     -0.229639520401     -0.387359582781     
9400000000.0        -0.233508069955     -0.389450969265     0.763854464409      -0.457314170946     0.763854464409      -0.457314170946     -0.233508069955     -0.389450969265     
9500000000.0        -0.237381011094     -0.391495220132     0.759930381087      -0.460097369873     0.759930381087      -0.460097369873     -0.237381011094     -0.391495220132     
9600000000.0        -0.241257682618     -0.393492601661     0.756001981832      -0.462834174083     0.756001981832      -0.462834174083     -0.241257682618     -0.393492601661     
9700000000.0        -0.245137434307     -0.39544338931      0.752069915474      -0.465524862371     0.752069915474      -0.465524862371     -0.245137434307     -0.39544338931      
9800000000.0        -0.249019626999     -0.39734786737      0.748134819774      -0.468169722356     0.748134819774      -0.468169722356     -0.249019626999     -0.39734786737      
9900000000.0        -0.252903632646     -0.399206328608     0.744197321366      -0.470769050139     0.744197321366      -0.470769050139     -0.252903632646     -0.399206328608     
10000000000.0       -0.256788834374     -0.401019073933     0.740258035701      -0.47332314995      0.740258035701      -0.47332314995      -0.256788834374     -0.401019073933     
