# Hz S RI R 50.00 
100000000.0         0.000611149386888   -0.00196412063126   0.999365551093      -0.00381548855284   0.999365551093      -0.00381548855284   0.000611149386888   -0.00196412063126   
200000000.0         0.000590054412418   -0.00392816133062   0.99933093505       -0.00763089523539   0.99933093505       -0.00763089523539   0.000590054412418   -0.00392816133062   
300000000.0         0.000552883632443   -0.00589202036512   0.999278983629      -0.0114461456466    0.999278983629      -0.0114461456466    0.000552883632443   -0.00589202036512   
400000000.0         0.000500175753049   -0.00785559202375   0.999209159657      -0.0152611501414    0.999209159657      -0.0152611501414    0.000500175753049   -0.00785559202375   
500000000.0         0.000432139198283   -0.00981876745946   0.99912125771       -0.0190758124734    0.99912125771       -0.0190758124734    0.000432139198284   -0.00981876745946   
600000000.0         0.000348881774609   -0.0117814355583    0.999015174612      -0.0228900322753    0.999015174612      -0.0228900322753    0.000348881774609   -0.0117814355583    
700000000.0         0.000250469029139   -0.0137434834679    0.998890851187      -0.0267037062507    0.998890851187      -0.0267037062507    0.00025046902914    -0.0137434834679    
800000000.0         0.000136945549649   -0.0157047969459    0.998748251044      -0.0305167288682    0.998748251044      -0.0305167288682    0.000136945549649   -0.0157047969459    
900000000.0         8.3444541743e-06    -0.017665260604     0.998587351158      -0.0343289928118    0.998587351158      -0.0343289928118    8.34445417475e-06   -0.017665260604     
1000000000.0        -0.000135307792697  -0.0196247580903    0.998408137111      -0.038140389297     0.998408137111      -0.038140389297     -0.000135307792696  -0.0196247580903    
1100000000.0        -0.000293988696987  -0.0215831722299    0.998210600457      -0.0419508083045    0.998210600457      -0.0419508083045    -0.000293988696987  -0.0215831722299    
1200000000.0        -0.000467678131956  -0.0235403851381    0.997994737161      -0.0457601387604    0.997994737161      -0.0457601387604    -0.000467678131956  -0.0235403851381    
1300000000.0        -0.000656357325346  -0.0254962783129    0.997760546621      -0.0495682686805    0.997760546621      -0.0495682686805    -0.000656357325346  -0.0254962783129    
1400000000.0        -0.000860008190379  -0.0274507327144    0.997508031036      -0.0533750852876    0.997508031036      -0.0533750852876    -0.000860008190379  -0.0274507327144    
1500000000.0        -0.00107861286709   -0.0294036288323    0.997237194971      -0.0571804751111    0.997237194971      -0.0571804751111    -0.00107861286709   -0.0294036288323    
1600000000.0        -0.00131215339789   -0.0313548467454    0.996948045065      -0.0609843240714    0.996948045065      -0.0609843240714    -0.00131215339789   -0.0313548467454    
1700000000.0        -0.00156061149178   -0.0333042661749    0.996640589809      -0.0647865175537    0.996640589809      -0.0647865175537    -0.00156061149178   -0.0333042661749    
1800000000.0        -0.00182396834912   -0.035251766532     0.9963148394        -0.0685869404734    0.9963148394        -0.0685869404734    -0.00182396834912   -0.035251766532     
1900000000.0        -0.00210220452856   -0.0371972269618    0.995970805622      -0.0723854773337    0.995970805622      -0.0723854773337    -0.00210220452856   -0.0371972269618    
2000000000.0        -0.00239529984437   -0.0391405263834    0.99560850176       -0.0761820122789    0.99560850176       -0.0761820122789    -0.00239529984437   -0.0391405263834    
2100000000.0        -0.00270323328592   -0.0410815435275    0.995227942537      -0.0799764291426    0.995227942537      -0.0799764291426    -0.00270323328592   -0.0410815435275    
2200000000.0        -0.00302598295366   -0.0430201569717    0.994829144062      -0.0837686114914    0.994829144062      -0.0837686114914    -0.00302598295366   -0.0430201569717    
2300000000.0        -0.0033635260077    -0.0449562451732    0.994412123789      -0.0875584426671    0.994412123789      -0.0875584426671    -0.0033635260077    -0.0449562451732    
2400000000.0        -0.003715838626     -0.0468896865007    0.993976900486      -0.0913458058243    0.993976900486      -0.0913458058243    -0.003715838626     -0.0468896865007    
2500000000.0        -0.00408289597018   -0.048820359264     0.993523494214      -0.0951305839676    0.993523494214      -0.0951305839676    -0.00408289597018   -0.048820359264     
2600000000.0        -0.00446467215731   -0.0507481417431    0.993051926299      -0.0989126599853    0.993051926299      -0.0989126599853    -0.00446467215731   -0.0507481417431    
2700000000.0        -0.00486114023654   -0.0526729122157    0.992562219325      -0.102691916682     0.992562219325      -0.102691916682     -0.00486114023654   -0.0526729122157    
2800000000.0        -0.00527227216965   -0.0545945489837    0.99205439711       -0.106468236812     0.99205439711       -0.106468236812     -0.00527227216965   -0.0545945489837    
2900000000.0        -0.0056980388149    -0.0565129303995    0.991528484703      -0.110241503104     0.991528484703      -0.110241503104     -0.0056980388149    -0.0565129303995    
3000000000.0        -0.00613840991347   -0.0584279348906    0.99098450837       -0.114011598295     0.99098450837       -0.114011598295     -0.00613840991347   -0.0584279348906    
3100000000.0        -0.00659335407833   -0.0603394409842    0.990422495585      -0.117778405157     0.990422495585      -0.117778405157     -0.00659335407833   -0.0603394409842    
3200000000.0        -0.0070628387849    -0.0622473273311    0.989842475025      -0.121541806522     0.989842475025      -0.121541806522     -0.0070628387849    -0.0622473273311    
3300000000.0        -0.00754683036347   -0.0641514727288    0.98924447656       -0.125301685309     0.98924447656       -0.125301685309     -0.00754683036347   -0.0641514727288    
3400000000.0        -0.00804529399309   -0.0660517561443    0.988628531249      -0.129057924548     0.988628531249      -0.129057924548     -0.00804529399309   -0.0660517561443    
3500000000.0        -0.00855819369664   -0.0679480567363    0.987994671333      -0.132810407409     0.987994671333      -0.132810407409     -0.00855819369664   -0.0679480567363    
3600000000.0        -0.00908549233711   -0.069840253877     0.987342930231      -0.13655901722      0.987342930231      -0.13655901722      -0.00908549233711   -0.069840253877     
3700000000.0        -0.00962715161485   -0.0717282271738    0.986673342533      -0.140303637495     0.986673342533      -0.140303637495     -0.00962715161485   -0.0717282271738    
3800000000.0        -0.0101831320657    -0.07361185649      0.985985943995      -0.144044151953     0.985985943995      -0.144044151953     -0.0101831320657    -0.07361185649      
3900000000.0        -0.0107533930602    -0.0754910219657    0.985280771533      -0.147780444545     0.985280771533      -0.147780444545     -0.0107533930602    -0.0754910219657    
4000000000.0        -0.0113378928028    -0.0773656040382    0.984557863221      -0.151512399471     0.984557863221      -0.151512399471     -0.0113378928028    -0.0773656040382    
4100000000.0        -0.0119365883329    -0.079235483462     0.983817258283      -0.155239901206     0.983817258283      -0.155239901206     -0.0119365883329    -0.079235483462     
4200000000.0        -0.0125494355256    -0.0811005413285    0.983058997086      -0.158962834518     0.983058997086      -0.158962834518     -0.0125494355256    -0.0811005413285    
4300000000.0        -0.0131763890931    -0.0829606590857    0.98228312114       -0.162681084488     0.98228312114       -0.162681084488     -0.0131763890931    -0.0829606590857    
4400000000.0        -0.0138174025875    -0.0848157185571    0.981489673086      -0.166394536535     0.981489673086      -0.166394536535     -0.0138174025875    -0.0848157185571    
4500000000.0        -0.0144724284031    -0.0866656019608    0.980678696696      -0.170103076432     0.980678696696      -0.170103076432     -0.0144724284031    -0.0866656019608    
4600000000.0        -0.0151414177797    -0.088510191928     0.979850236863      -0.173806590326     0.979850236863      -0.173806590326     -0.0151414177797    -0.088510191928     
4700000000.0        -0.0158243208063    -0.0903493715218    0.979004339597      -0.177504964757     0.979004339597      -0.177504964757     -0.0158243208063    -0.0903493715218    
4800000000.0        -0.0165210864251    -0.0921830242547    0.978141052017      -0.181198086681     0.978141052017      -0.181198086681     -0.0165210864251    -0.0921830242547    
4900000000.0        -0.0172316624365    -0.0940110341072    0.977260422346      -0.184885843483     0.977260422346      -0.184885843483     -0.0172316624365    -0.0940110341072    
5000000000.0        -0.0179559955034    -0.095833285545     0.976362499904      -0.188568123        0.976362499904      -0.188568123        -0.0179559955034    -0.095833285545     
5100000000.0        -0.018694031157     -0.0976496635365    0.9754473351        -0.192244813535     0.9754473351        -0.192244813535     -0.018694031157     -0.0976496635365    
5200000000.0        -0.0194457138022    -0.0994600535701    0.974514979426      -0.19591580388      0.974514979426      -0.19591580388      -0.0194457138022    -0.0994600535701    
5300000000.0        -0.020210986724     -0.101264341671     0.97356548545       -0.199580983328     0.97356548545       -0.199580983328     -0.020210986724     -0.101264341671     
5400000000.0        -0.0209897920935    -0.103062414419     0.972598906807      -0.203240241695     0.972598906807      -0.203240241695     -0.0209897920935    -0.103062414419     
5500000000.0        -0.0217820709749    -0.104854158962     0.971615298189      -0.206893469333     0.971615298189      -0.206893469333     -0.0217820709749    -0.104854158962     
5600000000.0        -0.0225877633327    -0.106639463037     0.970614715344      -0.210540557151     0.970614715344      -0.210540557151     -0.0225877633327    -0.106639463037     
5700000000.0        -0.0234068080386    -0.10841821498      0.96959721506       -0.214181396627     0.96959721506       -0.214181396627     -0.0234068080386    -0.10841821498      
5800000000.0        -0.0242391428796    -0.110190303749     0.968562855161      -0.217815879829     0.968562855161      -0.217815879829     -0.0242391428796    -0.110190303749     
5900000000.0        -0.0250847045656    -0.111955618933     0.967511694497      -0.221443899426     0.967511694497      -0.221443899426     -0.0250847045656    -0.111955618933     
6000000000.0        -0.0259434287381    -0.113714050772     0.966443792935      -0.225065348708     0.966443792935      -0.225065348708     -0.0259434287381    -0.113714050772     
6100000000.0        -0.0268152499783    -0.115465490169     0.965359211348      -0.228680121598     0.965359211348      -0.228680121598     -0.0268152499783    -0.115465490169     
6200000000.0        -0.0277001018161    -0.117209828707     0.964258011611      -0.23228811267      0.964258011611      -0.23228811267      -0.0277001018161    -0.117209828707     
6300000000.0        -0.028597916739     -0.118946958661     0.963140256583      -0.235889217162     0.963140256583      -0.235889217162     -0.028597916739     -0.118946958661     
6400000000.0        -0.0295086262016    -0.120676773017     0.962006010106      -0.239483330993     0.962006010106      -0.239483330993     -0.0295086262016    -0.120676773017     
6500000000.0        -0.0304321606349    -0.122399165482     0.960855336988      -0.243070350774     0.960855336988      -0.243070350774     -0.0304321606349    -0.122399165482     
6600000000.0        -0.0313684494565    -0.124114030499     0.959688302997      -0.246650173826     0.959688302997      -0.246650173826     -0.0313684494565    -0.124114030499     
6700000000.0        -0.0323174210801    -0.125821263262     0.958504974848      -0.25022269819      0.958504974848      -0.25022269819      -0.0323174210801    -0.125821263262     
6800000000.0        -0.0332790029259    -0.127520759728     0.957305420195      -0.253787822644     0.957305420195      -0.253787822644     -0.0332790029259    -0.127520759728     
6900000000.0        -0.0342531214314    -0.129212416631     0.956089707617      -0.257345446715     0.956089707617      -0.257345446715     -0.0342531214314    -0.129212416631     
7000000000.0        -0.0352397020616    -0.130896131494     0.954857906609      -0.260895470692     0.954857906609      -0.260895470692     -0.0352397020616    -0.130896131494     
7100000000.0        -0.0362386693202    -0.132571802645     0.95361008757       -0.26443779564      0.95361008757       -0.26443779564      -0.0362386693202    -0.132571802645     
7200000000.0        -0.0372499467604    -0.134239329224     0.952346321792      -0.267972323411     0.952346321792      -0.267972323411     -0.0372499467604    -0.134239329224     
7300000000.0        -0.0382734569965    -0.1358986112       0.951066681449      -0.271498956657     0.951066681449      -0.271498956657     -0.0382734569965    -0.1358986112       
7400000000.0        -0.039309121715     -0.137549549381     0.949771239582      -0.275017598844     0.949771239582      -0.275017598844     -0.039309121715     -0.137549549381     
7500000000.0        -0.0403568616867    -0.139192045428     0.948460070094      -0.27852815426      0.948460070094      -0.27852815426      -0.0403568616867    -0.139192045428     
7600000000.0        -0.041416596778     -0.140826001862     0.947133247728      -0.282030528031     0.947133247728      -0.282030528031     -0.041416596778     -0.140826001862     
7700000000.0        -0.0424882459631    -0.142451322081     0.945790848065      -0.28552462613      0.945790848065      -0.28552462613      -0.0424882459631    -0.142451322081     
7800000000.0        -0.0435717273365    -0.144067910365     0.944432947504      -0.289010355387     0.944432947504      -0.289010355387     -0.0435717273365    -0.144067910365     
7900000000.0        -0.0446669581247    -0.145675671891     0.943059623253      -0.292487623503     0.943059623253      -0.292487623503     -0.0446669581247    -0.145675671891     
8000000000.0        -0.045773854699     -0.147274512746     0.941670953315      -0.295956339056     0.941670953315      -0.295956339056     -0.045773854699     -0.147274512746     
8100000000.0        -0.0468923325882    -0.148864339928     0.940267016478      -0.299416411519     0.940267016478      -0.299416411519     -0.0468923325882    -0.148864339928     
8200000000.0        -0.0480223064912    -0.150445061366     0.938847892298      -0.302867751261     0.938847892298      -0.302867751261     -0.0480223064912    -0.150445061366     
8300000000.0        -0.0491636902898    -0.152016585924     0.937413661086      -0.306310269562     0.937413661086      -0.306310269562     -0.0491636902898    -0.152016585924     
8400000000.0        -0.050316397062     -0.153578823414     0.935964403899      -0.309743878622     0.935964403899      -0.309743878622     -0.050316397062     -0.153578823414     
8500000000.0        -0.051480339095     -0.155131684601     0.934500202524      -0.313168491571     0.934500202524      -0.313168491571     -0.051480339095     -0.155131684601     
8600000000.0        -0.0526554278983    -0.156675081216     0.933021139463      -0.316584022476     0.933021139463      -0.316584022476     -0.0526554278983    -0.156675081216     
8700000000.0        -0.0538415742175    -0.158208925965     0.931527297922      -0.319990386349     0.931527297922      -0.319990386349     -0.0538415742175    -0.158208925965     
8800000000.0        -0.0550386880474    -0.159733132532     0.930018761797      -0.323387499159     0.930018761797      -0.323387499159     -0.0550386880474    -0.159733132532     
8900000000.0        -0.0562466786458    -0.161247615595     0.928495615657      -0.326775277839     0.928495615657      -0.326775277839     -0.0562466786458    -0.161247615595     
9000000000.0        -0.0574654545472    -0.162752290829     0.926957944737      -0.330153640291     0.926957944737      -0.330153640291     -0.0574654545472    -0.162752290829     
9100000000.0        -0.0586949235765    -0.164247074914     0.925405834915      -0.333522505398     0.925405834915      -0.333522505398     -0.0586949235765    -0.164247074914     
9200000000.0        -0.059934992863     -0.165731885544     0.923839372706      -0.336881793029     0.923839372706      -0.336881793029     -0.059934992863     -0.165731885544     
9300000000.0        -0.0611855688544    -0.167206641435     0.922258645244      -0.340231424047     0.922258645244      -0.340231424047     -0.0611855688544    -0.167206641435     
9400000000.0        -0.0624465573305    -0.168671262331     0.920663740267      -0.343571320313     0.920663740267      -0.343571320313     -0.0624465573305    -0.168671262331     
9500000000.0        -0.0637178634177    -0.170125669007     0.919054746105      -0.3469014047       0.919054746105      -0.3469014047       -0.0637178634177    -0.170125669007     
9600000000.0        -0.0649993916033    -0.171569783285     0.917431751664      -0.350221601089     0.917431751664      -0.350221601089     -0.0649993916033    -0.171569783285     
9700000000.0        -0.0662910457492    -0.173003528028     0.915794846415      -0.353531834387     0.915794846415      -0.353531834387     -0.0662910457492    -0.173003528028     
9800000000.0        -0.0675927291066    -0.174426827157     0.914144120373      -0.35683203052      0.914144120373      -0.35683203052      -0.0675927291066    -0.174426827157     
9900000000.0        -0.0689043443305    -0.17583960565      0.912479664088      -0.360122116451     0.912479664088      -0.360122116451     -0.0689043443305    -0.17583960565      
10000000000.0       -0.0702257934937    -0.177241789549     0.91080156863       -0.363402020176     0.91080156863       -0.363402020176     -0.0702257934937    -0.177241789549     
