# Hz S RI R 50.00 
100000000.0         0.0548135499013     0.00287400612619    0.945184021085      -0.00386712885697   0.945184021085      -0.00386712885697   0.0548135499013     0.00287400612619    
200000000.0         0.0551891999491     0.00574290574157    0.944805936373      -0.00772916210205   0.944805936373      -0.00772916210205   0.0551891999491     0.00574290574157    
300000000.0         0.055495323305      0.00860845664468    0.944496372406      -0.0115878651713    0.944496372406      -0.0115878651713    0.055495323305      0.00860845664468    
400000000.0         0.0557772326066     0.0114711177589     0.944210016292      -0.0154437033862    0.944210016292      -0.0154437033862    0.0557772326066     0.0114711177589     
500000000.0         0.0560524110354     0.014331045732      0.943929384604      -0.0192968391688    0.943929384604      -0.0192968391688    0.0560524110354     0.014331045732      
600000000.0         0.0563297849358     0.0171882634144     0.943645550748      -0.0231473007358    0.943645550748      -0.0231473007358    0.0563297849358     0.0171882634144     
700000000.0         0.0566146286108     0.0200427204166     0.943353240164      -0.026995042766     0.943353240164      -0.026995042766     0.0566146286108     0.0200427204166     
800000000.0         0.0569103562117     0.0228943212237     0.943049038432      -0.0308399745806    0.943049038432      -0.0308399745806    0.0569103562117     0.0228943212237     
900000000.0         0.0572193203309     0.0257429403163     0.942730592676      -0.0346819753074    0.942730592676      -0.0346819753074    0.0572193203309     0.0257429403163     
1000000000.0        0.0575432171582     0.0285884311402     0.942396206413      -0.0385209028811    0.942396206413      -0.0385209028811    0.0575432171582     0.0285884311402     
1100000000.0        0.0578833119005     0.0314306318184     0.942044614123      -0.0423565997779    0.942044614123      -0.0423565997779    0.0578833119005     0.0314306318184     
1200000000.0        0.058240573219      0.0342693689901     0.941674846821      -0.0461888968712    0.941674846821      -0.0461888968712    0.058240573219      0.0342693689901     
1300000000.0        0.0586157578831     0.0371044605044     0.941286147395      -0.0500176161393    0.941286147395      -0.0500176161393    0.0586157578831     0.0371044605044     
1400000000.0        0.0590094664609     0.0399357173777     0.940877914922      -0.0538425726334    0.940877914922      -0.0538425726334    0.0590094664609     0.0399357173777     
1500000000.0        0.0594221813023     0.0427629452582     0.940449666679      -0.0576635759508    0.940449666679      -0.0576635759508    0.0594221813023     0.0427629452582     
1600000000.0        0.0598542932398     0.0455859455495     0.940001011446      -0.0614804313665    0.940001011446      -0.0614804313665    0.0598542932398     0.0455859455495     
1700000000.0        0.0603061208492     0.0484045162922     0.939531630243      -0.0652929407204    0.939531630243      -0.0652929407204    0.0603061208492     0.0484045162922     
1800000000.0        0.0607779246564     0.0512184528678     0.939041262126      -0.0691009031275    0.939041262126      -0.0691009031275    0.0607779246564     0.0512184528678     
1900000000.0        0.0612699178212     0.0540275485725     0.9385296935        -0.072904115555     0.9385296935        -0.072904115555     0.0612699178212     0.0540275485725     
2000000000.0        0.061782274311      0.0568315950894     0.937996749947      -0.0767023732996    0.937996749947      -0.0767023732996    0.061782274311      0.0568315950894     
2100000000.0        0.0623151352498     0.0596303828848     0.937442289877      -0.0804954703875    0.937442289877      -0.0804954703875    0.0623151352498     0.0596303828848     
2200000000.0        0.0628686139176     0.0624237015446     0.936866199529      -0.0842831999127    0.936866199529      -0.0842831999127    0.0628686139176     0.0624237015446     
2300000000.0        0.0634427997362     0.0652113400619     0.936268388984      -0.0880653543289    0.936268388984      -0.0880653543289    0.0634427997362     0.0652113400619     
2400000000.0        0.0640377614819     0.0679930870876     0.935648788953      -0.0918417257013    0.935648788953      -0.0918417257013    0.0640377614819     0.0679930870876     
2500000000.0        0.0646535499026     0.0707687311485     0.935007348161      -0.0956121059284    0.935007348161      -0.0956121059284    0.0646535499026     0.0707687311485     
2600000000.0        0.0652901998694     0.0735380608414     0.934344031193      -0.0993762869368    0.934344031193      -0.0993762869368    0.0652901998694     0.0735380608414     
2700000000.0        0.0659477321606     0.0763008650053     0.933658816715      -0.103134060856     0.933658816715      -0.103134060856     0.0659477321606     0.0763008650053     
2800000000.0        0.0666261549543     0.0790569328761     0.932951695973      -0.106885220174     0.932951695973      -0.106885220174     0.0666261549543     0.0790569328761     
2900000000.0        0.0673254650854     0.0818060542263     0.932222671547      -0.110629557882     0.932222671547      -0.110629557882     0.0673254650854     0.0818060542263     
3000000000.0        0.0680456491123     0.084548019493      0.931471756274      -0.114366867597     0.931471756274      -0.114366867597     0.0680456491123     0.084548019493      
3100000000.0        0.0687866842285     0.0872826198939     0.930698972343      -0.118096943685     0.930698972343      -0.118096943685     0.0687866842285     0.0872826198939     
3200000000.0        0.0695485390461     0.0900096475352     0.929904350509      -0.12181958137      0.929904350509      -0.12181958137      0.0695485390461     0.0900096475352     
3300000000.0        0.0703311742745     0.0927288955101     0.929087929416      -0.125534576831     0.929087929416      -0.125534576831     0.0703311742745     0.0927288955101     
3400000000.0        0.0711345433101     0.095440157992      0.928249755005      -0.129241727295     0.928249755005      -0.129241727295     0.0711345433101     0.095440157992      
3500000000.0        0.071958592753      0.0981432303199     0.92738988          -0.132940831129     0.92738988          -0.132940831129     0.071958592753      0.0981432303199     
3600000000.0        0.0728032628621     0.100837909079      0.926508363451      -0.136631687917     0.926508363451      -0.136631687917     0.0728032628621     0.100837909079      
3700000000.0        0.073668487957      0.103523992177      0.925605270333      -0.140314098537     0.925605270333      -0.140314098537     0.073668487957      0.103523992177      
3800000000.0        0.0745541967761     0.106201278914      0.924680671189      -0.143987865236     0.924680671189      -0.143987865236     0.0745541967761     0.106201278914      
3900000000.0        0.0754603127966     0.108869570051      0.923734641806      -0.147652791695     0.923734641806      -0.147652791695     0.0754603127966     0.108869570051      
4000000000.0        0.0763867545221     0.111528667873      0.922767262933      -0.151308683095     0.922767262933      -0.151308683095     0.0763867545221     0.111528667873      
4100000000.0        0.0773334357415     0.114178376252      0.921778620018      -0.154955346176     0.921778620018      -0.154955346176     0.0773334357415     0.114178376252      
4200000000.0        0.0783002657653     0.116818500699      0.920768802975      -0.1585925893       0.920768802975      -0.1585925893       0.0783002657653     0.116818500699      
4300000000.0        0.0792871496392     0.119448848422      0.919737905968      -0.162220222499     0.919737905968      -0.162220222499     0.0792871496392     0.119448848422      
4400000000.0        0.0802939883411     0.122069228381      0.918686027213      -0.165838057536     0.918686027213      -0.165838057536     0.0802939883411     0.122069228381      
4500000000.0        0.0813206789612     0.12467945133       0.917613268803      -0.169445907946     0.917613268803      -0.169445907946     0.0813206789612     0.12467945133       
4600000000.0        0.0823671148689     0.127279329871      0.916519736535      -0.173043589093     0.916519736535      -0.173043589093     0.0823671148689     0.127279329871      
4700000000.0        0.0834331858673     0.129868678497      0.91540553976       -0.17663091821      0.91540553976       -0.17663091821      0.0834331858673     0.129868678497      
4800000000.0        0.0845187783371     0.132447313636      0.914270791237      -0.180207714442     0.914270791237      -0.180207714442     0.0845187783371     0.132447313636      
4900000000.0        0.085623775371      0.135015053688      0.913115607001      -0.183773798894     0.913115607001      -0.183773798894     0.085623775371      0.135015053688      
5000000000.0        0.0867480568999     0.137571719072      0.911940106232      -0.187328994663     0.911940106232      -0.187328994663     0.0867480568999     0.137571719072      
5100000000.0        0.0878914998119     0.140117132258      0.910744411142      -0.190873126882     0.910744411142      -0.190873126882     0.0878914998119     0.140117132258      
5200000000.0        0.0890539780641     0.142651117804      0.909528646858      -0.194406022754     0.909528646858      -0.194406022754     0.0890539780641     0.142651117804      
5300000000.0        0.0902353627896     0.145173502392      0.90829294132       -0.197927511589     0.90829294132       -0.197927511589     0.0902353627896     0.145173502392      
5400000000.0        0.0914355223984     0.147684114861      0.907037425177      -0.201437424833     0.907037425177      -0.201437424833     0.0914355223984     0.147684114861      
5500000000.0        0.0926543226741     0.150182786236      0.905762231688      -0.204935596105     0.905762231688      -0.204935596105     0.0926543226741     0.150182786236      
5600000000.0        0.0938916268662     0.152669349762      0.904467496637      -0.208421861224     0.904467496637      -0.208421861224     0.0938916268662     0.152669349762      
5700000000.0        0.095147295779      0.155143640928      0.903153358237      -0.211896058238     0.903153358237      -0.211896058238     0.095147295779      0.155143640928      
5800000000.0        0.0964211878567     0.157605497497      0.901819957048      -0.215358027454     0.901819957048      -0.215358027454     0.0964211878567     0.157605497497      
5900000000.0        0.0977131592657     0.160054759533      0.900467435896      -0.218807611463     0.900467435896      -0.218807611463     0.0977131592657     0.160054759533      
6000000000.0        0.0990230639742     0.162491269421      0.899095939791      -0.222244655161     0.899095939791      -0.222244655161     0.0990230639742     0.162491269421      
6100000000.0        0.100350753829      0.164914871896      0.897705615851      -0.22566900578      0.897705615851      -0.22566900578      0.100350753829      0.164914871896      
6200000000.0        0.101696078629      0.167325414061      0.896296613228      -0.229080512905     0.896296613228      -0.229080512905     0.101696078629      0.167325414061      
6300000000.0        0.103058886202      0.169722745408      0.894869083034      -0.232479028496     0.894869083034      -0.232479028496     0.103058886202      0.169722745408      
6400000000.0        0.104439022469      0.172106717842      0.893423178273      -0.235864406909     0.893423178273      -0.235864406909     0.104439022469      0.172106717842      
6500000000.0        0.105836331519      0.174477185693      0.891959053769      -0.239236504914     0.891959053769      -0.239236504914     0.105836331519      0.174477185693      
6600000000.0        0.107250655671      0.176834005738      0.8904768661        -0.242595181714     0.8904768661        -0.242595181714     0.107250655671      0.176834005738      
6700000000.0        0.108681835546      0.179177037215      0.888976773534      -0.245940298957     0.888976773534      -0.245940298957     0.108681835546      0.179177037215      
6800000000.0        0.110129710126      0.18150614184       0.887458935961      -0.249271720758     0.887458935961      -0.249271720758     0.110129710126      0.18150614184       
6900000000.0        0.111594116819      0.183821183819      0.885923514834      -0.252589313707     0.885923514834      -0.252589313707     0.111594116819      0.183821183819      
7000000000.0        0.113074891521      0.18612202986       0.884370673103      -0.255892946887     0.884370673103      -0.255892946887     0.113074891521      0.18612202986       
7100000000.0        0.114571868678      0.188408549189      0.882800575158      -0.259182491881     0.882800575158      -0.259182491881     0.114571868678      0.188408549189      
7200000000.0        0.116084881344      0.190680613557      0.881213386766      -0.262457822789     0.881213386766      -0.262457822789     0.116084881344      0.190680613557      
7300000000.0        0.117613761239      0.19293809725       0.879609275014      -0.265718816232     0.879609275014      -0.265718816232     0.117613761239      0.19293809725       
7400000000.0        0.119158338809      0.1951808771        0.877988408252      -0.268965351364     0.877988408252      -0.268965351364     0.119158338809      0.1951808771        
7500000000.0        0.120718443283      0.197408832491      0.876350956035      -0.27219730988      0.876350956035      -0.27219730988      0.120718443283      0.197408832491      
7600000000.0        0.122293902727      0.199621845365      0.874697089068      -0.275414576023     0.874697089068      -0.275414576023     0.122293902727      0.199621845365      
7700000000.0        0.1238845441        0.201819800229      0.873026979147      -0.278617036589     0.873026979147      -0.278617036589     0.1238845441        0.201819800229      
7800000000.0        0.125490193307      0.204002584161      0.871340799111      -0.28180458093      0.871340799111      -0.28180458093      0.125490193307      0.204002584161      
7900000000.0        0.127110675258      0.206170086811      0.869638722784      -0.284977100964     0.869638722784      -0.284977100964     0.127110675258      0.206170086811      
8000000000.0        0.128745813914      0.208322200406      0.867920924922      -0.288134491172     0.867920924922      -0.288134491172     0.128745813914      0.208322200406      
8100000000.0        0.130395432342      0.210458819751      0.866187581164      -0.291276648604     0.866187581164      -0.291276648604     0.130395432342      0.210458819751      
8200000000.0        0.132059352769      0.21257984223       0.864438867978      -0.294403472877     0.864438867978      -0.294403472877     0.132059352769      0.21257984223       
8300000000.0        0.133737396629      0.214685167808      0.862674962609      -0.29751486618      0.862674962609      -0.29751486618      0.133737396629      0.214685167808      
8400000000.0        0.135429384614      0.216774699028      0.860896043033      -0.300610733267     0.860896043033      -0.300610733267     0.135429384614      0.216774699028      
8500000000.0        0.137135136726      0.218848341012      0.859102287904      -0.303690981465     0.859102287904      -0.303690981465     0.137135136726      0.218848341012      
8600000000.0        0.138854472322      0.220906001455      0.857293876507      -0.30675552066      0.857293876507      -0.30675552066      0.138854472322      0.220906001455      
8700000000.0        0.140587210164      0.222947590627      0.85547098871       -0.309804263306     0.85547098871       -0.309804263306     0.140587210164      0.222947590627      
8800000000.0        0.142333168469      0.224973021363      0.853633804913      -0.312837124411     0.853633804913      -0.312837124411     0.142333168469      0.224973021363      
8900000000.0        0.144092164951      0.226982209064      0.851782506007      -0.31585402154      0.851782506007      -0.31585402154      0.144092164951      0.226982209064      
9000000000.0        0.14586401687       0.228975071689      0.849917273323      -0.318854874805     0.849917273323      -0.318854874805     0.14586401687       0.228975071689      
9100000000.0        0.14764854108       0.230951529746      0.848038288588      -0.321839606861     0.848038288588      -0.321839606861     0.14764854108       0.230951529746      
9200000000.0        0.149445554068      0.23291150629       0.846145733879      -0.324808142899     0.846145733879      -0.324808142899     0.149445554068      0.23291150629       
9300000000.0        0.151254872005      0.234854926913      0.844239791582      -0.327760410635     0.844239791582      -0.327760410635     0.151254872005      0.234854926913      
9400000000.0        0.153076310784      0.236781719733      0.842320644342      -0.330696340308     0.842320644342      -0.330696340308     0.153076310784      0.236781719733      
9500000000.0        0.15490968607       0.238691815389      0.840388475025      -0.333615864665     0.840388475025      -0.333615864665     0.15490968607       0.238691815389      
9600000000.0        0.156754813335      0.240585147029      0.838443466675      -0.336518918955     0.838443466675      -0.336518918955     0.156754813335      0.240585147029      
9700000000.0        0.158611507906      0.242461650299      0.836485802468      -0.339405440915     0.836485802468      -0.339405440915     0.158611507906      0.242461650299      
9800000000.0        0.160479585003      0.244321263334      0.834515665675      -0.342275370765     0.834515665675      -0.342275370765     0.160479585003      0.244321263334      
9900000000.0        0.162358859781      0.246163926743      0.832533239618      -0.345128651187     0.832533239618      -0.345128651187     0.162358859781      0.246163926743      
10000000000.0       0.164249147373      0.247989583598      0.830538707632      -0.347965227322     0.830538707632      -0.347965227322     0.164249147373      0.247989583598      
