# Hz S RI R 50.00 
100000000.0         0.000127309066847   -0.00931805182623   0.999656427279      -0.010474202423     0.999656427279      -0.010474202423     0.000127309066847   -0.00931805182623   
200000000.0         -0.000173516979019  -0.0186302869916    0.99935040316       -0.0209426301917    0.99935040316       -0.0209426301917    -0.000173516979019  -0.0186302869916    
300000000.0         -0.000669551639676  -0.02793114464      0.998848645404      -0.0313997559929    0.998848645404      -0.0313997559929    -0.000669551639676  -0.02793114464      
400000000.0         -0.0013600585697    -0.037215052598     0.998151484481      -0.0418400348295    0.998151484481      -0.0418400348295    -0.0013600585697    -0.037215052598     
500000000.0         -0.00224421476078   -0.0464764526289    0.997259587277      -0.0522579329616    0.997259587277      -0.0522579329616    -0.00224421476078   -0.0464764526289    
600000000.0         -0.00332102486416   -0.0557098159763    0.996173869432      -0.0626479444795    0.996173869432      -0.0626479444795    -0.00332102486416   -0.0557098159763    
700000000.0         -0.004589301061     -0.0649096561588    0.994895471479      -0.0730046045856    0.994895471479      -0.0730046045856    -0.004589301061     -0.0649096561588    
800000000.0         -0.00604765764397   -0.0740705404978    0.993425748239      -0.0833225014018    0.993425748239      -0.0833225014018    -0.00604765764397   -0.0740705404978    
900000000.0         -0.00769451070688   -0.0831871008784    0.991766262009      -0.0935962869096    0.991766262009      -0.0935962869096    -0.00769451070688   -0.0831871008784    
1000000000.0        -0.00952808020131   -0.0922540439453    0.989918776901      -0.10382068727      0.989918776901      -0.10382068727      -0.00952808020131   -0.0922540439453    
1100000000.0        -0.0115463933636    -0.10126616082      0.987885253412      -0.113990512632     0.987885253412      -0.113990512632     -0.0115463933636    -0.10126616082      
1200000000.0        -0.0137472890807    -0.110218336372     0.985667842874      -0.124100666469     0.985667842874      -0.124100666469     -0.0137472890807    -0.110218336372     
1300000000.0        -0.016128422977     -0.119105558052     0.983268881618      -0.134146154467     0.983268881618      -0.134146154467     -0.016128422977     -0.119105558052     
1400000000.0        -0.0186872730982    -0.127922924289     0.980690884801      -0.144122092965     0.980690884801      -0.144122092965     -0.0186872730982    -0.127922924289     
1500000000.0        -0.0214211461061    -0.136665652432     0.977936539878      -0.15402371693      0.977936539878      -0.15402371693      -0.0214211461061    -0.136665652432     
1600000000.0        -0.0243271839253    -0.145329086233     0.975008699723      -0.16384638747      0.975008699723      -0.16384638747      -0.0243271839253    -0.145329086233     
1700000000.0        -0.0274023707875    -0.153908702851     0.971910375419      -0.173585598864     0.971910375419      -0.173585598864     -0.0274023707875    -0.153908702851     
1800000000.0        -0.0306435406286    -0.16240011937      0.968644728732      -0.183236985095     0.968644728732      -0.183236985095     -0.0306435406286    -0.16240011937      
1900000000.0        -0.0340473847969    -0.170799098815     0.965215064316      -0.192796325892     0.965215064316      -0.192796325892     -0.0340473847969    -0.170799098815     
2000000000.0        -0.0376104600299    -0.179101555656     0.961624821665      -0.202259552245     0.961624821665      -0.202259552245     -0.0376104600299    -0.179101555656     
2100000000.0        -0.0413291966614    -0.187303560797     0.95787756685       -0.211622751407     0.95787756685       -0.211622751407     -0.0413291966614    -0.187303560797     
2200000000.0        -0.0451999070205    -0.195401346038     0.953976984078      -0.220882171373     0.953976984078      -0.220882171373     -0.0451999070205    -0.195401346038     
2300000000.0        -0.0492187939833    -0.203391308009     0.949926867107      -0.230034224823     0.949926867107      -0.230034224823     -0.0492187939833    -0.203391308009     
2400000000.0        -0.0533819596411    -0.211270011581     0.945731110552      -0.239075492541     0.945731110552      -0.239075492541     -0.0533819596411    -0.211270011581     
2500000000.0        -0.0576854140495    -0.219034192749     0.941393701112      -0.248002726307     0.941393701112      -0.248002726307     -0.0576854140495    -0.219034192749     
2600000000.0        -0.0621250840206    -0.226680760984     0.936918708759      -0.256812851265     0.936918708759      -0.256812851265     -0.0621250840206    -0.226680760984     
2700000000.0        -0.0666968219272    -0.234206801087     0.932310277924      -0.265502967771     0.932310277924      -0.265502967771     -0.0666968219272    -0.234206801087     
2800000000.0        -0.071396414483     -0.241609574515     0.927572618699      -0.274070352739     0.927572618699      -0.274070352739     -0.071396414483     -0.241609574515     
2900000000.0        -0.0762195914686    -0.248886520226     0.922709998103      -0.282512460484     0.922709998103      -0.282512460484     -0.0762195914686    -0.248886520226     
3000000000.0        -0.0811620343731    -0.25603525503      0.917726731434      -0.290826923084     0.917726731434      -0.290826923084     -0.0811620343731    -0.25603525503      
3100000000.0        -0.0862193849212    -0.263053573477     0.91262717373       -0.29901155027      0.91262717373       -0.29901155027      -0.0862193849212    -0.263053573477     
3200000000.0        -0.0913872534597    -0.269939447285     0.907415711381      -0.307064328861     0.907415711381      -0.307064328861     -0.0913872534597    -0.269939447285     
3300000000.0        -0.0966612271779    -0.276691024334     0.902096753901      -0.314983421764     0.902096753901      -0.314983421764     -0.0966612271779    -0.276691024334     
3400000000.0        -0.102036878138     -0.283306627249     0.896674725891      -0.322767166556     0.896674725891      -0.322767166556     -0.102036878138     -0.283306627249     
3500000000.0        -0.107509771094     -0.289784751572     0.89115405922       -0.330414073669     0.89115405922       -0.330414073669     -0.107509771094     -0.289784751572     
3600000000.0        -0.113075471079     -0.296124063573     0.885539185432      -0.337922824198     0.885539185432      -0.337922824198     -0.113075471079     -0.296124063573     
3700000000.0        -0.118729550744     -0.302323397697     0.879834528407      -0.345292267354     0.879834528407      -0.345292267354     -0.118729550744     -0.302323397697     
3800000000.0        -0.12446759743      -0.308381753684     0.87404449728       -0.352521417589     0.87404449728       -0.352521417589     -0.12446759743      -0.308381753684     
3900000000.0        -0.130285219963     -0.314298293379     0.868173479651      -0.359609451407     0.868173479651      -0.359609451407     -0.130285219963     -0.314298293379     
4000000000.0        -0.136178055157     -0.320072337259     0.862225835073      -0.366555703897     0.862225835073      -0.366555703897     -0.136178055157     -0.320072337259     
4100000000.0        -0.142141774014     -0.325703360695     0.856205888857      -0.373359664996     0.856205888857      -0.373359664996     -0.142141774014     -0.325703360695     
4200000000.0        -0.148172087618     -0.331190989983     0.850117926171      -0.380020975525     0.850117926171      -0.380020975525     -0.148172087618     -0.331190989983     
4300000000.0        -0.154264752709     -0.336534998157     0.843966186467      -0.386539423001     0.843966186467      -0.386539423001     -0.154264752709     -0.336534998157     
4400000000.0        -0.16041557694      -0.34173530061      0.837754858221      -0.392914937265     0.837754858221      -0.392914937265     -0.16041557694      -0.34173530061      
4500000000.0        -0.166620423807     -0.346791950552     0.831488074005      -0.399147585941     0.831488074005      -0.399147585941     -0.166620423807     -0.346791950552     
4600000000.0        -0.172875217251     -0.35170513432      0.825169905879      -0.40523756975      0.825169905879      -0.40523756975      -0.172875217251     -0.35170513432      
4700000000.0        -0.179175945944     -0.35647516657      0.818804361107      -0.411185217699     0.818804361107      -0.411185217699     -0.179175945944     -0.35647516657      
4800000000.0        -0.185518667242     -0.36110248536      0.812395378205      -0.416990982174     0.812395378205      -0.416990982174     -0.185518667242     -0.36110248536      
4900000000.0        -0.191899510815     -0.365587647159     0.805946823303      -0.422655433946     0.805946823303      -0.422655433946     -0.191899510815     -0.365587647159     
5000000000.0        -0.198314681971     -0.369931321794     0.799462486829      -0.428179257123     0.799462486829      -0.428179257123     -0.198314681971     -0.369931321794     
5100000000.0        -0.204760464657     -0.37413428735      0.792946080501      -0.43356324405      0.792946080501      -0.43356324405      -0.204760464657     -0.37413428735      
5200000000.0        -0.211233224153     -0.378197425059     0.786401234633      -0.438808290201     0.786401234633      -0.438808290201     -0.211233224153     -0.378197425059     
5300000000.0        -0.217729409479     -0.382121714166     0.77983149573       -0.443915389046     0.77983149573       -0.443915389046     -0.217729409479     -0.382121714166     
5400000000.0        -0.224245555493     -0.385908226818     0.773240324387      -0.448885626947     0.773240324387      -0.448885626947     -0.224245555493     -0.385908226818     
5500000000.0        -0.230778284724     -0.389558122973     0.766631093456      -0.45372017806      0.766631093456      -0.45372017806      -0.230778284724     -0.389558122973     
5600000000.0        -0.237324308914     -0.393072645349     0.760007086503      -0.458420299293     0.760007086503      -0.458420299293     -0.237324308914     -0.393072645349     
5700000000.0        -0.243880430311     -0.396453114424     0.753371496515      -0.462987325305     0.753371496515      -0.462987325305     -0.243880430311     -0.396453114424     
5800000000.0        -0.250443542701     -0.399700923503     0.746727424867      -0.467422663576     0.746727424867      -0.467422663576     -0.250443542701     -0.399700923503     
5900000000.0        -0.257010632193     -0.402817533863     0.740077880535      -0.471727789551     0.740077880535      -0.471727789551     -0.257010632193     -0.402817533863     
6000000000.0        -0.263578777785     -0.405804469975     0.733425779532      -0.475904241866     0.733425779532      -0.475904241866     -0.263578777785     -0.405804469975     
6100000000.0        -0.270145151696     -0.408663314834     0.726773944575      -0.479953617681     0.726773944575      -0.479953617681     -0.270145151696     -0.408663314834     
6200000000.0        -0.276707019494     -0.411395705382     0.720125104954      -0.483877568102     0.720125104954      -0.483877568102     -0.276707019494     -0.411395705382     
6300000000.0        -0.283261740027     -0.41400332805      0.713481896602      -0.487677793722     0.713481896602      -0.487677793722     -0.283261740027     -0.41400332805      
6400000000.0        -0.289806765162     -0.416487914412     0.706846862355      -0.491356040284     0.706846862355      -0.491356040284     -0.289806765162     -0.416487914412     
6500000000.0        -0.29633963936      -0.418851236963     0.700222452381      -0.494914094452     0.700222452381      -0.494914094452     -0.29633963936      -0.418851236963     
6600000000.0        -0.302857999069     -0.421095105027     0.693611024776      -0.49835377973      0.693611024776      -0.49835377973      -0.302857999069     -0.421095105027     
6700000000.0        -0.309359571981     -0.423221360797     0.687014846316      -0.501676952492     0.687014846316      -0.501676952492     -0.309359571981     -0.423221360797     
6800000000.0        -0.315842176139     -0.425231875505     0.680436093347      -0.504885498164     0.680436093347      -0.504885498164     -0.315842176139     -0.425231875505     
6900000000.0        -0.322303718912     -0.427128545739     0.673876852805      -0.507981327535     0.673876852805      -0.507981327535     -0.322303718912     -0.427128545739     
7000000000.0        -0.328742195855     -0.428913289886     0.667339123362      -0.510966373205     0.667339123362      -0.510966373205     -0.328742195855     -0.428913289886     
7100000000.0        -0.335155689451     -0.430588044732     0.660824816681      -0.513842586184     0.660824816681      -0.513842586184     -0.335155689451     -0.430588044732     
7200000000.0        -0.341542367759     -0.432154762187     0.654335758763      -0.516611932622     0.654335758763      -0.516611932622     -0.341542367759     -0.432154762187     
7300000000.0        -0.347900482969     -0.433615406164     0.647873691398      -0.519276390685     0.647873691398      -0.519276390685     -0.347900482969     -0.433615406164     
7400000000.0        -0.354228369875     -0.434971949593     0.641440273688      -0.521837947573     0.641440273688      -0.521837947573     -0.354228369875     -0.434971949593     
7500000000.0        -0.360524444275     -0.436226371575     0.635037083647      -0.524298596673     0.635037083647      -0.524298596673     -0.360524444275     -0.436226371575     
7600000000.0        -0.366787201306     -0.437380654679     0.628665619864      -0.526660334858     0.628665619864      -0.526660334858     -0.366787201306     -0.437380654679     
7700000000.0        -0.37301521373      -0.438436782369     0.62232730322       -0.52892515992      0.62232730322       -0.52892515992      -0.37301521373      -0.438436782369     
7800000000.0        -0.37920713016      -0.439396736576     0.616023478657      -0.531095068134     0.616023478657      -0.531095068134     -0.37920713016      -0.439396736576     
7900000000.0        -0.385361673256     -0.440262495394     0.609755416984      -0.533172051962     0.609755416984      -0.533172051962     -0.385361673256     -0.440262495394     
8000000000.0        -0.391477637882     -0.441036030913     0.60352431672       -0.535158097884     0.60352431672       -0.535158097884     -0.391477637882     -0.441036030913     
8100000000.0        -0.397553889237     -0.441719307173     0.59733130596       -0.537055184354     0.59733130596       -0.537055184354     -0.397553889237     -0.441719307173     
8200000000.0        -0.403589360963     -0.442314278248     0.591177444267      -0.538865279889     0.591177444267      -0.538865279889     -0.403589360963     -0.442314278248     
8300000000.0        -0.409583053242     -0.442822886451     0.585063724576      -0.540590341265     0.585063724576      -0.540590341265     -0.409583053242     -0.442822886451     
8400000000.0        -0.415534030884     -0.443247060652     0.578991075104      -0.542232311846     0.578991075104      -0.542232311846     -0.415534030884     -0.443247060652     
8500000000.0        -0.421441421401     -0.443588714716     0.572960361273      -0.54379312002      0.572960361273      -0.54379312002      -0.421441421401     -0.443588714716     
8600000000.0        -0.427304413095     -0.443849746046     0.566972387629      -0.545274677743     0.566972387629      -0.545274677743     -0.427304413095     -0.443849746046     
8700000000.0        -0.433122253141     -0.444032034242     0.561027899747      -0.546678879194     0.561027899747      -0.546678879194     -0.433122253141     -0.444032034242     
8800000000.0        -0.438894245683     -0.444137439853     0.555127586144      -0.548007599537     0.555127586144      -0.548007599537     -0.438894245683     -0.444137439853     
8900000000.0        -0.444619749942     -0.444167803235     0.549272080167      -0.549262693774     0.549272080167      -0.549262693774     -0.444619749942     -0.444167803235     
9000000000.0        -0.450298178337     -0.444124943503     0.543461961868      -0.550445995699     0.543461961868      -0.550445995699     -0.450298178337     -0.444124943503     
9100000000.0        -0.455928994632     -0.444010657575     0.537697759862      -0.551559316944     0.537697759862      -0.551559316944     -0.455928994632     -0.444010657575     
9200000000.0        -0.461511712098     -0.443826719304     0.531979953159      -0.552604446111     0.531979953159      -0.552604446111     -0.461511712098     -0.443826719304     
9300000000.0        -0.467045891703     -0.443574878693     0.526308972977      -0.55358314799      0.526308972977      -0.55358314799      -0.467045891703     -0.443574878693     
9400000000.0        -0.472531140331     -0.443256861196     0.52068520452       -0.554497162855     0.52068520452       -0.554497162855     -0.472531140331     -0.443256861196     
9500000000.0        -0.477967109023     -0.442874367085     0.515108988738      -0.555348205842     0.515108988738      -0.555348205842     -0.477967109023     -0.442874367085     
9600000000.0        -0.48335349126      -0.442429070904     0.509580624043      -0.556137966394     0.509580624043      -0.556137966394     -0.48335349126      -0.442429070904     
9700000000.0        -0.488690021264     -0.44192262098      0.504100368001      -0.556868107781     0.504100368001      -0.556868107781     -0.488690021264     -0.44192262098      
9800000000.0        -0.493976472351     -0.441356639012     0.498668438991      -0.557540266679     0.498668438991      -0.557540266679     -0.493976472351     -0.441356639012     
9900000000.0        -0.4992126553       -0.440732719707     0.493285017824      -0.558156052823     0.493285017824      -0.558156052823     -0.4992126553       -0.440732719707     
10000000000.0       -0.504398416772     -0.440052430494     0.487950249325      -0.558717048707     0.487950249325      -0.558717048707     -0.504398416772     -0.440052430494     
