# Hz S RI R 50.00 
100000000.0         0.000230642649496   -0.00745271857653   0.99963223385       -0.00809485089051   0.99963223385       -0.00809485089051   0.000230642649496   -0.00745271857653   
200000000.0         4.40814738054e-05   -0.0149024660169    0.999440996875      -0.0161867346949    0.999440996875      -0.0161867346949    4.40814738056e-05   -0.0149024660169    
300000000.0         -0.000263496405573  -0.0223464863059    0.999129366835      -0.0242729035539    0.999129366835      -0.0242729035539    -0.000263496405574  -0.0223464863059    
400000000.0         -0.000691616832649  -0.0297820255262    0.998697302067      -0.0323506096335    0.998697302067      -0.0323506096335    -0.000691616832648  -0.0297820255262    
500000000.0         -0.00123988096005   -0.0372063371332    0.998145003445      -0.0404171117968    0.998145003445      -0.0404171117968    -0.00123988096005   -0.0372063371332    
600000000.0         -0.00190785539278   -0.0446166859497    0.99747280372       -0.0484696799022    0.99747280372       -0.0484696799022    -0.00190785539278   -0.0446166859497    
700000000.0         -0.00269504478935   -0.0520103517442    0.996681138956      -0.0565055985085    0.996681138956      -0.0565055985085    -0.00269504478935   -0.0520103517442    
800000000.0         -0.00360088241001   -0.0593846326041    0.995770537589      -0.0645221703163    0.995770537589      -0.0645221703163    -0.00360088241002   -0.0593846326041    
900000000.0         -0.00462472648064   -0.0667368481749    0.994741614996      -0.0725167194487    0.994741614996      -0.0725167194487    -0.00462472648064   -0.0667368481749    
1000000000.0        -0.00576585894039   -0.0740643427994    0.993595070164      -0.0804865946173    0.993595070164      -0.0804865946173    -0.00576585894039   -0.0740643427994    
1100000000.0        -0.00702348534988   -0.0813644885641    0.992331683233      -0.0884291721874    0.992331683233      -0.0884291721874    -0.00702348534988   -0.0813644885641    
1200000000.0        -0.00839673544926   -0.0886346882595    0.990952313424      -0.096341859153     0.990952313424      -0.096341859153     -0.00839673544926   -0.0886346882595    
1300000000.0        -0.009884664127     -0.0958723782524    0.989457897118      -0.104222096019     0.989457897118      -0.104222096019     -0.009884664127     -0.0958723782524    
1400000000.0        -0.0114862526761    -0.103075031268     0.987849445975      -0.112067359593     0.987849445975      -0.112067359593     -0.0114862526761    -0.103075031268     
1500000000.0        -0.0132004102684    -0.110240159081     0.986128045039      -0.119875165679     0.986128045039      -0.119875165679     -0.0132004102684    -0.110240159081     
1600000000.0        -0.0150259756048    -0.117365315105     0.984294850785      -0.12764307168      0.984294850785      -0.12764307168      -0.0150259756048    -0.117365315105     
1700000000.0        -0.0169617187148    -0.124448096889     0.982351089107      -0.135368679089     0.982351089107      -0.135368679089     -0.0169617187148    -0.124448096889     
1800000000.0        -0.0190063428842    -0.131486148501     0.980298053233      -0.143049635887     0.980298053233      -0.143049635887     -0.0190063428842    -0.131486148501     
1900000000.0        -0.0211584866977    -0.138477162809     0.978137101564      -0.150683638815     0.978137101564      -0.150683638815     -0.0211584866977    -0.138477162809     
2000000000.0        -0.0234167261838    -0.145418883643     0.975869655441      -0.158268435555     0.975869655441      -0.158268435555     -0.0234167261838    -0.145418883643     
2100000000.0        -0.0257795770504    -0.152309107854     0.973497196834      -0.165801826773     0.973497196834      -0.165801826773     -0.0257795770504    -0.152309107854     
2200000000.0        -0.0282454970041    -0.159145687241     0.971021265977      -0.173281668061     0.971021265977      -0.173281668061     -0.0282454970041    -0.159145687241     
2300000000.0        -0.0308128881419    -0.165926530364     0.968443458922      -0.180705871751     0.968443458922      -0.180705871751     -0.0308128881419    -0.165926530364     
2400000000.0        -0.033480099409     -0.172649604235     0.965765425055      -0.1880724086       0.965765425055      -0.1880724086       -0.033480099409     -0.172649604235     
2500000000.0        -0.0362454291139    -0.179312935883     0.96298886455       -0.195379309363     0.96298886455       -0.195379309363     -0.0362454291139    -0.179312935883     
2600000000.0        -0.0391071274928    -0.185914613788     0.960115525779      -0.202624666227     0.960115525779      -0.202624666227     -0.0391071274928    -0.185914613788     
2700000000.0        -0.042063399317     -0.192452789197     0.957147202687      -0.209806634127     0.957147202687      -0.209806634127     -0.042063399317     -0.192452789197     
2800000000.0        -0.0451124065344    -0.198925677305     0.954085732138      -0.216923431931     0.954085732138      -0.216923431931     -0.0451124065344    -0.198925677305     
2900000000.0        -0.0482522709388    -0.20533155831      0.950932991227      -0.22397334349      0.950932991227      -0.22397334349      -0.0482522709388    -0.20533155831      
3000000000.0        -0.0514810768601    -0.211668778342     0.947690894582      -0.230954718577     0.947690894582      -0.230954718577     -0.0514810768602    -0.211668778342     
3100000000.0        -0.0547968738677    -0.217935750263     0.944361391649      -0.237865973679     0.944361391649      -0.237865973679     -0.0547968738677    -0.217935750263     
3200000000.0        -0.0581976794807    -0.224130954341     0.940946463976      -0.244705592676     0.940946463976      -0.244705592676     -0.0581976794807    -0.224130954341     
3300000000.0        -0.0616814818793    -0.230252938802     0.937448122495      -0.251472127393     0.937448122495      -0.251472127393     -0.0616814818793    -0.230252938802     
3400000000.0        -0.0652462426091    -0.236300320251     0.933868404808      -0.258164198026     0.933868404808      -0.258164198026     -0.0652462426091    -0.236300320251     
3500000000.0        -0.0688898992741    -0.242271783985     0.930209372491      -0.264780493445     0.930209372491      -0.264780493445     -0.0688898992741    -0.242271783985     
3600000000.0        -0.072610368211     -0.248166084171     0.926473108418      -0.271319771384     0.926473108418      -0.271319771384     -0.072610368211     -0.248166084171     
3700000000.0        -0.0764055471398    -0.253982043924     0.922661714102      -0.277780858514     0.922661714102      -0.277780858514     -0.0764055471398    -0.253982043924     
3800000000.0        -0.0802733177857    -0.259718555258     0.918777307072      -0.284162650392     0.918777307072      -0.284162650392     -0.0802733177857    -0.259718555258     
3900000000.0        -0.084211548466     -0.265374578934     0.914822018283      -0.290464111317     0.914822018283      -0.290464111317     -0.084211548466     -0.265374578934     
4000000000.0        -0.0882180966378    -0.270949144199     0.910797989565      -0.296684274064     0.910797989565      -0.296684274064     -0.0882180966378    -0.270949144199     
4100000000.0        -0.0922908114017    -0.276441348426     0.906707371118      -0.302822239524     0.906707371118      -0.302822239524     -0.0922908114017    -0.276441348426     
4200000000.0        -0.0964275359574    -0.281850356644     0.902552319054      -0.308877176238     0.902552319054      -0.308877176238     -0.0964275359574    -0.281850356644     
4300000000.0        -0.100626110006     -0.287175400984     0.898334992989      -0.31484831984      0.898334992989      -0.31484831984      -0.100626110006     -0.287175400984     
4400000000.0        -0.104884372099     -0.292415780025     0.894057553703      -0.320734972407     0.894057553703      -0.320734972407     -0.104884372099     -0.292415780025     
4500000000.0        -0.109200161922     -0.297570858058     0.889722160841      -0.326536501719     0.889722160841      -0.326536501719     -0.109200161922     -0.297570858058     
4600000000.0        -0.113571322521     -0.302640064264     0.885330970694      -0.33225234044      0.885330970694      -0.33225234044      -0.113571322521     -0.302640064264     
4700000000.0        -0.117995702463     -0.307622891815     0.880886134039      -0.33788198522      0.880886134039      -0.33788198522      -0.117995702463     -0.307622891815     
4800000000.0        -0.12247115792      -0.312518896897     0.876389794044      -0.343424995716     0.876389794044      -0.343424995716     -0.12247115792      -0.312518896897     
4900000000.0        -0.126995554698     -0.317327697669     0.871844084251      -0.348880993555     0.871844084251      -0.348880993555     -0.126995554698     -0.317327697669     
5000000000.0        -0.131566770173     -0.322048973155     0.867251126626      -0.35424966122      0.867251126626      -0.35424966122      -0.131566770173     -0.322048973155     
5100000000.0        -0.136182695173     -0.326682462072     0.862613029688      -0.359530740884     0.862613029688      -0.359530740884     -0.136182695173     -0.326682462072     
5200000000.0        -0.140841235772     -0.331227961604     0.857931886706      -0.364724033185     0.857931886706      -0.364724033185     -0.140841235772     -0.331227961604     
5300000000.0        -0.145540315006     -0.335685326131     0.853209773987      -0.369829395948     0.853209773987      -0.369829395948     -0.145540315006     -0.335685326131     
5400000000.0        -0.15027787452      -0.340054465898     0.848448749224      -0.374846742862     0.848448749224      -0.374846742862     -0.15027787452      -0.340054465898     
5500000000.0        -0.15505187613      -0.344335345653     0.843650849939      -0.379776042113     0.843650849939      -0.379776042113     -0.15505187613      -0.344335345653     
5600000000.0        -0.159860303308     -0.34852798324      0.838818091993      -0.384617314982     0.838818091993      -0.384617314982     -0.159860303308     -0.34852798324      
5700000000.0        -0.164701162586     -0.352632448165     0.833952468186      -0.389370634407     0.833952468186      -0.389370634407     -0.164701162586     -0.352632448165     
5800000000.0        -0.169572484883     -0.356648860121     0.829055946921      -0.39403612351      0.829055946921      -0.39403612351      -0.169572484883     -0.356648860121     
5900000000.0        -0.174472326754     -0.360577387504     0.824130470966      -0.398613954113     0.824130470966      -0.398613954113     -0.174472326754     -0.360577387504     
6000000000.0        -0.179398771558     -0.364418245888     0.819177956278      -0.403104345214     0.819177956278      -0.403104345214     -0.179398771558     -0.364418245888     
6100000000.0        -0.184349930551     -0.368171696501     0.81420029091       -0.407507561462     0.81420029091       -0.407507561462     -0.184349930551     -0.368171696501     
6200000000.0        -0.189323943899     -0.371838044675     0.809199334004      -0.411823911607     0.809199334004      -0.411823911607     -0.189323943899     -0.371838044675     
6300000000.0        -0.194318981617     -0.375417638288     0.80417691484       -0.416053746944     0.80417691484       -0.416053746944     -0.194318981617     -0.375417638288     
6400000000.0        -0.199333244437     -0.378910866205     0.799134831983      -0.420197459753     0.799134831983      -0.420197459753     -0.199333244437     -0.378910866205     
6500000000.0        -0.204364964592     -0.382318156709     0.794074852484      -0.424255481728     0.794074852484      -0.424255481728     -0.204364964592     -0.382318156709     
6600000000.0        -0.209412406543     -0.385639975932     0.788998711162      -0.428228282415     0.788998711162      -0.428228282415     -0.209412406543     -0.385639975932     
6700000000.0        -0.214473867622     -0.388876826298     0.783908109959      -0.432116367646     0.783908109959      -0.432116367646     -0.214473867622     -0.388876826298     
6800000000.0        -0.219547678613     -0.392029244959     0.778804717356      -0.435920277982     0.778804717356      -0.435920277982     -0.219547678613     -0.392029244959     
6900000000.0        -0.224632204266     -0.395097802248     0.773690167862      -0.439640587164     0.773690167862      -0.439640587164     -0.224632204266     -0.395097802248     
7000000000.0        -0.229725843745     -0.398083100142     0.768566061565      -0.443277900575     0.768566061565      -0.443277900575     -0.229725843745     -0.398083100142     
7100000000.0        -0.234827031012     -0.400985770735     0.763433963745      -0.446832853716     0.763433963745      -0.446832853716     -0.234827031012     -0.400985770735     
7200000000.0        -0.239934235149     -0.403806474733     0.758295404558      -0.450306110698     0.758295404558      -0.450306110698     -0.239934235149     -0.403806474733     
7300000000.0        -0.245045960624     -0.40654589996      0.753151878762      -0.453698362751     0.753151878762      -0.453698362751     -0.245045960624     -0.40654589996      
7400000000.0        -0.250160747499     -0.409204759891     0.748004845516      -0.457010326753     0.748004845516      -0.457010326753     -0.250160747499     -0.409204759891     
7500000000.0        -0.25527717158      -0.4117837922       0.742855728225      -0.460242743783     0.742855728225      -0.460242743783     -0.25527717158      -0.4117837922       
7600000000.0        -0.260393844517     -0.414283757339     0.737705914443      -0.463396377699     0.737705914443      -0.463396377699     -0.260393844517     -0.414283757339     
7700000000.0        -0.265509413855     -0.416705437135     0.73255675582       -0.466472013733     0.73255675582       -0.466472013733     -0.265509413855     -0.416705437135     
7800000000.0        -0.270622563032     -0.419049633419     0.727409568104      -0.46947045712      0.727409568104      -0.46947045712      -0.270622563032     -0.419049633419     
7900000000.0        -0.275732011334     -0.42131716668      0.722265631189      -0.472392531756     0.722265631189      -0.472392531756     -0.275732011334     -0.42131716668      
8000000000.0        -0.280836513803     -0.423508874748     0.717126189199      -0.475239078877     0.717126189199      -0.475239078877     -0.280836513803     -0.423508874748     
8100000000.0        -0.285934861111     -0.425625611511     0.711992450625      -0.478010955777     0.711992450625      -0.478010955777     -0.285934861111     -0.425625611511     
8200000000.0        -0.291025879383     -0.427668245654     0.706865588491      -0.48070903455      0.706865588491      -0.48070903455      -0.291025879383     -0.427668245654     
8300000000.0        -0.296108429988     -0.429637659439     0.701746740571      -0.483334200868     0.701746740571      -0.483334200868     -0.296108429988     -0.429637659439     
8400000000.0        -0.3011814093       -0.431534747514     0.696637009625      -0.485887352787     0.696637009625      -0.485887352787     -0.3011814093       -0.431534747514     
8500000000.0        -0.306243748414     -0.433360415751     0.691537463681      -0.488369399593     0.691537463681      -0.488369399593     -0.306243748414     -0.433360415751     
8600000000.0        -0.31129441284      -0.435115580125     0.686449136345      -0.490781260671     0.686449136345      -0.490781260671     -0.31129441284      -0.435115580125     
8700000000.0        -0.316332402163     -0.436801165618     0.681373027135      -0.49312386442      0.681373027135      -0.49312386442      -0.316332402163     -0.436801165618     
8800000000.0        -0.321356749679     -0.438418105164     0.676310101853      -0.495398147189     0.676310101853      -0.495398147189     -0.321356749679     -0.438418105164     
8900000000.0        -0.326366522002     -0.439967338626     0.671261292969      -0.497605052258     0.671261292969      -0.497605052258     -0.326366522002     -0.439967338626     
9000000000.0        -0.33136081865      -0.441449811802     0.666227500044      -0.499745528847     0.666227500044      -0.499745528847     -0.33136081865      -0.441449811802     
9100000000.0        -0.336338771609     -0.442866475476     0.661209590158      -0.50182053116      0.661209590158      -0.50182053116      -0.336338771609     -0.442866475476     
9200000000.0        -0.341299544873     -0.444218284489     0.656208398373      -0.503831017462     0.656208398373      -0.503831017462     -0.341299544873     -0.444218284489     
9300000000.0        -0.346242333976     -0.445506196858     0.651224728204      -0.505777949198     0.651224728204      -0.505777949198     -0.346242333976     -0.445506196858     
9400000000.0        -0.351166365495     -0.44673117292      0.646259352111      -0.50766229013      0.646259352111      -0.50766229013      -0.351166365495     -0.44673117292      
9500000000.0        -0.356070896544     -0.447894174508     0.641313012007      -0.509485005525     0.641313012007      -0.509485005525     -0.356070896544     -0.447894174508     
9600000000.0        -0.360955214259     -0.448996164168     0.636386419775      -0.511247061362     0.636386419775      -0.511247061362     -0.360955214259     -0.448996164168     
9700000000.0        -0.36581863526      -0.450038104404     0.631480257801      -0.51294942358      0.631480257801      -0.51294942358      -0.36581863526      -0.450038104404     
9800000000.0        -0.370660505114     -0.451020956951     0.626595179515      -0.514593057357     0.626595179515      -0.514593057357     -0.370660505114     -0.451020956951     
9900000000.0        -0.375480197782     -0.451945682092     0.621731809945      -0.516178926413     0.621731809945      -0.516178926413     -0.375480197782     -0.451945682092     
10000000000.0       -0.380277115058     -0.452813237991     0.616890746273      -0.51770799236      0.616890746273      -0.51770799236      -0.380277115058     -0.452813237991     
