# Hz S RI R 50.00 
100000000.0         0.00173266637075    0.000451521274973   0.998258719402      -0.00351542151882   0.998258719402      -0.00351542151882   0.00173266637075    0.000451521274973   
200000000.0         0.00174757506319    0.000902920899961   0.998226802877      -0.00703076804765   0.998226802877      -0.00703076804765   0.00174757506319    0.000902920899961   
300000000.0         0.00176262777593    0.0013542048307     0.998185347514      -0.0105460662863    0.998185347514      -0.0105460662863    0.00176262777593    0.0013542048307     
400000000.0         0.0017793244724     0.00180535730773    0.998132851783      -0.014061310457     0.998132851783      -0.014061310457     0.0017793244724     0.00180535730773    
500000000.0         0.00179824178212    0.00225635823416    0.998068737199      -0.0175764849391    0.998068737199      -0.0175764849391    0.00179824178212    0.00225635823416    
600000000.0         0.00181967297734    0.00270718590989    0.997992708389      -0.0210915688583    0.997992708389      -0.0210915688583    0.00181967297734    0.00270718590989    
700000000.0         0.00184379059412    0.00315781795186    0.997904590506      -0.0246065379587    0.997904590506      -0.0246065379587    0.00184379059413    0.00315781795186    
800000000.0         0.001870705761      0.00360823169139    0.997804269925      -0.0281213655727    0.997804269925      -0.0281213655727    0.001870705761      0.00360823169139    
900000000.0         0.00190049460572    0.00405840437086    0.997691667856      -0.0316360231971    0.997691667856      -0.0316360231971    0.00190049460572    0.00405840437086    
1000000000.0        0.00193321163606    0.0045083132497     0.99756672698       -0.0351504808672    0.99756672698       -0.0351504808672    0.00193321163606    0.0045083132497     
1100000000.0        0.0019688971761     0.00495793566449    0.99742940403       -0.038664707416     0.99742940403       -0.038664707416     0.0019688971761     0.00495793566449    
1200000000.0        0.00200758179637    0.00540724906424    0.997279665374      -0.0421786706627    0.997279665374      -0.0421786706627    0.00200758179637    0.00540724906424    
1300000000.0        0.00204928910074    0.00585623103131    0.997117484238      -0.0456923375547    0.997117484238      -0.0456923375547    0.00204928910074    0.00585623103131    
1400000000.0        0.00209403755818    0.00630485929353    0.996942838886      -0.0492056742776    0.996942838886      -0.0492056742776    0.00209403755818    0.00630485929353    
1500000000.0        0.00214184175115    0.00675311173102    0.996755711382      -0.0527186463432    0.996755711382      -0.0527186463432    0.00214184175115    0.00675311173102    
1600000000.0        0.00219271325252    0.00720096637957    0.996556086719      -0.0562312186608    0.996556086719      -0.0562312186608    0.00219271325252    0.00720096637957    
1700000000.0        0.00224666125778    0.00764840143175    0.9963439522        -0.0597433555962    0.9963439522        -0.0597433555962    0.00224666125778    0.00764840143175    
1800000000.0        0.00230369305118    0.00809539523654    0.996119296973      -0.0632550210212    0.996119296973      -0.0632550210212    0.00230369305118    0.00809539523654    
1900000000.0        0.0023638143561     0.00854192629801    0.995882111693      -0.0667661783554    0.995882111693      -0.0667661783554    0.0023638143561     0.00854192629801    
2000000000.0        0.00242702960302    0.00898797327342    0.995632388259      -0.0702767906026    0.995632388259      -0.0702767906026    0.00242702960302    0.00898797327342    
2100000000.0        0.00249334213769    0.0094335149708     0.995370119608      -0.0737868203818    0.995370119608      -0.0737868203818    0.00249334213769    0.0094335149708     
2200000000.0        0.00256275438495    0.00987853034635    0.995095299565      -0.077296229955     0.995095299565      -0.077296229955     0.00256275438495    0.00987853034635    
2300000000.0        0.00263526797936    0.0103229985017     0.994807922709      -0.0808049812508    0.994807922709      -0.0808049812508    0.00263526797936    0.0103229985017     
2400000000.0        0.00271088387051    0.010766898681      0.994507984279      -0.0843130358867    0.994507984279      -0.0843130358867    0.00271088387051    0.010766898681      
2500000000.0        0.00278960240874    0.0112102102681     0.99419548009       -0.0878203551876    0.99419548009       -0.0878203551876    0.00278960240874    0.0112102102681     
2600000000.0        0.00287142341566    0.0116529127837     0.993870406469      -0.0913269002034    0.993870406469      -0.0913269002034    0.00287142341566    0.0116529127837     
2700000000.0        0.00295634624257    0.0120949858825     0.993532760198      -0.0948326317249    0.993532760198      -0.0948326317249    0.00295634624257    0.0120949858825     
2800000000.0        0.00304436981934    0.0125364093503     0.993182538474      -0.0983375102972    0.993182538474      -0.0983375102972    0.00304436981934    0.0125364093503     
2900000000.0        0.00313549269554    0.0129771631017     0.992819738867      -0.101841496233     0.992819738867      -0.101841496233     0.00313549269554    0.0129771631017     
3000000000.0        0.00322971307534    0.0134172271768     0.992444359291      -0.105344549626     0.992444359291      -0.105344549626     0.00322971307534    0.0134172271768     
3100000000.0        0.00332702884725    0.0138565817392     0.992056397979      -0.108846630359     0.992056397979      -0.108846630359     0.00332702884725    0.0138565817392     
3200000000.0        0.00342743760969    0.0142952070735     0.991655853457      -0.112347698116     0.991655853457      -0.112347698116     0.00342743760969    0.0142952070735     
3300000000.0        0.00353093669308    0.0147330835823     0.991242724531      -0.11584771239      0.991242724531      -0.11584771239      0.00353093669308    0.0147330835823     
3400000000.0        0.00363752317894    0.0151701917845     0.990817010266      -0.119346632494     0.990817010266      -0.119346632494     0.00363752317894    0.0151701917845     
3500000000.0        0.0037471939167     0.0156065123129     0.990378709975      -0.122844417567     0.990378709975      -0.122844417567     0.0037471939167     0.0156065123129     
3600000000.0        0.00385994553825    0.0160420259116     0.989927823205      -0.126341026582     0.989927823205      -0.126341026582     0.00385994553825    0.0160420259116     
3700000000.0        0.00397577447092    0.0164767134347     0.989464349731      -0.129836418353     0.989464349731      -0.129836418353     0.00397577447092    0.0164767134347     
3800000000.0        0.00409467694888    0.0169105558432     0.988988289541      -0.133330551544     0.988988289541      -0.133330551544     0.00409467694888    0.0169105558432     
3900000000.0        0.00421664902323    0.0173435342041     0.988499642834      -0.13682338467      0.988499642834      -0.13682338467      0.00421664902323    0.0173435342041     
4000000000.0        0.00434168657112    0.0177756296878     0.987998410014      -0.140314876108     0.987998410014      -0.140314876108     0.00434168657112    0.0177756296878     
4100000000.0        0.00446978530378    0.0182068235664     0.987484591676      -0.1438049841       0.987484591676      -0.1438049841       0.00446978530378    0.0182068235664     
4200000000.0        0.00460094077378    0.018637097212      0.986958188613      -0.147293666759     0.986958188613      -0.147293666759     0.00460094077378    0.018637097212      
4300000000.0        0.00473514838162    0.0190664320951     0.986419201801      -0.150780882073     0.986419201801      -0.150780882073     0.00473514838162    0.0190664320951     
4400000000.0        0.00487240338161    0.0194948097826     0.985867632403      -0.154266587911     0.985867632403      -0.154266587911     0.00487240338161    0.0194948097826     
4500000000.0        0.00501270088726    0.0199222119366     0.98530348176       -0.157750742028     0.98530348176       -0.157750742028     0.00501270088726    0.0199222119366     
4600000000.0        0.00515603587613    0.0203486203125     0.984726751392      -0.161233302065     0.984726751392      -0.161233302065     0.00515603587613    0.0203486203125     
4700000000.0        0.00530240319431    0.0207740167576     0.984137442995      -0.164714225559     0.984137442995      -0.164714225559     0.00530240319431    0.0207740167576     
4800000000.0        0.00545179756048    0.0211983832098     0.983535558436      -0.168193469945     0.983535558436      -0.168193469945     0.00545179756048    0.0211983832098     
4900000000.0        0.00560421356963    0.0216217016959     0.982921099754      -0.171670992555     0.982921099754      -0.171670992555     0.00560421356963    0.0216217016959     
5000000000.0        0.0057596456965     0.0220439543306     0.982294069158      -0.175146750629     0.982294069158      -0.175146750629     0.0057596456965     0.0220439543306     
5100000000.0        0.00591808829875    0.0224651233148     0.981654469025      -0.178620701314     0.981654469025      -0.178620701314     0.00591808829875    0.0224651233148     
5200000000.0        0.00607953561983    0.0228851909345     0.981002301897      -0.182092801667     0.981002301897      -0.182092801667     0.00607953561983    0.0228851909345     
5300000000.0        0.00624398179173    0.0233041395597     0.980337570484      -0.18556300866      0.980337570484      -0.18556300866      0.00624398179173    0.0233041395597     
5400000000.0        0.00641142083748    0.0237219516429     0.979660277658      -0.189031279182     0.979660277658      -0.189031279182     0.00641142083748    0.0237219516429     
5500000000.0        0.00658184667343    0.0241386097182     0.978970426456      -0.192497570042     0.978970426456      -0.192497570042     0.00658184667343    0.0241386097182     
5600000000.0        0.00675525311145    0.0245540963999     0.97826802008       -0.195961837973     0.97826802008       -0.195961837973     0.00675525311145    0.0245540963999     
5700000000.0        0.00693163386091    0.0249683943817     0.977553061891      -0.199424039633     0.977553061891      -0.199424039633     0.00693163386091    0.0249683943817     
5800000000.0        0.00711098253061    0.0253814864354     0.976825555414      -0.202884131607     0.976825555414      -0.202884131607     0.00711098253061    0.0253814864354     
5900000000.0        0.0072932926305     0.0257933554101     0.976085504335      -0.206342070413     0.976085504335      -0.206342070413     0.0072932926305     0.0257933554101     
6000000000.0        0.00747855757335    0.0262039842309     0.975332912503      -0.209797812501     0.975332912503      -0.209797812501     0.00747855757335    0.0262039842309     
6100000000.0        0.00766677067627    0.0266133558981     0.974567783924      -0.213251314257     0.974567783924      -0.213251314257     0.00766677067627    0.0266133558981     
6200000000.0        0.0078579251622     0.0270214534864     0.973790122767      -0.216702532003     0.973790122767      -0.216702532003     0.0078579251622     0.0270214534864     
6300000000.0        0.00805201416124    0.0274282601437     0.972999933363      -0.220151422004     0.972999933363      -0.220151422004     0.00805201416124    0.0274282601437     
6400000000.0        0.00824903071194    0.0278337590904     0.972197220199      -0.223597940466     0.972197220199      -0.223597940466     0.00824903071194    0.0278337590904     
6500000000.0        0.00844896776252    0.0282379336185     0.971381987927      -0.227042043538     0.971381987927      -0.227042043538     0.00844896776252    0.0282379336185     
6600000000.0        0.00865181817203    0.0286407670907     0.970554241354      -0.230483687317     0.970554241354      -0.230483687317     0.00865181817203    0.0286407670907     
6700000000.0        0.00885757471139    0.0290422429397     0.969713985452      -0.233922827847     0.969713985452      -0.233922827847     0.00885757471139    0.0290422429397     
6800000000.0        0.00906623006442    0.0294423446674     0.96886122535       -0.237359421123     0.96886122535       -0.237359421123     0.00906623006442    0.0294423446674     
6900000000.0        0.00927777682883    0.0298410558438     0.967995966338      -0.240793423091     0.967995966338      -0.240793423091     0.00927777682883    0.0298410558438     
7000000000.0        0.00949220751709    0.030238360107      0.967118213865      -0.244224789653     0.967118213865      -0.244224789653     0.00949220751709    0.030238360107      
7100000000.0        0.00970951455733    0.0306342411616     0.966227973541      -0.247653476664     0.966227973541      -0.247653476664     0.00970951455733    0.0306342411616     
7200000000.0        0.00992969029414    0.0310286827787     0.965325251137      -0.251079439937     0.965325251137      -0.251079439937     0.00992969029414    0.0310286827787     
7300000000.0        0.0101527269894     0.0314216687947     0.964410052583      -0.254502635246     0.964410052583      -0.254502635246     0.0101527269894     0.0314216687947     
7400000000.0        0.0103786168228     0.0318131831111     0.96348238397       -0.257923018322     0.96348238397       -0.257923018322     0.0103786168228     0.0318131831111     
7500000000.0        0.010607351893      0.0322032096935     0.962542251549      -0.261340544861     0.962542251549      -0.261340544861     0.010607351893      0.0322032096935     
7600000000.0        0.0108389242176     0.0325917325711     0.961589661733      -0.264755170522     0.961589661733      -0.264755170522     0.0108389242176     0.0325917325711     
7700000000.0        0.0110733257347     0.0329787358362     0.960624621094      -0.268166850928     0.960624621094      -0.268166850928     0.0110733257347     0.0329787358362     
7800000000.0        0.0113105483024     0.0333642036434     0.959647136366      -0.271575541671     0.959647136366      -0.271575541671     0.0113105483024     0.0333642036434     
7900000000.0        0.0115505837004     0.0337481202093     0.958657214444      -0.27498119831      0.958657214444      -0.27498119831      0.0115505837004     0.0337481202093     
8000000000.0        0.0117934236297     0.0341304698116     0.957654862385      -0.278383776373     0.957654862385      -0.278383776373     0.0117934236297     0.0341304698116     
8100000000.0        0.0120390597138     0.034511236789      0.956640087405      -0.28178323136      0.956640087405      -0.28178323136      0.0120390597138     0.034511236789      
8200000000.0        0.0122874834988     0.0348904055401     0.955612896885      -0.285179518744     0.955612896885      -0.285179518744     0.0122874834988     0.0348904055401     
8300000000.0        0.0125386864539     0.0352679605234     0.954573298366      -0.28857259397      0.954573298366      -0.28857259397      0.0125386864539     0.0352679605234     
8400000000.0        0.0127926599717     0.0356438862568     0.95352129955       -0.291962412458     0.95352129955       -0.291962412458     0.0127926599717     0.0356438862568     
8500000000.0        0.0130493953692     0.0360181673167     0.952456908303      -0.295348929607     0.952456908303      -0.295348929607     0.0130493953692     0.0360181673167     
8600000000.0        0.0133088838876     0.0363907883379     0.951380132653      -0.298732100792     0.951380132653      -0.298732100792     0.0133088838876     0.0363907883379     
8700000000.0        0.0135711166927     0.036761734013      0.950290980791      -0.302111881366     0.950290980791      -0.302111881366     0.0135711166927     0.036761734013      
8800000000.0        0.0138360848758     0.0371309890921     0.949189461068      -0.305488226663     0.949189461068      -0.305488226663     0.0138360848758     0.0371309890921     
8900000000.0        0.0141037794534     0.0374985383822     0.948075582002      -0.308861091999     0.948075582002      -0.308861091999     0.0141037794534     0.0374985383822     
9000000000.0        0.0143741913678     0.0378643667469     0.946949352272      -0.312230432672     0.946949352272      -0.312230432672     0.0143741913678     0.0378643667469     
9100000000.0        0.0146473114875     0.038228459106      0.945810780721      -0.315596203962     0.945810780721      -0.315596203962     0.0146473114875     0.038228459106      
9200000000.0        0.0149231306075     0.0385908004352     0.944659876354      -0.318958361137     0.944659876354      -0.318958361137     0.0149231306075     0.0385908004352     
9300000000.0        0.0152016394492     0.0389513757655     0.943496648343      -0.322316859448     0.943496648343      -0.322316859448     0.0152016394492     0.0389513757655     
9400000000.0        0.015482828661      0.039310170183      0.942321106022      -0.325671654135     0.942321106022      -0.325671654135     0.015482828661      0.039310170183      
9500000000.0        0.0157666888186     0.0396671688286     0.941133258889      -0.329022700425     0.941133258889      -0.329022700425     0.0157666888186     0.0396671688286     
9600000000.0        0.0160532104249     0.0400223568977     0.939933116607      -0.332369953535     0.939933116607      -0.332369953535     0.0160532104249     0.0400223568977     
9700000000.0        0.0163423839105     0.0403757196396     0.938720689004      -0.335713368673     0.938720689004      -0.335713368673     0.0163423839105     0.0403757196396     
9800000000.0        0.0166341996337     0.0407272423574     0.937495986072      -0.339052901037     0.937495986072      -0.339052901037     0.0166341996337     0.0407272423574     
9900000000.0        0.0169286478809     0.0410769104077     0.93625901797       -0.342388505817     0.93625901797       -0.342388505817     0.0169286478809     0.0410769104077     
10000000000.0       0.0172257188667     0.0414247092004     0.935009795019      -0.345720138199     0.935009795019      -0.345720138199     0.0172257188667     0.0414247092004     
