# Hz S RI R 50.00 
100000000.0         0.00178783767786    0.000573901779231   0.998210573229      -0.00107472484694   0.998210573229      -0.00107472484694   0.00178783767786    0.000573901779231   
200000000.0         0.00180134800211    0.00114776270711    0.998196222826      -0.00214941289177   0.998196222826      -0.00214941289177   0.00180134800211    0.00114776270711    
300000000.0         0.00181293396648    0.00172159606788    0.998183545782      -0.0032240797429    0.998183545782      -0.0032240797429    0.00181293396648    0.00172159606788    
400000000.0         0.00182414715559    0.00229540476913    0.998170990495      -0.00429873010204   0.998170990495      -0.00429873010204   0.00182414715559    0.00229540476913    
500000000.0         0.00183558531737    0.0028691892887     0.998157959197      -0.00537336597365   0.998157959197      -0.00537336597365   0.00183558531737    0.0028691892887     
600000000.0         0.0018475533873     0.0034429490247     0.99814414693       -0.00644798810721   0.99814414693       -0.00644798810721   0.0018475533873     0.0034429490247     
700000000.0         0.00186023154152    0.00401668278228    0.998129373493      -0.00752259653135   0.998129373493      -0.00752259653135   0.00186023154152    0.00401668278228    
800000000.0         0.00187373653432    0.00459038900045    0.998113522105      -0.00859719080853   0.998113522105      -0.00859719080853   0.00187373653432    0.00459038900045    
900000000.0         0.00188814901041    0.00516406587408    0.998096512093      -0.00967177017589   0.998096512093      -0.00967177017589   0.00188814901041    0.00516406587408    
1000000000.0        0.0019035273494     0.00573771142635    0.998078285046      -0.0107463336308    0.998078285046      -0.0107463336308    0.0019035273494     0.00573771142635    
1100000000.0        0.00191991536216    0.00631132355499    0.998058797122      -0.0118208799869    0.998058797122      -0.0118208799869    0.00191991536216    0.00631132355499    
1200000000.0        0.00193734687699    0.00688490006316    0.998038014458      -0.012895407912     0.998038014458      -0.012895407912     0.00193734687699    0.00688490006316    
1300000000.0        0.00195584862507    0.00745843868113    0.998015910288      -0.013969915956     0.998015910288      -0.013969915956     0.00195584862507    0.00745843868113    
1400000000.0        0.00197544213711    0.00803193708193    0.997992463044      -0.015044402571     0.997992463044      -0.015044402571     0.00197544213711    0.00803193708193    
1500000000.0        0.00199614503579    0.00860539289291    0.997967655065      -0.0161188661271    0.997967655065      -0.0161188661271    0.00199614503579    0.00860539289291    
1600000000.0        0.00201797194352    0.00917880370466    0.997941471689      -0.017193304924     0.997941471689      -0.017193304924     0.00201797194352    0.00917880370466    
1700000000.0        0.00204093513649    0.00975216707781    0.997913900599      -0.0182677172007    0.997913900599      -0.0182677172007    0.00204093513649    0.00975216707781    
1800000000.0        0.00206504502678    0.0103254805484     0.99788493134       -0.0193421011436    0.99788493134       -0.0193421011436    0.00206504502678    0.0103254805484     
1900000000.0        0.00209031052432    0.0108987416322     0.997854554959      -0.0204164548924    0.997854554959      -0.0204164548924    0.00209031052432    0.0108987416322     
2000000000.0        0.00211673931353    0.0114719478283     0.997822763728      -0.0214907765456    0.997822763728      -0.0214907765456    0.00211673931353    0.0114719478283     
2100000000.0        0.0021443380679     0.0120450966218     0.997789550926      -0.0225650641649    0.997789550926      -0.0225650641649    0.0021443380679     0.0120450966218     
2200000000.0        0.00217311261862    0.0126181854863     0.997754910676      -0.0236393157787    0.997754910676      -0.0236393157787    0.00217311261862    0.0126181854863     
2300000000.0        0.0022030680888     0.0131912118859     0.997718837807      -0.0247135293858    0.997718837807      -0.0247135293858    0.0022030680888     0.0131912118859     
2400000000.0        0.00223420900136    0.0137641732767     0.997681327746      -0.0257877029575    0.997681327746      -0.0257877029575    0.00223420900136    0.0137641732767     
2500000000.0        0.00226653936679    0.0143370671082     0.997642376435      -0.0268618344408    0.997642376435      -0.0268618344408    0.00226653936679    0.0143370671082     
2600000000.0        0.00230006275494    0.0149098908249     0.997601980251      -0.0279359217597    0.997601980251      -0.0279359217597    0.00230006275494    0.0149098908249     
2700000000.0        0.00233478235449    0.0154826418668     0.997560135956      -0.0290099628176    0.997560135956      -0.0290099628176    0.00233478235449    0.0154826418668     
2800000000.0        0.00237070102238    0.0160553176706     0.997516840638      -0.0300839554988    0.997516840638      -0.0300839554988    0.00237070102238    0.0160553176706     
2900000000.0        0.00240782132531    0.0166279156702     0.997472091678      -0.0311578976699    0.997472091678      -0.0311578976699    0.00240782132531    0.0166279156702     
3000000000.0        0.00244614557474    0.0172004332978     0.997425886711      -0.0322317871811    0.997425886711      -0.0322317871811    0.00244614557474    0.0172004332978     
3100000000.0        0.00248567585667    0.0177728679841     0.997378223595      -0.0333056218674    0.997378223595      -0.0333056218674    0.00248567585667    0.0177728679841     
3200000000.0        0.00252641405697    0.0183452171588     0.997329100388      -0.0343793995498    0.997329100388      -0.0343793995498    0.00252641405697    0.0183452171588     
3300000000.0        0.0025683618832     0.0189174782514     0.997278515327      -0.0354531180361    0.997278515327      -0.0354531180361    0.0025683618832     0.0189174782514     
3400000000.0        0.00261152088343    0.0194896486914     0.997226466805      -0.0365267751216    0.997226466805      -0.0365267751216    0.00261152088343    0.0194896486914     
3500000000.0        0.0026558924625     0.0200617259084     0.99717295336       -0.0376003685905    0.99717295336       -0.0376003685905    0.0026558924625     0.0200617259084     
3600000000.0        0.00270147789619    0.0206337073328     0.997117973658      -0.0386738962157    0.997117973658      -0.0386738962157    0.00270147789619    0.0206337073328     
3700000000.0        0.00274827834364    0.0212055903959     0.99706152648       -0.0397473557605    0.99706152648       -0.0397473557605    0.00274827834364    0.0212055903959     
3800000000.0        0.00279629485817    0.0217773725302     0.997003610712      -0.0408207449784    0.997003610712      -0.0408207449784    0.00279629485817    0.0217773725302     
3900000000.0        0.00284552839687    0.0223490511695     0.996944225337      -0.041894061614     0.996944225337      -0.041894061614     0.00284552839687    0.0223490511695     
4000000000.0        0.00289597982905    0.0229206237493     0.996883369424      -0.0429673034037    0.996883369424      -0.0429673034037    0.00289597982905    0.0229206237493     
4100000000.0        0.0029476499437     0.0234920877066     0.996821042122      -0.0440404680758    0.996821042122      -0.0440404680758    0.0029476499437     0.0234920877066     
4200000000.0        0.00300053945615    0.0240634404807     0.996757242654      -0.0451135533511    0.996757242654      -0.0451135533511    0.00300053945615    0.0240634404807     
4300000000.0        0.003054649014      0.0246346795127     0.996691970308      -0.0461865569434    0.996691970308      -0.0461865569434    0.003054649014      0.0246346795127     
4400000000.0        0.00310997920242    0.025205802246      0.996625224437      -0.04725947656      0.996625224437      -0.04725947656      0.00310997920242    0.025205802246      
4500000000.0        0.00316653054891    0.0257768061262     0.996557004448      -0.0483323099017    0.996557004448      -0.0483323099017    0.00316653054891    0.0257768061262     
4600000000.0        0.00322430352753    0.0263476886014     0.996487309803      -0.0494050546635    0.996487309803      -0.0494050546635    0.00322430352753    0.0263476886014     
4700000000.0        0.0032832985628     0.0269184471222     0.996416140012      -0.0504777085345    0.996416140012      -0.0504777085345    0.0032832985628     0.0269184471222     
4800000000.0        0.0033435160331     0.0274890791417     0.996343494631      -0.0515502691988    0.996343494631      -0.0515502691988    0.0033435160331     0.0274890791417     
4900000000.0        0.00340495627388    0.0280595821157     0.996269373259      -0.0526227343354    0.996269373259      -0.0526227343354    0.00340495627388    0.0280595821157     
5000000000.0        0.00346761958043    0.0286299535028     0.996193775534      -0.0536951016182    0.996193775534      -0.0536951016182    0.00346761958043    0.0286299535028     
5100000000.0        0.00353150621054    0.0292001907644     0.996116701131      -0.054767368717     0.996116701131      -0.054767368717     0.00353150621054    0.0292001907644     
5200000000.0        0.00359661638679    0.0297702913647     0.996038149761      -0.055839533297     0.996038149761      -0.055839533297     0.00359661638679    0.0297702913647     
5300000000.0        0.00366295029872    0.0303402527707     0.995958121165      -0.0569115930195    0.995958121165      -0.0569115930195    0.00366295029872    0.0303402527707     
5400000000.0        0.00373050810482    0.0309100724526     0.995876615117      -0.0579835455419    0.995876615117      -0.0579835455419    0.00373050810482    0.0309100724526     
5500000000.0        0.00379928993424    0.0314797478833     0.995793631421      -0.0590553885179    0.995793631421      -0.0590553885179    0.00379928993424    0.0314797478833     
5600000000.0        0.00386929588853    0.032049276539      0.995709169904      -0.0601271195978    0.995709169904      -0.0601271195978    0.00386929588853    0.032049276539      
5700000000.0        0.00394052604309    0.0326186558987     0.995623230422      -0.0611987364285    0.995623230422      -0.0611987364285    0.00394052604309    0.0326186558987     
5800000000.0        0.00401298044854    0.0331878834447     0.995535812856      -0.0622702366541    0.995535812856      -0.0622702366541    0.00401298044854    0.0331878834447     
5900000000.0        0.00408665913208    0.0337569566624     0.995446917107      -0.0633416179153    0.995446917107      -0.0633416179153    0.00408665913208    0.0337569566624     
6000000000.0        0.00416156209858    0.0343258730402     0.995356543102      -0.0644128778505    0.995356543102      -0.0644128778505    0.00416156209859    0.0343258730402     
6100000000.0        0.00423768933172    0.0348946300698     0.995264690784      -0.0654840140949    0.995264690784      -0.0654840140949    0.00423768933172    0.0348946300698     
6200000000.0        0.00431504079496    0.035463225246      0.99517136012       -0.0665550242818    0.99517136012       -0.0665550242818    0.00431504079496    0.035463225246      
6300000000.0        0.00439361643252    0.0360316560669     0.995076551095      -0.0676259060418    0.995076551095      -0.0676259060418    0.00439361643252    0.0360316560669     
6400000000.0        0.00447341617019    0.0365999200337     0.994980263711      -0.0686966570032    0.994980263711      -0.0686966570032    0.00447341617019    0.0365999200337     
6500000000.0        0.00455443991617    0.0371680146509     0.994882497988      -0.0697672747924    0.994882497988      -0.0697672747924    0.00455443991617    0.0371680146509     
6600000000.0        0.00463668756181    0.0377359374263     0.994783253962      -0.0708377570338    0.994783253962      -0.0708377570338    0.00463668756181    0.0377359374263     
6700000000.0        0.00472015898226    0.0383036858708     0.994682531687      -0.0719081013498    0.994682531687      -0.0719081013498    0.00472015898226    0.0383036858708     
6800000000.0        0.0048048540372     0.0388712574988     0.994580331229      -0.0729783053611    0.994580331229      -0.0729783053611    0.0048048540372     0.0388712574988     
6900000000.0        0.00489077257135    0.0394386498276     0.994476652671      -0.0740483666867    0.994476652671      -0.0740483666867    0.00489077257135    0.0394386498276     
7000000000.0        0.00497791441511    0.0400058603782     0.99437149611       -0.0751182829442    0.99437149611       -0.0751182829442    0.00497791441511    0.0400058603782     
7100000000.0        0.00506627938503    0.0405728866746     0.994264861656      -0.0761880517496    0.994264861656      -0.0761880517496    0.00506627938503    0.0405728866746     
7200000000.0        0.00515586728433    0.0411397262443     0.994156749432      -0.0772576707175    0.994156749432      -0.0772576707175    0.00515586728433    0.0411397262443     
7300000000.0        0.00524667790335    0.0417063766178     0.994047159573      -0.0783271374613    0.994047159573      -0.0783271374613    0.00524667790335    0.0417063766178     
7400000000.0        0.00533871102       0.0422728353291     0.993936092229      -0.0793964495932    0.993936092229      -0.0793964495932    0.00533871102       0.0422728353291     
7500000000.0        0.00543196640013    0.0428390999156     0.993823547559      -0.0804656047243    0.993823547559      -0.0804656047243    0.00543196640013    0.0428390999156     
7600000000.0        0.00552644379794    0.0434051679178     0.993709525734      -0.0815346004647    0.993709525734      -0.0815346004647    0.00552644379794    0.0434051679178     
7700000000.0        0.00562214295633    0.0439710368795     0.993594026937      -0.0826034344234    0.993594026937      -0.0826034344234    0.00562214295633    0.0439710368795     
7800000000.0        0.00571906360723    0.0445367043479     0.993477051362      -0.0836721042087    0.993477051362      -0.0836721042087    0.00571906360723    0.0445367043479     
7900000000.0        0.00581720547192    0.0451021678736     0.993358599212      -0.0847406074281    0.993358599212      -0.0847406074281    0.00581720547192    0.0451021678736     
8000000000.0        0.00591656826133    0.0456674250102     0.993238670701      -0.0858089416881    0.993238670701      -0.0858089416881    0.00591656826133    0.0456674250102     
8100000000.0        0.00601715167634    0.0462324733148     0.993117266054      -0.0868771045949    0.993117266054      -0.0868771045949    0.00601715167634    0.0462324733148     
8200000000.0        0.00611895540798    0.0467973103479     0.992994385504      -0.0879450937539    0.992994385504      -0.0879450937539    0.00611895540798    0.0467973103479     
8300000000.0        0.00622197913779    0.047361933673      0.992870029294      -0.0890129067699    0.992870029294      -0.0890129067699    0.00622197913779    0.047361933673      
8400000000.0        0.00632622253793    0.0479263408572     0.992744197676      -0.0900805412473    0.992744197676      -0.0900805412473    0.00632622253793    0.0479263408572     
8500000000.0        0.00643168527152    0.0484905294706     0.992616890912      -0.0911479947902    0.992616890912      -0.0911479947902    0.00643168527152    0.0484905294706     
8600000000.0        0.00653836699277    0.0490544970868     0.992488109271      -0.0922152650021    0.992488109271      -0.0922152650021    0.00653836699277    0.0490544970868     
8700000000.0        0.00664626734724    0.0496182412827     0.992357853032      -0.0932823494864    0.992357853032      -0.0932823494864    0.00664626734724    0.0496182412827     
8800000000.0        0.00675538597198    0.0501817596383     0.992226122482      -0.094349245846     0.992226122482      -0.094349245846     0.00675538597198    0.0501817596383     
8900000000.0        0.00686572249575    0.050745049737      0.992092917917      -0.0954159516839    0.992092917917      -0.0954159516839    0.00686572249575    0.050745049737      
9000000000.0        0.00697727653918    0.0513081091655     0.991958239639      -0.0964824646027    0.991958239639      -0.0964824646027    0.00697727653918    0.0513081091655     
9100000000.0        0.00709004771493    0.0518709355136     0.991822087959      -0.097548782205     0.991822087959      -0.097548782205     0.00709004771493    0.0518709355136     
9200000000.0        0.00720403562783    0.0524335263746     0.991684463196      -0.0986149020933    0.991684463196      -0.0986149020933    0.00720403562783    0.0524335263746     
9300000000.0        0.00731923987507    0.0529958793449     0.991545365677      -0.0996808218701    0.991545365677      -0.0996808218701    0.00731923987507    0.0529958793449     
9400000000.0        0.00743566004632    0.0535579920241     0.991404795735      -0.100746539138     0.991404795735      -0.100746539138     0.00743566004632    0.0535579920241     
9500000000.0        0.00755329572382    0.0541198620154     0.991262753711      -0.1018120515       0.991262753711      -0.1018120515       0.00755329572382    0.0541198620154     
9600000000.0        0.0076721464826     0.0546814869247     0.991119239955      -0.102877356557     0.991119239955      -0.102877356557     0.0076721464826     0.0546814869247     
9700000000.0        0.00779221189052    0.0552428643617     0.990974254821      -0.103942451915     0.990974254821      -0.103942451915     0.00779221189052    0.0552428643617     
9800000000.0        0.00791349150844    0.0558039919388     0.990827798671      -0.105007335174     0.990827798671      -0.105007335174     0.00791349150844    0.0558039919388     
9900000000.0        0.00803598489027    0.0563648672722     0.990679871876      -0.106072003939     0.990679871876      -0.106072003939     0.00803598489027    0.0563648672722     
10000000000.0       0.00815969158317    0.0569254879808     0.990530474811      -0.107136455813     0.990530474811      -0.107136455813     0.00815969158317    0.0569254879808     
