# Hz S RI R 50.00 
100000000.0         0.00514114077288    0.00176118864982    0.994854021759      -0.00374311629019   0.994854021759      -0.00374311629019   0.00514114077288    0.00176118864982    
200000000.0         0.00519416291906    0.00352189956856    0.994793227049      -0.00748578274013   0.994793227049      -0.00748578274013   0.00519416291906    0.00352189956856    
300000000.0         0.00525141026958    0.00528217564249    0.994724271562      -0.0112280598748    0.994724271562      -0.0112280598748    0.00525141026958    0.00528217564249    
400000000.0         0.00531732089464    0.0070419608559     0.994642716631      -0.014969905003     0.994642716631      -0.014969905003     0.00531732089464    0.0070419608559     
500000000.0         0.00539360150839    0.00880117624085    0.994546854827      -0.0187112502879    0.994546854827      -0.0187112502879    0.00539360150839    0.00880117624085    
600000000.0         0.00548111982304    0.0105597327282     0.994435817613      -0.0224520163447    0.994435817613      -0.0224520163447    0.00548111982304    0.0105597327282     
700000000.0         0.00558038559094    0.0123175357716     0.994309094309      -0.0261921172471    0.994309094309      -0.0261921172471    0.00558038559094    0.0123175357716     
800000000.0         0.00569172615904    0.0140744874971     0.994166356543      -0.0299314629062    0.994166356543      -0.0299314629062    0.00569172615904    0.0140744874971     
900000000.0         0.00581536462803    0.0158304878617     0.994007380096      -0.0336699603815    0.994007380096      -0.0336699603815    0.00581536462803    0.0158304878617     
1000000000.0        0.00595145946582    0.0175854353433     0.99383200529       -0.0374075146768    0.99383200529       -0.0374075146768    0.00595145946582    0.0175854353433     
1100000000.0        0.0061001265257     0.0193392273809     0.99364011498       -0.0411440292607    0.99364011498       -0.0411440292607    0.0061001265257     0.0193392273809     
1200000000.0        0.00626145216491    0.0210917606731     0.99343162143       -0.0448794064257    0.99343162143       -0.0448794064257    0.00626145216491    0.0210917606731     
1300000000.0        0.00643550149748    0.0228429313885     0.993206458071      -0.0486135475463    0.993206458071      -0.0486135475463    0.00643550149748    0.0228429313885     
1400000000.0        0.0066223238184     0.0245926353207     0.992964574071      -0.0523463532729    0.992964574071      -0.0523463532729    0.0066223238184     0.0245926353207     
1500000000.0        0.00682195629966    0.0263407680046     0.992705930649      -0.0560777236803    0.992705930649      -0.0560777236803    0.00682195629966    0.0263407680046     
1600000000.0        0.00703442658629    0.0280872248082     0.992430498477      -0.0598075583856    0.992430498477      -0.0598075583856    0.00703442658629    0.0280872248082     
1700000000.0        0.00725975466746    0.0298319010046     0.99213825581       -0.0635357566436    0.99213825581       -0.0635357566436    0.00725975466746    0.0298319010046     
1800000000.0        0.0074979542555     0.0315746918315     0.991829187112      -0.0672622174251    0.991829187112      -0.0672622174251    0.0074979542555     0.0315746918315     
1900000000.0        0.00774903382231    0.0333154925403     0.991503282018      -0.0709868394834    0.991503282018      -0.0709868394834    0.00774903382231    0.0333154925403     
2000000000.0        0.0080129973917     0.0350541984375     0.991160534544      -0.0747095214101    0.991160534544      -0.0747095214101    0.0080129973917     0.0350541984375     
2100000000.0        0.00828984515464    0.0367907049207     0.990800942477      -0.078430161684     0.990800942477      -0.078430161684     0.00828984515464    0.0367907049207     
2200000000.0        0.00857957395348    0.0385249075096     0.990424506885      -0.0821486587141    0.990424506885      -0.0821486587141    0.00857957395348    0.0385249075096     
2300000000.0        0.0088821776679     0.0402567018739     0.990031231739      -0.0858649108773    0.990031231739      -0.0858649108773    0.0088821776679     0.0402567018739     
2400000000.0        0.00919764752608    0.0419859838573     0.989621123599      -0.0895788165526    0.989621123599      -0.0895788165526    0.00919764752608    0.0419859838573     
2500000000.0        0.00952597235811    0.0437126495008     0.989194191364      -0.0932902741515    0.989194191364      -0.0932902741515    0.00952597235811    0.0437126495008     
2600000000.0        0.00986713880451    0.0454365950625     0.988750446063      -0.0969991821462    0.988750446063      -0.0969991821462    0.00986713880451    0.0454365950625     
2700000000.0        0.0102211314892     0.0471577170364     0.988289900682      -0.100705439096     0.988289900682      -0.100705439096     0.0102211314892     0.0471577170364     
2800000000.0        0.0105879331645     0.0488759121704     0.987812570026      -0.104408943669     0.987812570026      -0.104408943669     0.0105879331645     0.0488759121704     
2900000000.0        0.010967524833      0.0505910774823     0.987318470589      -0.108109594669     0.987318470589      -0.108109594669     0.010967524833      0.0505910774823     
3000000000.0        0.0113598858517     0.0523031102756     0.986807620458      -0.111807291051     0.986807620458      -0.111807291051     0.0113598858517     0.0523031102756     
3100000000.0        0.0117649940211     0.0540119081535     0.986280039222      -0.115501931942     0.986280039222      -0.115501931942     0.0117649940211     0.0540119081535     
3200000000.0        0.0121828256615     0.055717369034      0.985735747896      -0.119193416665     0.985735747896      -0.119193416665     0.0121828256615     0.055717369034      
3300000000.0        0.0126133556799     0.0574193911619     0.985174768856      -0.122881644749     0.985174768856      -0.122881644749     0.0126133556799     0.0574193911619     
3400000000.0        0.0130565576281     0.0591178731228     0.984597125782      -0.12656651595      0.984597125782      -0.12656651595      0.0130565576281     0.0591178731228     
3500000000.0        0.013512403754      0.0608127138547     0.984002843606      -0.130247930267     0.984002843606      -0.130247930267     0.013512403754      0.0608127138547     
3600000000.0        0.0139808650466     0.0625038126603     0.983391948467      -0.133925787955     0.983391948467      -0.133925787955     0.0139808650466     0.0625038126603     
3700000000.0        0.0144619112765     0.0641910692184     0.982764467675      -0.137599989545     0.982764467675      -0.137599989545     0.0144619112765     0.0641910692184     
3800000000.0        0.014955511032      0.0658743835951     0.982120429672      -0.141270435851     0.982120429672      -0.141270435851     0.014955511032      0.0658743835951     
3900000000.0        0.0154616317515     0.0675536562549     0.981459864001      -0.144937027991     0.981459864001      -0.144937027991     0.0154616317515     0.0675536562549     
4000000000.0        0.0159802397531     0.0692287880713     0.980782801277      -0.148599667395     0.980782801277      -0.148599667395     0.0159802397531     0.0692287880713     
4100000000.0        0.0165113002613     0.0708996803369     0.980089273163      -0.15225825582      0.980089273163      -0.15225825582      0.0165113002613     0.0708996803369     
4200000000.0        0.0170547774315     0.0725662347741     0.979379312341      -0.155912695365     0.979379312341      -0.155912695365     0.0170547774315     0.0725662347741     
4300000000.0        0.0176106343728     0.0742283535444     0.978652952496      -0.159562888478     0.978652952496      -0.159562888478     0.0176106343728     0.0742283535444     
4400000000.0        0.018178833169      0.0758859392586     0.97791022829       -0.163208737973     0.97791022829       -0.163208737973     0.018178833169      0.0758859392586     
4500000000.0        0.0187593348978     0.0775388949861     0.977151175348      -0.166850147039     0.977151175348      -0.166850147039     0.0187593348978     0.0775388949861     
4600000000.0        0.0193520996495     0.0791871242642     0.976375830236      -0.170487019249     0.976375830236      -0.170487019249     0.0193520996495     0.0791871242642     
4700000000.0        0.0199570865436     0.0808305311075     0.975584230446      -0.174119258579     0.975584230446      -0.174119258579     0.0199570865436     0.0808305311075     
4800000000.0        0.0205742537453     0.0824690200167     0.974776414381      -0.177746769408     0.974776414381      -0.177746769408     0.0205742537453     0.0824690200167     
4900000000.0        0.0212035584809     0.0841024959872     0.97395242134       -0.181369456538     0.97395242134       -0.181369456538     0.0212035584809     0.0841024959872     
5000000000.0        0.0218449570522     0.0857308645185     0.973112291502      -0.184987225199     0.973112291502      -0.184987225199     0.0218449570522     0.0857308645185     
5100000000.0        0.0224984048504     0.0873540316218     0.972256065914      -0.188599981059     0.972256065914      -0.188599981059     0.0224984048504     0.0873540316218     
5200000000.0        0.0231638563699     0.0889719038292     0.971383786478      -0.192207630238     0.971383786478      -0.192207630238     0.0231638563699     0.0889719038292     
5300000000.0        0.0238412652206     0.0905843882013     0.970495495938      -0.195810079312     0.970495495938      -0.195810079312     0.0238412652206     0.0905843882013     
5400000000.0        0.024530584141      0.0921913923356     0.969591237868      -0.199407235328     0.969591237868      -0.199407235328     0.024530584141      0.0921913923356     
5500000000.0        0.0252317650097     0.0937928243743     0.968671056661      -0.202999005808     0.968671056661      -0.202999005808     0.0252317650097     0.0937928243743     
5600000000.0        0.0259447588576     0.0953885930124     0.967734997515      -0.206585298763     0.967734997515      -0.206585298763     0.0259447588576     0.0953885930124     
5700000000.0        0.0266695158792     0.0969786075051     0.966783106425      -0.210166022698     0.966783106425      -0.210166022698     0.0266695158792     0.0969786075051     
5800000000.0        0.0274059854434     0.0985627776751     0.965815430173      -0.213741086622     0.965815430173      -0.213741086622     0.0274059854434     0.0985627776751     
5900000000.0        0.0281541161053     0.100141013921      0.96483201631       -0.217310400057     0.96483201631       -0.217310400057     0.0281541161053     0.100141013921      
6000000000.0        0.028913855616      0.101713227222      0.963832913157      -0.220873873045     0.963832913157      -0.220873873045     0.028913855616      0.101713227222      
6100000000.0        0.029685150934      0.103279329151      0.962818169783      -0.22443141616      0.962818169783      -0.22443141616      0.029685150934      0.103279329151      
6200000000.0        0.0304679482349     0.104839231872      0.961787836005      -0.22798294051      0.961787836005      -0.22798294051      0.0304679482349     0.104839231872      
6300000000.0        0.0312621929222     0.106392848157      0.960741962369      -0.231528357748     0.960741962369      -0.231528357748     0.0312621929222     0.106392848157      
6400000000.0        0.0320678296374     0.107940091387      0.959680600149      -0.235067580082     0.959680600149      -0.235067580082     0.0320678296374     0.107940091387      
6500000000.0        0.0328848022698     0.109480875559      0.958603801329      -0.238600520276     0.958603801329      -0.238600520276     0.0328848022698     0.109480875559      
6600000000.0        0.0337130539664     0.111015115294      0.957511618598      -0.242127091666     0.957511618598      -0.242127091666     0.0337130539664     0.111015115294      
6700000000.0        0.0345525271424     0.112542725844      0.956404105341      -0.245647208159     0.956404105341      -0.245647208159     0.0345525271424     0.112542725844      
6800000000.0        0.0354031634902     0.114063623095      0.955281315625      -0.249160784245     0.955281315625      -0.249160784245     0.0354031634902     0.114063623095      
6900000000.0        0.0362649039897     0.115577723576      0.954143304194      -0.252667735002     0.954143304194      -0.252667735002     0.0362649039897     0.115577723576      
7000000000.0        0.0371376889179     0.117084944466      0.952990126458      -0.256167976103     0.952990126458      -0.256167976103     0.0371376889179     0.117084944466      
7100000000.0        0.0380214578581     0.118585203595      0.951821838482      -0.259661423823     0.951821838482      -0.259661423823     0.0380214578581     0.118585203595      
7200000000.0        0.0389161497103     0.120078419456      0.950638496979      -0.263147995044     0.950638496979      -0.263147995044     0.0389161497103     0.120078419456      
7300000000.0        0.0398217027        0.121564511206      0.949440159298      -0.266627607264     0.949440159298      -0.266627607264     0.0398217027        0.121564511206      
7400000000.0        0.0407380543883     0.123043398671      0.948226883419      -0.2701001786       0.948226883419      -0.2701001786       0.0407380543883     0.123043398671      
7500000000.0        0.0416651416809     0.124515002358      0.946998727937      -0.273565627796     0.946998727937      -0.273565627796     0.0416651416809     0.124515002358      
7600000000.0        0.0426029008381     0.125979243451      0.945755752061      -0.277023874228     0.945755752061      -0.277023874228     0.0426029008381     0.125979243451      
7700000000.0        0.0435512674839     0.127436043824      0.944498015596      -0.280474837909     0.944498015596      -0.280474837909     0.0435512674839     0.127436043824      
7800000000.0        0.0445101766156     0.128885326041      0.943225578941      -0.283918439498     0.943225578941      -0.283918439498     0.0445101766156     0.128885326041      
7900000000.0        0.0454795626134     0.130327013364      0.941938503075      -0.2873546003       0.941938503075      -0.2873546003       0.0454795626134     0.130327013364      
8000000000.0        0.0464593592493     0.131761029755      0.940636849551      -0.290783242276     0.940636849551      -0.290783242276     0.0464593592493     0.131761029755      
8100000000.0        0.047449499697      0.133187299883      0.939320680483      -0.294204288044     0.939320680483      -0.294204288044     0.047449499697      0.133187299883      
8200000000.0        0.0484499165414     0.134605749128      0.937990058541      -0.297617660887     0.937990058541      -0.297617660887     0.0484499165414     0.134605749128      
8300000000.0        0.0494605417874     0.136016303583      0.936645046938      -0.301023284758     0.936645046938      -0.301023284758     0.0494605417874     0.136016303583      
8400000000.0        0.0504813068699     0.137418890063      0.935285709424      -0.304421084282     0.935285709424      -0.304421084282     0.0504813068699     0.137418890063      
8500000000.0        0.0515121426627     0.138813436103      0.933912110274      -0.307810984763     0.933912110274      -0.307810984763     0.0515121426627     0.138813436103      
8600000000.0        0.0525529794884     0.140199869969      0.932524314279      -0.311192912188     0.932524314279      -0.311192912188     0.0525529794884     0.140199869969      
8700000000.0        0.0536037471272     0.141578120656      0.931122386741      -0.314566793228     0.931122386741      -0.314566793228     0.0536037471272     0.141578120656      
8800000000.0        0.0546643748268     0.142948117893      0.929706393458      -0.317932555249     0.929706393458      -0.317932555249     0.0546643748268     0.142948117893      
8900000000.0        0.0557347913112     0.144309792151      0.928276400715      -0.321290126308     0.928276400715      -0.321290126308     0.0557347913112     0.144309792151      
9000000000.0        0.0568149247905     0.14566307464       0.926832475283      -0.324639435163     0.926832475283      -0.324639435163     0.0568149247905     0.14566307464       
9100000000.0        0.0579047029703     0.147007897318      0.925374684397      -0.327980411274     0.925374684397      -0.327980411274     0.0579047029703     0.147007897318      
9200000000.0        0.0590040530604     0.148344192889      0.923903095758      -0.331312984806     0.923903095758      -0.331312984806     0.0590040530604     0.148344192889      
9300000000.0        0.060112901785      0.149671894813      0.922417777517      -0.334637086634     0.922417777517      -0.334637086634     0.060112901785      0.149671894813      
9400000000.0        0.0612311753913     0.1509909373        0.92091879827       -0.337952648347     0.92091879827       -0.337952648347     0.0612311753913     0.1509909373        
9500000000.0        0.0623587996592     0.152301255322      0.919406227044      -0.341259602249     0.919406227044      -0.341259602249     0.0623587996592     0.152301255322      
9600000000.0        0.0634956999106     0.15360278461       0.917880133293      -0.344557881361     0.917880133293      -0.344557881361     0.0634956999106     0.15360278461       
9700000000.0        0.0646418010185     0.154895461659      0.916340586885      -0.34784741943      0.916340586885      -0.34784741943      0.0646418010185     0.154895461659      
9800000000.0        0.0657970274164     0.156179223729      0.914787658095      -0.351128150924     0.914787658095      -0.351128150924     0.0657970274164     0.156179223729      
9900000000.0        0.0669613031076     0.15745400885       0.913221417595      -0.35440001104      0.913221417595      -0.35440001104      0.0669613031076     0.15745400885       
10000000000.0       0.0681345516743     0.158719755819      0.911641936442      -0.357662935704     0.911641936442      -0.357662935704     0.0681345516743     0.158719755819      
