# Hz S RI R 50.00 
100000000.0         0.00322040737846    0.00108838121797    0.996777412645      -0.00195126846804   0.996777412645      -0.00195126846804   0.00322040737846    0.00108838121797    
200000000.0         0.00324776396627    0.00217661838497    0.996748130652      -0.00390240553698   0.996748130652      -0.00390240553698   0.00324776396627    0.00217661838497    
300000000.0         0.00327369894776    0.00326474689024    0.996719524762      -0.00585345385536   0.996719524762      -0.00585345385536   0.00327369894776    0.00326474689024    
400000000.0         0.00330100222169    0.00435276760437    0.996688804984      -0.00780441989789   0.996688804984      -0.00780441989789   0.00330100222169    0.00435276760437    
500000000.0         0.00333074847739    0.0054406733092     0.996654896524      -0.00975530120958   0.996654896524      -0.00975530120958   0.00333074847739    0.0054406733092     
600000000.0         0.00336348580528    0.00652845319468    0.99661725117       -0.0117060911896    0.99661725117       -0.0117060911896    0.00336348580527    0.00652845319468    
700000000.0         0.00339953788459    0.00761609448253    0.99657554511       -0.0136567808616    0.99657554511       -0.0136567808616    0.00339953788459    0.00761609448253    
800000000.0         0.00343911428056    0.00870358318277    0.996529568635      -0.0156073597182    0.996529568635      -0.0156073597182    0.00343911428056    0.00870358318277    
900000000.0         0.00348235955735    0.00979090450165    0.996479177024      -0.0175578161877    0.996479177024      -0.0175578161877    0.00348235955735    0.00979090450165    
1000000000.0        0.00352937817351    0.0108780430841     0.996424265652      -0.019508137917     0.996424265652      -0.019508137917     0.0035293781735     0.0108780430841     
1100000000.0        0.00358024832157    0.0119649831683     0.996364756151      -0.0214583119571    0.996364756151      -0.0214583119571    0.00358024832157    0.0119649831683     
1200000000.0        0.00363503017498    0.013051708689      0.996300588161      -0.0234083248901    0.996300588161      -0.0234083248901    0.00363503017498    0.013051708689      
1300000000.0        0.00369377107665    0.0141382033508     0.996231714146      -0.0253581629201    0.996231714146      -0.0253581629201    0.00369377107665    0.0141382033508     
1400000000.0        0.0037565089495     0.0152244506799     0.996158095979      -0.0273078119406    0.996158095979      -0.0273078119406    0.0037565089495     0.0152244506799     
1500000000.0        0.00382327462046    0.016310434064      0.996079702623      -0.0292572575864    0.996079702623      -0.0292572575864    0.00382327462046    0.016310434064      
1600000000.0        0.00389409345274    0.0173961367814     0.995996508495      -0.0312064852729    0.995996508495      -0.0312064852729    0.00389409345274    0.0173961367814     
1700000000.0        0.00396898652207    0.0184815420247     0.995908492294      -0.0331554802287    0.995908492294      -0.0331554802287    0.00396898652207    0.0184815420247     
1800000000.0        0.00404797148342    0.0195666329186     0.995815636131      -0.035104227521     0.995815636131      -0.035104227521     0.00404797148342    0.0195666329186     
1900000000.0        0.00413106322206    0.0206513925347     0.99571792488       -0.0370527120769    0.99571792488       -0.0370527120769    0.00413106322206    0.0206513925347     
2000000000.0        0.00421827435098    0.0217358039037     0.995615345682      -0.0390009187007    0.995615345682      -0.0390009187007    0.00421827435098    0.0217358039037     
2100000000.0        0.00430961559677    0.0228198500247     0.995507887557      -0.0409488320893    0.995507887557      -0.0409488320893    0.00430961559677    0.0228198500247     
2200000000.0        0.00440509610295    0.0239035138737     0.995395541102      -0.0428964368443    0.995395541102      -0.0428964368443    0.00440509610295    0.0239035138737     
2300000000.0        0.00450472367134    0.0249867784104     0.99527829825       -0.0448437174831    0.99527829825       -0.0448437174831    0.00450472367134    0.0249867784104     
2400000000.0        0.00460850495625    0.0260696265838     0.995156152076      -0.0467906584482    0.995156152076      -0.0467906584482    0.00460850495625    0.0260696265838     
2500000000.0        0.00471644562225    0.0271520413371     0.995029096639      -0.0487372441154    0.995029096639      -0.0487372441154    0.00471644562225    0.0271520413371     
2600000000.0        0.00482855047352    0.0282340056122     0.994897126853      -0.050683458801     0.994897126853      -0.050683458801     0.00482855047352    0.0282340056122     
2700000000.0        0.00494482356077    0.0293155023534     0.994760238381      -0.0526292867684    0.994760238381      -0.0526292867684    0.00494482356077    0.0293155023534     
2800000000.0        0.00506526827031    0.0303965145101     0.994618427544      -0.0545747122333    0.994618427544      -0.0545747122333    0.00506526827031    0.0303965145101     
2900000000.0        0.00518988739883    0.0314770250401     0.994471691249      -0.0565197193692    0.994471691249      -0.0565197193692    0.00518988739883    0.0314770250401     
3000000000.0        0.00531868321645    0.0325570169119     0.994320026924      -0.058464292312     0.994320026924      -0.058464292312     0.00531868321645    0.0325570169119     
3100000000.0        0.00545165752036    0.0336364731069     0.994163432468      -0.0604084151636    0.994163432468      -0.0604084151636    0.00545165752036    0.0336364731069     
3200000000.0        0.00558881168064    0.0347153766212     0.994001906199      -0.0623520719964    0.994001906199      -0.0623520719964    0.00558881168064    0.0347153766212     
3300000000.0        0.00573014667958    0.0357937104677     0.993835446821      -0.0642952468564    0.993835446821      -0.0642952468564    0.00573014667958    0.0357937104677     
3400000000.0        0.00587566314569    0.0368714576773     0.993664053387      -0.066237923766     0.993664053387      -0.066237923766     0.00587566314569    0.0368714576773     
3500000000.0        0.00602536138311    0.0379486013005     0.993487725271      -0.0681800867276    0.993487725271      -0.0681800867276    0.00602536138311    0.0379486013005     
3600000000.0        0.00617924139731    0.0390251244086     0.993306462141      -0.0701217197256    0.993306462141      -0.0701217197256    0.00617924139731    0.0390251244086     
3700000000.0        0.00633730291752    0.0401010100949     0.993120263939      -0.0720628067294    0.993120263939      -0.0720628067294    0.00633730291752    0.0401010100949     
3800000000.0        0.00649954541647    0.0411762414761     0.992929130857      -0.0740033316953    0.992929130857      -0.0740033316953    0.00649954541647    0.0411762414761     
3900000000.0        0.00666596812775    0.0422508016924     0.992733063325      -0.0759432785689    0.992733063325      -0.0759432785689    0.00666596812775    0.0422508016924     
4000000000.0        0.00683657006117    0.0433246739096     0.992532061994      -0.077882631287     0.992532061994      -0.077882631287     0.00683657006117    0.0433246739096     
4100000000.0        0.00701135001646    0.0443978413189     0.99232612772       -0.0798213737793    0.99232612772       -0.0798213737793    0.00701135001646    0.0443978413189     
4200000000.0        0.0071903065954     0.0454702871383     0.992115261555      -0.0817594899705    0.992115261555      -0.0817594899705    0.0071903065954     0.0454702871383     
4300000000.0        0.00737343821265    0.046541994613      0.991899464734      -0.0836969637817    0.991899464734      -0.0836969637817    0.00737343821265    0.046541994613      
4400000000.0        0.00756074310555    0.0476129470163     0.991678738667      -0.085633779132     0.991678738667      -0.085633779132     0.00756074310555    0.0476129470163     
4500000000.0        0.00775221934279    0.0486831276501     0.99145308493       -0.0875699199402    0.99145308493       -0.0875699199402    0.00775221934279    0.0486831276501     
4600000000.0        0.00794786483235    0.0497525198456     0.991222505256      -0.0895053701257    0.991222505256      -0.0895053701257    0.00794786483235    0.0497525198456     
4700000000.0        0.00814767732859    0.0508211069636     0.99098700153       -0.0914401136103    0.99098700153       -0.0914401136103    0.00814767732859    0.0508211069636     
4800000000.0        0.00835165443871    0.0518888723956     0.990746575782      -0.0933741343194    0.990746575782      -0.0933741343194    0.00835165443871    0.0518888723956     
4900000000.0        0.00855979362861    0.0529557995635     0.990501230178      -0.0953074161827    0.990501230178      -0.0953074161827    0.00855979362861    0.0529557995635     
5000000000.0        0.00877209222821    0.0540218719208     0.99025096702       -0.097239943136     0.99025096702       -0.097239943136     0.00877209222821    0.0540218719208     
5100000000.0        0.00898854743631    0.0550870729529     0.989995788739      -0.0991716991221    0.989995788739      -0.0991716991221    0.00898854743631    0.0550870729529     
5200000000.0        0.00920915632508    0.056151386177      0.989735697889      -0.101102668092     0.989735697889      -0.101102668092     0.00920915632508    0.056151386177      
5300000000.0        0.00943391584411    0.0572147951432     0.989470697145      -0.103032834004     0.989470697145      -0.103032834004     0.00943391584411    0.0572147951432     
5400000000.0        0.00966282282415    0.0582772834348     0.989200789297      -0.104962180829     0.989200789297      -0.104962180829     0.00966282282415    0.0582772834348     
5500000000.0        0.00989587398056    0.0593388346681     0.988925977252      -0.106890692546     0.988925977252      -0.106890692546     0.00989587398056    0.0593388346681     
5600000000.0        0.0101330659165     0.0603994324936     0.988646264023      -0.108818353149     0.988646264023      -0.108818353149     0.0101330659165     0.0603994324936     
5700000000.0        0.010374395126      0.0614590605958     0.988361652734      -0.110745146641     0.988361652734      -0.110745146641     0.010374395126      0.0614590605958     
5800000000.0        0.0106198579963     0.0625177026936     0.988072146611      -0.11267105704      0.988072146611      -0.11267105704      0.0106198579963     0.0625177026936     
5900000000.0        0.0108694508108     0.063575342541      0.987777748983      -0.11459606838      0.987777748983      -0.11459606838      0.0108694508108     0.063575342541      
6000000000.0        0.0111231697514     0.0646319639269     0.987478463279      -0.116520164707     0.987478463279      -0.116520164707     0.0111231697514     0.0646319639269     
6100000000.0        0.0113810109002     0.0656875506759     0.987174293026      -0.118443330084     0.987174293026      -0.118443330084     0.0113810109002     0.0656875506759     
6200000000.0        0.0116429702422     0.0667420866483     0.986865241847      -0.120365548591     0.986865241847      -0.120365548591     0.0116429702422     0.0667420866483     
6300000000.0        0.0119090436667     0.0677955557406     0.986551313458      -0.122286804324     0.986551313458      -0.122286804324     0.0119090436667     0.0677955557406     
6400000000.0        0.0121792269693     0.0688479418856     0.986232511668      -0.124207081398     0.986232511668      -0.124207081398     0.0121792269693     0.0688479418856     
6500000000.0        0.0124535158537     0.0698992290528     0.985908840375      -0.126126363946     0.985908840375      -0.126126363946     0.0124535158537     0.0698992290528     
6600000000.0        0.012731905933      0.0709494012488     0.985580303569      -0.128044636119     0.985580303569      -0.128044636119     0.012731905933      0.0709494012488     
6700000000.0        0.0130143927315     0.0719984425173     0.985246905325      -0.12996188209      0.985246905325      -0.12996188209      0.0130143927315     0.0719984425173     
6800000000.0        0.0133009716857     0.0730463369396     0.984908649805      -0.131878086051     0.984908649805      -0.131878086051     0.0133009716857     0.0730463369396     
6900000000.0        0.0135916381462     0.0740930686347     0.984565541256      -0.133793232214     0.984565541256      -0.133793232214     0.0135916381462     0.0740930686347     
7000000000.0        0.0138863873784     0.0751386217598     0.98421758401       -0.135707304815     0.98421758401       -0.135707304815     0.0138863873784     0.0751386217598     
7100000000.0        0.0141852145639     0.0761829805103     0.98386478248       -0.137620288109     0.98386478248       -0.137620288109     0.0141852145639     0.0761829805103     
7200000000.0        0.0144881148017     0.0772261291202     0.98350714116       -0.139532166377     0.98350714116       -0.139532166377     0.0144881148017     0.0772261291202     
7300000000.0        0.0147950831092     0.0782680518623     0.983144664627      -0.14144292392      0.983144664627      -0.14144292392      0.0147950831092     0.0782680518623     
7400000000.0        0.0151061144234     0.0793087330483     0.982777357536      -0.143352545065     0.982777357536      -0.143352545065     0.0151061144234     0.0793087330483     
7500000000.0        0.0154212036015     0.0803481570294     0.98240522462       -0.145261014162     0.98240522462       -0.145261014162     0.0154212036015     0.0803481570294     
7600000000.0        0.0157403454221     0.0813863081962     0.982028270691      -0.147168315586     0.982028270691      -0.147168315586     0.0157403454221     0.0813863081962     
7700000000.0        0.0160635345861     0.0824231709792     0.981646500638      -0.149074433737     0.981646500638      -0.149074433737     0.0160635345861     0.0824231709792     
7800000000.0        0.0163907657176     0.0834587298487     0.981259919425      -0.150979353041     0.981259919425      -0.150979353041     0.0163907657176     0.0834587298487     
7900000000.0        0.0167220333644     0.0844929693154     0.980868532091      -0.152883057949     0.980868532091      -0.152883057949     0.0167220333644     0.0844929693154     
8000000000.0        0.0170573319991     0.0855258739302     0.980472343751      -0.15478553294      0.980472343751      -0.15478553294      0.0170573319991     0.0855258739302     
8100000000.0        0.0173966560199     0.0865574282851     0.980071359593      -0.15668676252      0.980071359593      -0.15668676252      0.0173966560199     0.0865574282851     
8200000000.0        0.017739999751      0.0875876170125     0.979665584879      -0.15858673122      0.979665584879      -0.15858673122      0.017739999751      0.0875876170125     
8300000000.0        0.0180873574436     0.0886164247862     0.979255024942      -0.160485423603     0.979255024942      -0.160485423603     0.0180873574436     0.0886164247862     
8400000000.0        0.0184387232767     0.0896438363212     0.978839685187      -0.162382824256     0.978839685187      -0.162382824256     0.0184387232767     0.0896438363212     
8500000000.0        0.0187940913571     0.0906698363741     0.978419571092      -0.164278917799     0.978419571092      -0.164278917799     0.0187940913571     0.0906698363741     
8600000000.0        0.0191534557209     0.0916944097432     0.977994688203      -0.166173688876     0.977994688203      -0.166173688876     0.0191534557209     0.0916944097432     
8700000000.0        0.0195168103335     0.0927175412689     0.977565042139      -0.168067122165     0.977565042139      -0.168067122165     0.0195168103335     0.0927175412689     
8800000000.0        0.0198841490905     0.0937392158334     0.977130638586      -0.169959202373     0.977130638586      -0.169959202373     0.0198841490905     0.0937392158334     
8900000000.0        0.0202554658181     0.0947594183617     0.9766914833        -0.171849914234     0.9766914833        -0.171849914234     0.0202554658181     0.0947594183617     
9000000000.0        0.0206307542738     0.0957781338211     0.976247582105      -0.173739242518     0.976247582105      -0.173739242518     0.0206307542738     0.0957781338211     
9100000000.0        0.021010008147      0.0967953472216     0.975798940892      -0.175627172021     0.975798940892      -0.175627172021     0.021010008147      0.0967953472216     
9200000000.0        0.0213932210594     0.0978110436165     0.975345565622      -0.177513687574     0.975345565622      -0.177513687574     0.0213932210594     0.0978110436165     
9300000000.0        0.0217803865656     0.0988252081019     0.974887462321      -0.179398774038     0.974887462321      -0.179398774038     0.0217803865656     0.0988252081019     
9400000000.0        0.0221714981535     0.0998378258175     0.97442463708       -0.181282416306     0.97442463708       -0.181282416306     0.0221714981535     0.0998378258175     
9500000000.0        0.022566549245      0.100848881946      0.97395709606       -0.183164599305     0.97395709606       -0.183164599305     0.022566549245      0.100848881946      
9600000000.0        0.0229655331964     0.101858361715      0.973484845483      -0.185045307993     0.973484845483      -0.185045307993     0.0229655331964     0.101858361715      
9700000000.0        0.0233684432988     0.102866250396      0.973007891638      -0.186924527362     0.973007891638      -0.186924527362     0.0233684432988     0.102866250396      
9800000000.0        0.0237752727788     0.103872533302      0.97252624088       -0.188802242438     0.97252624088       -0.188802242438     0.0237752727788     0.103872533302      
9900000000.0        0.0241860147985     0.104877195793      0.972039899625      -0.190678438279     0.972039899625      -0.190678438279     0.0241860147985     0.104877195793      
10000000000.0       0.0246006624567     0.105880223273      0.971548874355      -0.192553099979     0.971548874355      -0.192553099979     0.0246006624567     0.105880223273      
