# Hz S RI R 50.00 
100000000.0         -0.00245433270048   -0.049179480578     0.997463771949      -0.0496028501236    0.997463771949      -0.0496028501236    -0.00245433270048   -0.049179480578     
200000000.0         -0.00976668710916   -0.0976269418882    0.990150588956      -0.0984738279504    0.990150588956      -0.0984738279504    -0.00976668710916   -0.0976269418882    
300000000.0         -0.0216852908529    -0.144657430208     0.978231116816      -0.145928058227     0.978231116816      -0.145928058227     -0.0216852908529    -0.144657430208     
400000000.0         -0.0378760059717    -0.189652925156     0.962039422721      -0.191347581314     0.962039422721      -0.191347581314     -0.0378760059717    -0.189652925156     
500000000.0         -0.0579050623026    -0.232086737797     0.942009249383      -0.234205759593     0.942009249383      -0.234205759593     -0.0579050623026    -0.232086737797     
600000000.0         -0.0812665873013    -0.271539857534     0.918646455106      -0.274083627302     0.918646455106      -0.274083627302     -0.0812665873013    -0.271539857534     
700000000.0         -0.107411931278     -0.307708526318     0.892499680915      -0.310677466257     0.892499680915      -0.310677466257     -0.107411931278     -0.307708526318     
800000000.0         -0.135777937827     -0.34040353271      0.864132077356      -0.343798100856     0.864132077356      -0.343798100856     -0.135777937827     -0.34040353271      
900000000.0         -0.165811903072     -0.369542596133     0.83409634402       -0.373363282957     0.83409634402       -0.373363282957     -0.165811903072     -0.369542596133     
1000000000.0        -0.196991761344     -0.395137714698     0.80291454324       -0.399385040179     0.80291454324       -0.399385040179     -0.196991761344     -0.395137714698     
1100000000.0        -0.2288408508       -0.417279484324     0.771063334138      -0.42195399537      0.771063334138      -0.42195399537      -0.2288408508       -0.417279484324     
1200000000.0        -0.260937312007     -0.436120236057     0.738964573834      -0.441222504224     0.738964573834      -0.441222504224     -0.260937312007     -0.436120236057     
1300000000.0        -0.292918679094     -0.451857490213     0.706980726168      -0.45738810965      0.706980726168      -0.45738810965      -0.292918679094     -0.451857490213     
1400000000.0        -0.324482519122     -0.464718798239     0.675414222248      -0.470678383846     0.675414222248      -0.470678383846     -0.324482519122     -0.464718798239     
1500000000.0        -0.355384085541     -0.474948622048     0.64450980694       -0.481337807799     0.64450980694       -0.481337807799     -0.355384085541     -0.474948622048     
1600000000.0        -0.385431922859     -0.482797540686     0.61445893416       -0.489616978112     0.61445893416       -0.489616978112     -0.385431922859     -0.482797540686     
1700000000.0        -0.414482243611     -0.488513800946     0.585405389874      -0.495764157753     0.585405389874      -0.495764157753     -0.414482243611     -0.488513800946     
1800000000.0        -0.442432740687     -0.492337044505     0.557451479759      -0.500019003312     0.557451479759      -0.500019003312     -0.442432740687     -0.492337044505     
1900000000.0        -0.469216331829     -0.494493938342     0.530664284685      -0.502608195533     0.530664284685      -0.502608195533     -0.469216331829     -0.494493938342     
2000000000.0        -0.494795180184     -0.49519539027      0.505081640154      -0.503742654947     0.505081640154      -0.503742654947     -0.494795180184     -0.49519539027      
2100000000.0        -0.51915520633      -0.494635029137     0.480717624262      -0.503616022163     0.480717624262      -0.503616022163     -0.51915520633      -0.494635029137     
2200000000.0        -0.542301206799     -0.492988653591     0.457567439178      -0.50240410672      0.457567439178      -0.50240410672      -0.542301206799     -0.492988653591     
2300000000.0        -0.564252620589     -0.490414391676     0.435611644617      -0.500265046764     0.435611644617      -0.500265046764     -0.564252620589     -0.490414391676     
2400000000.0        -0.585039934883     -0.487053357041     0.414819752126      -0.497339965323     0.414819752126      -0.497339965323     -0.585039934883     -0.487053357041     
2500000000.0        -0.604701689461     -0.483030630378     0.395153220663      -0.493753951823     0.395153220663      -0.493753951823     -0.604701689461     -0.483030630378     
2600000000.0        -0.623282021593     -0.478456433622     0.376567911705      -0.489617236334     0.376567911705      -0.489617236334     -0.623282021593     -0.478456433622     
2700000000.0        -0.640828685489     -0.473427397835     0.359016069794      -0.485026457531     0.359016069794      -0.485026457531     -0.640828685489     -0.473427397835     
2800000000.0        -0.657391479371     -0.468027853266     0.342447895463      -0.480065952791     0.342447895463      -0.480065952791     -0.657391479371     -0.468027853266     
2900000000.0        -0.673021016443     -0.462331091937     0.326812774268      -0.474809020841     0.326812774268      -0.474809020841     -0.673021016443     -0.462331091937     
3000000000.0        -0.687767781593     -0.456400570117     0.312060220079      -0.46931912427      0.312060220079      -0.46931912427      -0.687767781593     -0.456400570117     
3100000000.0        -0.701681422365     -0.450291030761     0.298140584113      -0.463651012018     0.298140584113      -0.463651012018     -0.701681422365     -0.450291030761     
3200000000.0        -0.714810229695     -0.444049535373     0.285005574193      -0.457851751274     0.285005574193      -0.457851751274     -0.714810229695     -0.444049535373     
3300000000.0        -0.727200770601     -0.437716401381     0.272608622059      -0.451961664888     0.272608622059      -0.451961664888     -0.727200770601     -0.437716401381     
3400000000.0        -0.738897641199     -0.431326045692     0.260905130349      -0.446015174968     0.260905130349      -0.446015174968     -0.738897641199     -0.431326045692     
3500000000.0        -0.749943313905     -0.42490773812      0.249852625401      -0.440041556328     0.249852625401      -0.440041556328     -0.749943313905     -0.42490773812      
3600000000.0        -0.760378057433     -0.418486270192     0.23941083725       -0.434065605338     0.23941083725       -0.434065605338     -0.760378057433     -0.418486270192     
3700000000.0        -0.770239912274     -0.412082545908     0.229541724147      -0.428108230697     0.229541724147      -0.428108230697     -0.770239912274     -0.412082545908     
3800000000.0        -0.779564707757     -0.405714101402     0.220209455504      -0.422186973133     0.220209455504      -0.422186973133     -0.779564707757     -0.405714101402     
3900000000.0        -0.788386109595     -0.399395560552     0.21138036434       -0.416316461028     0.21138036434       -0.416316461028     -0.788386109595     -0.399395560552     
4000000000.0        -0.796735689183     -0.393139033303     0.203022877988      -0.410508808767     0.203022877988      -0.410508808767     -0.796735689183     -0.393139033303     
4100000000.0        -0.804643007794     -0.386954463104     0.195107433895      -0.404773964193     0.195107433895      -0.404773964193     -0.804643007794     -0.386954463104     
4200000000.0        -0.812135710337     -0.380849929382     0.187606385865      -0.399120011102     0.187606385865      -0.399120011102     -0.812135710337     -0.380849929382     
4300000000.0        -0.819239624622     -0.374831910442     0.180493904794      -0.393553432159     0.180493904794      -0.393553432159     -0.819239624622     -0.374831910442     
4400000000.0        -0.825978862991     -0.368905511656     0.173745877035      -0.388079337104     0.173745877035      -0.388079337104     -0.825978862991     -0.368905511656     
4500000000.0        -0.832375924034     -0.363074663303     0.167339802687      -0.382701660608     0.167339802687      -0.382701660608     -0.832375924034     -0.363074663303     
4600000000.0        -0.838451792654     -0.357342291919     0.161254695526      -0.377423333631     0.161254695526      -0.377423333631     -0.838451792654     -0.357342291919     
4700000000.0        -0.844226037273     -0.351710468571     0.155470985795      -0.372246431717     0.155470985795      -0.372246431717     -0.844226037273     -0.351710468571     
4800000000.0        -0.849716903337     -0.346180537072     0.149970426708      -0.367172303214     0.149970426708      -0.367172303214     -0.849716903337     -0.346180537072     
4900000000.0        -0.854941402555     -0.340753224754     0.144736005201      -0.362201680061     0.144736005201      -0.362201680061     -0.854941402555     -0.340753224754     
5000000000.0        -0.859915397542     -0.335428738123     0.139751857294      -0.35733477345      0.139751857294      -0.35733477345      -0.859915397542     -0.335428738123     
5100000000.0        -0.864653681706     -0.330206845383     0.1350031882        -0.352571356361     0.1350031882        -0.352571356361     -0.864653681706     -0.330206845383     
5200000000.0        -0.869170054336     -0.325086947598     0.13047619724       -0.347910834734     0.13047619724       -0.347910834734     -0.869170054336     -0.325086947598     
5300000000.0        -0.873477390948     -0.320068140003     0.126158007496      -0.343352308783     0.126158007496      -0.343352308783     -0.873477390948     -0.320068140003     
5400000000.0        -0.877587709001     -0.315149264784     0.122036600087      -0.338894625784     0.122036600087      -0.338894625784     -0.877587709001     -0.315149264784     
5500000000.0        -0.881512229175     -0.310328956472     0.118100752905      -0.334536425479     0.118100752905      -0.334536425479     -0.881512229175     -0.310328956472     
5600000000.0        -0.885261432371     -0.305605680954     0.114339983599      -0.330276179088     0.114339983599      -0.330276179088     -0.885261432371     -0.305605680954     
5700000000.0        -0.888845112694     -0.300977768951     0.110744496602      -0.326112222794     0.110744496602      -0.326112222794     -0.888845112694     -0.300977768951     
5800000000.0        -0.892272426607     -0.296443444709     0.107305133973      -0.322042786441     0.107305133973      -0.322042786441     -0.892272426607     -0.296443444709     
5900000000.0        -0.895551938516     -0.292000850564     0.104013329809      -0.318066018096     0.104013329809      -0.318066018096     -0.895551938516     -0.292000850564     
6000000000.0        -0.898691663001     -0.287648067911     0.10086106802       -0.314180005033     0.10086106802       -0.314180005033     -0.898691663001     -0.287648067911     
6100000000.0        -0.90169910392      -0.2833831351       0.0978408432168     -0.310382791621     0.0978408432168     -0.310382791621     -0.90169910392      -0.2833831351       
6200000000.0        -0.9045812906       -0.279204062638     0.0949456245244     -0.306672394537     0.0949456245244     -0.306672394537     -0.9045812906       -0.279204062638     
6300000000.0        -0.90734481133      -0.275108846092     0.0921688220868     -0.303046815669     0.0921688220868     -0.303046815669     -0.90734481133      -0.275108846092     
6400000000.0        -0.909995844344     -0.271095476993     0.0895042560853     -0.29950405302      0.0895042560853     -0.29950405302      -0.909995844344     -0.271095476993     
6500000000.0        -0.912540186478     -0.267161952005     0.0869461280772     -0.296042109888     0.0869461280772     -0.296042109888     -0.912540186478     -0.267161952005     
6600000000.0        -0.914983279686     -0.263306280623     0.0844889944828     -0.292659002551     0.0844889944828     -0.292659002551     -0.914983279686     -0.263306280623     
6700000000.0        -0.917330235567     -0.259526491568     0.0821277420571     -0.289352766681     0.0821277420571     -0.289352766681     -0.917330235567     -0.259526491568     
6800000000.0        -0.919585858056     -0.255820638089     0.0798575651962     -0.286121462634     0.0798575651962     -0.286121462634     -0.919585858056     -0.255820638089     
6900000000.0        -0.921754664429     -0.252186802301     0.0776739449356     -0.282963179798     0.0776739449356     -0.282963179798     -0.921754664429     -0.252186802301     
7000000000.0        -0.923840904737     -0.248623098707     0.0755726295105     -0.27987604011      0.0755726295105     -0.27987604011      -0.923840904737     -0.248623098707     
7100000000.0        -0.925848579809     -0.245127677015     0.0735496163573     -0.276858200879     0.0735496163573     -0.276858200879     -0.925848579809     -0.245127677015     
7200000000.0        -0.92778145792      -0.241698724342     0.071601135443      -0.273907856988     0.071601135443      -0.273907856988     -0.92778145792      -0.241698724342     
7300000000.0        -0.929643090234     -0.238334466909     0.069723633821      -0.271023242594     0.069723633821      -0.271023242594     -0.929643090234     -0.238334466909     
7400000000.0        -0.931436825118     -0.235033171284     0.0679137613164     -0.268202632362     0.0679137613164     -0.268202632362     -0.931436825118     -0.235033171284     
7500000000.0        -0.933165821417     -0.231793145246     0.0661683572532     -0.265444342345     0.0661683572532     -0.265444342345     -0.933165821417     -0.231793145246     
7600000000.0        -0.934833060761     -0.228612738333     0.0644844381431     -0.262746730518     0.0644844381431     -0.262746730518     -0.934833060761     -0.228612738333     
7700000000.0        -0.936441358992     -0.225490342107     0.0628591862612     -0.260108197051     0.0628591862612     -0.260108197051     -0.936441358992     -0.225490342107     
7800000000.0        -0.937993376767     -0.222424390194     0.0612899390392     -0.257527184348     0.0612899390392     -0.257527184348     -0.937993376767     -0.222424390194     
7900000000.0        -0.939491629412     -0.219413358125     0.0597741792136     -0.255002176889     0.0597741792136     -0.255002176889     -0.939491629412     -0.219413358125     
8000000000.0        -0.940938496074     -0.216455763013     0.0583095256716     -0.252531700907     0.0583095256716     -0.252531700907     -0.940938496074     -0.216455763013     
8100000000.0        -0.942336228232     -0.2135501631       0.0568937249402     -0.250114323933     0.0568937249402     -0.250114323933     -0.942336228232     -0.2135501631       
8200000000.0        -0.943686957615     -0.210695157183     0.0555246432692     -0.247748654228     0.0555246432692     -0.247748654228     -0.943686957615     -0.210695157183     
8300000000.0        -0.944992703563     -0.207889383955     0.054200259265      -0.245433340118     0.054200259265      -0.245433340118     -0.944992703563     -0.207889383955     
8400000000.0        -0.946255379892     -0.205131521265     0.052918657031      -0.243167069258     0.052918657031      -0.243167069258     -0.946255379892     -0.205131521265     
8500000000.0        -0.947476801276     -0.202420285328     0.0516780197782     -0.24094856784      0.0516780197782     -0.24094856784      -0.947476801276     -0.202420285328     
8600000000.0        -0.948658689209     -0.199754429877     0.0504766238706     -0.238776599751     0.0504766238706     -0.238776599751     -0.948658689209     -0.199754429877     
8700000000.0        -0.949802677552     -0.197132745291     0.0493128332723     -0.236649965691     0.0493128332723     -0.236649965691     -0.949802677552     -0.197132745291     
8800000000.0        -0.950910317711     -0.194554057691     0.0481850943673     -0.234567502281     0.0481850943673     -0.234567502281     -0.950910317711     -0.194554057691     
8900000000.0        -0.951983083478     -0.192017228021     0.0470919311243     -0.232528081133     0.0470919311243     -0.232528081133     -0.951983083478     -0.192017228021     
9000000000.0        -0.95302237554      -0.189521151118     0.0460319405813     -0.230530607929     0.0460319405813     -0.230530607929     -0.95302237554      -0.189521151118     
9100000000.0        -0.954029525701     -0.187064754778     0.0450037886264     -0.228574021485     0.0450037886264     -0.228574021485     -0.954029525701     -0.187064754778     
9200000000.0        -0.955005800823     -0.184646998823     0.0440062060544     -0.226657292815     0.0440062060544     -0.226657292815     -0.955005800823     -0.184646998823     
9300000000.0        -0.955952406516     -0.182266874175     0.0430379848776     -0.224779424209     0.0430379848776     -0.224779424209     -0.955952406516     -0.182266874175     
9400000000.0        -0.956870490586     -0.179923401932     0.0420979748749     -0.222939448308     0.0420979748749     -0.222939448308     -0.956870490586     -0.179923401932     
9500000000.0        -0.957761146269     -0.177615632462     0.0411850803597     -0.221136427201     0.0411850803597     -0.221136427201     -0.957761146269     -0.177615632462     
9600000000.0        -0.958625415255     -0.175342644509     0.0402982571539     -0.219369451525     0.0402982571539     -0.219369451525     -0.958625415255     -0.175342644509     
9700000000.0        -0.959464290525     -0.173103544314     0.0394365097513     -0.217637639594     0.0394365097513     -0.217637639594     -0.959464290525     -0.173103544314     
9800000000.0        -0.960278719008     -0.170897464753     0.0385988886583     -0.215940136532     0.0385988886583     -0.215940136532     -0.960278719008     -0.170897464753     
9900000000.0        -0.961069604075     -0.168723564494     0.0377844878996     -0.214276113436     0.0377844878996     -0.214276113436     -0.961069604075     -0.168723564494     
10000000000.0       -0.961837807882     -0.166581027175     0.0369924426769     -0.212644766548     0.0369924426769     -0.212644766548     -0.961837807882     -0.166581027175     
