# Hz S RI R 50.00 
100000000.0         4.80133564573e-06   -0.00163637382921   0.999985470955      -0.00166676768454   0.999985470955      -0.00166676768454   4.80133564595e-06   -0.00163637382921   
200000000.0         -4.95132709366e-06  -0.00327270707139   0.999975585401      -0.00333349601614   0.999975585401      -0.00333349601614   -4.95132709377e-06  -0.00327270707139   
300000000.0         -2.01751206463e-05  -0.00490897127541   0.999960261211      -0.00500015718757   0.999960261211      -0.00500015718757   -2.01751206463e-05  -0.00490897127541   
400000000.0         -4.08611529683e-05  -0.0065451383341    0.999939490634      -0.00666672358895   0.999939490634      -0.00666672358895   -4.08611529685e-05  -0.0065451383341    
500000000.0         -6.70054764924e-05  -0.00818118029523   0.999913271236      -0.00833316769229   0.999913271236      -0.00833316769229   -6.70054764925e-05  -0.00818118029523   
600000000.0         -9.86055297482e-05  -0.00981706930529   0.999881602339      -0.00999946202075   0.999881602339      -0.00999946202075   -9.86055297483e-05  -0.00981706930529   
700000000.0         -0.000135659231379  -0.0114527775922    0.999844484118      -0.0116655791442    0.999844484118      -0.0116655791442    -0.000135659231379  -0.0114527775922    
800000000.0         -0.00017816465336   -0.0130882774434    0.999801917273      -0.013331491665     0.999801917273      -0.013331491665     -0.00017816465336   -0.0130882774434    
900000000.0         -0.000226119874574  -0.0147235412044    0.99975390288       -0.0149971722217    0.99975390288       -0.0149971722217    -0.000226119874574  -0.0147235412044    
1000000000.0        -0.000279522908214  -0.0163585412632    0.999700442317      -0.0166625934768    0.999700442317      -0.0166625934768    -0.000279522908214  -0.0163585412632    
1100000000.0        -0.000338371660343  -0.0179932500533    0.999641537224      -0.0183277281225    0.999641537224      -0.0183277281225    -0.000338371660343  -0.0179932500533    
1200000000.0        -0.000402663906234  -0.0196276400476    0.999577189475      -0.0199925488766    0.999577189475      -0.0199925488766    -0.000402663906234  -0.0196276400476    
1300000000.0        -0.000472397275245  -0.021261683756     0.999507401167      -0.0216570284818    0.999507401167      -0.0216570284818    -0.000472397275245  -0.021261683756     
1400000000.0        -0.00054756924117   -0.02289535373      0.999432174605      -0.023321139711     0.999432174605      -0.023321139711     -0.00054756924117   -0.02289535373      
1500000000.0        -0.000628177115769  -0.0245286225563    0.999351512299      -0.0249848553624    0.999351512299      -0.0249848553624    -0.000628177115769  -0.0245286225563    
1600000000.0        -0.000714218044256  -0.0261614628587    0.999265416953      -0.0266481482622    0.999265416953      -0.0266481482622    -0.000714218044256  -0.0261614628587    
1700000000.0        -0.000805689002208  -0.0277938472965    0.999173891469      -0.0283109912639    0.999173891469      -0.0283109912639    -0.000805689002208  -0.0277938472965    
1800000000.0        -0.000902586793466  -0.0294257485697    0.999076938938      -0.0299733572534    0.999076938938      -0.0299733572534    -0.000902586793466  -0.0294257485697    
1900000000.0        -0.00100490804852   -0.031057139415     0.998974562641      -0.0316352191463    0.998974562641      -0.0316352191463    -0.00100490804852   -0.031057139415     
2000000000.0        -0.00111264922331   -0.0326879926063    0.998866766043      -0.0332965498885    0.998866766043      -0.0332965498885    -0.00111264922331   -0.0326879926063    
2100000000.0        -0.00122580659868   -0.0343182809592    0.998753552799      -0.0349573224612    0.998753552799      -0.0349573224612    -0.00122580659868   -0.0343182809592    
2200000000.0        -0.00134437627981   -0.0359479773285    0.998634926744      -0.0366175098787    0.998634926744      -0.0366175098787    -0.00134437627981   -0.0359479773285    
2300000000.0        -0.00146835419578   -0.0375770546104    0.998510891899      -0.038277085191     0.998510891899      -0.038277085191     -0.00146835419578   -0.0375770546104    
2400000000.0        -0.00159773609961   -0.0392054857434    0.998381452466      -0.039936021485     0.998381452466      -0.039936021485     -0.00159773609961   -0.0392054857434    
2500000000.0        -0.00173251756806   -0.0408332437095    0.998246612828      -0.0415942918858    0.998246612828      -0.0415942918858    -0.00173251756806   -0.0408332437095    
2600000000.0        -0.0018726940018    -0.0424603015352    0.99810637755       -0.0432518695581    0.99810637755       -0.0432518695581    -0.0018726940018    -0.0424603015352    
2700000000.0        -0.00201826062536   -0.0440866322911    0.997960751375      -0.0449087277061    0.997960751375      -0.0449087277061    -0.00201826062536   -0.0440866322911    
2800000000.0        -0.00216921248764   -0.0457122090971    0.997809739226      -0.0465648395786    0.997809739226      -0.0465648395786    -0.00216921248764   -0.0457122090971    
2900000000.0        -0.00232554446177   -0.0473370051182    0.997653346205      -0.0482201784651    0.997653346205      -0.0482201784651    -0.00232554446177   -0.0473370051182    
3000000000.0        -0.00248725124576   -0.048960993571     0.99749157759       -0.0498747177029    0.99749157759       -0.0498747177029    -0.00248725124576   -0.048960993571     
3100000000.0        -0.00265432736252   -0.0505841477201    0.997324438838      -0.0515284306729    0.997324438838      -0.0515284306729    -0.00265432736252   -0.0505841477201    
3200000000.0        -0.00282676716054   -0.0522064408839    0.997151935582      -0.053181290806     0.997151935582      -0.053181290806     -0.00282676716054   -0.0522064408839    
3300000000.0        -0.00300456481403   -0.053827846432     0.996974073629      -0.0548332715808    0.996974073629      -0.0548332715808    -0.00300456481403   -0.053827846432     
3400000000.0        -0.00318771432348   -0.0554483377886    0.996790858964      -0.0564843465265    0.996790858964      -0.0564843465265    -0.00318771432348   -0.0554483377886    
3500000000.0        -0.00337620951606   -0.057067888433     0.996602297745      -0.0581344892244    0.996602297745      -0.0581344892244    -0.00337620951606   -0.057067888433     
3600000000.0        -0.00357004404628   -0.0586864719023    0.996408396304      -0.0597836733099    0.996408396304      -0.0597836733099    -0.00357004404628   -0.0586864719023    
3700000000.0        -0.00376921139611   -0.0603040617897    0.996209161147      -0.0614318724711    0.996209161147      -0.0614318724711    -0.00376921139611   -0.0603040617897    
3800000000.0        -0.00397370487596   -0.0619206317491    0.996004598953      -0.0630790604542    0.996004598953      -0.0630790604542    -0.00397370487596   -0.0619206317491    
3900000000.0        -0.00418351762484   -0.0635361554941    0.995794716572      -0.0647252110614    0.995794716572      -0.0647252110614    -0.00418351762484   -0.0635361554941    
4000000000.0        -0.00439864261118   -0.0651506068003    0.995579521026      -0.0663702981544    0.995579521026      -0.0663702981544    -0.00439864261118   -0.0651506068003    
4100000000.0        -0.00461907263328   -0.0667639595067    0.995359019509      -0.068014295655     0.995359019509      -0.068014295655     -0.00461907263328   -0.0667639595067    
4200000000.0        -0.00484480031996   -0.0683761875162    0.995133219382      -0.0696571775466    0.995133219382      -0.0696571775466    -0.00484480031996   -0.0683761875162    
4300000000.0        -0.00507581813105   -0.0699872647972    0.994902128179      -0.0712989178748    0.994902128179      -0.0712989178748    -0.00507581813105   -0.0699872647972    
4400000000.0        -0.00531211835829   -0.0715971653856    0.994665753601      -0.0729394907506    0.994665753601      -0.0729394907506    -0.00531211835829   -0.0715971653856    
4500000000.0        -0.00555369312571   -0.0732058633855    0.994424103517      -0.0745788703501    0.994424103517      -0.0745788703501    -0.00555369312571   -0.0732058633855    
4600000000.0        -0.00580053439043   -0.0748133329703    0.994177185963      -0.0762170309167    0.994177185963      -0.0762170309167    -0.00580053439043   -0.0748133329703    
4700000000.0        -0.00605263394321   -0.0764195483839    0.993925009144      -0.0778539467613    0.993925009144      -0.0778539467613    -0.00605263394321   -0.0764195483839    
4800000000.0        -0.00630998340935   -0.0780244839429    0.993667581429      -0.0794895922656    0.993667581429      -0.0794895922656    -0.00630998340935   -0.0780244839429    
4900000000.0        -0.00657257424916   -0.0796281140366    0.993404911351      -0.0811239418816    0.993404911351      -0.0811239418816    -0.00657257424916   -0.0796281140366    
5000000000.0        -0.00684039775884   -0.0812304131293    0.993137007611      -0.0827569701337    0.993137007611      -0.0827569701337    -0.00684039775884   -0.0812304131293    
5100000000.0        -0.00711344507116   -0.082831355761     0.99286387907       -0.0843886516202    0.99286387907       -0.0843886516202    -0.00711344507116   -0.082831355761     
5200000000.0        -0.00739170715616   -0.0844309165489    0.992585534756      -0.0860189610141    0.992585534756      -0.0860189610141    -0.00739170715615   -0.0844309165489    
5300000000.0        -0.00767517482198   -0.0860290701885    0.992301983854      -0.087647873065     0.992301983854      -0.087647873065     -0.00767517482198   -0.0860290701885    
5400000000.0        -0.00796383871559   -0.0876257914547    0.992013235716      -0.0892753625994    0.992013235716      -0.0892753625994    -0.00796383871559   -0.0876257914547    
5500000000.0        -0.00825768932358   -0.0892210552034    0.99171929985       -0.0909014045233    0.99171929985       -0.0909014045233    -0.00825768932358   -0.0892210552034    
5600000000.0        -0.00855671697294   -0.0908148363725    0.991420185927      -0.0925259738222    0.991420185927      -0.0925259738222    -0.00855671697294   -0.0908148363725    
5700000000.0        -0.00886091183189   -0.092407109983     0.991115903775      -0.0941490455634    0.991115903775      -0.0941490455634    -0.00886091183189   -0.092407109983     
5800000000.0        -0.00917026391066   -0.0939978511402    0.990806463381      -0.0957705948962    0.990806463381      -0.0957705948962    -0.00917026391066   -0.0939978511402    
5900000000.0        -0.00948476306248   -0.095587035036     0.990491874888      -0.0973905970548    0.990491874888      -0.0973905970548    -0.00948476306248   -0.095587035036     
6000000000.0        -0.0098043989841    -0.0971746369479    0.990172148597      -0.0990090273572    0.990172148597      -0.0990090273572    -0.0098043989841    -0.0971746369479    
6100000000.0        -0.010129161217     -0.0987606322419    0.989847294965      -0.100625861208     0.989847294965      -0.100625861208     -0.010129161217     -0.0987606322419    
6200000000.0        -0.010459039148     -0.100344996374     0.989517324602      -0.102241074101     0.989517324602      -0.102241074101     -0.010459039148     -0.100344996374     
6300000000.0        -0.0107940220102    -0.101927704888     0.989182248272      -0.103854641616     0.989182248272      -0.103854641616     -0.0107940220102    -0.101927704888     
6400000000.0        -0.0111340988841    -0.103508733423     0.988842076893      -0.105466539424     0.988842076893      -0.105466539424     -0.0111340988841    -0.103508733423     
6500000000.0        -0.0114792586981    -0.105088057707     0.988496821535      -0.107076743287     0.988496821535      -0.107076743287     -0.0114792586981    -0.105088057707     
6600000000.0        -0.0118294902296    -0.106665653565     0.988146493417      -0.108685229061     0.988146493417      -0.108685229061     -0.0118294902296    -0.106665653565     
6700000000.0        -0.0121847821061    -0.108241496915     0.987791103911      -0.110291972691     0.987791103911      -0.110291972691     -0.0121847821061    -0.108241496915     
6800000000.0        -0.0125451228058    -0.109815563771     0.987430664536      -0.111896950221     0.987430664536      -0.111896950221     -0.0125451228058    -0.109815563771     
6900000000.0        -0.0129105006588    -0.111387830245     0.98706518696       -0.113500137789     0.98706518696       -0.113500137789     -0.0129105006588    -0.111387830245     
7000000000.0        -0.0132809038477    -0.112958272547     0.986694683         -0.115101511629     0.986694683         -0.115101511629     -0.0132809038477    -0.112958272547     
7100000000.0        -0.0136563204093    -0.114526866985     0.986319164617      -0.116701048075     0.986319164617      -0.116701048075     -0.0136563204093    -0.114526866985     
7200000000.0        -0.0140367382346    -0.11609358997      0.985938643918      -0.118298723557     0.985938643918      -0.118298723557     -0.0140367382346    -0.11609358997      
7300000000.0        -0.0144221450704    -0.117658418012     0.985553133155      -0.119894514608     0.985553133155      -0.119894514608     -0.0144221450704    -0.117658418012     
7400000000.0        -0.0148125285203    -0.119221327725     0.985162644723      -0.121488397861     0.985162644723      -0.121488397861     -0.0148125285203    -0.119221327725     
7500000000.0        -0.0152078760454    -0.120782295826     0.984767191159      -0.123080350052     0.984767191159      -0.123080350052     -0.0152078760454    -0.120782295826     
7600000000.0        -0.0156081749653    -0.122341299135     0.984366785143      -0.124670348018     0.984366785143      -0.124670348018     -0.0156081749653    -0.122341299135     
7700000000.0        -0.0160134124597    -0.123898314581     0.983961439493      -0.126258368705     0.983961439493      -0.126258368705     -0.0160134124597    -0.123898314581     
7800000000.0        -0.0164235755687    -0.125453319198     0.983551167168      -0.127844389159     0.983551167168      -0.127844389159     -0.0164235755687    -0.125453319198     
7900000000.0        -0.016838651194     -0.127006290126     0.983135981266      -0.129428386536     0.983135981266      -0.129428386536     -0.016838651194     -0.127006290126     
8000000000.0        -0.0172586261004    -0.128557204615     0.98271589502       -0.1310103381       0.98271589502       -0.1310103381       -0.0172586261004    -0.128557204615     
8100000000.0        -0.0176834869163    -0.130106040025     0.9822909218        -0.13259022122      0.9822909218        -0.13259022122      -0.0176834869163    -0.130106040025     
8200000000.0        -0.018113220135     -0.131652773827     0.981861075113      -0.134168013377     0.981861075113      -0.134168013377     -0.018113220135     -0.131652773827     
8300000000.0        -0.0185478121158    -0.133197383601     0.981426368598      -0.135743692163     0.981426368598      -0.135743692163     -0.0185478121158    -0.133197383601     
8400000000.0        -0.018987249085     -0.134739847041     0.980986816027      -0.137317235279     0.980986816027      -0.137317235279     -0.018987249085     -0.134739847041     
8500000000.0        -0.0194315171369    -0.136280141955     0.980542431306      -0.13888862054      0.980542431306      -0.13888862054      -0.0194315171369    -0.136280141955     
8600000000.0        -0.0198806022353    -0.137818246265     0.980093228469      -0.140457825875     0.980093228469      -0.140457825875     -0.0198806022353    -0.137818246265     
8700000000.0        -0.0203344902138    -0.139354138006     0.979639221682      -0.142024829326     0.979639221682      -0.142024829326     -0.0203344902138    -0.139354138006     
8800000000.0        -0.0207931667778    -0.140887795332     0.979180425239      -0.143589609049     0.979180425239      -0.143589609049     -0.0207931667778    -0.140887795332     
8900000000.0        -0.0212566175051    -0.142419196513     0.978716853561      -0.145152143318     0.978716853561      -0.145152143318     -0.0212566175051    -0.142419196513     
9000000000.0        -0.021724827847     -0.143948319935     0.978248521195      -0.146712410525     0.978248521195      -0.146712410525     -0.021724827847     -0.143948319935     
9100000000.0        -0.0221977831297    -0.145475144105     0.977775442816      -0.148270389176     0.977775442816      -0.148270389176     -0.0221977831297    -0.145475144105     
9200000000.0        -0.0226754685551    -0.146999647649     0.977297633219      -0.149826057898     0.977297633219      -0.149826057898     -0.0226754685551    -0.146999647649     
9300000000.0        -0.0231578692023    -0.148521809312     0.976815107325      -0.151379395438     0.976815107325      -0.151379395438     -0.0231578692023    -0.148521809312     
9400000000.0        -0.0236449700285    -0.150041607963     0.976327880177      -0.152930380662     0.976327880177      -0.152930380662     -0.0236449700285    -0.150041607963     
9500000000.0        -0.0241367558701    -0.151559022588     0.975835966936      -0.154478992559     0.975835966936      -0.154478992559     -0.0241367558701    -0.151559022588     
9600000000.0        -0.0246332114441    -0.153074032302     0.975339382886      -0.156025210237     0.975339382886      -0.156025210237     -0.0246332114441    -0.153074032302     
9700000000.0        -0.025134321349     -0.154586616338     0.974838143426      -0.15756901293      0.974838143426      -0.15756901293      -0.025134321349     -0.154586616338     
9800000000.0        -0.0256400700663    -0.156096754058     0.974332264076      -0.159110379994     0.974332264076      -0.159110379994     -0.0256400700663    -0.156096754058     
9900000000.0        -0.0261504419613    -0.157604424944     0.973821760467      -0.160649290909     0.973821760467      -0.160649290909     -0.0261504419613    -0.157604424944     
10000000000.0       -0.0266654212844    -0.159109608609     0.973306648351      -0.162185725282     0.973306648351      -0.162185725282     -0.0266654212844    -0.159109608609     
