# Hz S RI R 50.00 
100000000.0         0.00206941106886    0.000419710530603   0.997924207008      -0.00288442191034   0.997924207008      -0.00288442191034   0.00206941106886    0.000419710530603   
200000000.0         0.00208570200224    0.000839314416312   0.997896454868      -0.00576875284811   0.997896454868      -0.00576875284811   0.00208570200224    0.000839314416312   
300000000.0         0.00210078492889    0.00125883029926    0.997863830994      -0.00865301932681   0.997863830994      -0.00865301932681   0.00210078492889    0.00125883029926    
400000000.0         0.00211645222602    0.00167825393003    0.997824542434      -0.0115372202661    0.997824542434      -0.0115372202661    0.00211645222602    0.00167825393003    
500000000.0         0.00213339352633    0.00209757602991    0.997777898873      -0.014421347175     0.997777898873      -0.014421347175     0.00213339352633    0.00209757602991    
600000000.0         0.00215196006264    0.00251678521911    0.99772354831       -0.0173053878964    0.99772354831       -0.0173053878964    0.00215196006264    0.00251678521911    
700000000.0         0.00217235891362    0.00293586904195    0.997661282814      -0.020189328049     0.997661282814      -0.020189328049     0.00217235891362    0.00293586904195    
800000000.0         0.00219472387649    0.00335481442995    0.997590967668      -0.0230731517408    0.997590967668      -0.0230731517408    0.00219472387649    0.00335481442995    
900000000.0         0.00221914701398    0.00377360794362    0.997512509822      -0.0259568419752    0.997512509822      -0.0259568419752    0.00221914701398    0.00377360794362    
1000000000.0        0.00224569464022    0.00419223591145    0.997425841916      -0.0288403809068    0.997425841916      -0.0288403809068    0.00224569464022    0.00419223591145    
1100000000.0        0.00227441620463    0.00461068451532    0.997330913402      -0.031723750012     0.997330913402      -0.031723750012     0.00227441620463    0.00461068451532    
1200000000.0        0.00230534958408    0.00502893984581    0.997227685252      -0.03460693021      0.997227685252      -0.03460693021      0.00230534958408    0.00502893984581    
1300000000.0        0.00233852441165    0.00544698793934    0.997116126636      -0.0374899019521    0.997116126636      -0.0374899019521    0.00233852441165    0.00544698793934    
1400000000.0        0.002373964264      0.00586481480403    0.99699621274       -0.0403726452888    0.99699621274       -0.0403726452888    0.002373964264      0.00586481480403    
1500000000.0        0.0024116881516     0.00628240643798    0.996867923272      -0.0432551399226    0.996867923272      -0.0432551399226    0.0024116881516     0.00628240643798    
1600000000.0        0.00245171156517    0.00669974884265    0.996731241427      -0.0461373652497    0.996731241427      -0.0461373652497    0.00245171156517    0.00669974884265    
1700000000.0        0.00249404722966    0.00711682803263    0.99658615313       -0.0490193003942    0.99658615313       -0.0490193003942    0.00249404722965    0.00711682803263    
1800000000.0        0.00253870565965    0.00753363004297    0.996432646483      -0.0519009242363    0.996432646483      -0.0519009242363    0.00253870565965    0.00753363004297    
1900000000.0        0.00258569557666    0.00795014093474    0.996270711354      -0.0547822154352    0.996270711354      -0.0547822154352    0.00258569557666    0.00795014093474    
2000000000.0        0.00263502422784    0.00836634679923    0.996100339057      -0.0576631524499    0.996100339057      -0.0576631524499    0.00263502422784    0.00836634679923    
2100000000.0        0.00268669763329    0.00878223376117    0.995921522105      -0.0605437135553    0.995921522105      -0.0605437135553    0.00268669763329    0.00878223376117    
2200000000.0        0.00274072078036    0.00919778798117    0.995734254025      -0.0634238768578    0.995734254025      -0.0634238768578    0.00274072078036    0.00919778798117    
2300000000.0        0.00279709777844    0.00961299565765    0.995538529196      -0.0663036203072    0.995538529196      -0.0663036203072    0.00279709777844    0.00961299565765    
2400000000.0        0.00285583198337    0.0100278430283     0.995334342733      -0.069182921709     0.995334342733      -0.069182921709     0.00285583198337    0.0100278430283     
2500000000.0        0.0029169260986     0.0104423163712     0.995121690382      -0.0720617587335    0.995121690382      -0.0720617587335    0.0029169260986     0.0104423163712     
2600000000.0        0.00298038225818    0.0108564020056     0.994900568444      -0.0749401089254    0.994900568444      -0.0749401089254    0.00298038225818    0.0108564020056     
2700000000.0        0.00304620209527    0.0112700862927     0.994670973705      -0.0778179497113    0.994670973705      -0.0778179497113    0.00304620209527    0.0112700862927     
2800000000.0        0.00311438679944    0.0116833556358     0.994432903377      -0.080695258407     0.994432903377      -0.080695258407     0.00311438679944    0.0116833556358     
2900000000.0        0.00318493716452    0.012096196481      0.99418635506       -0.0835720122243    0.99418635506       -0.0835720122243    0.00318493716452    0.012096196481      
3000000000.0        0.00325785362926    0.0125085953173     0.993931326692      -0.0864481882765    0.993931326692      -0.0864481882765    0.00325785362926    0.0125085953173     
3100000000.0        0.00333313631173    0.0129205386766     0.993667816526      -0.0893237635839    0.993667816526      -0.0893237635839    0.00333313631173    0.0129205386766     
3200000000.0        0.00341078503881    0.013332013134      0.993395823094      -0.0921987150792    0.993395823094      -0.0921987150792    0.00341078503881    0.013332013134      
3300000000.0        0.00349079937154    0.0137430053076     0.993115345185      -0.0950730196114    0.993115345185      -0.0950730196114    0.00349079937154    0.0137430053076     
3400000000.0        0.003573178627      0.0141535018585     0.992826381828      -0.0979466539505    0.992826381828      -0.0979466539505    0.003573178627      0.0141535018585     
3500000000.0        0.00365792189731    0.0145634894909     0.992528932267      -0.100819594791     0.992528932267      -0.100819594791     0.00365792189731    0.0145634894909     
3600000000.0        0.00374502806621    0.014972954952      0.992222995952      -0.103691818756     0.992222995952      -0.103691818756     0.00374502806621    0.014972954952      
3700000000.0        0.00383449582357    0.0153818850318     0.991908572523      -0.106563302401     0.991908572523      -0.106563302401     0.00383449582357    0.0153818850318     
3800000000.0        0.00392632367817    0.0157902665627     0.991585661794      -0.109434022216     0.991585661794      -0.109434022216     0.00392632367817    0.0157902665627     
3900000000.0        0.00402050996895    0.0161980864202     0.991254263752      -0.112303954627     0.991254263752      -0.112303954627     0.00402050996895    0.0161980864202     
4000000000.0        0.00411705287497    0.0166053315217     0.990914378537      -0.115173076004     0.990914378537      -0.115173076004     0.00411705287497    0.0166053315217     
4100000000.0        0.00421595042433    0.0170119888272     0.990566006444      -0.118041362658     0.990566006444      -0.118041362658     0.00421595042433    0.0170119888272     
4200000000.0        0.00431720050208    0.0174180453387     0.990209147908      -0.120908790847     0.990209147908      -0.120908790847     0.00431720050208    0.0174180453387     
4300000000.0        0.00442080085723    0.0178234881001     0.989843803503      -0.123775336776     0.989843803503      -0.123775336776     0.00442080085723    0.0178234881001     
4400000000.0        0.00452674910922    0.0182283041973     0.989469973933      -0.126640976602     0.989469973933      -0.126640976602     0.00452674910922    0.0182283041973     
4500000000.0        0.00463504275356    0.0186324807576     0.989087660029      -0.129505686432     0.989087660029      -0.129505686432     0.00463504275356    0.0186324807576     
4600000000.0        0.00474567916702    0.01903600495       0.988696862743      -0.132369442331     0.988696862743      -0.132369442331     0.00474567916702    0.01903600495       
4700000000.0        0.00485865561232    0.0194388639848     0.988297583148      -0.135232220317     0.988297583148      -0.135232220317     0.00485865561232    0.0194388639848     
4800000000.0        0.00497396924238    0.0198410451134     0.987889822428      -0.138093996367     0.987889822428      -0.138093996367     0.00497396924238    0.0198410451134     
4900000000.0        0.00509161710414    0.0202425356284     0.987473581879      -0.14095474642      0.987473581879      -0.14095474642      0.00509161710414    0.0202425356284     
5000000000.0        0.00521159614213    0.0206433228632     0.987048862907      -0.143814446374     0.987048862907      -0.143814446374     0.00521159614213    0.0206433228632     
5100000000.0        0.0053339032017     0.0210433941919     0.986615667022      -0.146673072091     0.986615667022      -0.146673072091     0.0053339032017     0.0210433941919     
5200000000.0        0.00545853503193    0.0214427370296     0.986173995839      -0.149530599398     0.986173995839      -0.149530599398     0.00545853503193    0.0214427370296     
5300000000.0        0.00558548828835    0.0218413388314     0.985723851072      -0.152387004088     0.985723851072      -0.152387004088     0.00558548828835    0.0218413388314     
5400000000.0        0.0057147595355     0.0222391870932     0.985265234536      -0.155242261923     0.985265234536      -0.155242261923     0.0057147595355     0.0222391870932     
5500000000.0        0.00584634524915    0.0226362693511     0.984798148145      -0.15809634863      0.984798148145      -0.15809634863      0.00584634524915    0.0226362693511     
5600000000.0        0.00598024181849    0.0230325731811     0.984322593905      -0.160949239911     0.984322593905      -0.160949239911     0.00598024181849    0.0230325731811     
5700000000.0        0.00611644554808    0.0234280861996     0.983838573921      -0.163800911436     0.983838573921      -0.163800911436     0.00611644554808    0.0234280861996     
5800000000.0        0.00625495265968    0.0238227960627     0.983346090388      -0.166651338849     0.983346090388      -0.166651338849     0.00625495265968    0.0238227960627     
5900000000.0        0.00639575929396    0.0242166904665     0.982845145596      -0.169500497768     0.982845145596      -0.169500497768     0.00639575929396    0.0242166904665     
6000000000.0        0.00653886151212    0.0246097571468     0.982335741923      -0.172348363785     0.982335741923      -0.172348363785     0.00653886151212    0.0246097571468     
6100000000.0        0.0066842552973     0.0250019838791     0.98181788184       -0.175194912471     0.98181788184       -0.175194912471     0.0066842552973     0.0250019838791     
6200000000.0        0.00683193655603    0.0253933584784     0.981291567906      -0.17804011937      0.981291567906      -0.17804011937      0.00683193655603    0.0253933584784     
6300000000.0        0.00698190111949    0.0257838687995     0.980756802767      -0.180883960007     0.980756802767      -0.180883960007     0.00698190111949    0.0257838687995     
6400000000.0        0.00713414474478    0.0261735027362     0.980213589158      -0.183726409887     0.980213589158      -0.183726409887     0.00713414474478    0.0261735027362     
6500000000.0        0.00728866311599    0.026562248222      0.9796619299        -0.186567444491     0.9796619299        -0.186567444491     0.00728866311599    0.026562248222      
6600000000.0        0.00744545184535    0.0269500932296     0.979101827903      -0.189407039286     0.979101827903      -0.189407039286     0.00744545184535    0.0269500932296     
6700000000.0        0.00760450647419    0.0273370257711     0.978533286158      -0.192245169719     0.978533286158      -0.192245169719     0.00760450647419    0.0273370257711     
6800000000.0        0.00776582247396    0.0277230338974     0.977956307744      -0.195081811219     0.977956307744      -0.195081811219     0.00776582247396    0.0277230338974     
6900000000.0        0.00792939524708    0.0281081056991     0.977370895825      -0.1979169392       0.977370895825      -0.1979169392       0.00792939524708    0.0281081056991     
7000000000.0        0.00809522012783    0.0284922293054     0.976777053648      -0.200750529061     0.976777053648      -0.200750529061     0.00809522012783    0.0284922293054     
7100000000.0        0.00826329238319    0.0288753928849     0.976174784543      -0.203582556185     0.976174784543      -0.203582556185     0.00826329238319    0.0288753928849     
7200000000.0        0.00843360721358    0.029257584645      0.975564091925      -0.206412995944     0.975564091925      -0.206412995944     0.00843360721358    0.029257584645      
7300000000.0        0.00860615975359    0.0296387928323     0.97494497929       -0.209241823695     0.97494497929       -0.209241823695     0.00860615975359    0.0296387928323     
7400000000.0        0.00878094507274    0.0300190057322     0.97431745022       -0.212069014782     0.97431745022       -0.212069014782     0.00878094507274    0.0300190057322     
7500000000.0        0.0089579581761     0.0303982116691     0.973681508375      -0.214894544542     0.973681508375      -0.214894544542     0.0089579581761     0.0303982116691     
7600000000.0        0.00913719400495    0.0307763990062     0.973037157499      -0.217718388296     0.973037157499      -0.217718388296     0.00913719400495    0.0307763990062     
7700000000.0        0.0093186474374     0.0311535561459     0.972384401419      -0.220540521359     0.972384401419      -0.220540521359     0.0093186474374     0.0311535561459     
7800000000.0        0.00950231328898    0.0315296715292     0.971723244041      -0.223360919035     0.971723244041      -0.223360919035     0.00950231328898    0.0315296715292     
7900000000.0        0.00968818631318    0.031904733636      0.971053689355      -0.226179556621     0.971053689355      -0.226179556621     0.00968818631318    0.031904733636      
8000000000.0        0.00987626120203    0.0322787309851     0.970375741428      -0.228996409404     0.970375741428      -0.228996409404     0.00987626120203    0.0322787309851     
8100000000.0        0.0100665325866     0.0326516521343     0.969689404413      -0.231811452667     0.969689404413      -0.231811452667     0.0100665325866     0.0326516521343     
8200000000.0        0.0102589950375     0.0330234856801     0.968994682539      -0.234624661684     0.968994682539      -0.234624661684     0.0102589950375     0.0330234856801     
8300000000.0        0.0104536430653     0.0333942202579     0.968291580119      -0.237436011724     0.968291580119      -0.237436011724     0.0104536430653     0.0333942202579     
8400000000.0        0.0106504711212     0.0337638445419     0.967580101543      -0.240245478051     0.967580101543      -0.240245478051     0.0106504711212     0.0337638445419     
8500000000.0        0.0108494735972     0.0341323472454     0.966860251284      -0.243053035925     0.966860251284      -0.243053035925     0.0108494735972     0.0341323472454     
8600000000.0        0.0110506448268     0.0344997171203     0.966132033893      -0.245858660601     0.966132033893      -0.245858660601     0.0110506448268     0.0344997171203     
8700000000.0        0.0112539790852     0.0348659429576     0.965395454003      -0.24866232733      0.965395454003      -0.24866232733      0.0112539790852     0.0348659429576     
8800000000.0        0.01145947059       0.0352310135871     0.964650516324      -0.251464011364     0.964650516324      -0.251464011364     0.01145947059       0.0352310135871     
8900000000.0        0.011667113501      0.0355949178777     0.963897225647      -0.254263687948     0.963897225647      -0.254263687948     0.011667113501      0.0355949178777     
9000000000.0        0.0118769019215     0.0359576447372     0.963135586843      -0.257061332329     0.963135586843      -0.257061332329     0.0118769019215     0.0359576447372     
9100000000.0        0.0120888298978     0.0363191831122     0.962365604862      -0.259856919752     0.962365604862      -0.259856919752     0.0120888298978     0.0363191831122     
9200000000.0        0.01230289142       0.0366795219885     0.961587284732      -0.26265042546      0.961587284732      -0.26265042546      0.01230289142       0.0366795219885     
9300000000.0        0.0125190804223     0.037038650391      0.960800631562      -0.265441824697     0.960800631562      -0.265441824697     0.0125190804223     0.037038650391      
9400000000.0        0.0127373907834     0.0373965573836     0.960005650539      -0.26823109271      0.960005650539      -0.26823109271      0.0127373907834     0.0373965573836     
9500000000.0        0.0129578163267     0.0377532320692     0.95920234693       -0.271018204744     0.95920234693       -0.271018204744     0.0129578163267     0.0377532320692     
9600000000.0        0.0131803508206     0.03810866359       0.958390726079      -0.273803136046     0.958390726079      -0.273803136046     0.0131803508206     0.03810866359       
9700000000.0        0.013404987979      0.0384628411273     0.957570793411      -0.276585861867     0.957570793411      -0.276585861867     0.013404987979      0.0384628411273     
9800000000.0        0.0136317214615     0.0388157539018     0.956742554428      -0.279366357459     0.956742554428      -0.279366357459     0.0136317214615     0.0388157539018     
9900000000.0        0.0138605448737     0.0391673911732     0.955906014711      -0.282144598079     0.955906014711      -0.282144598079     0.0138605448737     0.0391673911732     
10000000000.0       0.0140914517674     0.0395177422408     0.95506117992       -0.284920558985     0.95506117992       -0.284920558985     0.0140914517674     0.0395177422408     
