# Hz S RI R 50.00 
100000000.0         -0.000283387795587  -0.0170974703256    0.999653524012      -0.0173858762021    0.999653524012      -0.0173858762021    -0.000283387795587  -0.0170974703256    
200000000.0         -0.00119113691266   -0.0341625957931    0.998745220192      -0.0347394621228    0.998745220192      -0.0347394621228    -0.00119113691266   -0.0341625957931    
300000000.0         -0.00268917281332   -0.0511646593066    0.997246654888      -0.0520300691845    0.997246654888      -0.0520300691845    -0.00268917281332   -0.0511646593066    
400000000.0         -0.00477205327187   -0.0680733850385    0.995163215981      -0.069227443434     0.995163215981      -0.069227443434     -0.00477205327187   -0.0680733850385    
500000000.0         -0.00743231174685   -0.0848590842846    0.992502349104      -0.0863019145949    0.992502349104      -0.0863019145949    -0.00743231174685   -0.0848590842846    
600000000.0         -0.0106605147456    -0.101492813741     0.989273477061      -0.103224555464     0.989273477061      -0.103224555464     -0.0106605147456    -0.101492813741     
700000000.0         -0.0144453433202    -0.117946529844     0.985487912444      -0.119967336827     0.985487912444      -0.119967336827     -0.0144453433202    -0.117946529844     
800000000.0         -0.0187736909466    -0.134193234422     0.981158757614      -0.136503273457     0.981158757614      -0.136503273457     -0.0187736909466    -0.134193234422     
900000000.0         -0.0236307751333    -0.150207109067     0.976300792137      -0.152806558719     0.976300792137      -0.152806558719     -0.0236307751333    -0.150207109067     
1000000000.0        -0.0290002607713    -0.165963636466     0.970930348955      -0.168852686065     0.970930348955      -0.168852686065     -0.0290002607713    -0.165963636466     
1100000000.0        -0.0348643932995    -0.181439707416     0.965065180954      -0.184618556177     0.965065180954      -0.184618556177     -0.0348643932995    -0.181439707416     
1200000000.0        -0.0412041397307    -0.196613712628     0.95872431978       -0.200082568871     0.95872431978       -0.200082568871     -0.0412041397307    -0.196613712628     
1300000000.0        -0.0479993355581    -0.211465618751     0.951927928833      -0.215224699192     0.951927928833      -0.215224699192     -0.0479993355581    -0.211465618751     
1400000000.0        -0.0552288355619    -0.225977028341     0.944697152396      -0.230026557457     0.944697152396      -0.230026557457     -0.0552288355619    -0.225977028341     
1500000000.0        -0.0628706665828    -0.240131223789     0.937053962818      -0.244471433232     0.937053962818      -0.244471433232     -0.0628706665828    -0.240131223789     
1600000000.0        -0.0709021803959    -0.253913195467     0.929021007608      -0.258544323534     0.929021007608      -0.258544323534     -0.0709021803959    -0.253913195467     
1700000000.0        -0.0793002049324    -0.267309654602     0.920621458194      -0.272231945735     0.920621458194      -0.272231945735     -0.0793002049324    -0.267309654602     
1800000000.0        -0.0880411922226    -0.280309031562     0.911878861962      -0.285522735894     0.911878861962      -0.285522735894     -0.0880411922226    -0.280309031562     
1900000000.0        -0.0971013615961    -0.29290146044      0.902816999043      -0.298406833373     0.902816999043      -0.298406833373     -0.0971013615961    -0.29290146044      
2000000000.0        -0.10645683684      -0.305078750965     0.893459745149      -0.310876052769     0.893459745149      -0.310876052769     -0.10645683684      -0.305078750965     
2100000000.0        -0.116083776203     -0.316834348854     0.88383094156       -0.322923844307     0.88383094156       -0.322923844307     -0.116083776203     -0.316834348854     
2200000000.0        -0.125958494318     -0.328163285841     0.873954273195      -0.334545243878     0.873954273195      -0.334545243878     -0.125958494318     -0.328163285841     
2300000000.0        -0.136057575308     -0.339062120638     0.863853155505      -0.34573681404      0.863853155505      -0.34573681404      -0.136057575308     -0.339062120638     
2400000000.0        -0.146357976526     -0.349528872137     0.853550630727      -0.356496577223     0.853550630727      -0.356496577223     -0.146357976526     -0.349528872137     
2500000000.0        -0.156837122546     -0.359562946129     0.84306927389       -0.366823942478     0.84306927389       -0.366823942478     -0.156837122546     -0.359562946129     
2600000000.0        -0.167472989215     -0.369165056815     0.832431108764      -0.376719627006     0.832431108764      -0.376719627006     -0.167472989215     -0.369165056815     
2700000000.0        -0.178244177697     -0.378337144342     0.821657533813      -0.386185573706     0.821657533813      -0.386185573706     -0.178244177697     -0.378337144342     
2800000000.0        -0.189129978606     -0.387082289514     0.810769258058      -0.395224865904     0.810769258058      -0.395224865904     -0.189129978606     -0.387082289514     
2900000000.0        -0.200110426442     -0.395404626775     0.799786246641      -0.403841640353     0.799786246641      -0.403841640353     -0.200110426442     -0.395404626775     
3000000000.0        -0.211166344636     -0.403309256469     0.788727675783      -0.412040999502     0.788727675783      -0.412040999502     -0.211166344636     -0.403309256469     
3100000000.0        -0.22227938162      -0.410802157293     0.777611896708      -0.419828923966     0.777611896708      -0.419828923966     -0.22227938162      -0.410802157293     
3200000000.0        -0.233432038391     -0.417890099748     0.76645640808       -0.427212185987     0.76645640808       -0.427212185987     -0.233432038391     -0.417890099748     
3300000000.0        -0.244607688115     -0.424580561325     0.7552778364        -0.434198264633     0.7552778364        -0.434198264633     -0.244607688115     -0.424580561325     
3400000000.0        -0.255790588335     -0.430881644033     0.744091923794      -0.440795263334     0.744091923794      -0.440795263334     -0.255790588335     -0.430881644033     
3500000000.0        -0.266965886397     -0.436801994798     0.732913522591      -0.447011830296     0.732913522591      -0.447011830296     -0.266965886397     -0.436801994798     
3600000000.0        -0.278119618701     -0.44235072917      0.721756596071      -0.452857082213     0.721756596071      -0.452857082213     -0.278119618701     -0.44235072917      
3700000000.0        -0.289238704402     -0.447537358673     0.710634224756      -0.458340531629     0.710634224756      -0.458340531629     -0.289238704402     -0.447537358673     
3800000000.0        -0.30031093419      -0.452371722075     0.699558617643      -0.463472018215     0.699558617643      -0.463472018215     -0.30031093419      -0.452371722075     
3900000000.0        -0.311324954715     -0.456863920752     0.688541127766      -0.468261644144     0.688541127766      -0.468261644144     -0.311324954715     -0.456863920752     
4000000000.0        -0.322270249277     -0.461024258282     0.677592271515      -0.472719713688     0.677592271515      -0.472719713688     -0.322270249277     -0.461024258282     
4100000000.0        -0.333137115305     -0.464863184311     0.666721751154      -0.476856677097     0.666721751154      -0.476856677097     -0.333137115305     -0.464863184311     
4200000000.0        -0.34391663915      -0.468391242719     0.655938480021      -0.480683078765     0.655938480021      -0.480683078765     -0.34391663915      -0.468391242719     
4300000000.0        -0.354600668699     -0.471619024019     0.645250609928      -0.484209509644     0.645250609928      -0.484209509644     -0.354600668699     -0.471619024019     
4400000000.0        -0.365181784231     -0.474557121936     0.63466556029       -0.487446563822     0.63466556029       -0.487446563822     -0.365181784231     -0.474557121936     
4500000000.0        -0.375653267959     -0.477216094032     0.624190048596      -0.490404799156     0.624190048596      -0.490404799156     -0.375653267959     -0.477216094032     
4600000000.0        -0.38600907261      -0.479606426246     0.613830121816      -0.49309470182      0.613830121816      -0.49309470182      -0.38600907261      -0.479606426246     
4700000000.0        -0.396243789405     -0.481738501181     0.603591188433      -0.495526654594     0.603591188433      -0.495526654594     -0.396243789405     -0.481738501181     
4800000000.0        -0.406352615722     -0.483622569967     0.593478050771      -0.497710908736     0.593478050771      -0.497710908736     -0.406352615722     -0.483622569967     
4900000000.0        -0.416331322729     -0.485268727501     0.583494937366      -0.499657559221     0.583494937366      -0.499657559221     -0.416331322729     -0.485268727501     
5000000000.0        -0.426176223206     -0.486686890867     0.573645535146      -0.501376523169     0.573645535146      -0.501376523169     -0.426176223206     -0.486686890867     
5100000000.0        -0.435884139769     -0.487886780731     0.563933021198      -0.502877521246     0.563933021198      -0.502877521246     -0.435884139769     -0.487886780731     
5200000000.0        -0.445452373674     -0.48887790551      0.554360093977      -0.504170061832     0.554360093977      -0.504170061832     -0.445452373674     -0.48887790551      
5300000000.0        -0.454878674332     -0.489669548108     0.54492900378       -0.505263427765     0.54492900378       -0.505263427765     -0.454878674332     -0.489669548108     
5400000000.0        -0.464161209672     -0.490270755012     0.535641582386      -0.506166665438     0.535641582386      -0.506166665438     -0.464161209672     -0.490270755012     
5500000000.0        -0.473298537447     -0.490690327567     0.526499271755      -0.506888576079     0.526499271755      -0.506888576079     -0.473298537447     -0.490690327567     
5600000000.0        -0.482289577554     -0.490936815221     0.5175031517        -0.507437709        0.5175031517        -0.507437709        -0.482289577554     -0.490936815221     
5700000000.0        -0.491133585435     -0.491018510579     0.508653966491      -0.507822356648     0.508653966491      -0.507822356648     -0.491133585435     -0.491018510579     
5800000000.0        -0.499830126602     -0.490943446072     0.499952150328      -0.508050551287     0.499952150328      -0.508050551287     -0.499830126602     -0.490943446072     
5900000000.0        -0.508379052308     -0.490719392096     0.491397851674      -0.508130063129     0.491397851674      -0.508130063129     -0.508379052308     -0.490719392096     
6000000000.0        -0.516780476382     -0.490353856454     0.482990956411      -0.508068399786     0.482990956411      -0.508068399786     -0.516780476382     -0.490353856454     
6100000000.0        -0.525034753241     -0.489854084951     0.474731109837      -0.507872806864     0.474731109837      -0.507872806864     -0.525034753241     -0.489854084951     
6200000000.0        -0.533142457055     -0.489227063032     0.466617737497      -0.507550269604     0.466617737497      -0.507550269604     -0.533142457055     -0.489227063032     
6300000000.0        -0.541104362072     -0.4884795183       0.458650064858      -0.507107515402     0.458650064858      -0.507107515402     -0.541104362072     -0.4884795183       
6400000000.0        -0.548921424066     -0.487617923834     0.450827135861      -0.506551017128     0.450827135861      -0.506551017128     -0.548921424066     -0.487617923834     
6500000000.0        -0.556594762895     -0.486648502171     0.443147830363      -0.505886997113     0.443147830363      -0.505886997113     -0.556594762895     -0.486648502171     
6600000000.0        -0.564125646127     -0.485577229876     0.435610880512      -0.505121431716     0.435610880512      -0.505121431716     -0.564125646127     -0.485577229876     
6700000000.0        -0.571515473708     -0.484409842593     0.428214886079      -0.504260056379     0.428214886079      -0.504260056379     -0.571515473708     -0.484409842593     
6800000000.0        -0.578765763632     -0.483151840505     0.420958328785      -0.503308371092     0.420958328785      -0.503308371092     -0.578765763632     -0.483151840505     
6900000000.0        -0.585878138571     -0.481808494129     0.413839585674      -0.502271646181     0.413839585674      -0.502271646181     -0.585878138571     -0.481808494129     
7000000000.0        -0.592854313428     -0.480384850375     0.406856941558      -0.501154928378     0.406856941558      -0.501154928378     -0.592854313428     -0.480384850375     
7100000000.0        -0.599696083773     -0.478885738811     0.400008600584      -0.499963047078     0.400008600584      -0.499963047078     -0.599696083773     -0.478885738811     
7200000000.0        -0.606405315112     -0.47731577808      0.39329269696       -0.498700620765     0.39329269696       -0.498700620765     -0.606405315112     -0.47731577808      
7300000000.0        -0.612983932955     -0.475679382421     0.386707304894      -0.497372063531     0.386707304894      -0.497372063531     -0.612983932955     -0.475679382421     
7400000000.0        -0.619433913634     -0.473980768258     0.380250447767      -0.49598159166      0.380250447767      -0.49598159166      -0.619433913634     -0.473980768258     
7500000000.0        -0.625757275842     -0.472223960801     0.373920106602      -0.494533230243     0.373920106602      -0.494533230243     -0.625757275842     -0.472223960801     
7600000000.0        -0.631956072832     -0.470412800651     0.36771422786       -0.493030819772     0.36771422786       -0.493030819772     -0.631956072832     -0.470412800651     
7700000000.0        -0.638032385262     -0.468550950359     0.361630730597      -0.491478022706     0.361630730597      -0.491478022706     -0.638032385262     -0.468550950359     
7800000000.0        -0.643988314625     -0.466641900931     0.355667513033      -0.489878329973     0.355667513033      -0.489878329973     -0.643988314625     -0.466641900931     
7900000000.0        -0.649825977243     -0.464688978238     0.349822458561      -0.488235067384     0.349822458561      -0.488235067384     -0.649825977243     -0.464688978238     
8000000000.0        -0.655547498778     -0.462695349338     0.34409344123       -0.486551401955     0.34409344123       -0.486551401955     -0.655547498778     -0.462695349338     
8100000000.0        -0.66115500924      -0.460664028667     0.338478330743      -0.484830348095     0.338478330743      -0.484830348095     -0.66115500924      -0.460664028667     
8200000000.0        -0.666650638441     -0.45859788411      0.332974996999      -0.483074773685     0.332974996999      -0.483074773685     -0.666650638441     -0.45859788411      
8300000000.0        -0.672036511882     -0.456499642928     0.327581314207      -0.481287405995     0.327581314207      -0.481287405995     -0.672036511882     -0.456499642928     
8400000000.0        -0.677314747032     -0.454371897531     0.322295164608      -0.479470837468     0.322295164608      -0.479470837468     -0.677314747032     -0.454371897531     
8500000000.0        -0.682487449979     -0.452217111101     0.317114441824      -0.477627531336     0.317114441824      -0.477627531336     -0.682487449979     -0.452217111101     
8600000000.0        -0.687556712413     -0.450037623053     0.312037053874      -0.475759827085     0.312037053874      -0.475759827085     -0.687556712413     -0.450037623053     
8700000000.0        -0.692524608938     -0.447835654327     0.307060925859      -0.473869945746     0.307060925859      -0.473869945746     -0.692524608938     -0.447835654327     
8800000000.0        -0.697393194667     -0.445613312515     0.302184002375      -0.471959995023     0.302184002375      -0.471959995023     -0.697393194667     -0.445613312515     
8900000000.0        -0.702164503093     -0.443372596824     0.297404249633      -0.470031974254     0.297404249633      -0.470031974254     -0.702164503093     -0.443372596824     
9000000000.0        -0.706840544208     -0.441115402861     0.292719657346      -0.468087779202     0.292719657346      -0.468087779202     -0.706840544208     -0.441115402861     
9100000000.0        -0.711423302854     -0.438843527259     0.288128240375      -0.466129206673     0.288128240375      -0.466129206673     -0.711423302854     -0.438843527259     
9200000000.0        -0.715914737284     -0.436558672128     0.283628040171      -0.464157958973     0.283628040171      -0.464157958973     -0.715914737284     -0.436558672128     
9300000000.0        -0.720316777921     -0.434262449346     0.279217126011      -0.4621756482       0.279217126011      -0.4621756482       -0.720316777921     -0.434262449346     
9400000000.0        -0.72463132629      -0.431956384689     0.274893596069      -0.460183800367     0.274893596069      -0.460183800367     -0.72463132629      -0.431956384689     
9500000000.0        -0.728860254126     -0.429641921792     0.270655578311      -0.458183859372     0.270655578311      -0.458183859372     -0.728860254126     -0.429641921792     
9600000000.0        -0.733005402619     -0.427320425966     0.266501231243      -0.456177190809     0.266501231243      -0.456177190809     -0.733005402619     -0.427320425966     
9700000000.0        -0.737068581805     -0.42499318785      0.262428744525      -0.454165085623     0.262428744525      -0.454165085623     -0.737068581805     -0.42499318785      
9800000000.0        -0.74105157008      -0.422661426926     0.258436339459      -0.452148763621     0.258436339459      -0.452148763621     -0.74105157008      -0.422661426926     
9900000000.0        -0.744956113824     -0.420326294874     0.254522269354      -0.450129376835     0.254522269354      -0.450129376835     -0.744956113824     -0.420326294874     
10000000000.0       -0.748783927142     -0.417988878801     0.250684819801      -0.448108012743     0.250684819801      -0.448108012743     -0.748783927142     -0.417988878801     
