# Hz S RI R 50.00 
100000000.0         0.000827237824539   -0.00228073003738   0.999141865114      -0.00454453376402   0.999141865114      -0.00454453376402   0.000827237824539   -0.00228073003738   
200000000.0         0.000798502910971   -0.00456129287333   0.999094105832      -0.00908887805963   0.999094105832      -0.00908887805963   0.000798502910971   -0.00456129287333   
300000000.0         0.000747569107551   -0.00684149919073   0.999021952059      -0.0136328786517    0.999021952059      -0.0136328786517    0.000747569107552   -0.00684149919073   
400000000.0         0.000675167720074   -0.00912115862199   0.998924679683      -0.0181763637317    0.998924679683      -0.0181763637317    0.000675167720074   -0.00912115862199   
500000000.0         0.000581584165117   -0.01140007847      0.998802014213      -0.0227191544749    0.998802014213      -0.0227191544749    0.000581584165117   -0.01140007847      
600000000.0         0.000466968611036   -0.0136780642107    0.998653820307      -0.0272610678344    0.998653820307      -0.0272610678344    0.000466968611036   -0.0136780642107    
700000000.0         0.000331414905964   -0.0159549198946    0.998480022975      -0.0318019178503    0.998480022975      -0.0318019178503    0.000331414905964   -0.0159549198946    
800000000.0         0.000174989380083   -0.0182304484427    0.998280578865      -0.0363415164037    0.998280578865      -0.0363415164037    0.000174989380083   -0.0182304484427    
900000000.0         -2.25632655815e-06  -0.020504451869     0.998055463511      -0.0408796737066    0.998055463511      -0.0408796737066    -2.25632655815e-06  -0.020504451869     
1000000000.0        -0.000200278757098  -0.0227767314566    0.997804664887      -0.045416198647     0.997804664887      -0.045416198647     -0.000200278757098  -0.0227767314566    
1100000000.0        -0.000419039016356  -0.0250470879001    0.997528179832      -0.0499508990472    0.997528179832      -0.0499508990472    -0.000419039016356  -0.0250470879001    
1200000000.0        -0.000658500609234  -0.0273153214261    0.997226011937      -0.0544835818663    0.997226011937      -0.0544835818663    -0.000658500609234  -0.0273153214261    
1300000000.0        -0.000918628077878  -0.0295812318961    0.996898170208      -0.0590140533647    0.996898170208      -0.0590140533647    -0.000918628077878  -0.0295812318961    
1400000000.0        -0.00119938610374   -0.0318446188975    0.996544668204      -0.0635421192416    0.996544668204      -0.0635421192416    -0.00119938610374   -0.0318446188975    
1500000000.0        -0.00150073889416   -0.0341052818257    0.996165523447      -0.0680675847536    0.996165523447      -0.0680675847536    -0.00150073889416   -0.0341052818257    
1600000000.0        -0.00182264975051   -0.0363630199578    0.995760757009      -0.0725902548178    0.995760757009      -0.0725902548178    -0.00182264975051   -0.0363630199578    
1700000000.0        -0.00216508075639   -0.0386176325215    0.995330393215      -0.0771099341045    0.995330393215      -0.0771099341045    -0.00216508075639   -0.0386176325215    
1800000000.0        -0.00252799254771   -0.0408689187589    0.994874459433      -0.0816264271205    0.994874459433      -0.0816264271205    -0.00252799254771   -0.0408689187589    
1900000000.0        -0.00291134414006   -0.0431166779871    0.994392985905      -0.0861395382863    0.994392985905      -0.0861395382863    -0.00291134414006   -0.0431166779871    
2000000000.0        -0.00331509279727   -0.0453607096544    0.993886005626      -0.0906490720061    0.993886005626      -0.0906490720061    -0.00331509279727   -0.0453607096544    
2100000000.0        -0.00373919393002   -0.0476008133956    0.993353554249      -0.095154832735     0.993353554249      -0.095154832735     -0.00373919393002   -0.0476008133956    
2200000000.0        -0.00418360101704   -0.0498367890839    0.992795670004      -0.0996566250409    0.992795670004      -0.0996566250409    -0.00418360101704   -0.0498367890839    
2300000000.0        -0.00464826554345   -0.052068436881     0.99221239364       -0.104154253664     0.99221239364       -0.104154253664     -0.00464826554345   -0.052068436881     
2400000000.0        -0.00513313695236   -0.0542955572865    0.991603768375      -0.108647523573     0.991603768375      -0.108647523573     -0.00513313695236   -0.0542955572865    
2500000000.0        -0.00563816260682   -0.0565179511844    0.990969839848      -0.113136240018     0.990969839848      -0.113136240018     -0.00563816260682   -0.0565179511844    
2600000000.0        -0.00616328776021   -0.0587354198897    0.990310656092      -0.117620208586     0.990310656092      -0.117620208586     -0.00616328776021   -0.0587354198897    
2700000000.0        -0.00670845553326   -0.0609477651931    0.989626267494      -0.122099235248     0.989626267494      -0.122099235248     -0.00670845553326   -0.0609477651931    
2800000000.0        -0.00727360689667   -0.0631547894049    0.988916726773      -0.126573126407     0.988916726773      -0.126573126407     -0.00727360689667   -0.0631547894049    
2900000000.0        -0.0078586806582    -0.0653562953978    0.988182088952      -0.131041688948     0.988182088952      -0.131041688948     -0.0078586806582    -0.0653562953978    
3000000000.0        -0.00846361345376   -0.0675520866492    0.987422411338      -0.135504730281     0.987422411338      -0.135504730281     -0.00846361345376   -0.0675520866492    
3100000000.0        -0.00908833974167   -0.0697419672826    0.986637753499      -0.139962058388     0.986637753499      -0.139962058388     -0.00908833974167   -0.0697419672826    
3200000000.0        -0.0097327917998    -0.0719257421077    0.985828177243      -0.144413481866     0.985828177243      -0.144413481866     -0.0097327917998    -0.0719257421077    
3300000000.0        -0.0103968997251    -0.0741032166606    0.984993746602      -0.148858809968     0.984993746602      -0.148858809968     -0.0103968997251    -0.0741032166606    
3400000000.0        -0.0110805914355    -0.0762741972432    0.98413452781       -0.153297852646     0.98413452781       -0.153297852646     -0.0110805914355    -0.0762741972432    
3500000000.0        -0.0117837926734    -0.0784384909613    0.983250589285      -0.157730420593     0.983250589285      -0.157730420593     -0.0117837926734    -0.0784384909613    
3600000000.0        -0.0125064270111    -0.0805959057627    0.982342001616      -0.16215632528      0.982342001616      -0.16215632528      -0.0125064270111    -0.0805959057627    
3700000000.0        -0.0132484158576    -0.0827462504748    0.981408837537      -0.166575378999     0.981408837537      -0.166575378999     -0.0132484158576    -0.0827462504748    
3800000000.0        -0.0140096784675    -0.0848893348413    0.980451171915      -0.170987394896     0.980451171915      -0.170987394896     -0.0140096784675    -0.0848893348413    
3900000000.0        -0.0147901319497    -0.0870249695581    0.979469081729      -0.175392187016     0.979469081729      -0.175392187016     -0.0147901319497    -0.0870249695581    
4000000000.0        -0.0155896912793    -0.0891529663094    0.978462646053      -0.179789570333     0.978462646053      -0.179789570333     -0.0155896912793    -0.0891529663094    
4100000000.0        -0.0164082693086    -0.0912731378027    0.977431946038      -0.184179360792     0.977431946038      -0.184179360792     -0.0164082693086    -0.0912731378027    
4200000000.0        -0.0172457767806    -0.0933852978033    0.97637706489       -0.188561375341     0.97637706489       -0.188561375341     -0.0172457767806    -0.0933852978033    
4300000000.0        -0.0181021223429    -0.0954892611683    0.975298087854      -0.192935431966     0.975298087854      -0.192935431966     -0.0181021223429    -0.0954892611683    
4400000000.0        -0.0189772125625    -0.0975848438804    0.974195102193      -0.197301349731     0.974195102193      -0.197301349731     -0.0189772125625    -0.0975848438804    
4500000000.0        -0.0198709519414    -0.0996718630805    0.973068197168      -0.201658948804     0.973068197168      -0.201658948804     -0.0198709519414    -0.0996718630805    
4600000000.0        -0.0207832429334    -0.101750137101     0.97191746402       -0.206008050495     0.97191746402       -0.206008050495     -0.0207832429334    -0.101750137101     
4700000000.0        -0.0217139859612    -0.103819485496     0.970742995944      -0.210348477288     0.970742995944      -0.210348477288     -0.0217139859612    -0.103819485496     
4800000000.0        -0.0226630794346    -0.105879729075     0.969544888073      -0.214680052873     0.969544888073      -0.214680052873     -0.0226630794346    -0.105879729075     
4900000000.0        -0.0236304197693    -0.107930689931     0.968323237457      -0.219002602175     0.968323237457      -0.219002602175     -0.0236304197693    -0.107930689931     
5000000000.0        -0.024615901406     -0.109972191475     0.967078143034      -0.223315951389     0.967078143034      -0.223315951389     -0.024615901406     -0.109972191475     
5100000000.0        -0.0256194168311    -0.11200405846      0.965809705615      -0.227619928009     0.965809705615      -0.227619928009     -0.0256194168311    -0.11200405846      
5200000000.0        -0.026640856597     -0.114026117016     0.96451802786       -0.231914360853     0.96451802786       -0.231914360853     -0.026640856597     -0.114026117016     
5300000000.0        -0.0276801093435    -0.116038194675     0.96320321425       -0.236199080099     0.96320321425       -0.236199080099     -0.0276801093435    -0.116038194675     
5400000000.0        -0.0287370618198    -0.118040120401     0.961865371067      -0.24047391731      0.961865371067      -0.24047391731      -0.0287370618198    -0.118040120401     
5500000000.0        -0.0298115989068    -0.120031724615     0.960504606373      -0.24473870546      0.960504606373      -0.24473870546      -0.0298115989068    -0.120031724615     
5600000000.0        -0.0309036036403    -0.122012839227     0.959121029977      -0.248993278967     0.959121029977      -0.248993278967     -0.0309036036403    -0.122012839227     
5700000000.0        -0.0320129572342    -0.123983297656     0.95771475342       -0.253237473712     0.95771475342       -0.253237473712     -0.0320129572342    -0.123983297656     
5800000000.0        -0.0331395391048    -0.125942934861     0.956285889941      -0.257471127072     0.956285889941      -0.257471127072     -0.0331395391048    -0.125942934861     
5900000000.0        -0.0342832268951    -0.127891587367     0.954834554459      -0.261694077943     0.954834554459      -0.261694077943     -0.0342832268951    -0.127891587367     
6000000000.0        -0.0354438964997    -0.129829093283     0.953360863539      -0.265906166762     0.953360863539      -0.265906166762     -0.0354438964997    -0.129829093283     
6100000000.0        -0.0366214220903    -0.131755292334     0.951864935373      -0.270107235535     0.951864935373      -0.270107235535     -0.0366214220903    -0.131755292334     
6200000000.0        -0.0378156761414    -0.13367002588      0.95034688975       -0.27429712786      0.95034688975       -0.27429712786      -0.0378156761414    -0.13367002588      
6300000000.0        -0.0390265294562    -0.13557313694      0.948806848028      -0.27847568895      0.948806848028      -0.27847568895      -0.0390265294562    -0.13557313694      
6400000000.0        -0.0402538511937    -0.137464470217     0.947244933109      -0.282642765653     0.947244933109      -0.282642765653     -0.0402538511937    -0.137464470217     
6500000000.0        -0.0414975088954    -0.139343872115     0.945661269408      -0.286798206477     0.945661269408      -0.286798206477     -0.0414975088954    -0.139343872115     
6600000000.0        -0.0427573685124    -0.141211190766     0.944055982828      -0.29094186161      0.944055982828      -0.29094186161      -0.0427573685124    -0.141211190766     
6700000000.0        -0.0440332944331    -0.143066276044     0.942429200733      -0.29507358294      0.942429200733      -0.29507358294      -0.0440332944331    -0.143066276044     
6800000000.0        -0.0453251495116    -0.144908979592     0.940781051913      -0.299193224077     0.940781051913      -0.299193224077     -0.0453251495116    -0.144908979592     
6900000000.0        -0.0466327950952    -0.146739154838     0.939111666561      -0.303300640369     0.939111666561      -0.303300640369     -0.0466327950952    -0.146739154838     
7000000000.0        -0.0479560910536    -0.148556657013     0.937421176242      -0.307395688923     0.937421176242      -0.307395688923     -0.0479560910536    -0.148556657013     
7100000000.0        -0.0492948958075    -0.150361343171     0.935709713865      -0.311478228625     0.935709713865      -0.311478228625     -0.0492948958075    -0.150361343171     
7200000000.0        -0.0506490663576    -0.152153072207     0.933977413649      -0.315548120154     0.933977413649      -0.315548120154     -0.0506490663576    -0.152153072207     
7300000000.0        -0.0520184583138    -0.153931704872     0.932224411098      -0.319605225998     0.932224411098      -0.319605225998     -0.0520184583138    -0.153931704872     
7400000000.0        -0.0534029259254    -0.155697103793     0.930450842969      -0.323649410476     0.930450842969      -0.323649410476     -0.0534029259254    -0.155697103793     
7500000000.0        -0.0548023221101    -0.157449133485     0.928656847241      -0.327680539747     0.928656847241      -0.327680539747     -0.0548023221101    -0.157449133485     
7600000000.0        -0.0562164984845    -0.159187660368     0.926842563086      -0.331698481832     0.926842563086      -0.331698481832     -0.0562164984845    -0.159187660368     
7700000000.0        -0.0576453053941    -0.160912552783     0.925008130837      -0.335703106621     0.925008130837      -0.335703106621     -0.0576453053941    -0.160912552783     
7800000000.0        -0.0590885919437    -0.162623681005     0.92315369196       -0.339694285891     0.92315369196       -0.339694285891     -0.0590885919437    -0.162623681005     
7900000000.0        -0.060546206028     -0.164320917253     0.921279389017      -0.34367189332      0.921279389017      -0.34367189332      -0.060546206028     -0.164320917253     
8000000000.0        -0.0620179943618    -0.166004135711     0.919385365644      -0.347635804496     0.919385365644      -0.347635804496     -0.0620179943618    -0.166004135711     
8100000000.0        -0.0635038025115    -0.167673212531     0.917471766509      -0.351585896932     0.917471766509      -0.351585896932     -0.0635038025115    -0.167673212531     
8200000000.0        -0.0650034749256    -0.169328025851     0.915538737292      -0.355522050075     0.915538737292      -0.355522050075     -0.0650034749256    -0.169328025851     
8300000000.0        -0.0665168549655    -0.170968455805     0.913586424644      -0.35944414532      0.913586424644      -0.35944414532      -0.0665168549655    -0.170968455805     
8400000000.0        -0.0680437849372    -0.172594384529     0.911614976162      -0.363352066015     0.911614976162      -0.363352066015     -0.0680437849372    -0.172594384529     
8500000000.0        -0.0695841061219    -0.174205696178     0.909624540354      -0.367245697475     0.909624540354      -0.367245697475     -0.0695841061219    -0.174205696178     
8600000000.0        -0.0711376588077    -0.17580227693      0.907615266608      -0.37112492699      0.907615266608      -0.37112492699      -0.0711376588077    -0.17580227693      
8700000000.0        -0.0727042823207    -0.177384014994     0.905587305162      -0.374989643829     0.905587305162      -0.374989643829     -0.0727042823207    -0.177384014994     
8800000000.0        -0.0742838150562    -0.178950800624     0.90354080707       -0.378839739253     0.90354080707       -0.378839739253     -0.0742838150562    -0.178950800624     
8900000000.0        -0.0758760945103    -0.180502526119     0.901475924173      -0.382675106521     0.901475924173      -0.382675106521     -0.0758760945103    -0.180502526119     
9000000000.0        -0.0774809573114    -0.182039085835     0.899392809062      -0.386495640893     0.899392809062      -0.386495640893     -0.0774809573114    -0.182039085835     
9100000000.0        -0.0790982392511    -0.18356037619      0.897291615055      -0.390301239639     0.897291615055      -0.390301239639     -0.0790982392511    -0.18356037619      
9200000000.0        -0.0807277753161    -0.185066295669     0.895172496157      -0.394091802043     0.895172496157      -0.394091802043     -0.0807277753161    -0.185066295669     
9300000000.0        -0.0823693997191    -0.186556744828     0.893035607032      -0.397867229408     0.893035607032      -0.397867229408     -0.0823693997191    -0.186556744828     
9400000000.0        -0.0840229459305    -0.188031626301     0.890881102972      -0.401627425059     0.890881102972      -0.401627425059     -0.0840229459305    -0.188031626301     
9500000000.0        -0.0856882467096    -0.189490844803     0.888709139863      -0.405372294349     0.888709139863      -0.405372294349     -0.0856882467096    -0.189490844803     
9600000000.0        -0.0873651341354    -0.190934307133     0.886519874157      -0.409101744659     0.886519874157      -0.409101744659     -0.0873651341354    -0.190934307133     
9700000000.0        -0.0890534396384    -0.192361922177     0.884313462835      -0.412815685401     0.884313462835      -0.412815685401     -0.0890534396384    -0.192361922177     
9800000000.0        -0.090752994031     -0.193773600909     0.882090063384      -0.416514028021     0.882090063384      -0.416514028021     -0.090752994031     -0.193773600909     
9900000000.0        -0.0924636275392    -0.195169256396     0.879849833755      -0.420196685998     0.879849833755      -0.420196685998     -0.0924636275392    -0.195169256396     
10000000000.0       -0.0941851698326    -0.196548803795     0.877592932343      -0.423863574848     0.877592932343      -0.423863574848     -0.0941851698326    -0.196548803795     
