# Hz S RI R 50.00 
100000000.0         -0.000544714899897  -0.0229398434318    0.999443139036      -0.0229782347633    0.999443139036      -0.0229782347633    -0.000544714899897  -0.0229398434318    
200000000.0         -0.00214615224843   -0.0458034575815    0.99784161645       -0.0458802472646    0.99784161645       -0.0458802472646    -0.00214615224843   -0.0458034575815    
300000000.0         -0.00478830568963   -0.0685183449879    0.995199397174      -0.0686335436156    0.995199397174      -0.0686335436156    -0.00478830568963   -0.0685183449879    
400000000.0         -0.00845413787561   -0.0910138026794    0.991533508117      -0.0911674235455    0.991533508117      -0.0911674235455    -0.00845413787561   -0.0910138026794    
500000000.0         -0.0131203620924    -0.113221549104     0.986867231996      -0.113413607741     0.986867231996      -0.113413607741     -0.0131203620924    -0.113221549104     
600000000.0         -0.0187578172097    -0.135076359107     0.981229727913      -0.135306872966     0.981229727913      -0.135306872966     -0.0187578172097    -0.135076359107     
700000000.0         -0.0253319219878    -0.156516649416     0.974655575913      -0.156785637624     0.974655575913      -0.156785637624     -0.0253319219878    -0.156516649416     
800000000.0         -0.0328031964911    -0.177484994766     0.967184255164      -0.177792477927     0.967184255164      -0.177792477927     -0.0328031964911    -0.177484994766     
900000000.0         -0.0411278371621    -0.197928563532     0.958859568693      -0.198274563557     0.958859568693      -0.198274563557     -0.0411278371621    -0.197928563532     
1000000000.0        -0.0502583310823    -0.21779946618      0.949729029037      -0.21818400614      0.949729029037      -0.21818400614      -0.0502583310823    -0.21779946618      
1100000000.0        -0.0601440946131    -0.237055013405     0.939843219549      -0.237478117402     0.939843219549      -0.237478117402     -0.0601440946131    -0.237055013405     
1200000000.0        -0.0707321218361    -0.255657883767     0.929255145927      -0.256119576816     0.929255145927      -0.256119576816     -0.0707321218361    -0.255657883767     
1300000000.0        -0.081967628968     -0.27357620327      0.918019591781      -0.274076511194     0.918019591781      -0.274076511194     -0.081967628968     -0.27357620327      
1400000000.0        -0.0937946821127    -0.29078354158      0.906192490868      -0.291322490911     0.906192490868      -0.291322490911     -0.0937946821127    -0.29078354158      
1500000000.0        -0.106156797217     -0.30725883141      0.893830327127      -0.307836449306     0.893830327127      -0.307836449306     -0.106156797217     -0.30725883141      
1600000000.0        -0.118997502847     -0.322986219057     0.880989571897      -0.323602533214     0.880989571897      -0.323602533214     -0.118997502847     -0.322986219057     
1700000000.0        -0.132260858258     -0.337954855039     0.867726165842      -0.338609893619     0.867726165842      -0.338609893619     -0.132260858258     -0.337954855039     
1800000000.0        -0.145891921151     -0.352158634424     0.854095051194      -0.352852425986     0.854095051194      -0.352852425986     -0.145891921151     -0.352158634424     
1900000000.0        -0.159837161355     -0.365595896612     0.840149758066      -0.366328470047     0.840149758066      -0.366328470047     -0.159837161355     -0.365595896612     
2000000000.0        -0.174044818435     -0.378269094239     0.825942046842      -0.379040478709     0.825942046842      -0.379040478709     -0.174044818435     -0.378269094239     
2100000000.0        -0.188465202784     -0.390184440456     0.811521607086      -0.390994665342     0.811521607086      -0.390994665342     -0.188465202784     -0.390184440456     
2200000000.0        -0.203050941174     -0.401351543201     0.796935811986      -0.40220063805      0.796935811986      -0.40220063805      -0.203050941174     -0.401351543201     
2300000000.0        -0.217757168875     -0.411783034301     0.782229526239      -0.412671028777     0.782229526239      -0.412671028777     -0.217757168875     -0.411783034301     
2400000000.0        -0.232541671385     -0.4214942003       0.767444964315      -0.422421124144     0.767444964315      -0.422421124144     -0.232541671385     -0.4214942003       
2500000000.0        -0.247364979538     -0.430502620962     0.752621595355      -0.431468503948     0.752621595355      -0.431468503948     -0.247364979538     -0.430502620962     
2600000000.0        -0.262190422218     -0.438827820388     0.737796090449      -0.439832692288     0.737796090449      -0.439832692288     -0.262190422218     -0.438827820388     
2700000000.0        -0.276984141248     -0.446490934727     0.723002307752      -0.447534825275     0.723002307752      -0.447534825275     -0.276984141248     -0.446490934727     
2800000000.0        -0.291715073106     -0.453514399526     0.708271310766      -0.454597338387     0.708271310766      -0.454597338387     -0.291715073106     -0.453514399526     
2900000000.0        -0.306354902151     -0.459921658918     0.693631415114      -0.461043675659     0.693631415114      -0.461043675659     -0.306354902151     -0.459921658918     
3000000000.0        -0.320877989867     -0.465736898081     0.679108259295      -0.466898022144     0.679108259295      -0.466898022144     -0.320877989867     -0.465736898081     
3100000000.0        -0.335261284448     -0.470984799723     0.664724895099      -0.4721850604       0.664724895099      -0.4721850604       -0.335261284448     -0.470984799723     
3200000000.0        -0.349484214727     -0.475690324771     0.650501893679      -0.476929751181     0.650501893679      -0.476929751181     -0.349484214727     -0.475690324771     
3300000000.0        -0.363528572135     -0.47987851696      0.636457463593      -0.481157138029     0.636457463593      -0.481157138029     -0.363528572135     -0.47987851696      
3400000000.0        -0.377378383988     -0.483574330634     0.622607577511      -0.48489217508      0.622607577511      -0.48489217508      -0.377378383988     -0.483574330634     
3500000000.0        -0.391019781054     -0.486802480767     0.608966104653      -0.488159577078     0.608966104653      -0.488159577078     -0.391019781054     -0.486802480767     
3600000000.0        -0.40444086196      -0.489587313964     0.595544946384      -0.490983690385     0.595544946384      -0.490983690385     -0.40444086196      -0.489587313964     
3700000000.0        -0.417631556617     -0.491952699079     0.582354172782      -0.493388383599     0.582354172782      -0.493388383599     -0.417631556617     -0.491952699079     
3800000000.0        -0.430583490547     -0.49392193595      0.569402158317      -0.49539695629      0.569402158317      -0.49539695629      -0.430583490547     -0.49392193595      
3900000000.0        -0.443289851619     -0.495517680724     0.55669571511       -0.497032064324     0.55669571511       -0.497032064324     -0.443289851619     -0.495517680724     
4000000000.0        -0.455745260452     -0.496761886223     0.544240222534      -0.498315660236     0.544240222534      -0.498315660236     -0.455745260452     -0.496761886223     
4100000000.0        -0.467945645451     -0.497675755832     0.532039752179      -0.499268947113     0.532039752179      -0.499268947113     -0.467945645451     -0.497675755832     
4200000000.0        -0.479888123219     -0.498279709425     0.520097187432      -0.499912344525     0.520097187432      -0.499912344525     -0.479888123219     -0.498279709425     
4300000000.0        -0.491570884896     -0.498593359937     0.508414337149      -0.500265465097     0.508414337149      -0.500265465097     -0.491570884896     -0.498593359937     
4400000000.0        -0.502993088764     -0.498635499242     0.496992043041      -0.500347100387     0.496992043041      -0.500347100387     -0.502993088764     -0.498635499242     
4500000000.0        -0.514154759353     -0.498424092106     0.485830280571      -0.500175214841     0.485830280571      -0.500175214841     -0.514154759353     -0.498424092106     
4600000000.0        -0.525056693117     -0.497976277085     0.47492825328       -0.499766946692     0.47492825328       -0.499766946692     -0.525056693117     -0.497976277085     
4700000000.0        -0.535700370668     -0.497308373306     0.464284480552      -0.499138614743     0.464284480552      -0.499138614743     -0.535700370668     -0.497308373306     
4800000000.0        -0.546087875467     -0.496435892207     0.45389687892       -0.498305730102     0.45389687892       -0.498305730102     -0.546087875467     -0.496435892207     
4900000000.0        -0.556221818802     -0.495373553371     0.443762837091      -0.497283012023     0.443762837091      -0.497283012023     -0.556221818802     -0.495373553371     
5000000000.0        -0.566105270828     -0.494135303699     0.433879284907      -0.496084407079     0.433879284907      -0.496084407079     -0.566105270828     -0.494135303699     
5100000000.0        -0.575741697422     -0.492734339252     0.424242756486      -0.494723111001     0.424242756486      -0.494723111001     -0.575741697422     -0.492734339252     
5200000000.0        -0.58513490255      -0.491183129164     0.414849447857      -0.493211592592     0.414849447857      -0.493211592592     -0.58513490255      -0.491183129164     
5300000000.0        -0.594288975869     -0.489493441107     0.405695269362      -0.491561619199     0.405695269362      -0.491561619199     -0.594288975869     -0.489493441107     
5400000000.0        -0.603208245213     -0.487676367867     0.396775893161      -0.489784283278     0.396775893161      -0.489784283278     -0.603208245213     -0.487676367867     
5500000000.0        -0.611897233689     -0.485742354626     0.388086796144      -0.487890029687     0.388086796144      -0.487890029687     -0.611897233689     -0.485742354626     
5600000000.0        -0.620360621032     -0.48370122664      0.379623298572      -0.485888683361     0.379623298572      -0.485888683361     -0.620360621032     -0.48370122664      
5700000000.0        -0.628603208934     -0.481562217017     0.371380598751      -0.483789477085     0.371380598751      -0.483789477085     -0.628603208934     -0.481562217017     
5800000000.0        -0.636629890029     -0.479333994355     0.363353804044      -0.481601079141     0.363353804044      -0.481601079141     -0.636629890029     -0.479333994355     
5900000000.0        -0.644445620259     -0.477024690068     0.355537958506      -0.479331620628     0.355537958506      -0.479331620628     -0.644445620259     -0.477024690068     
6000000000.0        -0.652055394335     -0.474641925212     0.347928067424      -0.476988722291     0.347928067424      -0.476988722291     -0.652055394335     -0.474641925212     
6100000000.0        -0.659464224037     -0.472192836699     0.340519119014      -0.474579520735     0.340519119014      -0.474579520735     -0.659464224037     -0.472192836699     
6200000000.0        -0.666677119101     -0.469684102787     0.333306103538      -0.472110693915     0.333306103538      -0.472110693915     -0.666677119101     -0.469684102787     
6300000000.0        -0.673699070466     -0.467121967779     0.326284030055      -0.469588485831     0.326284030055      -0.469588485831     -0.673699070466     -0.467121967779     
6400000000.0        -0.68053503566      -0.464512265849     0.319447941034      -0.467018730365     0.319447941034      -0.467018730365     -0.68053503566      -0.464512265849     
6500000000.0        -0.687189926125     -0.461860443986     0.312792925032      -0.464406874212     0.312792925032      -0.464406874212     -0.687189926125     -0.461860443986     
6600000000.0        -0.693668596296     -0.459171583995     0.306314127611      -0.461757998893     0.306314127611      -0.461757998893     -0.693668596296     -0.459171583995     
6700000000.0        -0.699975834258     -0.456450423567     0.300006760683      -0.459076841814     0.300006760683      -0.459076841814     -0.699975834258     -0.456450423567     
6800000000.0        -0.706116353828     -0.453701376394     0.293866110432      -0.45636781639      0.293866110432      -0.45636781639      -0.706116353828     -0.453701376394     
6900000000.0        -0.712094787901     -0.450928551347     0.287887543959      -0.453635031218     0.287887543959      -0.453635031218     -0.712094787901     -0.450928551347     
7000000000.0        -0.717915682953     -0.448135770722     0.282066514786      -0.450882308327     0.282066514786      -0.450882308327     -0.717915682953     -0.448135770722     
7100000000.0        -0.723583494549     -0.445326587571     0.276398567347      -0.448113200504     0.276398567347      -0.448113200504     -0.723583494549     -0.445326587571     
7200000000.0        -0.729102583764     -0.442504302142     0.270879340565      -0.445331007738     0.270879340565      -0.445331007738     -0.729102583764     -0.442504302142     
7300000000.0        -0.73447721441      -0.439671977447     0.265504570627      -0.442538792789     0.265504570627      -0.442538792789     -0.73447721441      -0.439671977447     
7400000000.0        -0.739711550975     -0.436832453998     0.260270093044      -0.439739395919     0.260270093044      -0.439739395919     -0.739711550975     -0.436832453998     
7500000000.0        -0.744809657191     -0.433988363731     0.255171844081      -0.436935448818     0.255171844081      -0.436935448818     -0.744809657191     -0.433988363731     
7600000000.0        -0.749775495162     -0.431142143144     0.250205861634      -0.434129387746     0.250205861634      -0.434129387746     -0.749775495162     -0.431142143144     
7700000000.0        -0.75461292497      -0.428296045702     0.245368285618      -0.431323465933     0.245368285618      -0.431323465933     -0.75461292497      -0.428296045702     
7800000000.0        -0.759325704716     -0.425452153517     0.240655357932      -0.428519765263     0.240655357932      -0.428519765263     -0.759325704716     -0.425452153517     
7900000000.0        -0.76391749092      -0.422612388358     0.236063422054      -0.425720207277     0.236063422054      -0.425720207277     -0.76391749092      -0.422612388358     
8000000000.0        -0.768391839246     -0.419778521999     0.231588922319      -0.422926563531     0.231588922319      -0.422926563531     -0.768391839246     -0.419778521999     
8100000000.0        -0.772752205509     -0.416952185965     0.227228402911      -0.420140465336     0.227228402911      -0.420140465336     -0.772752205509     -0.416952185965     
8200000000.0        -0.777001946899     -0.414134880683     0.222978506639      -0.417363412907     0.222978506639      -0.417363412907     -0.777001946899     -0.414134880683     
8300000000.0        -0.781144323427     -0.411327984085     0.21883597349       -0.414596783969     0.21883597349       -0.414596783969     -0.781144323427     -0.411327984085     
8400000000.0        -0.785182499521     -0.408532759678     0.214797639036      -0.41184184183      0.214797639036      -0.41184184183      -0.785182499521     -0.408532759678     
8500000000.0        -0.789119545772     -0.405750364127     0.210860432683      -0.409099742959     0.210860432683      -0.409099742959     -0.789119545772     -0.405750364127     
8600000000.0        -0.79295844079      -0.402981854365     0.207021375824      -0.406371544096     0.207021375824      -0.406371544096     -0.79295844079      -0.402981854365     
8700000000.0        -0.796702073151     -0.40022819426      0.203277579877      -0.403658208922     0.203277579877      -0.403658208922     -0.796702073151     -0.40022819426      
8800000000.0        -0.800353243422     -0.397490260867     0.199626244277      -0.400960614308     0.199626244277      -0.400960614308     -0.800353243422     -0.397490260867     
8900000000.0        -0.803914666236     -0.394768850286     0.19606465439       -0.398279556178     0.19606465439       -0.398279556178     -0.803914666236     -0.394768850286     
9000000000.0        -0.807388972407     -0.392064683152     0.192590179401      -0.395615754991     0.192590179401      -0.395615754991     -0.807388972407     -0.392064683152     
9100000000.0        -0.810778711072     -0.389378409774     0.18920027017       -0.392969860887     0.18920027017       -0.392969860887     -0.810778711072     -0.389378409774     
9200000000.0        -0.814086351851     -0.386710614955     0.185892457078      -0.390342458504     0.185892457078      -0.390342458504     -0.814086351851     -0.386710614955     
9300000000.0        -0.817314287005     -0.384061822493     0.182664347864      -0.387734071477     0.182664347864      -0.387734071477     -0.817314287005     -0.384061822493     
9400000000.0        -0.82046483359      -0.381432499402     0.179513625469      -0.385145166666     0.179513625469      -0.385145166666     -0.82046483359      -0.381432499402     
9500000000.0        -0.823540235607     -0.378823059864     0.176438045892      -0.382576158096     0.176438045892      -0.382576158096     -0.823540235607     -0.378823059864     
9600000000.0        -0.826542666122     -0.376233868917     0.173435436067      -0.380027410658     0.173435436067      -0.380027410658     -0.826542666122     -0.376233868917     
9700000000.0        -0.829474229367     -0.373665245914     0.170503691761      -0.37749924356      0.170503691761      -0.37749924356      -0.829474229367     -0.373665245914     
9800000000.0        -0.83233696281      -0.371117467755     0.167640775504      -0.374991933559     0.167640775504      -0.374991933559     -0.83233696281      -0.371117467755     
9900000000.0        -0.835132839195     -0.368590771908     0.164844714552      -0.372505717988     0.164844714552      -0.372505717988     -0.835132839195     -0.368590771908     
10000000000.0       -0.83786376854      -0.366085359239     0.162113598886      -0.370040797576     0.162113598886      -0.370040797576     -0.83786376854      -0.366085359239     
