# Hz S RI R 50.00 
100000000.0         0.0275800386964     0.00367848944365    0.97241686648       -0.00500090781583   0.97241686648       -0.00500090781583   0.0275800386964     0.00367848944365    
200000000.0         0.0278137046833     0.00735332372045    0.972179340072      -0.00999817214494   0.972179340072      -0.00999817214494   0.0278137046833     0.00735332372045    
300000000.0         0.0280374150284     0.0110252953717     0.971950003386      -0.0149925953777    0.971950003386      -0.0149925953777    0.0280374150284     0.0110252953717     
400000000.0         0.0282745087758     0.0146943603424     0.971705517067      -0.0199841420847    0.971705517067      -0.0199841420847    0.0282745087758     0.0146943603424     
500000000.0         0.0285339589891     0.0183602807627     0.971436907714      -0.024972582405     0.971436907714      -0.024972582405     0.0285339589891     0.0183602807627     
600000000.0         0.0288203209786     0.0220227335598     0.97113961965       -0.029957600872     0.97113961965       -0.029957600872     0.0288203209786     0.0220227335598     
700000000.0         0.0291362624879     0.0256813495366     0.970810984729      -0.0349388356002    0.970810984729      -0.0349388356002    0.0291362624879     0.0256813495366     
800000000.0         0.0294834875064     0.0293357315654     0.97044929852       -0.0399158965446    0.97044929852       -0.0399158965446    0.0294834875064     0.0293357315654     
900000000.0         0.0298631477504     0.032985464423      0.970053408828      -0.044888375378     0.970053408828      -0.044888375378     0.0298631477504     0.032985464423      
1000000000.0        0.0302760513083     0.0366301206722     0.969622507047      -0.0498558514036    0.969622507047      -0.0498558514036    0.0302760513083     0.0366301206722     
1100000000.0        0.0307227786714     0.0402692644508     0.969156012127      -0.0548178953653    0.969156012127      -0.0548178953653    0.0307227786714     0.0402692644508     
1200000000.0        0.0312037519037     0.043902454058      0.968653501408      -0.0597740720519    0.968653501408      -0.0597740720519    0.0312037519037     0.043902454058      
1300000000.0        0.0317192781881     0.0475292438053     0.968114667069      -0.064723942161     0.968114667069      -0.064723942161     0.0317192781881     0.0475292438053     
1400000000.0        0.0322695784713     0.0511491853948     0.967539287486      -0.0696670636885    0.967539287486      -0.0696670636885    0.0322695784713     0.0511491853948     
1500000000.0        0.0328548070049     0.0547618289811     0.966927207693      -0.0746029929987    0.966927207693      -0.0746029929987    0.0328548070049     0.0547618289811     
1600000000.0        0.033475065091      0.0583667240136     0.966278325631      -0.0795312856746    0.966278325631      -0.0795312856746    0.033475065091      0.0583667240136     
1700000000.0        0.0341304110082     0.0619634199227     0.965592582227      -0.0844514972103    0.965592582227      -0.0844514972103    0.0341304110082     0.0619634199227     
1800000000.0        0.0348208673453     0.0655514666913     0.964869954056      -0.0893631835872    0.964869954056      -0.0893631835872    0.0348208673453     0.0655514666913     
1900000000.0        0.035546426531      0.0691304153407     0.964110447816      -0.0942659017658    0.964110447816      -0.0942659017658    0.035546426531      0.0691304153407     
2000000000.0        0.0363070550781     0.0726998183515     0.963314096081      -0.0991592101095    0.963314096081      -0.0991592101095    0.0363070550781     0.0726998183515     
2100000000.0        0.0371026968965     0.0762592300335     0.96248095399       -0.104042668758     0.96248095399       -0.104042668758     0.0371026968965     0.0762592300335     
2200000000.0        0.0379332759169     0.0798082068546     0.96161109662       -0.108915839961     0.96161109662       -0.108915839961     0.0379332759169     0.0798082068546     
2300000000.0        0.0387986981987     0.0833463077386     0.960704616884      -0.113778288377     0.960704616884      -0.113778288377     0.0387986981987     0.0833463077386     
2400000000.0        0.0396988536453     0.0868730943356     0.959761623808      -0.118629581346     0.959761623808      -0.118629581346     0.0396988536453     0.0868730943356     
2500000000.0        0.0406336174175     0.0903881312706     0.958782241125      -0.123469289142     0.958782241125      -0.123469289142     0.0406336174175     0.0903881312706     
2600000000.0        0.0416028511118     0.0938909863743     0.957766606094      -0.128296985207     0.957766606094      -0.128296985207     0.0416028511118     0.0938909863743     
2700000000.0        0.0426064037535     0.0973812308971     0.956714868505      -0.133112246362     0.956714868505      -0.133112246362     0.0426064037535     0.0973812308971     
2800000000.0        0.0436441126435     0.10085843971       0.955627189835      -0.137914653014     0.955627189835      -0.137914653014     0.0436441126435     0.10085843971       
2900000000.0        0.0447158040879     0.104322191496      0.954503742518      -0.142703789348     0.954503742518      -0.142703789348     0.0447158040879     0.104322191496      
3000000000.0        0.0458212940324     0.107772068923      0.953344709311      -0.1474792435       0.953344709311      -0.1474792435       0.0458212940324     0.107772068923      
3100000000.0        0.0469603886206     0.11120765882       0.952150282732      -0.152240607737     0.952150282732      -0.152240607737     0.0469603886206     0.11120765882       
3200000000.0        0.0481328846889     0.114628552332      0.950920664573      -0.156987478612     0.950920664573      -0.156987478612     0.0481328846889     0.114628552332      
3300000000.0        0.0493385702103     0.118034345076      0.949656065447      -0.161719457117     0.949656065447      -0.161719457117     0.0493385702103     0.118034345076      
3400000000.0        0.0505772246951     0.121424637285      0.948356704395      -0.166436148837     0.948356704395      -0.166436148837     0.0505772246951     0.121424637285      
3500000000.0        0.0518486195568     0.124799033946      0.947022808515      -0.171137164082     0.947022808515      -0.171137164082     0.0518486195568     0.124799033946      
3600000000.0        0.0531525184479     0.128157144934      0.94565461263       -0.175822118023     0.94565461263       -0.175822118023     0.0531525184479     0.128157144934      
3700000000.0        0.0544886775711     0.131498585137      0.944252358975      -0.180490630819     0.944252358975      -0.180490630819     0.0544886775711     0.131498585137      
3800000000.0        0.0558568459698     0.134822974577      0.942816296905      -0.18514232774      0.942816296905      -0.18514232774      0.0558568459698     0.134822974577      
3900000000.0        0.0572567658005     0.138129938522      0.941346682627      -0.189776839281     0.941346682627      -0.189776839281     0.0572567658005     0.138129938522      
4000000000.0        0.0586881725908     0.141419107603      0.939843778937      -0.194393801269     0.939843778937      -0.194393801269     0.0586881725908     0.141419107603      
4100000000.0        0.0601507954844     0.14469011791       0.93830785498       -0.198992854976     0.93830785498       -0.198992854976     0.0601507954844     0.14469011791       
4200000000.0        0.061644357475      0.147942611095      0.936739186011      -0.203573647212     0.936739186011      -0.203573647212     0.061644357475      0.147942611095      
4300000000.0        0.0631685756311     0.151176234469      0.935138053174      -0.208135830424     0.935138053174      -0.208135830424     0.0631685756311     0.151176234469      
4400000000.0        0.0647231613126     0.154390641087      0.933504743286      -0.212679062785     0.933504743286      -0.212679062785     0.0647231613126     0.154390641087      
4500000000.0        0.0663078203806     0.157585489837      0.931839548622      -0.217203008279     0.931839548622      -0.217203008279     0.0663078203806     0.157585489837      
4600000000.0        0.0679222534007     0.160760445518      0.930142766719      -0.221707336784     0.930142766719      -0.221707336784     0.0679222534007     0.160760445518      
4700000000.0        0.0695661558412     0.163915178916      0.928414700171      -0.226191724147     0.928414700171      -0.226191724147     0.0695661558412     0.163915178916      
4800000000.0        0.0712392182668     0.167049366878      0.92665565644       -0.230655852257     0.92665565644       -0.230655852257     0.0712392182668     0.167049366878      
4900000000.0        0.072941126528      0.170162692378      0.924865947665      -0.23509940911      0.924865947665      -0.23509940911      0.072941126528      0.170162692378      
5000000000.0        0.0746715619464     0.173254844576      0.923045890477      -0.239522088877     0.923045890477      -0.239522088877     0.0746715619464     0.173254844576      
5100000000.0        0.0764302014977     0.176325518883      0.921195805813      -0.243923591958     0.921195805813      -0.243923591958     0.0764302014977     0.176325518883      
5200000000.0        0.0782167179904     0.179374417012      0.919316018744      -0.248303625041     0.919316018744      -0.248303625041     0.0782167179904     0.179374417012      
5300000000.0        0.0800307802429     0.182401247026      0.917406858291      -0.252661901148     0.917406858291      -0.252661901148     0.0800307802429     0.182401247026      
5400000000.0        0.0818720532575     0.185405723388      0.915468657256      -0.256998139686     0.915468657256      -0.256998139686     0.0818720532575     0.185405723388      
5500000000.0        0.0837401983922     0.188387567001      0.913501752046      -0.261312066488     0.913501752046      -0.261312066488     0.0837401983922     0.188387567001      
5600000000.0        0.0856348735303     0.191346505247      0.911506482507      -0.265603413849     0.911506482507      -0.265603413849     0.0856348735303     0.191346505247      
5700000000.0        0.087555733248      0.19428227202       0.909483191754      -0.269871920562     0.909483191754      -0.269871920562     0.087555733248      0.19428227202       
5800000000.0        0.0895024289801     0.197194607756      0.907432226008      -0.274117331951     0.907432226008      -0.274117331951     0.0895024289801     0.197194607756      
5900000000.0        0.0914746091834     0.200083259461      0.905353934428      -0.278339399893     0.905353934428      -0.278339399893     0.0914746091834     0.200083259461      
6000000000.0        0.093471919499      0.202947980732      0.903248668954      -0.282537882844     0.903248668954      -0.282537882844     0.093471919499      0.202947980732      
6100000000.0        0.0954940029124     0.205788531774      0.901116784142      -0.286712545857     0.901116784142      -0.286712545857     0.0954940029124     0.205788531774      
6200000000.0        0.0975404999113     0.208604679421      0.898958637011      -0.290863160597     0.898958637011      -0.290863160597     0.0975404999113     0.208604679421      
6300000000.0        0.099611048643      0.21139619714       0.896774586881      -0.294989505353     0.896774586881      -0.294989505353     0.099611048643      0.21139619714       
6400000000.0        0.101705285069      0.214162865044      0.894564995222      -0.299091365048     0.894564995222      -0.299091365048     0.101705285069      0.214162865044      
6500000000.0        0.103822843117      0.216904469894      0.892330225499      -0.303168531239     0.892330225499      -0.303168531239     0.103822843117      0.216904469894      
6600000000.0        0.105963354834      0.219620805102      0.89007064302       -0.307220802123     0.89007064302       -0.307220802123     0.105963354834      0.219620805102      
6700000000.0        0.108126450537      0.222311670724      0.887786614788      -0.311247982532     0.887786614788      -0.311247982532     0.108126450537      0.222311670724      
6800000000.0        0.110311758957      0.22497687346       0.885478509353      -0.315249883928     0.885478509353      -0.315249883928     0.110311758957      0.22497687346       
6900000000.0        0.112518907388      0.227616226641      0.883146696664      -0.319226324392     0.883146696664      -0.319226324392     0.112518907388      0.227616226641      
7000000000.0        0.114747521832      0.230229550215      0.880791547925      -0.323177128617     0.880791547925      -0.323177128617     0.114747521832      0.230229550215      
7100000000.0        0.116997227138      0.232816670738      0.878413435455      -0.327102127887     0.878413435455      -0.327102127887     0.116997227138      0.232816670738      
7200000000.0        0.119267647147      0.235377421348      0.876012732543      -0.331001160063     0.876012732543      -0.331001160063     0.119267647147      0.235377421348      
7300000000.0        0.121558404828      0.237911641747      0.873589813314      -0.334874069557     0.873589813314      -0.334874069557     0.121558404828      0.237911641747      
7400000000.0        0.123869122415      0.240419178178      0.871145052588      -0.338720707313     0.871145052588      -0.338720707313     0.123869122415      0.240419178178      
7500000000.0        0.126199421543      0.242899883394      0.868678825748      -0.342540930774     0.868678825748      -0.342540930774     0.126199421543      0.242899883394      
7600000000.0        0.128548923381      0.245353616628      0.866191508605      -0.346334603858     0.866191508605      -0.346334603858     0.128548923381      0.245353616628      
7700000000.0        0.130917248759      0.247780243564      0.863683477268      -0.350101596919     0.863683477268      -0.350101596919     0.130917248759      0.247780243564      
7800000000.0        0.133304018304      0.250179636297      0.861155108015      -0.353841786717     0.861155108015      -0.353841786717     0.133304018304      0.250179636297      
7900000000.0        0.135708852561      0.252551673297      0.858606777165      -0.357555056375     0.858606777165      -0.357555056375     0.135708852561      0.252551673297      
8000000000.0        0.138131372119      0.254896239365      0.856038860958      -0.361241295344     0.856038860958      -0.361241295344     0.138131372119      0.254896239365      
8100000000.0        0.140571197734      0.257213225597      0.853451735424      -0.364900399353     0.853451735424      -0.364900399353     0.140571197734      0.257213225597      
8200000000.0        0.143027950451      0.259502529328      0.850845776271      -0.36853227037      0.850845776271      -0.36853227037      0.143027950451      0.259502529328      
8300000000.0        0.145501251718      0.261764054096      0.848221358761      -0.372136816551     0.848221358761      -0.372136816551     0.145501251718      0.261764054096      
8400000000.0        0.147990723507      0.26399770958       0.845578857597      -0.37571395219      0.845578857597      -0.37571395219      0.147990723507      0.26399770958       
8500000000.0        0.150495988424      0.266203411556      0.842918646808      -0.379263597668     0.842918646808      -0.379263597668     0.150495988424      0.266203411556      
8600000000.0        0.153016669821      0.268381081841      0.840241099638      -0.382785679399     0.840241099638      -0.382785679399     0.153016669821      0.268381081841      
8700000000.0        0.155552391906      0.270530648235      0.837546588436      -0.386280129772     0.837546588436      -0.386280129772     0.155552391906      0.270530648235      
8800000000.0        0.158102779851      0.272652044463      0.83483548455       -0.389746887094     0.83483548455       -0.389746887094     0.158102779851      0.272652044463      
8900000000.0        0.160667459894      0.274745210116      0.832108158222      -0.393185895533     0.832108158222      -0.393185895533     0.160667459894      0.274745210116      
9000000000.0        0.163246059443      0.276810090589      0.829364978484      -0.396597105049     0.829364978484      -0.396597105049     0.163246059443      0.276810090589      
9100000000.0        0.165838207176      0.278846637016      0.826606313062      -0.399980471339     0.826606313062      -0.399980471339     0.165838207176      0.278846637016      
9200000000.0        0.168443533135      0.280854806209      0.823832528273      -0.403335955766     0.823832528273      -0.403335955766     0.168443533135      0.280854806209      
9300000000.0        0.171061668829      0.282834560584      0.821043988936      -0.406663525296     0.821043988936      -0.406663525296     0.171061668829      0.282834560584      
9400000000.0        0.173692247317      0.284785868101      0.818241058273      -0.409963152428     0.818241058273      -0.409963152428     0.173692247317      0.284785868101      
9500000000.0        0.176334903305      0.286708702189      0.815424097824      -0.413234815125     0.815424097824      -0.413234815125     0.176334903305      0.286708702189      
9600000000.0        0.178989273233      0.288603041678      0.812593467354      -0.416478496742     0.812593467354      -0.416478496742     0.178989273233      0.288603041678      
9700000000.0        0.181654995358      0.290468870724      0.80974952477       -0.419694185959     0.80974952477       -0.419694185959     0.181654995358      0.290468870724      
9800000000.0        0.18433170984       0.29230617874       0.806892626039      -0.4228818767       0.806892626039      -0.4228818767       0.18433170984       0.29230617874       
9900000000.0        0.187019058821      0.294114960316      0.804023125104      -0.426041568067     0.804023125104      -0.426041568067     0.187019058821      0.294114960316      
10000000000.0       0.189716686506      0.29589521515       0.801141373807      -0.429173264259     0.801141373807      -0.429173264259     0.189716686506      0.29589521515       
