# Hz S RI R 50.00 
100000000.0         0.00401635376874    0.000989712137185   0.995981814166      -0.00164407601969   0.995981814166      -0.00164407601969   0.00401635376874    0.000989712137185   
200000000.0         0.00404752039249    0.00197927807593    0.995949386667      -0.00328801872231   0.995949386667      -0.00328801872231   0.00404752039249    0.00197927807593    
300000000.0         0.00407485360925    0.00296874509762    0.99592036371       -0.00493188244944   0.99592036371       -0.00493188244944   0.00407485360925    0.00296874509762    
400000000.0         0.00410183431917    0.00395812300226    0.995891264327      -0.00657568244125   0.995891264327      -0.00657568244125   0.00410183431917    0.00395812300226    
500000000.0         0.00412980422577    0.00494741277262    0.995860746738      -0.00821942429553   0.995860746738      -0.00821942429553   0.00412980422577    0.00494741277262    
600000000.0         0.00415944811095    0.00593661146701    0.995828126073      -0.00986310914083   0.995828126073      -0.00986310914083   0.00415944811095    0.00593661146701    
700000000.0         0.0041911707654     0.00692571399001    0.995792997447      -0.0115067355503    0.995792997447      -0.0115067355503    0.0041911707654     0.00692571399001    
800000000.0         0.00422523459516    0.00791471391897    0.995755098351      -0.0131503004546    0.995755098351      -0.0131503004546    0.00422523459516    0.00791471391897    
900000000.0         0.00426182090722    0.0089036039506     0.995714247367      -0.0147937996453    0.995714247367      -0.0147937996453    0.00426182090722    0.0089036039506     
1000000000.0        0.0043010609818     0.00989237616649    0.995670313098      -0.0164372280807    0.995670313098      -0.0164372280807    0.0043010609818     0.00989237616649    
1100000000.0        0.0043430533492     0.0108810222026     0.99562319689       -0.0180805800851    0.99562319689       -0.0180805800851    0.0043430533492     0.0108810222026     
1200000000.0        0.00438787408707    0.011869533363      0.995572822536      -0.0197238494855    0.995572822536      -0.0197238494855    0.00438787408707    0.011869533363      
1300000000.0        0.00443558330042    0.0128579006995     0.995519129795      -0.0213670297092    0.995519129795      -0.0213670297092    0.00443558330042    0.0128579006995     
1400000000.0        0.00448622938184    0.0138461150692     0.995462070133      -0.0230101138562    0.995462070133      -0.0230101138562    0.00448622938184    0.0138461150692     
1500000000.0        0.0045398519152     0.0148341671775     0.995401603822      -0.0246530947539    0.995401603822      -0.0246530947539    0.0045398519152     0.0148341671775     
1600000000.0        0.00459648371551    0.0158220476105     0.995337697895      -0.0262959649998    0.995337697895      -0.0262959649998    0.00459648371551    0.0158220476105     
1700000000.0        0.00465615229916    0.0168097468599     0.995270324681      -0.0279387169952    0.995270324681      -0.0279387169952    0.00465615229916    0.0168097468599     
1800000000.0        0.00471888096754    0.0177972553435     0.995199460719      -0.0295813429724    0.995199460719      -0.0295813429724    0.00471888096754    0.0177972553435     
1900000000.0        0.00478468962122    0.0187845634203     0.995125085945      -0.0312238350169    0.995125085945      -0.0312238350169    0.00478468962122    0.0187845634203     
2000000000.0        0.00485359538214    0.0197716614036     0.99504718307       -0.0328661850858    0.99504718307       -0.0328661850858    0.00485359538214    0.0197716614036     
2100000000.0        0.00492561307634    0.0207585395716     0.994965737096      -0.0345083850232    0.994965737096      -0.0345083850232    0.00492561307634    0.0207585395716     
2200000000.0        0.00500075561355    0.0217451881757     0.994880734939      -0.0361504265732    0.994880734939      -0.0361504265732    0.00500075561355    0.0217451881757     
2300000000.0        0.0050790342893     0.0227315974478     0.994792165125      -0.0377923013909    0.994792165125      -0.0377923013909    0.0050790342893     0.0227315974478     
2400000000.0        0.00516045902801    0.0237177576062     0.994700017548      -0.039434001052     0.994700017548      -0.039434001052     0.00516045902801    0.0237177576062     
2500000000.0        0.00524503858055    0.0247036588608     0.994604283273      -0.041075517061     0.994604283273      -0.041075517061     0.00524503858055    0.0247036588608     
2600000000.0        0.00533278068618    0.0256892914171     0.994504954374      -0.0427168408586    0.994504954374      -0.0427168408586    0.00533278068618    0.0256892914171     
2700000000.0        0.00542369220656    0.02667464548       0.994402023799      -0.0443579638276    0.994402023799      -0.0443579638276    0.00542369220656    0.02667464548       
2800000000.0        0.00551777923728    0.0276597112571     0.994295485259      -0.0459988772988    0.994295485259      -0.0459988772988    0.00551777923728    0.0276597112571     
2900000000.0        0.0056150472015     0.0286444789608     0.994185333137      -0.0476395725557    0.994185333137      -0.0476395725557    0.0056150472015     0.0286444789608     
3000000000.0        0.00571550092905    0.0296289388113     0.994071562406      -0.049280040839     0.994071562406      -0.049280040839     0.00571550092905    0.0296289388113     
3100000000.0        0.00581914472362    0.0306130810379     0.993954168561      -0.0509202733507    0.993954168561      -0.0509202733507    0.00581914472362    0.0306130810379     
3200000000.0        0.00592598242012    0.0315968958813     0.993833147566      -0.0525602612569    0.993833147566      -0.0525602612569    0.00592598242012    0.0315968958813     
3300000000.0        0.00603601743403    0.0325803735948     0.993708495801      -0.0541999956917    0.993708495801      -0.0541999956917    0.00603601743403    0.0325803735948     
3400000000.0        0.00614925280394    0.0335635044454     0.993580210023      -0.0558394677599    0.993580210023      -0.0558394677599    0.00614925280394    0.0335635044454     
3500000000.0        0.00626569122847    0.0345462787155     0.993448287326      -0.0574786685393    0.993448287326      -0.0574786685393    0.00626569122847    0.0345462787155     
3600000000.0        0.00638533509843    0.0355286867032     0.993312725108      -0.0591175890832    0.993312725108      -0.0591175890832    0.00638533509843    0.0355286867032     
3700000000.0        0.0065081865249     0.0365107187236     0.993173521049      -0.0607562204225    0.993173521049      -0.0607562204225    0.0065081865249     0.0365107187236     
3800000000.0        0.00663424736397    0.0374923651096     0.99303067308       -0.0623945535678    0.99303067308       -0.0623945535678    0.00663424736397    0.0374923651096     
3900000000.0        0.00676351923843    0.0384736162122     0.992884179364      -0.0640325795111    0.992884179364      -0.0640325795111    0.00676351923843    0.0384736162122     
4000000000.0        0.00689600355703    0.0394544624012     0.992734038278      -0.0656702892272    0.992734038278      -0.0656702892272    0.00689600355703    0.0394544624012     
4100000000.0        0.00703170153158    0.0404348940659     0.992580248393      -0.0673076736756    0.992580248393      -0.0673076736756    0.00703170153158    0.0404348940659     
4200000000.0        0.00717061419206    0.0414149016151     0.992422808462      -0.0689447238017    0.992422808462      -0.0689447238017    0.00717061419206    0.0414149016151     
4300000000.0        0.00731274240024    0.042394475478      0.992261717405      -0.070581430538     0.992261717405      -0.070581430538     0.00731274240024    0.042394475478      
4400000000.0        0.00745808686177    0.043373606104      0.992096974296      -0.0722177848054    0.992096974296      -0.0722177848054    0.00745808686177    0.043373606104      
4500000000.0        0.00760664813712    0.0443522839632     0.991928578356      -0.0738537775142    0.991928578356      -0.0738537775142    0.00760664813711    0.0443522839632     
4600000000.0        0.0077584266513     0.0453304995468     0.991756528937      -0.0754893995654    0.991756528937      -0.0754893995654    0.0077584266513     0.0453304995468     
4700000000.0        0.00791342270281    0.0463082433669     0.991580825519      -0.077124641851     0.991580825519      -0.077124641851     0.00791342270281    0.0463082433669     
4800000000.0        0.00807163647153    0.0472855059571     0.9914014677        -0.0787594952557    0.9914014677        -0.0787594952557    0.00807163647153    0.0472855059571     
4900000000.0        0.00823306802606    0.048262277872      0.991218455187      -0.080393950657     0.991218455187      -0.080393950657     0.00823306802606    0.048262277872      
5000000000.0        0.00839771733023    0.0492385496882     0.991031787794      -0.0820279989264    0.991031787794      -0.0820279989264    0.00839771733023    0.0492385496882     
5100000000.0        0.00856558424916    0.0502143120036     0.99084146543       -0.08366163093      0.99084146543       -0.08366163093      0.00856558424916    0.0502143120036     
5200000000.0        0.00873666855468    0.0511895554376     0.9906474881        -0.0852948375289    0.9906474881        -0.0852948375289    0.00873666855468    0.0511895554376     
5300000000.0        0.00891096993033    0.0521642706317     0.990449855895      -0.0869276095803    0.990449855895      -0.0869276095803    0.00891096993033    0.0521642706317     
5400000000.0        0.00908848797599    0.0531384482488     0.990248568989      -0.0885599379377    0.990248568989      -0.0885599379377    0.00908848797599    0.0531384482488     
5500000000.0        0.00926922221202    0.0541120789737     0.990043627637      -0.0901918134515    0.990043627637      -0.0901918134515    0.00926922221202    0.0541120789737     
5600000000.0        0.00945317208314    0.0550851535127     0.989835032168      -0.0918232269696    0.989835032168      -0.0918232269696    0.00945317208314    0.0550851535127     
5700000000.0        0.009640336962      0.056057662594      0.989622782984      -0.0934541693379    0.989622782984      -0.0934541693379    0.009640336962      0.056057662594      
5800000000.0        0.00983071615244    0.0570295969675     0.989406880556      -0.0950846314005    0.989406880556      -0.0950846314005    0.00983071615244    0.0570295969675     
5900000000.0        0.0100243088925     0.0580009474048     0.989187325419      -0.0967146040006    0.989187325419      -0.0967146040006    0.0100243088925     0.0580009474048     
6000000000.0        0.0102211143573     0.0589717046988     0.988964118173      -0.0983440779803    0.988964118173      -0.0983440779803    0.0102211143573     0.0589717046988     
6100000000.0        0.0104211316615     0.0599418596644     0.988737259478      -0.0999730441814    0.988737259478      -0.0999730441814    0.0104211316615     0.0599418596644     
6200000000.0        0.0106243598618     0.0609114031376     0.988506750051      -0.101601493445     0.988506750051      -0.101601493445     0.0106243598618     0.0609114031376     
6300000000.0        0.0108307979593     0.0618803259763     0.988272590667      -0.103229416614     0.988272590667      -0.103229416614     0.0108307979593     0.0618803259763     
6400000000.0        0.0110404449012     0.0628486190593     0.988034782153      -0.104856804531     0.988034782153      -0.104856804531     0.0110404449012     0.0628486190593     
6500000000.0        0.0112532995832     0.0638162732871     0.98779332539       -0.106483648038     0.98779332539       -0.106483648038     0.0112532995832     0.0638162732871     
6600000000.0        0.0114693608509     0.0647832795811     0.987548221307      -0.108109937979     0.987548221307      -0.108109937979     0.0114693608509     0.0647832795811     
6700000000.0        0.011688627502      0.0657496288842     0.987299470884      -0.109735665202     0.987299470884      -0.109735665202     0.011688627502      0.0657496288842     
6800000000.0        0.0119110982872     0.0667153121601     0.987047075146      -0.111360820552     0.987047075146      -0.111360820552     0.0119110982872     0.0667153121601     
6900000000.0        0.0121367719123     0.0676803203937     0.986791035165      -0.112985394879     0.986791035165      -0.112985394879     0.0121367719123     0.0676803203937     
7000000000.0        0.0123656470392     0.0686446445905     0.986531352059      -0.114609379034     0.986531352059      -0.114609379034     0.0123656470392     0.0686446445905     
7100000000.0        0.0125977222875     0.0696082757771     0.986268026984      -0.116232763871     0.986268026984      -0.116232763871     0.0125977222875     0.0696082757771     
7200000000.0        0.0128329962354     0.0705712050006     0.986001061144      -0.117855540245     0.986001061144      -0.117855540245     0.0128329962354     0.0705712050006     
7300000000.0        0.0130714674211     0.0715334233289     0.985730455779      -0.119477699015     0.985730455779      -0.119477699015     0.0130714674211     0.0715334233289     
7400000000.0        0.0133131343439     0.0724949218503     0.985456212172      -0.121099231042     0.985456212172      -0.121099231042     0.0133131343439     0.0724949218503     
7500000000.0        0.013557995465      0.0734556916736     0.985178331643      -0.122720127189     0.985178331643      -0.122720127189     0.013557995465      0.0734556916736     
7600000000.0        0.0138060492087     0.0744157239278     0.98489681555       -0.124340378325     0.98489681555       -0.124340378325     0.0138060492087     0.0744157239278     
7700000000.0        0.0140572939631     0.0753750097623     0.984611665289      -0.12595997532      0.984611665289      -0.12595997532      0.0140572939631     0.0753750097623     
7800000000.0        0.0143117280813     0.0763335403466     0.984322882292      -0.127578909047     0.984322882292      -0.127578909047     0.0143117280813     0.0763335403466     
7900000000.0        0.0145693498817     0.07729130687       0.984030468025      -0.129197170384     0.984030468025      -0.129197170384     0.0145693498817     0.07729130687       
8000000000.0        0.0148301576494     0.0782483005422     0.983734423989      -0.130814750212     0.983734423989      -0.130814750212     0.0148301576494     0.0782483005422     
8100000000.0        0.0150941496363     0.0792045125923     0.983434751722      -0.132431639416     0.983434751722      -0.132431639416     0.0150941496363     0.0792045125923     
8200000000.0        0.0153613240624     0.0801599342693     0.983131452791      -0.134047828883     0.983131452791      -0.134047828883     0.0153613240624     0.0801599342693     
8300000000.0        0.0156316791159     0.0811145568419     0.982824528798      -0.135663309508     0.982824528798      -0.135663309508     0.0156316791159     0.0811145568419     
8400000000.0        0.0159052129544     0.0820683715984     0.982513981378      -0.137278072186     0.982513981378      -0.137278072186     0.0159052129544     0.0820683715984     
8500000000.0        0.016181923705      0.0830213698464     0.982199812194      -0.138892107817     0.982199812194      -0.138892107817     0.016181923705      0.0830213698464     
8600000000.0        0.0164618094651     0.0839735429129     0.981882022945      -0.140505407308     0.981882022945      -0.140505407308     0.0164618094651     0.0839735429129     
8700000000.0        0.016744868303      0.0849248821441     0.981560615355      -0.142117961567     0.981560615355      -0.142117961567     0.016744868303      0.0849248821441     
8800000000.0        0.0170310982583     0.0858753789056     0.981235591183      -0.143729761507     0.981235591183      -0.143729761507     0.0170310982583     0.0858753789056     
8900000000.0        0.0173204973425     0.0868250245819     0.980906952215      -0.145340798047     0.980906952215      -0.145340798047     0.0173204973425     0.0868250245819     
9000000000.0        0.0176130635394     0.0877738105765     0.980574700266      -0.14695106211      0.980574700266      -0.14695106211      0.0176130635394     0.0877738105765     
9100000000.0        0.0179087948054     0.0887217283117     0.980238837181      -0.148560544622     0.980238837181      -0.148560544622     0.0179087948054     0.0887217283117     
9200000000.0        0.0182076890705     0.0896687692287     0.979899364832      -0.150169236516     0.979899364832      -0.150169236516     0.0182076890705     0.0896687692287     
9300000000.0        0.018509744238      0.0906149247875     0.979556285119      -0.151777128728     0.979556285119      -0.151777128728     0.018509744238      0.0906149247875     
9400000000.0        0.0188149581853     0.0915601864666     0.979209599971      -0.1533842122       0.979209599971      -0.1533842122       0.0188149581853     0.0915601864666     
9500000000.0        0.0191233287643     0.092504545763      0.978859311343      -0.154990477877     0.978859311343      -0.154990477877     0.0191233287643     0.092504545763      
9600000000.0        0.0194348538017     0.0934479941923     0.978505421216      -0.15659591671      0.978505421216      -0.15659591671      0.0194348538017     0.0934479941923     
9700000000.0        0.0197495310992     0.0943905232883     0.978147931601      -0.158200519657     0.978147931601      -0.158200519657     0.0197495310992     0.0943905232883     
9800000000.0        0.0200673584342     0.0953321246033     0.977786844532      -0.159804277676     0.977786844532      -0.159804277676     0.0200673584342     0.0953321246033     
9900000000.0        0.0203883335597     0.0962727897076     0.97742216207       -0.161407181736     0.97742216207       -0.161407181736     0.0203883335597     0.0962727897076     
10000000000.0       0.0207124542049     0.0972125101896     0.977053886301      -0.163009222805     0.977053886301      -0.163009222805     0.0207124542049     0.0972125101896     
