# Hz S RI R 50.00 
100000000.0         -0.000242703311385  -0.0186560228496    0.999490876557      -0.0191118392498    0.999490876557      -0.0191118392498    -0.000242703311384  -0.0186560228496    
200000000.0         -0.00132896488158   -0.0372703923261    0.998402489278      -0.0381820435464    0.998402489278      -0.0381820435464    -0.00132896488158   -0.0372703923261    
300000000.0         -0.00312261745041   -0.0558031722739    0.996606961916      -0.0571706895441    0.996606961916      -0.0571706895441    -0.00312261745041   -0.0558031722739    
400000000.0         -0.00561593891848   -0.0742150054745    0.99411178722       -0.0760384305151    0.99411178722       -0.0760384305151    -0.00561593891848   -0.0742150054745    
500000000.0         -0.00879839615703   -0.0924673829996    0.990927410327      -0.0947467669725    0.990927410327      -0.0947467669725    -0.00879839615703   -0.0924673829996    
600000000.0         -0.0126567052357    -0.110522902348     0.987067070432      -0.113258305194     0.987067070432      -0.113258305194     -0.0126567052357    -0.110522902348     
700000000.0         -0.0171749553071    -0.128345509932     0.982546652019      -0.131536999896     0.982546652019      -0.131536999896     -0.0171749553071    -0.128345509932     
800000000.0         -0.0223347648949    -0.145900724581     0.977384519504      -0.149548377845     0.977384519504      -0.149548377845     -0.0223347648949    -0.145900724581     
900000000.0         -0.0281154622191    -0.163155839265     0.971601332887      -0.167259739656     0.971601332887      -0.167259739656     -0.0281154622191    -0.163155839265     
1000000000.0        -0.0344942847496    -0.180080098818     0.965219846159      -0.184640337563     0.965219846159      -0.184640337563     -0.0344942847496    -0.180080098818     
1100000000.0        -0.0414465939322    -0.196644851973     0.958264691441      -0.20166152749      0.958264691441      -0.20166152749      -0.0414465939322    -0.196644851973     
1200000000.0        -0.0489461012267    -0.212823676579     0.950762152282      -0.218296894297     0.950762152282      -0.218296894297     -0.0489461012267    -0.212823676579     
1300000000.0        -0.0569651016816    -0.228592477454     0.942739929656      -0.234522349655     0.942739929656      -0.234522349655     -0.0569651016816    -0.228592477454     
1400000000.0        -0.0654747113825    -0.243929556835     0.934226904239      -0.250316202508     0.934226904239      -0.250316202508     -0.0654747113825    -0.243929556835     
1500000000.0        -0.0744451052739    -0.258815657916     0.925252898397      -0.265659202632     0.925252898397      -0.265659202632     -0.0744451052739    -0.258815657916     
1600000000.0        -0.0838457520749    -0.27323398241      0.915848441142      -0.280534558205     0.915848441142      -0.280534558205     -0.0838457520749    -0.27323398241      
1700000000.0        -0.0936456432926    -0.287170183487     0.906044539023      -0.294927928756     0.906044539023      -0.294927928756     -0.0936456432926    -0.287170183487     
1800000000.0        -0.103813513653     -0.300612335762     0.89587245562       -0.308827395162     0.89587245562       -0.308827395162     -0.103813513653     -0.300612335762     
1900000000.0        -0.114318050633     -0.313550884315     0.88536350197       -0.322223408672     0.88536350197       -0.322223408672     -0.114318050633     -0.313550884315     
2000000000.0        -0.125128091134     -0.325978574893     0.874548839842      -0.335108721122     0.874548839842      -0.335108721122     -0.125128091134     -0.325978574893     
2100000000.0        -0.136212803755     -0.337890367626     0.863459299441      -0.34747829865      0.863459299441      -0.34747829865      -0.136212803755     -0.337890367626     
2200000000.0        -0.147541855463     -0.349283336626     0.852125212714      -0.359329221303     0.852125212714      -0.359329221303     -0.147541855463     -0.349283336626     
2300000000.0        -0.159085561854     -0.360156557896     0.840576263064      -0.370660570952     0.840576263064      -0.370660570952     -0.159085561854     -0.360156557896     
2400000000.0        -0.170815020541     -0.370510987909     0.82884135195       -0.381473309872     0.82884135195       -0.381473309872     -0.170815020541     -0.370510987909     
2500000000.0        -0.182702227513     -0.380349335153     0.816948482516      -0.391770152293     0.816948482516      -0.391770152293     -0.182702227513     -0.380349335153     
2600000000.0        -0.194720176616     -0.389675926823     0.8049246601        -0.401555431094     0.8049246601        -0.401555431094     -0.194720176616     -0.389675926823     
2700000000.0        -0.20684294253      -0.39849657267      0.792795809248      -0.410834961656     0.792795809248      -0.410834961656     -0.20684294253      -0.39849657267      
2800000000.0        -0.219045747865     -0.406818427881     0.78058670661       -0.419615904746     0.78058670661       -0.419615904746     -0.219045747865     -0.406818427881     
2900000000.0        -0.231305015144     -0.414649856636     0.768320928951      -0.427906630071     0.768320928951      -0.427906630071     -0.231305015144     -0.414649856636     
3000000000.0        -0.243598404605     -0.422000297821     0.756020815347      -0.435716582001     0.756020815347      -0.435716582001     -0.243598404605     -0.422000297821     
3100000000.0        -0.255904838836     -0.42888013417      0.743707442544      -0.44305614871      0.743707442544      -0.44305614871      -0.255904838836     -0.42888013417      
3200000000.0        -0.268204515352     -0.435300565897     0.731400612377      -0.449936535809     0.731400612377      -0.449936535809     -0.268204515352     -0.435300565897     
3300000000.0        -0.280478908245     -0.441273489706     0.719118850121      -0.456369645357     0.719118850121      -0.456369645357     -0.280478908245     -0.441273489706     
3400000000.0        -0.292710760063     -0.446811383874     0.706879412598      -0.462367960952     0.706879412598      -0.462367960952     -0.292710760063     -0.446811383874     
3500000000.0        -0.304884065081     -0.451927199941     0.694698304921      -0.467944439413     0.694698304921      -0.467944439413     -0.304884065081     -0.451927199941     
3600000000.0        -0.316984045063     -0.456634261367     0.682590304715      -0.473112409451     0.682590304715      -0.473112409451     -0.316984045063     -0.456634261367     
3700000000.0        -0.328997118615     -0.46094616941      0.670568992771      -0.477885477535     0.670568992771      -0.477885477535     -0.328997118615     -0.46094616941      
3800000000.0        -0.340910865154     -0.464876716313     0.658646789071      -0.482277441093     0.658646789071      -0.482277441093     -0.340910865154     -0.464876716313     
3900000000.0        -0.352713984451     -0.468439805813     0.646834993247      -0.486302209014     0.646834993247      -0.486302209014     -0.352713984451     -0.468439805813     
4000000000.0        -0.364396252644     -0.471649380882     0.635143828563      -0.489973729392     0.635143828563      -0.489973729392     -0.364396252644     -0.471649380882     
4100000000.0        -0.375948475555     -0.474519358515     0.623582488603      -0.493305924318     0.623582488603      -0.493305924318     -0.375948475555     -0.474519358515     
4200000000.0        -0.387362440031     -0.477063571353     0.612159185922      -0.496312631503     0.612159185922      -0.496312631503     -0.387362440031     -0.477063571353     
4300000000.0        -0.398630864006     -0.479295715839     0.600881201988      -0.499007552434     0.600881201988      -0.499007552434     -0.398630864006     -0.479295715839     
4400000000.0        -0.409747345854     -0.481229306595     0.589754937827      -0.501404206753     0.589754937827      -0.501404206753     -0.409747345854     -0.481229306595     
4500000000.0        -0.420706313577     -0.482877636667     0.578785964834      -0.503515892503     0.578785964834      -0.503515892503     -0.420706313577     -0.482877636667     
4600000000.0        -0.431502974258     -0.484253743268     0.567979075322      -0.505355651874     0.567979075322      -0.505355651874     -0.431502974258     -0.484253743268     
4700000000.0        -0.442133264185     -0.485370378638     0.557338332391      -0.506936242057     0.557338332391      -0.506936242057     -0.442133264185     -0.485370378638     
4800000000.0        -0.452593799968     -0.486239985639     0.546867118818      -0.508270110852     0.546867118818      -0.508270110852     -0.452593799968     -0.486239985639     
4900000000.0        -0.462881830917     -0.486874677704     0.536568184675      -0.509369376606     0.536568184675      -0.509369376606     -0.462881830917     -0.486874677704     
5000000000.0        -0.472995192901     -0.487286222769     0.526443693468      -0.510245812152     0.526443693468      -0.510245812152     -0.472995192901     -0.487286222769     
5100000000.0        -0.482932263872     -0.487486030808     0.516495266617      -0.510910832345     0.516495266617      -0.510910832345     -0.482932263872     -0.487486030808     
5200000000.0        -0.492691921182     -0.48748514465      0.506724026136      -0.51137548488      0.506724026136      -0.51137548488      -0.492691921182     -0.48748514465      
5300000000.0        -0.502273500781     -0.487294233717     0.497130635433      -0.511650444026     0.497130635433      -0.511650444026     -0.502273500781     -0.487294233717     
5400000000.0        -0.511676758383     -0.486923590383     0.487715338149      -0.511746006992     0.487715338149      -0.511746006992     -0.511676758383     -0.486923590383     
5500000000.0        -0.520901832617     -0.486383128653     0.478477995002      -0.511672092603     0.478477995002      -0.511672092603     -0.520901832617     -0.486383128653     
5600000000.0        -0.529949210186     -0.485682384886     0.469418118629      -0.511438242026     0.469418118629      -0.511438242026     -0.529949210186     -0.485682384886     
5700000000.0        -0.538819693028     -0.484830520304     0.460534906424      -0.511053621278     0.460534906424      -0.511053621278     -0.538819693028     -0.484830520304     
5800000000.0        -0.547514367452     -0.48383632505      0.451827271407      -0.510527025285     0.451827271407      -0.510527025285     -0.547514367452     -0.48383632505      
5900000000.0        -0.556034575209     -0.482708223578     0.443293871145      -0.509866883275     0.443293871145      -0.509866883275     -0.556034575209     -0.482708223578     
6000000000.0        -0.564381886457     -0.481454281174     0.43493313479       -0.509081265296     0.43493313479       -0.509081265296     -0.564381886457     -0.481454281174     
6100000000.0        -0.572558074552     -0.480082211431     0.426743288294      -0.508177889696     0.426743288294      -0.508177889696     -0.572558074552     -0.480082211431     
6200000000.0        -0.580565092598     -0.478599384508     0.418722377847      -0.507164131377     0.418722377847      -0.507164131377     -0.580565092598     -0.478599384508     
6300000000.0        -0.588405051697     -0.47701283603      0.410868291636      -0.5060470307       0.410868291636      -0.5060470307       -0.588405051697     -0.47701283603      
6400000000.0        -0.596080200811     -0.475329276493     0.40317877998       -0.504833302892     0.40317877998       -0.504833302892     -0.596080200811     -0.475329276493     
6500000000.0        -0.603592908163     -0.473555101068     0.39565147393       -0.503529347845     0.39565147393       -0.503529347845     -0.603592908163     -0.473555101068     
6600000000.0        -0.6109456441       -0.471696399674     0.388283902402      -0.502141260194     0.388283902402      -0.502141260194     -0.6109456441       -0.471696399674     
6700000000.0        -0.618140965334     -0.469758967258     0.381073507941      -0.500674839597     0.381073507941      -0.500674839597     -0.618140965334     -0.469758967258     
6800000000.0        -0.625181500489     -0.467748314178     0.374017661171      -0.499135601117     0.374017661171      -0.499135601117     -0.625181500489     -0.467748314178     
6900000000.0        -0.632069936873     -0.465669676629     0.367113674023      -0.497528785649     0.367113674023      -0.497528785649     -0.632069936873     -0.465669676629     
7000000000.0        -0.638809008393     -0.463528027044     0.36035881182       -0.495859370325     0.36035881182       -0.495859370325     -0.638809008393     -0.463528027044     
7100000000.0        -0.645401484556     -0.46132808443      0.353750304279      -0.494132078845     0.353750304279      -0.494132078845     -0.645401484556     -0.46132808443      
7200000000.0        -0.651850160462     -0.459074324575     0.347285355511      -0.492351391686     0.347285355511      -0.492351391686     -0.651850160462     -0.459074324575     
7300000000.0        -0.658157847747     -0.456770990097     0.340961153086      -0.490521556159     0.340961153086      -0.490521556159     -0.658157847747     -0.456770990097     
7400000000.0        -0.664327366381     -0.454422100316     0.334774876228      -0.488646596268     0.334774876228      -0.488646596268     -0.664327366381     -0.454422100316     
7500000000.0        -0.67036153729      -0.452031460892     0.328723703199      -0.48673032236      0.328723703199      -0.48673032236      -0.67036153729      -0.452031460892     
7600000000.0        -0.676263175714     -0.449602673238     0.322804817934      -0.484776340533     0.322804817934      -0.484776340533     -0.676263175714     -0.449602673238     
7700000000.0        -0.682035085265     -0.447139143674     0.317015415991      -0.482788061792     0.317015415991      -0.482788061792     -0.682035085265     -0.447139143674     
7800000000.0        -0.687680052621     -0.444644092311     0.311352709849      -0.480768710934     0.311352709849      -0.480768710934     -0.687680052621     -0.444644092311     
7900000000.0        -0.693200842813     -0.442120561658     0.305813933627      -0.478721335155     0.305813933627      -0.478721335155     -0.693200842813     -0.442120561658     
8000000000.0        -0.69860019505      -0.439571424948     0.300396347255      -0.476648812374     0.300396347255      -0.476648812374     -0.69860019505      -0.439571424948     
8100000000.0        -0.703880819047     -0.436999394166     0.29509724015       -0.474553859267     0.29509724015       -0.474553859267     -0.703880819047     -0.436999394166     
8200000000.0        -0.709045391806     -0.434407027795     0.289913934427      -0.472439039009     0.289913934427      -0.472439039009     -0.709045391806     -0.434407027795     
8300000000.0        -0.714096554821     -0.431796738264     0.284843787707      -0.470306768725     0.284843787707      -0.470306768725     -0.714096554821     -0.431796738264     
8400000000.0        -0.719036911659     -0.429170799112     0.279884195521      -0.468159326649     0.279884195521      -0.468159326649     -0.719036911659     -0.429170799112     
8500000000.0        -0.723869025898     -0.426531351858     0.275032593383      -0.465998859004     0.275032593383      -0.465998859004     -0.723869025898     -0.426531351858     
8600000000.0        -0.728595419378     -0.423880412594     0.270286458534      -0.463827386587     0.270286458534      -0.463827386587     -0.728595419378     -0.423880412594     
8700000000.0        -0.733218570743     -0.421219878301     0.265643311401      -0.461646811089     0.265643311401      -0.461646811089     -0.733218570743     -0.421219878301     
8800000000.0        -0.737740914251     -0.418551532888     0.261100716789      -0.459458921135     0.261100716789      -0.459458921135     -0.737740914251     -0.418551532888     
8900000000.0        -0.742164838812     -0.415877052973     0.256656284837      -0.457265398064     0.256656284837      -0.457265398064     -0.742164838812     -0.415877052973     
9000000000.0        -0.746492687253     -0.413198013399     0.252307671759      -0.455067821446     0.252307671759      -0.455067821446     -0.746492687253     -0.413198013399     
9100000000.0        -0.75072675577      -0.410515892509     0.24805258039       -0.452867674357     0.24805258039       -0.452867674357     -0.75072675577      -0.410515892509     
9200000000.0        -0.75486929356      -0.407832077169     0.243888760552      -0.450666348403     0.243888760552      -0.450666348403     -0.75486929356      -0.407832077169     
9300000000.0        -0.758922502606     -0.405147867565     0.239814009272      -0.448465148516     0.239814009272      -0.448465148516     -0.758922502606     -0.405147867565     
9400000000.0        -0.762888537608     -0.402464481768     0.235826170848      -0.446265297523     0.235826170848      -0.446265297523     -0.762888537608     -0.402464481768     
9500000000.0        -0.76676950604      -0.399783060083     0.231923136796      -0.444067940493     0.231923136796      -0.444067940493     -0.76676950604      -0.399783060083     
9600000000.0        -0.770567468313     -0.397104669194     0.228102845681      -0.441874148879     0.228102845681      -0.441874148879     -0.770567468313     -0.397104669194     
9700000000.0        -0.774284438045     -0.394430306098     0.224363282852      -0.439684924457     0.224363282852      -0.439684924457     -0.774284438045     -0.394430306098     
9800000000.0        -0.777922382415     -0.391760901852     0.220702480085      -0.437501203076     0.220702480085      -0.437501203076     -0.777922382415     -0.391760901852     
9900000000.0        -0.781483222602     -0.389097325134     0.217118515148      -0.435323858212     0.217118515148      -0.435323858212     -0.781483222602     -0.389097325134     
10000000000.0       -0.784968834277     -0.386440385627     0.213609511301      -0.433153704355     0.213609511301      -0.433153704355     -0.784968834277     -0.386440385627     
