# Hz S RI R 50.00 
100000000.0         0.00301125087737    0.00035108873459    0.996987590627      -0.000509472930254  0.996987590627      -0.000509472930254  0.00301125087737    0.00035108873459    
200000000.0         0.00303158761936    0.000702143254527   0.996967070276      -0.00101891228271   0.996967070276      -0.00101891228271   0.00303158761936    0.000702143254527   
300000000.0         0.00304692836548    0.0010531772527     0.996951520808      -0.00152833210499   0.996951520808      -0.00152833210499   0.00304692836548    0.0010531772527     
400000000.0         0.00305989101142    0.00140419532398    0.996938324325      -0.00203773726806   0.996938324325      -0.00203773726806   0.00305989101142    0.00140419532398    
500000000.0         0.0030714855793     0.00175519993611    0.996926470804      -0.0025471304763    0.996926470804      -0.0025471304763    0.0030714855793     0.00175519993611    
600000000.0         0.00308222807107    0.00210619261094    0.996915444243      -0.00305651346265   0.996915444243      -0.00305651346265   0.00308222807107    0.00210619261094    
700000000.0         0.0030924238274     0.00245717434985    0.996904939298      -0.00356588742088   0.996904939298      -0.00356588742088   0.0030924238274     0.00245717434985    
800000000.0         0.00310227101373    0.00280814583131    0.996894757803      -0.00407525320758   0.996894757803      -0.00407525320758   0.00310227101373    0.00280814583131    
900000000.0         0.00311190672738    0.00315910751738    0.996884762659      -0.00458461145126   0.996884762659      -0.00458461145126   0.00311190672738    0.00315910751738    
1000000000.0        0.00312143038288    0.00351005971684    0.99687485445       -0.00509396261737   0.99687485445       -0.00509396261737   0.00312143038288    0.00351005971684    
1100000000.0        0.00313091672015    0.0038610026253     0.996864958434      -0.00560330704988   0.996864958434      -0.00560330704988   0.00313091672015    0.0038610026253     
1200000000.0        0.0031404235602     0.00421193635204    0.996855016789      -0.00611264499939   0.996855016789      -0.00611264499939   0.0031404235602     0.00421193635204    
1300000000.0        0.00314999668773    0.00456286093902    0.996844983728      -0.00662197664265   0.996844983728      -0.00662197664265   0.00314999668773    0.00456286093902    
1400000000.0        0.0031596730625     0.00491377637433    0.996834822289      -0.00713130209694   0.996834822289      -0.00713130209694   0.0031596730625     0.00491377637433    
1500000000.0        0.00316948300895    0.00526468260239    0.996824502145      -0.00764062143077   0.996824502145      -0.00764062143077   0.00316948300895    0.00526468260239    
1600000000.0        0.00317945175496    0.00561557953162    0.996813998068      -0.00814993467197   0.996813998068      -0.00814993467197   0.00317945175496    0.00561557953162    
1700000000.0        0.00318960054141    0.0059664670404     0.996803288813      -0.00865924181412   0.996803288813      -0.00865924181412   0.00318960054141    0.0059664670404     
1800000000.0        0.0031999474403     0.00631734498181    0.996792356308      -0.00916854282157   0.996792356308      -0.00916854282157   0.0031999474403     0.00631734498181    
1900000000.0        0.00321050796957    0.00666821318743    0.996781185031      -0.00967783763348   0.996781185031      -0.00967783763348   0.00321050796957    0.00666821318743    
2000000000.0        0.00322129556321    0.00701907147034    0.996769761546      -0.0101871261672    0.996769761546      -0.0101871261672    0.00322129556321    0.00701907147034    
2100000000.0        0.0032323219361     0.00736991962765    0.996758074137      -0.010696408321     0.996758074137      -0.010696408321     0.0032323219361     0.00736991962765    
2200000000.0        0.00324359737097    0.00772075744265    0.996746112518      -0.0112056839762    0.996746112518      -0.0112056839762    0.00324359737097    0.00772075744265    
2300000000.0        0.00325513094686    0.00807158468652    0.996733867608      -0.0117149529993    0.996733867608      -0.0117149529993    0.00325513094686    0.00807158468652    
2400000000.0        0.00326693072305    0.00842240111973    0.996721331344      -0.0122242152436    0.996721331344      -0.0122242152436    0.00326693072305    0.00842240111973    
2500000000.0        0.00327900388852    0.00877320649349    0.996708496536      -0.0127334705504    0.996708496536      -0.0127334705504    0.00327900388852    0.00877320649349    
2600000000.0        0.00329135688452    0.00912400055058    0.99669535674       -0.0132427187504    0.99669535674       -0.0132427187504    0.00329135688452    0.00912400055058    
2700000000.0        0.00330399550602    0.00947478302647    0.996681906158      -0.0137519596645    0.996681906158      -0.0137519596645    0.00330399550602    0.00947478302647    
2800000000.0        0.00331692498617    0.00982555365004    0.996668139554      -0.0142611931052    0.996668139554      -0.0142611931052    0.00331692498617    0.00982555365004    
2900000000.0        0.00333015006719    0.0101763121443     0.996654052184      -0.0147704188768    0.996654052184      -0.0147704188768    0.00333015006719    0.0101763121443     
3000000000.0        0.00334367506028    0.0105270582269     0.996639639733      -0.0152796367763    0.996639639733      -0.0152796367763    0.00334367506028    0.0105270582269     
3100000000.0        0.0033575038965     0.010877791611      0.996624898268      -0.0157888465944    0.996624898268      -0.0157888465944    0.0033575038965     0.010877791611      
3200000000.0        0.00337164017021    0.0112285120052     0.996609824192      -0.0162980481155    0.996609824192      -0.0162980481155    0.00337164017021    0.0112285120052     
3300000000.0        0.00338608717646    0.0115792191146     0.996594414206      -0.0168072411184    0.996594414206      -0.0168072411184    0.00338608717646    0.0115792191146     
3400000000.0        0.00340084794317    0.0119299126406     0.99657866528       -0.017316425377     0.99657866528       -0.017316425377     0.00340084794317    0.0119299126406     
3500000000.0        0.00341592525911    0.0122805922815     0.996562574622      -0.0178256006602    0.996562574622      -0.0178256006602    0.00341592525911    0.0122805922815     
3600000000.0        0.00343132169823    0.012631257733      0.996546139655      -0.0183347667326    0.996546139655      -0.0183347667326    0.00343132169823    0.012631257733      
3700000000.0        0.00344703964088    0.012981908688      0.996529357996      -0.018843923355     0.996529357996      -0.018843923355     0.00344703964088    0.012981908688      
3800000000.0        0.00346308129255    0.0133325448373     0.996512227437      -0.019353070284     0.996512227437      -0.019353070284     0.00346308129255    0.0133325448373     
3900000000.0        0.00347944870025    0.0136831658695     0.996494745927      -0.019862207273     0.996494745927      -0.019862207273     0.00347944870025    0.0136831658695     
4000000000.0        0.00349614376709    0.0140337714714     0.99647691156       -0.0203713340721    0.99647691156       -0.0203713340721    0.00349614376709    0.0140337714714     
4100000000.0        0.00351316826512    0.014384361328      0.996458722561      -0.0208804504283    0.996458722561      -0.0208804504283    0.00351316826512    0.014384361328      
4200000000.0        0.00353052384681    0.0147349351228     0.996440177274      -0.0213895560857    0.996440177274      -0.0213895560857    0.00353052384681    0.0147349351228     
4300000000.0        0.00354821205525    0.015085492538      0.996421274154      -0.021898650786     0.996421274154      -0.021898650786     0.00354821205526    0.015085492538      
4400000000.0        0.00356623433331    0.0154360332546     0.996402011753      -0.0224077342682    0.996402011753      -0.0224077342682    0.00356623433331    0.0154360332546     
4500000000.0        0.0035845920318     0.0157865569522     0.996382388719      -0.0229168062691    0.996382388719      -0.0229168062691    0.0035845920318     0.0157865569522     
4600000000.0        0.00360328641685    0.0161370633095     0.996362403781      -0.0234258665232    0.996362403781      -0.0234258665232    0.00360328641685    0.0161370633095     
4700000000.0        0.00362231867654    0.0164875520046     0.996342055748      -0.0239349147631    0.996342055748      -0.0239349147631    0.00362231867654    0.0164875520046     
4800000000.0        0.0036416899269     0.0168380227144     0.996321343501      -0.0244439507194    0.996321343501      -0.0244439507194    0.0036416899269     0.0168380227144     
4900000000.0        0.00366140121733    0.0171884751152     0.996300265987      -0.0249529741211    0.996300265987      -0.0249529741211    0.00366140121733    0.0171884751152     
5000000000.0        0.00368145353549    0.0175389088828     0.996278822215      -0.0254619846951    0.996278822215      -0.0254619846951    0.00368145353549    0.0175389088828     
5100000000.0        0.00370184781183    0.0178893236923     0.996257011251      -0.0259709821672    0.996257011251      -0.0259709821672    0.00370184781183    0.0178893236923     
5200000000.0        0.00372258492357    0.0182397192184     0.996234832215      -0.0264799662613    0.996234832215      -0.0264799662613    0.00372258492357    0.0182397192184     
5300000000.0        0.0037436656985     0.0185900951353     0.996212284275      -0.0269889367002    0.996212284275      -0.0269889367002    0.0037436656985     0.0185900951353     
5400000000.0        0.00376509091831    0.0189404511167     0.996189366646      -0.0274978932051    0.996189366646      -0.0274978932051    0.00376509091831    0.0189404511167     
5500000000.0        0.0037868613217     0.0192907868365     0.996166078586      -0.0280068354962    0.996166078586      -0.0280068354962    0.0037868613217     0.0192907868365     
5600000000.0        0.00380897760727    0.0196411019677     0.996142419393      -0.0285157632923    0.996142419393      -0.0285157632923    0.00380897760727    0.0196411019677     
5700000000.0        0.00383144043608    0.0199913961835     0.996118388402      -0.0290246763113    0.996118388402      -0.0290246763113    0.00383144043608    0.0199913961835     
5800000000.0        0.00385425043406    0.0203416691569     0.996093984984      -0.02953357427      0.996093984984      -0.02953357427      0.00385425043406    0.0203416691569     
5900000000.0        0.00387740819425    0.0206919205606     0.996069208541      -0.030042456884     0.996069208541      -0.030042456884     0.00387740819425    0.0206919205606     
6000000000.0        0.00390091427883    0.0210421500674     0.99604405851       -0.0305513238681    0.99604405851       -0.0305513238681    0.00390091427883    0.0210421500674     
6100000000.0        0.00392476922097    0.0213923573499     0.996018534351      -0.0310601749365    0.996018534351      -0.0310601749365    0.00392476922097    0.0213923573499     
6200000000.0        0.00394897352662    0.0217425420809     0.995992635557      -0.031569009802     0.995992635557      -0.031569009802     0.00394897352662    0.0217425420809     
6300000000.0        0.0039735276761     0.022092703933      0.995966361642      -0.0320778281772    0.995966361642      -0.0320778281772    0.0039735276761     0.022092703933      
6400000000.0        0.00399843212559    0.0224428425789     0.995939712147      -0.0325866297734    0.995939712147      -0.0325866297734    0.00399843212559    0.0224428425789     
6500000000.0        0.00402368730852    0.0227929576915     0.995912686636      -0.0330954143017    0.995912686636      -0.0330954143017    0.00402368730852    0.0227929576915     
6600000000.0        0.00404929363687    0.0231430489436     0.995885284691      -0.0336041814723    0.995885284691      -0.0336041814723    0.00404929363688    0.0231430489436     
6700000000.0        0.00407525150237    0.0234931160083     0.995857505919      -0.0341129309946    0.995857505919      -0.0341129309946    0.00407525150237    0.0234931160083     
6800000000.0        0.00410156127758    0.0238431585587     0.995829349941      -0.0346216625778    0.995829349941      -0.0346216625778    0.00410156127758    0.0238431585587     
6900000000.0        0.00412822331698    0.0241931762683     0.995800816401      -0.0351303759303    0.995800816401      -0.0351303759303    0.00412822331698    0.0241931762683     
7000000000.0        0.00415523795793    0.0245431688105     0.995771904957      -0.0356390707599    0.995771904957      -0.0356390707599    0.00415523795793    0.0245431688105     
7100000000.0        0.00418260552153    0.0248931358591     0.995742615285      -0.0361477467742    0.995742615285      -0.0361477467742    0.00418260552153    0.0248931358591     
7200000000.0        0.00421032631354    0.025243077088      0.995712947073      -0.0366564036801    0.995712947073      -0.0366564036801    0.00421032631354    0.025243077088      
7300000000.0        0.00423840062512    0.0255929921715     0.995682900029      -0.037165041184     0.995682900029      -0.037165041184     0.00423840062512    0.0255929921715     
7400000000.0        0.0042668287336     0.025942880784      0.995652473869      -0.0376736589921    0.995652473869      -0.0376736589921    0.0042668287336     0.025942880784      
7500000000.0        0.00429561090316    0.0262927426002     0.995621668327      -0.0381822568101    0.995621668327      -0.0381822568101    0.00429561090316    0.0262927426002     
7600000000.0        0.00432474738549    0.0266425772952     0.995590483147      -0.0386908343434    0.995590483147      -0.0386908343434    0.00432474738549    0.0266425772952     
7700000000.0        0.0043542384204     0.0269923845441     0.995558918085      -0.0391993912969    0.995558918085      -0.0391993912969    0.0043542384204     0.0269923845441     
7800000000.0        0.00438408423642    0.0273421640228     0.995526972909      -0.0397079273753    0.995526972909      -0.0397079273753    0.00438408423642    0.0273421640228     
7900000000.0        0.00441428505129    0.027691915407      0.995494647396      -0.040216442283     0.995494647396      -0.040216442283     0.00441428505129    0.027691915407      
8000000000.0        0.00444484107254    0.028041638373      0.995461941337      -0.040724935724     0.995461941337      -0.040724935724     0.00444484107254    0.028041638373      
8100000000.0        0.00447575249791    0.0283913325974     0.995428854528      -0.0412334074022    0.995428854528      -0.0412334074022    0.00447575249791    0.0283913325974     
8200000000.0        0.00450701951583    0.0287409977571     0.995395386778      -0.0417418570212    0.995395386778      -0.0417418570212    0.00450701951583    0.0287409977571     
8300000000.0        0.00453864230585    0.0290906335294     0.995361537902      -0.0422502842842    0.995361537902      -0.0422502842842    0.00453864230585    0.0290906335294     
8400000000.0        0.00457062103903    0.029440239592      0.995327307727      -0.0427586888944    0.995327307727      -0.0427586888944    0.00457062103903    0.029440239592      
8500000000.0        0.00460295587833    0.0297898156229     0.995292696085      -0.0432670705548    0.995292696085      -0.0432670705548    0.00460295587833    0.0297898156229     
8600000000.0        0.00463564697897    0.0301393613004     0.995257702816      -0.0437754289679    0.995257702816      -0.0437754289679    0.00463564697897    0.0301393613004     
8700000000.0        0.00466869448876    0.0304888763034     0.99522232777       -0.0442837638365    0.99522232777       -0.0442837638365    0.00466869448876    0.0304888763034     
8800000000.0        0.00470209854845    0.0308383603109     0.995186570801      -0.0447920748628    0.995186570801      -0.0447920748628    0.00470209854845    0.0308383603109     
8900000000.0        0.00473585929199    0.0311878130026     0.995150431772      -0.0453003617491    0.995150431772      -0.0453003617491    0.00473585929199    0.0311878130026     
9000000000.0        0.00476997684687    0.0315372340584     0.99511391055       -0.0458086241975    0.99511391055       -0.0458086241975    0.00476997684687    0.0315372340584     
9100000000.0        0.00480445133434    0.0318866231587     0.99507700701       -0.04631686191      0.99507700701       -0.04631686191      0.00480445133434    0.0318866231587     
9200000000.0        0.00483928286972    0.0322359799841     0.995039721034      -0.0468250745885    0.995039721034      -0.0468250745885    0.00483928286972    0.0322359799841     
9300000000.0        0.00487447156261    0.032585304216      0.995002052508      -0.0473332619347    0.995002052508      -0.0473332619347    0.00487447156261    0.032585304216      
9400000000.0        0.00491001751716    0.0329345955358     0.994964001322      -0.0478414236503    0.994964001322      -0.0478414236503    0.00491001751716    0.0329345955358     
9500000000.0        0.00494592083224    0.0332838536257     0.994925567376      -0.0483495594368    0.994925567376      -0.0483495594368    0.00494592083224    0.0332838536257     
9600000000.0        0.0049821816017     0.033633078168      0.994886750569      -0.0488576689958    0.994886750569      -0.0488576689958    0.0049821816017     0.033633078168      
9700000000.0        0.00501879991456    0.0339822688455     0.99484755081       -0.0493657520288    0.99484755081       -0.0493657520288    0.00501879991456    0.0339822688455     
9800000000.0        0.00505577585518    0.0343314253417     0.99480796801       -0.049873808237     0.99480796801       -0.049873808237     0.00505577585518    0.0343314253417     
9900000000.0        0.00509310950347    0.0346805473401     0.994768002085      -0.0503818373219    0.994768002085      -0.0503818373219    0.00509310950347    0.0346805473401     
10000000000.0       0.00513080093503    0.0350296345251     0.994727652955      -0.0508898389847    0.994727652955      -0.0508898389847    0.00513080093502    0.0350296345251     
