# Hz S RI R 50.00 
100000000.0         7.55197198909e-06   -0.00383605538218   0.999952260616      -0.00408653003308   0.999952260616      -0.00408653003308   7.55197198909e-06   -0.00383605538218   
200000000.0         -4.31931124494e-05  -0.00767196543075   0.999901046079      -0.00817294613048   0.999901046079      -0.00817294613048   -4.31931124492e-05  -0.00767196543075   
300000000.0         -0.00012534190806   -0.0115075032767    0.999818460734      -0.0122590376822    0.999818460734      -0.0122590376822    -0.00012534190806   -0.0115075032767    
400000000.0         -0.000238869451747  -0.0153424056293    0.99970448188       -0.0163445538281    0.99970448188       -0.0163445538281    -0.000238869451747  -0.0153424056293    
500000000.0         -0.000383762389246  -0.0191763899228    0.999559104546      -0.0204292224839    0.999559104546      -0.0204292224839    -0.000383762389246  -0.0191763899228    
600000000.0         -0.000560008304372  -0.0230091604796    0.999382331806      -0.0245127571596    0.999382331806      -0.0245127571596    -0.000560008304372  -0.0230091604796    
700000000.0         -0.00076759277913   -0.0268404117428    0.999174172546      -0.0285948605255    0.999174172546      -0.0285948605255    -0.00076759277913   -0.0268404117428    
800000000.0         -0.00100649817215   -0.0306698302833    0.998934640804      -0.0326752266213    0.998934640804      -0.0326752266213    -0.00100649817215   -0.0306698302833    
900000000.0         -0.00127670297014   -0.0344970961846    0.998663755584      -0.0367535423733    0.998663755584      -0.0367535423733    -0.00127670297014   -0.0344970961846    
1000000000.0        -0.00157818138227   -0.0383218840692    0.99836154084       -0.0408294887155    0.99836154084       -0.0408294887155    -0.00157818138227   -0.0383218840692    
1100000000.0        -0.00191090305636   -0.0421438639005    0.998028025522      -0.0449027414623    0.998028025522      -0.0449027414623    -0.00191090305636   -0.0421438639005    
1200000000.0        -0.00227483286513   -0.0459627016406    0.997663243651      -0.0489729720198    0.997663243651      -0.0489729720198    -0.00227483286513   -0.0459627016406    
1300000000.0        -0.00266993073691   -0.0497780598019    0.997267234404      -0.0530398479812    0.997267234404      -0.0530398479812    -0.00266993073691   -0.0497780598019    
1400000000.0        -0.00309615151748   -0.0535895979288    0.996840042192      -0.0571030336441    0.996840042192      -0.0571030336441    -0.00309615151748   -0.0535895979288    
1500000000.0        -0.00355344485506   -0.0573969730216    0.996381716736      -0.0611621904634    0.996381716736      -0.0611621904634    -0.00355344485506   -0.0573969730216    
1600000000.0        -0.00404175510369   -0.0611998399204    0.995892313139      -0.0652169774608    0.995892313139      -0.0652169774608    -0.00404175510369   -0.0611998399204    
1700000000.0        -0.00456102124187   -0.0649978516554    0.995371891944      -0.0692670515961    0.995371891944      -0.0692670515961    -0.00456102124187   -0.0649978516554    
1800000000.0        -0.00511117680422   -0.0687906597715    0.994820519191      -0.0733120681108    0.994820519191      -0.0733120681108    -0.00511117680422   -0.0687906597715    
1900000000.0        -0.00569214982457   -0.072577914631     0.994238266464      -0.0773516808471    0.994238266464      -0.0773516808471    -0.00569214982457   -0.072577914631     
2000000000.0        -0.00630386278955   -0.0763592656992    0.993625210926      -0.0813855425487    0.993625210926      -0.0813855425487    -0.00630386278955   -0.0763592656992    
2100000000.0        -0.00694623260136   -0.0801343618143    0.992981435351      -0.0854133051431    0.992981435351      -0.0854133051431    -0.00694623260136   -0.0801343618143    
2200000000.0        -0.00761917054953   -0.083902851445     0.992307028149      -0.0894346200117    0.992307028149      -0.0894346200117    -0.00761917054953   -0.083902851445     
2300000000.0        -0.00832258229062   -0.0876643829362    0.991602083383      -0.0934491382462    0.991602083383      -0.0934491382462    -0.00832258229062   -0.0876643829362    
2400000000.0        -0.00905636783566   -0.0914186047459    0.990866700774      -0.097456510895     0.990866700774      -0.097456510895     -0.00905636783566   -0.0914186047459    
2500000000.0        -0.00982042154477   -0.0951651656719    0.990100985709      -0.101456389199     0.990100985709      -0.101456389199     -0.00982042154477   -0.0951651656719    
2600000000.0        -0.0106146321287    -0.0989037150713    0.989305049235      -0.105448424821     0.989305049235      -0.105448424821     -0.0106146321287    -0.0989037150713    
2700000000.0        -0.0114388826568    -0.102633903072     0.988479008049      -0.109432270062     0.988479008049      -0.109432270062     -0.0114388826568    -0.102633903072     
2800000000.0        -0.0122930505713    -0.106355380778     0.987622984484      -0.113407578075     0.987622984484      -0.113407578075     -0.0122930505713    -0.106355380778     
2900000000.0        -0.0131770077076    -0.110067800469     0.986737106485      -0.117374003073     0.986737106485      -0.117374003073     -0.0131770077076    -0.110067800469     
3000000000.0        -0.0140906203199    -0.113770815789     0.985821507587      -0.121331200523     0.985821507587      -0.121331200523     -0.0140906203199    -0.113770815789     
3100000000.0        -0.0150337491129    -0.117464081938     0.984876326876      -0.125278827339     0.984876326876      -0.125278827339     -0.0150337491129    -0.117464081938     
3200000000.0        -0.0160062492784    -0.121147255849     0.983901708959      -0.129216542075     0.983901708959      -0.129216542075     -0.0160062492784    -0.121147255849     
3300000000.0        -0.0170079705366    -0.124819996366     0.982897803917      -0.133144005096     0.982897803917      -0.133144005096     -0.0170079705366    -0.124819996366     
3400000000.0        -0.0180387571828    -0.128481964416     0.981864767258      -0.13706087876      0.981864767258      -0.13706087876      -0.0180387571828    -0.128481964416     
3500000000.0        -0.0190984481386    -0.132132823168     0.980802759868      -0.14096682759      0.980802759868      -0.14096682759      -0.0190984481386    -0.132132823168     
3600000000.0        -0.0201868770069    -0.135772238202     0.979711947955      -0.14486151843      0.979711947955      -0.14486151843      -0.0201868770069    -0.135772238202     
3700000000.0        -0.0213038721325    -0.13939987766      0.978592502987      -0.148744620615     0.978592502987      -0.148744620615     -0.0213038721325    -0.13939987766      
3800000000.0        -0.0224492566649    -0.143015412398     0.977444601629      -0.152615806119     0.977444601629      -0.152615806119     -0.0224492566649    -0.143015412398     
3900000000.0        -0.0236228486268    -0.146618516131     0.976268425675      -0.156474749709     0.976268425675      -0.156474749709     -0.0236228486268    -0.146618516131     
4000000000.0        -0.0248244609853    -0.150208865578     0.975064161976      -0.160321129088     0.975064161976      -0.160321129088     -0.0248244609853    -0.150208865578     
4100000000.0        -0.0260539017266    -0.153786140596     0.973832002367      -0.164154625037     0.973832002367      -0.164154625037     -0.0260539017266    -0.153786140596     
4200000000.0        -0.0273109739347    -0.157350024317     0.972572143584      -0.167974921549     0.972572143584      -0.167974921549     -0.0273109739347    -0.157350024317     
4300000000.0        -0.0285954758728    -0.16090020327      0.971284787188      -0.171781705963     0.971284787188      -0.171781705963     -0.0285954758728    -0.16090020327      
4400000000.0        -0.0299072010681    -0.164436367509     0.969970139474      -0.175574669088     0.969970139474      -0.175574669088     -0.0299072010681    -0.164436367509     
4500000000.0        -0.031245938399     -0.167958210734     0.968628411391      -0.179353505328     0.968628411391      -0.179353505328     -0.031245938399     -0.167958210734     
4600000000.0        -0.0326114721859    -0.171465430401     0.967259818442      -0.183117912796     0.967259818442      -0.183117912796     -0.0326114721859    -0.171465430401     
4700000000.0        -0.0340035822836    -0.174957727837     0.965864580601      -0.186867593431     0.965864580601      -0.186867593431     -0.0340035822836    -0.174957727837     
4800000000.0        -0.0354220441771    -0.178434808344     0.96444292221       -0.190602253104     0.96444292221       -0.190602253104     -0.0354220441771    -0.178434808344     
4900000000.0        -0.0368666290789    -0.181896381304     0.962995071886      -0.194321601723     0.962995071886      -0.194321601723     -0.0368666290789    -0.181896381304     
5000000000.0        -0.0383371040291    -0.185342160273     0.961521262416      -0.198025353335     0.961521262416      -0.198025353335     -0.0383371040291    -0.185342160273     
5100000000.0        -0.039833231997     -0.188771863079     0.960021730663      -0.201713226219     0.960021730663      -0.201713226219     -0.039833231997     -0.188771863079     
5200000000.0        -0.0413547719849    -0.192185211907     0.958496717454      -0.205384942979     0.958496717454      -0.205384942979     -0.0413547719849    -0.192185211907     
5300000000.0        -0.0429014791338    -0.195581933389     0.95694646748       -0.209040230632     0.95694646748       -0.209040230632     -0.0429014791338    -0.195581933389     
5400000000.0        -0.04447310483      -0.198961758682     0.955371229186      -0.21267882069      0.955371229186      -0.21267882069      -0.04447310483      -0.198961758682     
5500000000.0        -0.0460693968141    -0.202324423547     0.953771254663      -0.216300449236     0.953771254663      -0.216300449236     -0.0460693968141    -0.202324423547     
5600000000.0        -0.0476900992907    -0.205669668421     0.952146799541      -0.219904857007     0.952146799541      -0.219904857007     -0.0476900992907    -0.205669668421     
5700000000.0        -0.0493349530395    -0.208997238488     0.950498122871      -0.223491789455     0.950498122871      -0.223491789455     -0.0493349530395    -0.208997238488     
5800000000.0        -0.0510036955275    -0.21230688374      0.948825487022      -0.22706099682      0.948825487022      -0.22706099682      -0.0510036955275    -0.21230688374      
5900000000.0        -0.0526960610221    -0.215598359045     0.94712915756       -0.230612234191     0.94712915756       -0.230612234191     -0.0526960610221    -0.215598359045     
6000000000.0        -0.0544117807056    -0.218871424198     0.945409403136      -0.234145261563     0.945409403136      -0.234145261563     -0.0544117807056    -0.218871424198     
6100000000.0        -0.0561505827891    -0.222125843978     0.943666495376      -0.237659843895     0.943666495376      -0.237659843895     -0.0561505827891    -0.222125843978     
6200000000.0        -0.0579121926288    -0.225361388196     0.941900708757      -0.241155751158     0.941900708757      -0.241155751158     -0.0579121926288    -0.225361388196     
6300000000.0        -0.0596963328411    -0.228577831742     0.940112320499      -0.244632758383     0.940112320499      -0.244632758383     -0.0596963328411    -0.228577831742     
6400000000.0        -0.0615027234194    -0.231774954627     0.938301610444      -0.248090645704     0.938301610444      -0.248090645704     -0.0615027234194    -0.231774954627     
6500000000.0        -0.0633310818503    -0.234952542022     0.936468860942      -0.2515291984       0.936468860942      -0.2515291984       -0.0633310818503    -0.234952542022     
6600000000.0        -0.0651811232305    -0.23811038429      0.934614356733      -0.254948206926     0.934614356733      -0.254948206926     -0.0651811232305    -0.23811038429      
6700000000.0        -0.0670525603837    -0.241248277023     0.93273838483       -0.258347466951     0.93273838483       -0.258347466951     -0.0670525603837    -0.241248277023     
6800000000.0        -0.068945103977     -0.244366021063     0.930841234403      -0.261726779383     0.930841234403      -0.261726779383     -0.068945103977     -0.244366021063     
6900000000.0        -0.0708584626381    -0.247463422532     0.92892319666       -0.265085950393     0.92892319666       -0.265085950393     -0.0708584626381    -0.247463422532     
7000000000.0        -0.0727923430712    -0.25054029285      0.926984564737      -0.268424791441     0.926984564737      -0.268424791441     -0.0727923430712    -0.25054029285      
7100000000.0        -0.0747464501735    -0.253596448753     0.925025633572      -0.271743119292     0.925025633572      -0.271743119292     -0.0747464501735    -0.253596448753     
7200000000.0        -0.0767204871507    -0.256631712308     0.923046699798      -0.275040756031     0.923046699798      -0.275040756031     -0.0767204871507    -0.256631712308     
7300000000.0        -0.0787141556326    -0.259645910923     0.921048061624      -0.278317529075     0.921048061624      -0.278317529075     -0.0787141556326    -0.259645910923     
7400000000.0        -0.0807271557872    -0.262638877356     0.91903001872       -0.28157327118      0.91903001872       -0.28157327118      -0.0807271557872    -0.262638877356     
7500000000.0        -0.0827591864352    -0.265610449718     0.916992872103      -0.284807820451     0.916992872103      -0.284807820451     -0.0827591864352    -0.265610449718     
7600000000.0        -0.0848099451632    -0.268560471478     0.914936924026      -0.288021020337     0.914936924026      -0.288021020337     -0.0848099451632    -0.268560471478     
7700000000.0        -0.0868791284359    -0.271488791458     0.912862477863      -0.291212719638     0.912862477863      -0.291212719638     -0.0868791284359    -0.271488791458     
7800000000.0        -0.0889664317083    -0.274395263829     0.910769837997      -0.294382772495     0.910769837997      -0.294382772495     -0.0889664317083    -0.274395263829     
7900000000.0        -0.0910715495357    -0.277279748109     0.908659309713      -0.297531038389     0.908659309713      -0.297531038389     -0.0910715495357    -0.277279748109     
8000000000.0        -0.0931941756838    -0.280142109145     0.906531199083      -0.300657382126     0.906531199083      -0.300657382126     -0.0931941756838    -0.280142109145     
8100000000.0        -0.095334003237     -0.282982217107     0.904385812864      -0.30376167383      0.904385812864      -0.30376167383      -0.095334003237     -0.282982217107     
8200000000.0        -0.0974907247059    -0.28579994747      0.902223458383      -0.306843788922     0.902223458383      -0.306843788922     -0.0974907247059    -0.28579994747      
8300000000.0        -0.0996640321337    -0.288595180996     0.900044443436      -0.309903608111     0.900044443436      -0.309903608111     -0.0996640321337    -0.288595180996     
8400000000.0        -0.101853617201     -0.291367803714     0.897849076184      -0.312941017365     0.897849076184      -0.312941017365     -0.101853617201     -0.291367803714     
8500000000.0        -0.104059171329     -0.294117706898     0.895637665045      -0.315955907895     0.895637665045      -0.315955907895     -0.104059171329     -0.294117706898     
8600000000.0        -0.106280385782     -0.296844787039     0.893410518592      -0.318948176127     0.893410518592      -0.318948176127     -0.106280385782     -0.296844787039     
8700000000.0        -0.10851695177      -0.299548945822     0.891167945458      -0.321917723676     0.891167945458      -0.321917723676     -0.10851695177      -0.299548945822     
8800000000.0        -0.110768560544     -0.302230090089     0.88891025423       -0.324864457316     0.88891025423       -0.324864457316     -0.110768560544     -0.302230090089     
8900000000.0        -0.113034903499     -0.304888131816     0.886637753354      -0.327788288947     0.886637753354      -0.327788288947     -0.113034903499     -0.304888131816     
9000000000.0        -0.115315672266     -0.30752298807      0.884350751039      -0.330689135563     0.884350751039      -0.330689135563     -0.115315672266     -0.30752298807      
9100000000.0        -0.117610558808     -0.31013458098      0.88204955516       -0.333566919216     0.88204955516       -0.333566919216     -0.117610558808     -0.31013458098      
9200000000.0        -0.119919255515     -0.312722837695     0.879734473168      -0.336421566978     0.879734473168      -0.336421566978     -0.119919255515     -0.312722837695     
9300000000.0        -0.122241455294     -0.315287690343     0.877405811998      -0.339253010899     0.877405811998      -0.339253010899     -0.122241455294     -0.315287690343     
9400000000.0        -0.124576851657     -0.317829075992     0.875063877976      -0.342061187968     0.875063877976      -0.342061187968     -0.124576851657     -0.317829075992     
9500000000.0        -0.126925138813     -0.320346936605     0.872708976733      -0.344846040067     0.872708976733      -0.344846040067     -0.126925138813     -0.320346936605     
9600000000.0        -0.12928601175      -0.322841218995     0.870341413122      -0.34760751393      0.870341413122      -0.34760751393      -0.12928601175      -0.322841218995     
9700000000.0        -0.131659166323     -0.325311874776     0.867961491127      -0.350345561092     0.867961491127      -0.350345561092     -0.131659166323     -0.325311874776     
9800000000.0        -0.134044299335     -0.327758860317     0.865569513786      -0.353060137842     0.865569513786      -0.353060137842     -0.134044299335     -0.327758860317     
9900000000.0        -0.136441108619     -0.330182136692     0.863165783106      -0.355751205173     0.863165783106      -0.355751205173     -0.136441108619     -0.330182136692     
10000000000.0       -0.138849293114     -0.332581669625     0.860750599986      -0.358418728731     0.860750599986      -0.358418728731     -0.138849293114     -0.332581669625     
