# Hz S RI R 50.00 
100000000.0         -0.00356545538318   -0.059150040944     0.996389871898      -0.0594317766533    0.996389871898      -0.0594317766533    -0.00356545538318   -0.059150040944     
200000000.0         -0.0140562053106    -0.117034991873     0.985898697453      -0.117598630692     0.985898697453      -0.117598630692     -0.0140562053106    -0.117034991873     
300000000.0         -0.031014586512     -0.172496974863     0.968939888411      -0.173342769152     0.968939888411      -0.173342769152     -0.031014586512     -0.172496974863     
400000000.0         -0.0537674261888    -0.224540676633     0.946186578903      -0.22566894177      0.946186578903      -0.22566894177      -0.0537674261888    -0.224540676633     
500000000.0         -0.0814684056557    -0.272384145362     0.918485072565      -0.2737952476       0.918485072565      -0.2737952476       -0.0814684056557    -0.272384145362     
600000000.0         -0.113170823364     -0.315483900076     0.886782063096      -0.317178247935     0.886782063096      -0.317178247935     -0.113170823364     -0.315483900076     
700000000.0         -0.147898684777     -0.353534805198     0.852053540223      -0.35551284274      0.852053540223      -0.35551284274      -0.147898684777     -0.353534805198     
800000000.0         -0.184707821619     -0.386449343439     0.815243668942      -0.388711544745     0.815243668942      -0.388711544745     -0.184707821619     -0.386449343439     
900000000.0         -0.222732123648     -0.4143230893       0.777218557079      -0.416869953798     0.777218557079      -0.416869953798     -0.222732123648     -0.4143230893       
1000000000.0        -0.261213390274     -0.437393486393     0.738736403331      -0.440225534834     0.738736403331      -0.440225534834     -0.261213390274     -0.437393486393     
1100000000.0        -0.299515998431     -0.455997972954     0.700432829213      -0.459115743906     0.700432829213      -0.459115743906     -0.299515998431     -0.455997972954     
1200000000.0        -0.337129212527     -0.470535758085     0.662818568997      -0.473939804868     0.662818568997      -0.473939804868     -0.337129212527     -0.470535758085     
1300000000.0        -0.373660585781     -0.481435717917     0.626286068307      -0.485126605899     0.626286068307      -0.485126605899     -0.373660585781     -0.481435717917     
1400000000.0        -0.408823783358     -0.489131335445     0.591121660939      -0.493109639665     0.591121660939      -0.493109639665     -0.408823783358     -0.489131335445     
1500000000.0        -0.442423611574     -0.494042509907     0.557520539633      -0.498308812985     0.557520539633      -0.498308812985     -0.442423611574     -0.494042509907     
1600000000.0        -0.474340330585     -0.496563410781     0.525602443355      -0.501118301074     0.525602443355      -0.501118301074     -0.474340330585     -0.496563410781     
1700000000.0        -0.504514639217     -0.497055261595     0.495426672458      -0.501899331579     0.495426672458      -0.501899331579     -0.504514639217     -0.497055261595     
1800000000.0        -0.532934144181     -0.49584289744      0.467005619457      -0.500976742297     0.467005619457      -0.500976742297     -0.532934144181     -0.49584289744      
1900000000.0        -0.559621693242     -0.4932140447       0.44031643585       -0.498638261087     0.44031643585       -0.498638261087     -0.559621693242     -0.4932140447       
2000000000.0        -0.584625656605     -0.489420443893     0.415310750726      -0.495135628875     0.415310750726      -0.495135628875     -0.584625656605     -0.489420443893     
2100000000.0        -0.608012058554     -0.484680125339     0.391922539124      -0.490686875466     0.391922539124      -0.490686875466     -0.608012058554     -0.484680125339     
2200000000.0        -0.629858363383     -0.479180323103     0.370074336096      -0.485479233624     0.370074336096      -0.485479233624     -0.629858363383     -0.479180323103     
2300000000.0        -0.65024867926      -0.473080661755     0.349682032841      -0.479672325953     0.349682032841      -0.479672325953     -0.65024867926      -0.473080661755     
2400000000.0        -0.669270139592     -0.466516369126     0.330658495341      -0.47340137776      0.330658495341      -0.47340137776      -0.669270139592     -0.466516369126     
2500000000.0        -0.687010238078     -0.459601358085     0.312916229296      -0.466780298926     0.312916229296      -0.466780298926     -0.687010238078     -0.459601358085     
2600000000.0        -0.703554920306     -0.45243108572      0.296369288541      -0.459904543178     0.296369288541      -0.459904543178     -0.703554920306     -0.45243108572      
2700000000.0        -0.718987264726     -0.445085143935     0.280934594054      -0.452853698765     0.280934594054      -0.452853698765     -0.718987264726     -0.445085143935     
2800000000.0        -0.733386615202     -0.437629566115     0.266532801418      -0.44569379519      0.266532801418      -0.44569379519      -0.733386615202     -0.437629566115     
2900000000.0        -0.746828053938     -0.430118854105     0.253088827883      -0.438479330248     0.253088827883      -0.438479330248     -0.746828053938     -0.430118854105     
3000000000.0        -0.759382126657     -0.422597741445     0.240532127194      -0.431255033324     0.240532127194      -0.431255033324     -0.759382126657     -0.422597741445     
3100000000.0        -0.771114751174     -0.415102715142     0.228796781011      -0.42405738721      0.228796781011      -0.42405738721      -0.771114751174     -0.415102715142     
3200000000.0        -0.782087256292     -0.407663320921     0.217821460015      -0.416915933398     0.217821460015      -0.416915933398     -0.782087256292     -0.407663320921     
3300000000.0        -0.792356510588     -0.400303277288     0.207549295121      -0.409854386181     0.207549295121      -0.409854386181     -0.792356510588     -0.400303277288     
3400000000.0        -0.801975110661     -0.393041422703     0.197927689228      -0.402891579863     0.197927689228      -0.402891579863     -0.801975110661     -0.393041422703     
3500000000.0        -0.81099160622      -0.385892518367     0.188908092133      -0.396042271571     0.188908092133      -0.396042271571     -0.81099160622      -0.385892518367     
3600000000.0        -0.819450745412     -0.378867926917     0.180445755197      -0.389317819977     0.180445755197      -0.389317819977     -0.819450745412     -0.378867926917     
3700000000.0        -0.82739372844      -0.37197618505      0.172499477733      -0.382726757947     0.172499477733      -0.382726757947     -0.82739372844      -0.37197618505      
3800000000.0        -0.834858460975     -0.365223485852     0.165031353589      -0.376275274881     0.165031353589      -0.376275274881     -0.834858460975     -0.365223485852     
3900000000.0        -0.841879801553     -0.358614084496     0.158006523753      -0.369967622433     0.158006523753      -0.369967622433     -0.841879801553     -0.358614084496     
4000000000.0        -0.848489799066     -0.352150639076     0.151392938857      -0.363806455359     0.151392938857      -0.363806455359     -0.848489799066     -0.352150639076     
4100000000.0        -0.854717917941     -0.345834496652     0.145161134003      -0.357793117568     0.145161134003      -0.357793117568     -0.854717917941     -0.345834496652     
4200000000.0        -0.860591249628     -0.339665933057     0.139284017269      -0.351927881944     0.139284017269      -0.351927881944     -0.860591249628     -0.339665933057     
4300000000.0        -0.8661347098       -0.333644353767     0.133736672516      -0.346210151216     0.133736672516      -0.346210151216     -0.8661347098       -0.333644353767     
4400000000.0        -0.871371221179     -0.327768461963     0.128496176551      -0.340638626037     0.128496176551      -0.340638626037     -0.871371221179     -0.327768461963     
4500000000.0        -0.8763218823       -0.322036399013     0.123541430374      -0.335211445458     0.123541430374      -0.335211445458     -0.8763218823       -0.322036399013     
4600000000.0        -0.881006122736     -0.316445861747     0.118853003944      -0.329926304215     0.118853003944      -0.329926304215     -0.881006122736     -0.316445861747     
4700000000.0        -0.885441845494     -0.310994200222     0.114412993784      -0.32478055049      0.114412993784      -0.32478055049      -0.885441845494     -0.310994200222     
4800000000.0        -0.88964555736      -0.305678499098     0.110204892641      -0.319771267296     0.110204892641      -0.319771267296     -0.88964555736      -0.305678499098     
4900000000.0        -0.89363248801      -0.30049564524      0.106213470368      -0.31489534007      0.106213470368      -0.31489534007      -0.89363248801      -0.30049564524      
5000000000.0        -0.89741669873      -0.295442383748     0.102424665206      -0.310149512708     0.102424665206      -0.310149512708     -0.89741669873      -0.295442383748     
5100000000.0        -0.901011181557     -0.290515364266     0.0988254846448     -0.305530433872     0.0988254846448     -0.305530433872     -0.901011181557     -0.290515364266     
5200000000.0        -0.90442794962      -0.285711179137     0.0954039150783     -0.301034695145     0.0954039150783     -0.301034695145     -0.90442794962      -0.285711179137     
5300000000.0        -0.90767811944      -0.281026394707     0.0921488395053     -0.296658862327     0.0921488395053     -0.296658862327     -0.90767811944      -0.281026394707     
5400000000.0        -0.910771985878     -0.276457576886     0.0890499625829     -0.292399501003     0.0890499625829     -0.292399501003     -0.910771985878     -0.276457576886     
5500000000.0        -0.913719090384     -0.272001311892     0.0860977423745     -0.288253197274     0.0860977423745     -0.288253197274     -0.913719090384     -0.272001311892     
5600000000.0        -0.916528283154     -0.267654222956     0.0832833281933     -0.284216574465     0.0832833281933     -0.284216574465     -0.916528283154     -0.267654222956     
5700000000.0        -0.919207779748     -0.26341298365      0.0805985039859     -0.280286306451     0.0805985039859     -0.280286306451     -0.919207779748     -0.26341298365      
5800000000.0        -0.921765212671     -0.259274328396     0.0780356367488     -0.276459128156     0.0780356367488     -0.276459128156     -0.921765212671     -0.259274328396     
5900000000.0        -0.924207678388     -0.255235060603     0.0755876295124     -0.272731843694     0.0755876295124     -0.272731843694     -0.924207678388     -0.255235060603     
6000000000.0        -0.926541780197     -0.251292058853     0.0732478784724     -0.269101332544     0.0732478784724     -0.269101332544     -0.926541780197     -0.251292058853     
6100000000.0        -0.928773667331     -0.247442281437     0.0710102338804     -0.265564554088     0.0710102338804     -0.265564554088     -0.928773667331     -0.247442281437     
6200000000.0        -0.930909070659     -0.243682769543     0.0688689643493     -0.262118550794     0.0688689643493     -0.262118550794     -0.930909070659     -0.243682769543     
6300000000.0        -0.932953335282     -0.24001064932      0.0668187242528     -0.258760450272     0.0668187242528     -0.258760450272     -0.932953335282     -0.24001064932      
6400000000.0        -0.934911450324     -0.23642313301      0.0648545239361     -0.255487466407     0.0648545239361     -0.255487466407     -0.934911450324     -0.23642313301      
6500000000.0        -0.936788076172     -0.232917519329     0.0629717024754     -0.252296899733     0.0629717024754     -0.252296899733     -0.936788076172     -0.232917519329     
6600000000.0        -0.938587569399     -0.229491193225     0.0611659027545     -0.24918613719      0.0611659027545     -0.24918613719      -0.938587569399     -0.229491193225     
6700000000.0        -0.940314005584     -0.226141625129     0.0594330486433     -0.246152651368     0.0594330486433     -0.246152651368     -0.940314005584     -0.226141625129     
6800000000.0        -0.941971200224     -0.222866369813     0.0577693240887     -0.243193999365     0.0577693240887     -0.243193999365     -0.941971200224     -0.222866369813     
6900000000.0        -0.943562727902     -0.21966306492      0.0561711539427     -0.240307821309     0.0561711539427     -0.240307821309     -0.943562727902     -0.21966306492      
7000000000.0        -0.945091939881     -0.216529429245     0.0546351863717     -0.237491838638     0.0546351863717     -0.237491838638     -0.945091939881     -0.216529429245     
7100000000.0        -0.946561980252     -0.213463260821     0.053158276705      -0.234743852183     0.053158276705      -0.234743852183     -0.946561980252     -0.213463260821     
7200000000.0        -0.947975800778     -0.210462434866     0.0517374725929     -0.232061740111     0.0517374725929     -0.232061740111     -0.947975800778     -0.210462434866     
7300000000.0        -0.94933617454      -0.207524901622     0.0503700003598     -0.229443455758     0.0503700003598     -0.229443455758     -0.94933617454      -0.207524901622     
7400000000.0        -0.950645708495     -0.204648684123     0.0490532524464     -0.226887025398     0.0490532524464     -0.226887025398     -0.950645708495     -0.204648684123     
7500000000.0        -0.951906855039     -0.201831875921     0.0477847758447     -0.224390545963     0.0477847758447     -0.224390545963     -0.951906855039     -0.201831875921     
7600000000.0        -0.953121922667     -0.199072638794     0.0465622614416     -0.22195218275      0.0465622614416     -0.22195218275      -0.953121922667     -0.199072638794     
7700000000.0        -0.954293085797     -0.196369200451     0.04538353419       -0.21957016712      0.04538353419       -0.21957016712      -0.954293085797     -0.196369200451     
7800000000.0        -0.955422393842     -0.193719852252     0.0442465440394     -0.217242794219     0.0442465440394     -0.217242794219     -0.955422393842     -0.193719852252     
7900000000.0        -0.956511779588     -0.191122946955     0.043149357559      -0.214968420718     0.043149357559      -0.214968420718     -0.956511779588     -0.191122946955     
8000000000.0        -0.957563066932     -0.188576896498     0.0420901501964     -0.212745462596     0.0420901501964     -0.212745462596     -0.957563066932     -0.188576896498     
8100000000.0        -0.958577978042     -0.186080169824     0.0410671991174     -0.210572392962     0.0410671991174     -0.210572392962     -0.958577978042     -0.186080169824     
8200000000.0        -0.959558139988     -0.183631290764     0.0400788765802     -0.208447739932     0.0400788765802     -0.208447739932     -0.959558139988     -0.183631290764     
8300000000.0        -0.960505090872     -0.181228835963     0.0391236437979     -0.206370084558     0.0391236437979     -0.206370084558     -0.960505090872     -0.181228835963     
8400000000.0        -0.961420285519     -0.178871432875     0.0382000452513     -0.204338058816     0.0382000452513     -0.204338058816     -0.961420285519     -0.178871432875     
8500000000.0        -0.962305100753     -0.176557757813     0.0373067034144     -0.202350343658     0.0373067034144     -0.202350343658     -0.962305100753     -0.176557757813     
8600000000.0        -0.963160840287     -0.174286534061     0.0364423138586     -0.200405667116     0.0364423138586     -0.200405667116     -0.963160840287     -0.174286534061     
8700000000.0        -0.963988739274     -0.172056530053     0.0356056407074     -0.198502802488     0.0356056407074     -0.198502802488     -0.963988739274     -0.172056530053     
8800000000.0        -0.964789968527     -0.16986655761      0.0347955124122     -0.196640566563     0.0347955124122     -0.196640566563     -0.964789968527     -0.16986655761      
8900000000.0        -0.965565638452     -0.167715470244     0.0340108178234     -0.194817817932     0.0340108178234     -0.194817817932     -0.965565638452     -0.167715470244     
9000000000.0        -0.966316802695     -0.165602161524     0.0332505025365     -0.193033455346     0.0332505025365     -0.193033455346     -0.966316802695     -0.165602161524     
9100000000.0        -0.967044461552     -0.1635255635       0.0325135654884     -0.191286416143     0.0325135654884     -0.191286416143     -0.967044461552     -0.1635255635       
9200000000.0        -0.967749565137     -0.161484645193     0.0317990557872     -0.189575674732     0.0317990557872     -0.189575674732     -0.967749565137     -0.161484645193     
9300000000.0        -0.968433016337     -0.159478411136     0.0311060697566     -0.187900241139     0.0311060697566     -0.187900241139     -0.968433016337     -0.159478411136     
9400000000.0        -0.969095673565     -0.157505899984     0.0304337481792     -0.186259159606     0.0304337481792     -0.186259159606     -0.969095673565     -0.157505899984     
9500000000.0        -0.969738353343     -0.155566183166     0.0297812737232     -0.184651507252     0.0297812737232     -0.184651507252     -0.969738353343     -0.155566183166     
9600000000.0        -0.970361832692     -0.153658363603     0.029147868539      -0.183076392783     0.029147868539      -0.183076392783     -0.970361832692     -0.153658363603     
9700000000.0        -0.97096685139      -0.151781574471     0.0285327920142     -0.181532955256     0.0285327920142     -0.181532955256     -0.97096685139      -0.151781574471     
9800000000.0        -0.971554114062     -0.149934978018     0.027935338673      -0.180020362898     0.027935338673      -0.180020362898     -0.971554114062     -0.149934978018     
9900000000.0        -0.972124292148     -0.148117764429     0.0273548362126     -0.178537811962     0.0273548362126     -0.178537811962     -0.972124292148     -0.148117764429     
10000000000.0       -0.972678025744     -0.146329150738     0.026790643664      -0.177084525647     0.026790643664      -0.177084525647     -0.972678025744     -0.146329150738     
