# Hz S RI R 50.00 
100000000.0         -0.0007379349715    -0.0268398221931    0.999231388516      -0.0270294750311    0.999231388516      -0.0270294750311    -0.0007379349715    -0.0268398221931    
200000000.0         -0.00293576186895   -0.0535567071514    0.997033298247      -0.0539360857283    0.997033298247      -0.0539360857283    -0.00293576186895   -0.0535567071514    
300000000.0         -0.00655894739771   -0.0800340212653    0.993409865992      -0.0806032352512    0.993409865992      -0.0806032352512    -0.00655894739771   -0.0800340212653    
400000000.0         -0.0115753980871    -0.106159062053     0.988393158776      -0.106918248473     0.988393158776      -0.106918248473     -0.0115753980871    -0.106159062053     
500000000.0         -0.0179415362894    -0.131824426745     0.982026744047      -0.132773744874     0.982026744047      -0.132773744874     -0.0179415362894    -0.131824426745     
600000000.0         -0.0256032523788    -0.156929341923     0.974364726196      -0.158068969725     0.974364726196      -0.158068969725     -0.0256032523788    -0.156929341923     
700000000.0         -0.0344970409193    -0.181380832539     0.965470607522      -0.182710963909     0.965470607522      -0.182710963909     -0.0344970409193    -0.181380832539     
800000000.0         -0.0445512791746    -0.205094686677     0.955416008688      -0.206615529189     0.955416008688      -0.206615529189     -0.0445512791746    -0.205094686677     
900000000.0         -0.055687603897     -0.227996193957     0.94427929147       -0.229707966958     0.94427929147       -0.229707966958     -0.055687603897     -0.227996193957     
1000000000.0        -0.0678223413283    -0.250020648861     0.93214412852       -0.251923581825     0.93214412852       -0.251923581825     -0.0678223413283    -0.250020648861     
1100000000.0        -0.0808679466889    -0.271113621012     0.919098063752      -0.273207952097     0.919098063752      -0.273207952097     -0.0808679466889    -0.271113621012     
1200000000.0        -0.0947344128049    -0.291231003367     0.905231103633      -0.293516978132     0.905231103633      -0.293516978132     -0.0947344128049    -0.291231003367     
1300000000.0        -0.109330612484     -0.31033885655      0.890634374767      -0.31281672682      0.890634374767      -0.31281672682      -0.109330612484     -0.31033885655      
1400000000.0        -0.124565545307     -0.328413073038     0.875398877067      -0.331083095878     0.875398877067      -0.331083095878     -0.124565545307     -0.328413073038     
1500000000.0        -0.140349466133     -0.345438888554     0.85961435523       -0.348301325355     0.85961435523       -0.348301325355     -0.140349466133     -0.345438888554     
1600000000.0        -0.156594879433     -0.361410270036     0.843368304391      -0.36446538569      0.843368304391      -0.36446538569      -0.156594879433     -0.361410270036     
1700000000.0        -0.173217390059     -0.376329209911     0.826745119339      -0.379577272066     0.826745119339      -0.379577272066     -0.173217390059     -0.376329209911     
1800000000.0        -0.190136407077     -0.390204955504     0.809825390683      -0.393646233898     0.809825390683      -0.393646233898     -0.190136407077     -0.390204955504     
1900000000.0        -0.207275702458     -0.403053200438     0.792685346148      -0.406687966294     0.792685346148      -0.406687966294     -0.207275702458     -0.403053200438     
2000000000.0        -0.224563830733     -0.41489526211      0.775396430922      -0.418723787599     0.775396430922      -0.418723787599     -0.224563830733     -0.41489526211      
2100000000.0        -0.241934419054     -0.425757266114     0.75802501759       -0.429779823868     0.75802501759       -0.429779823868     -0.241934419054     -0.425757266114     
2200000000.0        -0.259326339485     -0.435669354965     0.740632233834      -0.439886217642     0.740632233834      -0.439886217642     -0.259326339485     -0.435669354965     
2300000000.0        -0.276683776915     -0.444664934954     0.723273894532      -0.449076374852     0.723273894532      -0.449076374852     -0.276683776915     -0.444664934954     
2400000000.0        -0.293956206676     -0.452779971607     0.706000524123      -0.457386260317     0.706000524123      -0.457386260317     -0.293956206676     -0.452779971607     
2500000000.0        -0.311098296138     -0.460052341032     0.688857455022      -0.464853749132     0.688857455022      -0.464853749132     -0.311098296138     -0.460052341032     
2600000000.0        -0.32806974408      -0.466521241708     0.671884988242      -0.471518038494     0.671884988242      -0.471518038494     -0.32806974408      -0.466521241708     
2700000000.0        -0.344835070874     -0.472226668829     0.655118603212      -0.477419122075     0.655118603212      -0.477419122075     -0.344835070874     -0.472226668829     
2800000000.0        -0.361363371435     -0.477208951339     0.638589204825      -0.482597327092     0.638589204825      -0.482597327092     -0.361363371435     -0.477208951339     
2900000000.0        -0.37762804164      -0.481508350196     0.622323397017      -0.487092912591     0.622323397017      -0.487092912591     -0.37762804164      -0.481508350196     
3000000000.0        -0.393606487621     -0.485164715156     0.606343773478      -0.490945726266     0.606343773478      -0.490945726266     -0.393606487621     -0.485164715156     
3100000000.0        -0.409279825946     -0.488217196516     0.590669217464      -0.494194916219     0.590669217464      -0.494194916219     -0.409279825946     -0.488217196516     
3200000000.0        -0.424632581452     -0.490704007605     0.575315203971      -0.496878693468     0.575315203971      -0.496878693468     -0.424632581452     -0.490704007605     
3300000000.0        -0.43965238824      -0.492662233496     0.560294098732      -0.49903414069      0.560294098732      -0.49903414069      -0.43965238824      -0.492662233496     
3400000000.0        -0.45432969822      -0.494127681253     0.54561544968       -0.500697062472     0.54561544968       -0.500697062472     -0.45432969822      -0.494127681253     
3500000000.0        -0.468657500598     -0.49513476703      0.531286267451      -0.501901872436     0.531286267451      -0.501901872436     -0.468657500598     -0.49513476703      
3600000000.0        -0.482631054825     -0.495716435478     0.517311292444      -0.502681512656     0.517311292444      -0.502681512656     -0.482631054825     -0.495716435478     
3700000000.0        -0.49624763874      -0.495904107147     0.503693246673      -0.503067401072     0.503693246673      -0.503067401072     -0.49624763874      -0.495904107147     
3800000000.0        -0.509506313031     -0.495727649838     0.490433069305      -0.503089402857     0.490433069305      -0.503089402857     -0.509506313031     -0.495727649838     
3900000000.0        -0.522407702596     -0.495215370199     0.477530135302      -0.50277582202      0.477530135302      -0.50277582202      -0.522407702596     -0.495215370199     
4000000000.0        -0.534953794952     -0.494394022193     0.464982457009      -0.502153409886     0.464982457009      -0.502153409886     -0.534953794952     -0.494394022193     
4100000000.0        -0.54714775551      -0.493288829421     0.452786868879      -0.501247387428     0.452786868879      -0.501247387428     -0.54714775551      -0.493288829421     
4200000000.0        -0.558993759269     -0.491923518616     0.440939195784      -0.500081478767     0.440939195784      -0.500081478767     -0.558993759269     -0.491923518616     
4300000000.0        -0.570496838275     -0.490320361952     0.429434405547      -0.498677953489     0.429434405547      -0.498677953489     -0.570496838275     -0.490320361952     
4400000000.0        -0.581662744071     -0.488500226133     0.418266746499      -0.497057675738     0.418266746499      -0.497057675738     -0.581662744071     -0.488500226133     
4500000000.0        -0.592497824251     -0.486482626493     0.407429870921      -0.495240158324     0.407429870921      -0.495240158324     -0.592497824251     -0.486482626493     
4600000000.0        -0.603008912196     -0.484285784604     0.39691694531       -0.493243620334     0.39691694531       -0.493243620334     -0.603008912196     -0.484285784604     
4700000000.0        -0.613203229015     -0.481926688136     0.386720748436      -0.491085046999     0.386720748436      -0.491085046999     -0.613203229015     -0.481926688136     
4800000000.0        -0.623088296757     -0.479421151904     0.376833758133      -0.48878025074      0.376833758133      -0.48878025074      -0.623088296757     -0.479421151904     
4900000000.0        -0.632671861922     -0.476783879219     0.367248227784      -0.486343932525     0.367248227784      -0.486343932525     -0.632671861922     -0.476783879219     
5000000000.0        -0.64196182839      -0.474028522854     0.357956253393      -0.483789742839     0.357956253393      -0.483789742839     -0.64196182839      -0.474028522854     
5100000000.0        -0.650966198878     -0.471167745027     0.348949832132      -0.481130341666     0.348949832132      -0.481130341666     -0.650966198878     -0.471167745027     
5200000000.0        -0.659693024109     -0.468213275972     0.340220913166      -0.478377457064     0.340220913166      -0.478377457064     -0.659693024109     -0.468213275972     
5300000000.0        -0.66815035892      -0.465175970732     0.331761441546      -0.47554194196      0.331761441546      -0.47554194196      -0.66815035892      -0.465175970732     
5400000000.0        -0.676346224602     -0.462065863933     0.323563395873      -0.472633828922     0.323563395873      -0.472633828922     -0.676346224602     -0.462065863933     
5500000000.0        -0.684288576792     -0.458892222329     0.315618820402      -0.469662382711     0.315618820402      -0.469662382711     -0.684288576792     -0.458892222329     
5600000000.0        -0.691985278325     -0.455663595023     0.307919852191      -0.466636150495     0.307919852191      -0.466636150495     -0.691985278325     -0.455663595023     
5700000000.0        -0.699444076477     -0.452387861261     0.300458743859      -0.463563009652     0.300458743859      -0.463563009652     -0.699444076477     -0.452387861261     
5800000000.0        -0.706672584098     -0.44907227579      0.29322788245       -0.46045021312      0.29322788245       -0.46045021312      -0.706672584098     -0.44907227579      
5900000000.0        -0.713678264177     -0.445723511769     0.286219804872      -0.457304432315     0.286219804872      -0.457304432315     -0.713678264177     -0.445723511769     
6000000000.0        -0.720468417417     -0.442347701261     0.27942721032       -0.45413179762      0.27942721032       -0.45413179762      -0.720468417417     -0.442347701261     
6100000000.0        -0.72705017245      -0.438950473372     0.272842970056      -0.450937936522     0.272842970056      -0.450937936522     -0.72705017245      -0.438950473372     
6200000000.0        -0.733430478362     -0.435536990079     0.266460134895      -0.447728009444     0.266460134895      -0.447728009444     -0.733430478362     -0.435536990079     
6300000000.0        -0.739616099216     -0.432111979848     0.26027194067       -0.444506743358     0.26027194067       -0.444506743358     -0.739616099216     -0.432111979848     
6400000000.0        -0.745613610314     -0.42867976911      0.254271811981      -0.441278463266     0.254271811981      -0.441278463266     -0.745613610314     -0.42867976911      
6500000000.0        -0.751429395954     -0.425244311709     0.248453364428      -0.438047121641     0.248453364428      -0.438047121641     -0.751429395954     -0.425244311709     
6600000000.0        -0.757069648478     -0.421809216395     0.24281040557       -0.434816325925     0.24281040557       -0.434816325925     -0.757069648478     -0.421809216395     
6700000000.0        -0.762540368409     -0.418377772486     0.237336934782      -0.431589364185     0.237336934782      -0.431589364185     -0.762540368409     -0.418377772486     
6800000000.0        -0.767847365532     -0.414952973771     0.232027142181      -0.428369229021     0.232027142181      -0.428369229021     -0.767847365532     -0.414952973771     
6900000000.0        -0.772996260747     -0.41153754078      0.226875406767      -0.425158639831     0.226875406767      -0.425158639831     -0.772996260747     -0.41153754078      
7000000000.0        -0.777992488591     -0.408133941493     0.221876293905      -0.42196006352      0.221876293905      -0.42196006352      -0.777992488591     -0.408133941493     
7100000000.0        -0.782841300296     -0.404744410597     0.217024552262      -0.418775733756     0.217024552262      -0.418775733756     -0.782841300296     -0.404744410597     
7200000000.0        -0.787547767296     -0.401370967374     0.212315110306      -0.415607668857     0.212315110306      -0.415607668857     -0.787547767296     -0.401370967374     
7300000000.0        -0.792116785094     -0.398015432305     0.207743072435      -0.412457688399     0.207743072435      -0.412457688399     -0.792116785094     -0.398015432305     
7400000000.0        -0.796553077409     -0.39467944249      0.203303714829      -0.409327428623     0.203303714829      -0.409327428623     -0.796553077409     -0.39467944249      
7500000000.0        -0.800861200547     -0.391364465932     0.198992481085      -0.40621835673      0.198992481085      -0.40621835673      -0.800861200547     -0.391364465932     
7600000000.0        -0.805045547928     -0.388071814791     0.194804977682      -0.403131784128     0.194804977682      -0.403131784128     -0.805045547928     -0.388071814791     
7700000000.0        -0.809110354733     -0.384802657662     0.190736969339      -0.400068878713     0.190736969339      -0.400068878713     -0.809110354733     -0.384802657662     
7800000000.0        -0.813059702621     -0.381558030947     0.186784374299      -0.397030676234     0.186784374299      -0.397030676234     -0.813059702621     -0.381558030947     
7900000000.0        -0.816897524478     -0.378338849389     0.182943259574      -0.394018090829     0.182943259574      -0.394018090829     -0.816897524478     -0.378338849389     
8000000000.0        -0.820627609177     -0.375145915817     0.179209836192      -0.391031924771     0.179209836192      -0.391031924771     -0.820627609177     -0.375145915817     
8100000000.0        -0.824253606317     -0.37197993017      0.175580454452      -0.38807287749      0.175580454452      -0.38807287749      -0.824253606317     -0.37197993017      
8200000000.0        -0.827779030919     -0.368841497842     0.172051599232      -0.385141553916     0.172051599232      -0.385141553916     -0.827779030919     -0.368841497842     
8300000000.0        -0.831207268062     -0.365731137407     0.168619885352      -0.382238472199     0.168619885352      -0.382238472199     -0.831207268062     -0.365731137407     
8400000000.0        -0.834541577446     -0.36264928775      0.16528205301       -0.379364070849     0.16528205301       -0.379364070849     -0.834541577446     -0.36264928775      
8500000000.0        -0.837785097865     -0.359596314676     0.162034963308      -0.376518715334     0.162034963308      -0.376518715334     -0.837785097865     -0.359596314676     
8600000000.0        -0.840940851592     -0.356572517005     0.158875593872      -0.373702704181     0.158875593872      -0.373702704181     -0.840940851592     -0.356572517005     
8700000000.0        -0.844011748644     -0.353578132214     0.15580103458       -0.370916274612     0.15580103458       -0.370916274612     -0.844011748644     -0.353578132214     
8800000000.0        -0.847000590953     -0.350613341644     0.152808483398      -0.368159607754     0.152808483398      -0.368159607754     -0.847000590953     -0.350613341644     
8900000000.0        -0.849910076409     -0.347678275316     0.149895242329      -0.365432833452     0.149895242329      -0.365432833452     -0.849910076409     -0.347678275316     
9000000000.0        -0.852742802796     -0.344773016373     0.147058713485      -0.362736034712     0.147058713485      -0.362736034712     -0.852742802796     -0.344773016373     
9100000000.0        -0.855501271598     -0.341897605191     0.144296395276      -0.360069251805     0.144296395276      -0.360069251805     -0.855501271598     -0.341897605191     
9200000000.0        -0.858187891688     -0.339052043162     0.141605878723      -0.357432486059     0.141605878723      -0.357432486059     -0.858187891688     -0.339052043162     
9300000000.0        -0.860804982899     -0.336236296199     0.138984843884      -0.354825703354     0.138984843884      -0.354825703354     -0.860804982899     -0.336236296199     
9400000000.0        -0.863354779469     -0.333450297963     0.136431056416      -0.352248837355     0.136431056416      -0.352248837355     -0.863354779469     -0.333450297963     
9500000000.0        -0.865839433367     -0.330693952843     0.133942364239      -0.349701792486     0.133942364239      -0.349701792486     -0.865839433367     -0.330693952843     
9600000000.0        -0.868261017502     -0.327967138708     0.131516694336      -0.347184446686     0.131516694336      -0.347184446686     -0.868261017502     -0.327967138708     
9700000000.0        -0.870621528816     -0.325269709439     0.129152049654      -0.344696653934     0.129152049654      -0.344696653934     -0.870621528816     -0.325269709439     
9800000000.0        -0.872922891261     -0.322601497271     0.12684650613       -0.342238246597     0.12684650613       -0.342238246597     -0.872922891261     -0.322601497271     
9900000000.0        -0.875166958665     -0.319962314948     0.124598209825      -0.33980903758      0.124598209825      -0.33980903758      -0.875166958665     -0.319962314948     
10000000000.0       -0.877355517491     -0.317351957709     0.122405374164      -0.337408822312     0.122405374164      -0.337408822312     -0.877355517491     -0.317351957709     
