# Hz S RI R 50.00 
100000000.0         0.000494979864721   -0.000624939261122  0.999494984677      -0.00277553747612   0.999494984677      -0.00277553747612   0.000494979864721   -0.000624939261122  
200000000.0         0.000491505468275   -0.00124991724701   0.999477857262      -0.0055511329637    0.999477857262      -0.0055511329637    0.000491505468275   -0.00124991724701   
300000000.0         0.000483688862905   -0.00187493607231   0.999453503537      -0.0083268213715    0.999453503537      -0.0083268213715    0.000483688862905   -0.00187493607231   
400000000.0         0.000471960541919   -0.0024999945833    0.999421490241      -0.0111026206019    0.999421490241      -0.0111026206019    0.000471960541919   -0.0024999945833    
500000000.0         0.000456485216827   -0.00312508881058   0.999381649456      -0.0138785409224    0.999381649456      -0.0138785409224    0.000456485216826   -0.00312508881058   
600000000.0         0.00043734606633    -0.00375021267004   0.999333894463      -0.0166545877454    0.999333894463      -0.0166545877454    0.00043734606633    -0.00375021267004   
700000000.0         0.000414591550643   -0.00437535840268   0.999278172996      -0.0194307629786    0.999278172996      -0.0194307629786    0.000414591550643   -0.00437535840268   
800000000.0         0.000388252494878   -0.00500051686684   0.999214450218      -0.0222070658137    0.999214450218      -0.0222070658137    0.000388252494878   -0.00500051686684   
900000000.0         0.000358349697811   -0.00562567774506   0.999142701157      -0.0249834932388    0.999142701157      -0.0249834932388    0.000358349697811   -0.00562567774506   
1000000000.0        0.000324897791943   -0.00625082969711   0.999062906886      -0.0277600403965    0.999062906886      -0.0277600403965    0.000324897791943   -0.00625082969711   
1100000000.0        0.000287907392562   -0.00687596047809   0.998975052406      -0.0305367008461    0.998975052406      -0.0305367008461    0.000287907392562   -0.00687596047809   
1200000000.0        0.00024738638134    -0.00750105703216   0.998879125391      -0.0333134667647    0.998879125391      -0.0333134667647    0.000247386381339   -0.00750105703216   
1300000000.0        0.000203340716534   -0.00812610556872   0.998775115408      -0.0360903291042    0.998775115408      -0.0360903291042    0.000203340716534   -0.00812610556872   
1400000000.0        0.000155774967883   -0.00875109162588   0.9986630134        -0.0388672777195    0.9986630134        -0.0388672777195    0.000155774967883   -0.00875109162588   
1500000000.0        0.000104692683115   -0.00937600012402   0.998542811347      -0.0416443014726    0.998542811347      -0.0416443014726    0.000104692683115   -0.00937600012402   
1600000000.0        5.00966471408e-05   -0.0100008154118    0.998414502021      -0.0444213883208    0.998414502021      -0.0444213883208    5.00966471406e-05   -0.0100008154118    
1700000000.0        -8.01092959701e-06  -0.0106255213062    0.998278078816      -0.0471985253907    0.998278078816      -0.0471985253907    -8.01092959701e-06  -0.0106255213062    
1800000000.0        -6.96282709597e-05  -0.0112501011275    0.998133535629      -0.0499756990429    0.998133535629      -0.0499756990429    -6.96282709597e-05  -0.0112501011275    
1900000000.0        -0.000134753928613  -0.0118745377307    0.997980866764      -0.0527528949272    0.997980866764      -0.0527528949272    -0.000134753928614  -0.0118745377307    
2000000000.0        -0.000203386699569  -0.0124988135336    0.997820066865      -0.055530098032     0.997820066865      -0.055530098032     -0.000203386699569  -0.0124988135336    
2100000000.0        -0.000275525561252  -0.0131229105414    0.997651130867      -0.0583072927273    0.997651130867      -0.0583072927273    -0.000275525561252  -0.0131229105414    
2200000000.0        -0.000351169619601  -0.0137468103702    0.997474053951      -0.0610844628036    0.997474053951      -0.0610844628036    -0.000351169619601  -0.0137468103702    
2300000000.0        -0.000430318066984  -0.0143704942678    0.99728883152       -0.0638615915065    0.99728883152       -0.0638615915065    -0.000430318066984  -0.0143704942678    
2400000000.0        -0.000512970147656  -0.0149939431327    0.997095459172      -0.0666386615681    0.997095459172      -0.0666386615681    -0.000512970147657  -0.0149939431327    
2500000000.0        -0.000599125129065  -0.015617137532     0.99689393268       -0.0694156552357    0.99689393268       -0.0694156552357    -0.000599125129065  -0.015617137532     
2600000000.0        -0.000688782277755  -0.0162400577179    0.996684247984      -0.0721925542977    0.996684247984      -0.0721925542977    -0.000688782277755  -0.0162400577179    
2700000000.0        -0.000781940838937  -0.0168626836431    0.996466401171      -0.0749693401076    0.996466401171      -0.0749693401076    -0.000781940838937  -0.0168626836431    
2800000000.0        -0.000878600019008  -0.017484994975     0.996240388474      -0.0777459936058    0.996240388474      -0.0777459936058    -0.000878600019008  -0.017484994975     
2900000000.0        -0.000978758970462  -0.0181069711091    0.996006206263      -0.0805224953403    0.996006206263      -0.0805224953403    -0.000978758970462  -0.0181069711091    
3000000000.0        -0.00108241677876   -0.018728591182     0.995763851035      -0.0832988254855    0.995763851035      -0.0832988254855    -0.00108241677876   -0.018728591182     
3100000000.0        -0.00118957245085   -0.0193498340829    0.995513319419      -0.0860749638599    0.995513319419      -0.0860749638599    -0.00118957245085   -0.0193498340829    
3200000000.0        -0.00130022490498   -0.0199706784652    0.995254608164      -0.0888508899421    0.995254608164      -0.0888508899421    -0.00130022490498   -0.0199706784652    
3300000000.0        -0.00141437296179   -0.0205911027572    0.994987714141      -0.0916265828868    0.994987714141      -0.0916265828868    -0.00141437296179   -0.0205911027572    
3400000000.0        -0.00153201533616   -0.0212110851722    0.994712634344      -0.0944020215392    0.994712634344      -0.0944020215392    -0.00153201533616   -0.0212110851722    
3500000000.0        -0.00165315063013   -0.0218306037181    0.994429365883      -0.0971771844482    0.994429365883      -0.0971771844482    -0.00165315063013   -0.0218306037181    
3600000000.0        -0.00177777732632   -0.022449636207     0.994137905986      -0.0999520498795    0.994137905986      -0.0999520498795    -0.00177777732632   -0.022449636207     
3700000000.0        -0.0019058937821    -0.0230681602638    0.993838252001      -0.102726595828     0.993838252001      -0.102726595828     -0.0019058937821    -0.0230681602638    
3800000000.0        -0.00203749822422   -0.0236861533348    0.993530401393      -0.105500800029     0.993530401393      -0.105500800029     -0.00203749822422   -0.0236861533348    
3900000000.0        -0.00217258874397   -0.0243035926955    0.993214351742      -0.108274639969     0.993214351742      -0.108274639969     -0.00217258874397   -0.0243035926955    
4000000000.0        -0.00231116329271   -0.024920455459     0.992890100751      -0.111048092896     0.992890100751      -0.111048092896     -0.00231116329271   -0.024920455459     
4100000000.0        -0.00245321967777   -0.0255367185832    0.992557646238      -0.113821135831     0.992557646238      -0.113821135831     -0.00245321967777   -0.0255367185832    
4200000000.0        -0.0025987555587    -0.0261523588779    0.992216986141      -0.116593745575     0.992216986141      -0.116593745575     -0.0025987555587    -0.0261523588779    
4300000000.0        -0.00274776844379   -0.0267673530121    0.991868118518      -0.119365898719     0.991868118518      -0.119365898719     -0.00274776844379   -0.0267673530121    
4400000000.0        -0.00290025568687   -0.0273816775206    0.991511041547      -0.122137571653     0.991511041547      -0.122137571653     -0.00290025568687   -0.0273816775206    
4500000000.0        -0.00305621448433   -0.0279953088103    0.991145753528      -0.124908740575     0.991145753528      -0.124908740575     -0.00305621448433   -0.0279953088103    
4600000000.0        -0.00321564187237   -0.028608223167     0.990772252883      -0.127679381497     0.990772252883      -0.127679381497     -0.00321564187237   -0.028608223167     
4700000000.0        -0.00337853472444   -0.029220396761     0.990390538155      -0.130449470252     0.990390538155      -0.130449470252     -0.00337853472444   -0.029220396761     
4800000000.0        -0.00354488974887   -0.0298318056535    0.990000608011      -0.133218982506     0.990000608011      -0.133218982506     -0.00354488974887   -0.0298318056535    
4900000000.0        -0.00371470348661   -0.0304424258018    0.989602461244      -0.135987893759     0.989602461244      -0.135987893759     -0.00371470348661   -0.0304424258018    
5000000000.0        -0.00388797230922   -0.0310522330653    0.989196096771      -0.138756179355     0.989196096771      -0.138756179355     -0.00388797230922   -0.0310522330653    
5100000000.0        -0.00406469241693   -0.0316612032109    0.988781513634      -0.14152381449      0.988781513634      -0.14152381449      -0.00406469241693   -0.0316612032109    
5200000000.0        -0.00424485983684   -0.0322693119179    0.988358711002      -0.144290774215     0.988358711002      -0.144290774215     -0.00424485983684   -0.0322693119179    
5300000000.0        -0.00442847042125   -0.0328765347837    0.987927688173      -0.147057033443     0.987927688173      -0.147057033443     -0.00442847042125   -0.0328765347837    
5400000000.0        -0.00461551984609   -0.0334828473281    0.987488444571      -0.149822566955     0.987488444571      -0.149822566955     -0.00461551984609   -0.0334828473281    
5500000000.0        -0.00480600360949   -0.0340882249988    0.98704097975       -0.152587349406     0.98704097975       -0.152587349406     -0.00480600360949   -0.0340882249988    
5600000000.0        -0.0049999170304    -0.0346926431759    0.986585293394      -0.155351355332     0.986585293394      -0.155351355332     -0.0049999170304    -0.0346926431759    
5700000000.0        -0.00519725524737   -0.0352960771762    0.986121385315      -0.158114559153     0.986121385315      -0.158114559153     -0.00519725524737   -0.0352960771762    
5800000000.0        -0.00539801321732   -0.0358985022585    0.985649255458      -0.160876935176     0.985649255458      -0.160876935176     -0.00539801321732   -0.0358985022585    
5900000000.0        -0.00560218571448   -0.036499893627     0.985168903898      -0.163638457606     0.985168903898      -0.163638457606     -0.00560218571448   -0.036499893627     
6000000000.0        -0.00580976732939   -0.0371002264365    0.984680330844      -0.166399100547     0.984680330844      -0.166399100547     -0.00580976732939   -0.0371002264365    
6100000000.0        -0.00602075246795   -0.0376994757961    0.984183536635      -0.169158838006     0.984183536635      -0.169158838006     -0.00602075246795   -0.0376994757961    
6200000000.0        -0.00623513535052   -0.0382976167735    0.983678521743      -0.171917643899     0.983678521743      -0.171917643899     -0.00623513535052   -0.0382976167735    
6300000000.0        -0.00645291001118   -0.0388946243991    0.983165286777      -0.174675492057     0.983165286777      -0.174675492057     -0.00645291001118   -0.0388946243991    
6400000000.0        -0.00667407029697   -0.0394904736697    0.982643832476      -0.177432356227     0.982643832476      -0.177432356227     -0.00667407029697   -0.0394904736697    
6500000000.0        -0.0068986098672    -0.0400851395525    0.982114159715      -0.180188210076     0.982114159715      -0.180188210076     -0.0068986098672    -0.0400851395525    
6600000000.0        -0.00712652219283   -0.0406785969889    0.981576269503      -0.1829430272       0.981576269503      -0.1829430272       -0.00712652219283   -0.0406785969889    
6700000000.0        -0.00735780055596   -0.0412708208985    0.981030162986      -0.185696781123     0.981030162986      -0.185696781123     -0.00735780055596   -0.0412708208985    
6800000000.0        -0.00759243804927   -0.0418617861819    0.980475841442      -0.188449445302     0.980475841442      -0.188449445302     -0.00759243804927   -0.0418617861819    
6900000000.0        -0.00783042757559   -0.0424514677254    0.979913306288      -0.191200993133     0.979913306288      -0.191200993133     -0.00783042757559   -0.0424514677254    
7000000000.0        -0.00807176184749   -0.0430398404034    0.979342559076      -0.19395139795      0.979342559076      -0.19395139795      -0.00807176184749   -0.0430398404034    
7100000000.0        -0.00831643338694   -0.0436268790828    0.978763601492      -0.196700633034     0.978763601492      -0.196700633034     -0.00831643338694   -0.0436268790828    
7200000000.0        -0.00856443452497   -0.0442125586255    0.97817643536       -0.199448671612     0.97817643536       -0.199448671612     -0.00856443452497   -0.0442125586255    
7300000000.0        -0.00881575740143   -0.0447968538925    0.977581062642      -0.202195486865     0.977581062642      -0.202195486865     -0.00881575740143   -0.0447968538925    
7400000000.0        -0.00907039396477   -0.0453797397467    0.976977485434      -0.204941051925     0.976977485434      -0.204941051925     -0.00907039396477   -0.0453797397467    
7500000000.0        -0.00932833597181   -0.045961191056     0.97636570597       -0.207685339885     0.97636570597       -0.207685339885     -0.00932833597181   -0.045961191056     
7600000000.0        -0.00958957498768   -0.0465411826969    0.975745726621      -0.210428323797     0.975745726621      -0.210428323797     -0.00958957498768   -0.0465411826969    
7700000000.0        -0.00985410238563   -0.0471196895572    0.975117549894      -0.213169976676     0.975117549894      -0.213169976676     -0.00985410238563   -0.0471196895572    
7800000000.0        -0.0101219093471    -0.0476966865392    0.974481178434      -0.215910271508     0.974481178434      -0.215910271508     -0.0101219093471    -0.0476966865392    
7900000000.0        -0.0103929868614    -0.0482721485628    0.973836615021      -0.218649181245     0.973836615021      -0.218649181245     -0.0103929868614    -0.0482721485628    
8000000000.0        -0.0106673257261    -0.0488460505681    0.973183862574      -0.221386678813     0.973183862574      -0.221386678813     -0.0106673257261    -0.0488460505681    
8100000000.0        -0.0109449165469    -0.0494183675187    0.972522924148      -0.224122737115     0.972522924148      -0.224122737115     -0.0109449165469    -0.0494183675187    
8200000000.0        -0.0112257497376    -0.0499890744043    0.971853802935      -0.226857329029     0.971853802935      -0.226857329029     -0.0112257497376    -0.0499890744043    
8300000000.0        -0.0115098155204    -0.0505581462437    0.971176502262      -0.229590427418     0.971176502262      -0.229590427418     -0.0115098155204    -0.0505581462437    
8400000000.0        -0.0117971039257    -0.0511255580872    0.970491025594      -0.232322005125     0.970491025594      -0.232322005125     -0.0117971039257    -0.0511255580872    
8500000000.0        -0.0120876047929    -0.0516912850199    0.969797376534      -0.235052034982     0.969797376534      -0.235052034982     -0.0120876047929    -0.0516912850199    
8600000000.0        -0.0123813077699    -0.0522553021638    0.969095558817      -0.237780489807     0.969095558817      -0.237780489807     -0.0123813077699    -0.0522553021638    
8700000000.0        -0.0126782023138    -0.052817584681     0.968385576316      -0.240507342413     0.968385576316      -0.240507342413     -0.0126782023138    -0.052817584681     
8800000000.0        -0.012978277691     -0.0533781077758    0.967667433042      -0.243232565602     0.967667433042      -0.243232565602     -0.012978277691     -0.0533781077758    
8900000000.0        -0.0132815229773    -0.0539368466976    0.966941133139      -0.245956132174     0.966941133139      -0.245956132174     -0.0132815229773    -0.0539368466976    
9000000000.0        -0.0135879270588    -0.0544937767433    0.966206680885      -0.248678014929     0.966206680885      -0.248678014929     -0.0135879270588    -0.0544937767433    
9100000000.0        -0.0138974786314    -0.0550488732601    0.965464080696      -0.251398186664     0.965464080696      -0.251398186664     -0.0138974786314    -0.0550488732601    
9200000000.0        -0.0142101662019    -0.0556021116475    0.964713337121      -0.25411662018      0.964713337121      -0.25411662018      -0.0142101662019    -0.0556021116475    
9300000000.0        -0.014525978088     -0.0561534673599    0.963954454843      -0.256833288285     0.963954454843      -0.256833288285     -0.014525978088     -0.0561534673599    
9400000000.0        -0.0148449024188    -0.0567029159093    0.96318743868       -0.25954816379      0.96318743868       -0.25954816379      -0.0148449024188    -0.0567029159093    
9500000000.0        -0.0151669271354    -0.0572504328673    0.962412293584      -0.262261219517     0.962412293584      -0.262261219517     -0.0151669271354    -0.0572504328673    
9600000000.0        -0.0154920399912    -0.0577959938677    0.961629024639      -0.2649724283       0.961629024639      -0.2649724283       -0.0154920399912    -0.0577959938677    
9700000000.0        -0.0158202285522    -0.0583395746086    0.960837637061      -0.267681762985     0.960837637061      -0.267681762985     -0.0158202285522    -0.0583395746086    
9800000000.0        -0.0161514801979    -0.0588811508548    0.960038136201      -0.270389196433     0.960038136201      -0.270389196433     -0.0161514801979    -0.0588811508548    
9900000000.0        -0.0164857821218    -0.0594206984402    0.959230527539      -0.273094701522     0.959230527539      -0.273094701522     -0.0164857821218    -0.0594206984402    
10000000000.0       -0.0168231213316    -0.0599581932696    0.95841481669       -0.275798251148     0.95841481669       -0.275798251148     -0.0168231213316    -0.0599581932696    
