# Hz S RI R 50.00 
100000000.0         -0.00141420599176   -0.0372912042495    0.998534786859      -0.0375414900783    0.998534786859      -0.0375414900783    -0.00141420599176   -0.0372912042495    
200000000.0         -0.00563268548501   -0.0742606214711    0.994315865028      -0.0747612652453    0.994315865028      -0.0747612652453    -0.00563268548501   -0.0742606214711    
300000000.0         -0.0125593971571    -0.110602678494     0.987388735743      -0.111353789849     0.987388735743      -0.111353789849     -0.0125593971571    -0.110602678494     
400000000.0         -0.0220798147866    -0.146029499415     0.97786788128       -0.147031216608     0.97786788128       -0.147031216608     -0.0220798147866    -0.146029499415     
500000000.0         -0.034040890489     -0.180277938969     0.965906332594      -0.181530424151     0.965906332594      -0.181530424151     -0.034040890489     -0.180277938969     
600000000.0         -0.0482570307367    -0.21311538236      0.951689674535      -0.21461881832      0.951689674535      -0.21461881832      -0.0482570307367    -0.21311538236      
700000000.0         -0.0645169656054    -0.244343991326     0.935429171848      -0.246098578996     0.935429171848      -0.246098578996     -0.0645169656054    -0.244343991326     
800000000.0         -0.0825910644975    -0.27380327957      0.917354451716      -0.275809235999     0.917354451716      -0.275809235999     -0.0825910644975    -0.27380327957      
900000000.0         -0.102238667571     -0.301371041259     0.897706171565      -0.303628597903     0.897706171565      -0.303628597903     -0.102238667571     -0.301371041259     
1000000000.0        -0.123215052596     -0.326962770086     0.876729051818      -0.329472171327     0.876729051818      -0.329472171327     -0.123215052596     -0.326962770086     
1100000000.0        -0.145277733129     -0.350529790158     0.854665577508      -0.353291292        0.854665577508      -0.353291292        -0.145277733129     -0.350529790158     
1200000000.0        -0.168191873563     -0.37205637119      0.831750583098      -0.375070240098     0.831750583098      -0.375070240098     -0.168191873563     -0.37205637119      
1300000000.0        -0.191734698042     -0.391556120136     0.808206843491      -0.394822631995     0.808206843491      -0.394822631995     -0.191734698042     -0.391556120136     
1400000000.0        -0.215698854095     -0.409067934132     0.784241710337      -0.412587373299     0.784241710337      -0.412587373299     -0.215698854095     -0.409067934132     
1500000000.0        -0.239894761608     -0.424651771837     0.760044763038      -0.428424430286     0.760044763038      -0.428424430286     -0.239894761608     -0.424651771837     
1600000000.0        -0.264152030227     -0.43838445944      0.735786391303      -0.442410635976     0.735786391303      -0.442410635976     -0.264152030227     -0.43838445944      
1700000000.0        -0.28832006295      -0.450355700387     0.711617191558      -0.454635699929     0.711617191558      -0.454635699929     -0.28832006295      -0.450355700387     
1800000000.0        -0.312267981898     -0.46066441015      0.687668041149      -0.465198543081     0.687668041149      -0.465198543081     -0.312267981898     -0.46066441015      
1900000000.0        -0.335884017029     -0.46941545314      0.664050709619      -0.474204034696     0.664050709619      -0.474204034696     -0.335884017029     -0.46941545314      
2000000000.0        -0.35907449294      -0.4767168208       0.640858871909      -0.481760170527     0.640858871909      -0.481760170527     -0.35907449294      -0.4767168208       
2100000000.0        -0.381762536369     -0.482677259322     0.618169400839      -0.487975700563     0.618169400839      -0.487975700563     -0.381762536369     -0.482677259322     
2200000000.0        -0.40388661041      -0.487404332352     0.596043832897      -0.492958191789     0.596043832897      -0.492958191789     -0.40388661041      -0.487404332352     
2300000000.0        -0.425398963197     -0.491002888081     0.574529919546      -0.496812495304     0.574529919546      -0.496812495304     -0.425398963197     -0.491002888081     
2400000000.0        -0.446264060638     -0.493573890206     0.55366319449       -0.499639577328     0.55366319449       -0.499639577328     -0.446264060638     -0.493573890206     
2500000000.0        -0.466457055924     -0.495213567249     0.533468504164      -0.501535668546     0.533468504164      -0.501535668546     -0.466457055924     -0.495213567249     
2600000000.0        -0.485962333638     -0.496012833481     0.513961463621      -0.502591685069     0.513961463621      -0.502591685069     -0.485962333638     -0.496012833481     
2700000000.0        -0.504772153725     -0.496056936151     0.495149812562      -0.502892875689     0.495149812562      -0.502892875689     -0.504772153725     -0.496056936151     
2800000000.0        -0.522885410355     -0.495425286901     0.477034656473      -0.50251865332      0.477034656473      -0.50251865332      -0.522885410355     -0.495425286901     
2900000000.0        -0.540306512699     -0.494191439506     0.459611585842      -0.501542572767     0.459611585842      -0.501542572767     -0.540306512699     -0.494191439506     
3000000000.0        -0.557044388609     -0.4924231808       0.442871672488      -0.500032421669     0.442871672488      -0.500032421669     -0.557044388609     -0.4924231808       
3100000000.0        -0.573111607808     -0.490182706414     0.426802346362      -0.498050396265     0.426802346362      -0.498050396265     -0.573111607808     -0.490182706414     
3200000000.0        -0.588523618273     -0.487526857593     0.411388159166      -0.495653338226     0.411388159166      -0.495653338226     -0.588523618273     -0.487526857593     
3300000000.0        -0.603298087561     -0.484507399546     0.396611443028      -0.492893013026     0.396611443028      -0.492893013026     -0.603298087561     -0.484507399546     
3400000000.0        -0.617454339857     -0.481171325597     0.382452873454      -0.489816414116     0.382452873454      -0.489816414116     -0.617454339857     -0.481171325597     
3500000000.0        -0.631012879095     -0.47756117469      0.368891946202      -0.486466080431     0.368891946202      -0.486466080431     -0.631012879095     -0.47756117469      
3600000000.0        -0.643994988597     -0.473715352577     0.355907377647      -0.48288041761      0.355907377647      -0.48288041761      -0.643994988597     -0.473715352577     
3700000000.0        -0.656422398022     -0.469668449423     0.343477437833      -0.4790940156       0.343477437833      -0.4790940156       -0.656422398022     -0.469668449423     
3800000000.0        -0.668317009015     -0.465451548434     0.331580224817      -0.475137957312     0.331580224817      -0.475137957312     -0.668317009015     -0.465451548434     
3900000000.0        -0.679700671636     -0.461092521747     0.320193888244      -0.471040114509     0.320193888244      -0.471040114509     -0.679700671636     -0.461092521747     
4000000000.0        -0.690595004395     -0.456616311016     0.309296809317      -0.466825428411     0.309296809317      -0.466825428411     -0.690595004395     -0.456616311016     
4100000000.0        -0.701021251459     -0.452045191147     0.298867743578      -0.462516173442     0.298867743578      -0.462516173442     -0.701021251459     -0.452045191147     
4200000000.0        -0.711000171384     -0.447399016407     0.288885932186      -0.458132203342     0.288885932186      -0.458132203342     -0.711000171384     -0.447399016407     
4300000000.0        -0.720551952349     -0.442695448658     0.279331186678      -0.453691179417     0.279331186678      -0.453691179417     -0.720551952349     -0.442695448658     
4400000000.0        -0.729696149593     -0.437950167968     0.270183951532      -0.449208781152     0.270183951532      -0.449208781152     -0.729696149593     -0.437950167968     
4500000000.0        -0.738451641271     -0.433177066082     0.261425348314      -0.444698899695     0.261425348314      -0.444698899695     -0.738451641271     -0.433177066082     
4600000000.0        -0.746836599531     -0.428388423528     0.253037204595      -0.440173814966     0.253037204595      -0.440173814966     -0.746836599531     -0.428388423528     
4700000000.0        -0.754868474037     -0.423595071203     0.245002070434      -0.435644357252     0.245002070434      -0.435644357252     -0.754868474037     -0.423595071203     
4800000000.0        -0.762563985612     -0.418806537416     0.237303224733      -0.431120054254     0.237303224733      -0.431120054254     -0.762563985612     -0.418806537416     
4900000000.0        -0.769939127999     -0.414031181375     0.229924673471      -0.426609264582     0.229924673471      -0.426609264582     -0.769939127999     -0.414031181375     
5000000000.0        -0.777009176093     -0.409276314136     0.222851141479      -0.422119298706     0.222851141479      -0.422119298706     -0.777009176093     -0.409276314136     
5100000000.0        -0.783788699221     -0.404548307985     0.216068059157      -0.417656528346     0.216068059157      -0.417656528346     -0.783788699221     -0.404548307985     
5200000000.0        -0.790291578322     -0.399852695227     0.209561545292      -0.413226485263     0.209561545292      -0.413226485263     -0.790291578322     -0.399852695227     
5300000000.0        -0.796531026044     -0.395194257281     0.203318386964      -0.408833950356     0.203318386964      -0.408833950356     -0.796531026044     -0.395194257281     
5400000000.0        -0.802519608958     -0.390577104936     0.197326017327      -0.404483033924     0.197326017327      -0.404483033924     -0.802519608958     -0.390577104936     
5500000000.0        -0.808269271245     -0.38600475059      0.19157249193       -0.400177247909     0.19157249193       -0.400177247909     -0.808269271245     -0.38600475059      
5600000000.0        -0.8137913593       -0.381480173197     0.186046464106      -0.395919570846     0.186046464106      -0.395919570846     -0.8137913593       -0.381480173197     
5700000000.0        -0.819096646824     -0.377005876632     0.180737159879      -0.391712506224     0.180737159879      -0.391712506224     -0.819096646824     -0.377005876632     
5800000000.0        -0.82419536007      -0.372583942086     0.175634352726      -0.387558134894     0.175634352726      -0.387558134894     -0.82419536007      -0.372583942086     
5900000000.0        -0.829097202939     -0.368216075091     0.170728338472      -0.383458162086     0.170728338472      -0.383458162086     -0.829097202939     -0.368216075091     
6000000000.0        -0.833811381724     -0.363903647693     0.166009910552      -0.37941395959      0.166009910552      -0.37941395959      -0.833811381724     -0.363903647693     
6100000000.0        -0.838346629332     -0.359647736257     0.161470335783      -0.375426603561     0.161470335783      -0.375426603561     -0.838346629332     -0.359647736257     
6200000000.0        -0.842711228852     -0.35544915534      0.157101330805      -0.371496908393     0.157101330805      -0.371496908393     -0.842711228852     -0.35544915534      
6300000000.0        -0.846913036367     -0.351308488035     0.152895039257      -0.367625457067     0.152895039257      -0.367625457067     -0.846913036367     -0.351308488035     
6400000000.0        -0.850959502964     -0.347226113135     0.148844009779      -0.363812628307     0.148844009779      -0.363812628307     -0.850959502964     -0.347226113135     
6500000000.0        -0.854857695874     -0.34320222944      0.144941174862      -0.3600586209       0.144941174862      -0.3600586209       -0.854857695874     -0.34320222944      
6600000000.0        -0.858614318728     -0.339236877506     0.141179830596      -0.356363475441     0.141179830596      -0.356363475441     -0.858614318728     -0.339236877506     
6700000000.0        -0.86223573092      -0.335329959099     0.13755361731       -0.352727093783     0.13755361731       -0.352727093783     -0.86223573092      -0.335329959099     
6800000000.0        -0.865727966067     -0.331481254576     0.134056501106      -0.349149256424     0.134056501106      -0.349149256424     -0.865727966067     -0.331481254576     
6900000000.0        -0.86909674958      -0.327690438421     0.130682756292      -0.345629638043     0.130682756292      -0.345629638043     -0.86909674958      -0.327690438421     
7000000000.0        -0.872347515364     -0.32395709312      0.127426948681      -0.342167821374     0.127426948681      -0.342167821374     -0.872347515364     -0.32395709312      
7100000000.0        -0.875485421668     -0.320280721551     0.124283919739      -0.338763309594     0.124283919739      -0.338763309594     -0.875485421668     -0.320280721551     
7200000000.0        -0.878515366106     -0.316660758028     0.121248771567      -0.335415537374     0.121248771567      -0.335415537374     -0.878515366106     -0.316660758028     
7300000000.0        -0.881441999885     -0.313096578166     0.118316852669      -0.332123880735     0.118316852669      -0.332123880735     -0.881441999885     -0.313096578166     
7400000000.0        -0.884269741264     -0.309587507657     0.115483744498      -0.328887665834     0.115483744498      -0.328887665834     -0.884269741264     -0.309587507657     
7500000000.0        -0.887002788282     -0.306132830096     0.112745248723      -0.325706176779     0.112745248723      -0.325706176779     -0.887002788282     -0.306132830096     
7600000000.0        -0.889645130783     -0.30273179394      0.110097375209      -0.322578662598     0.110097375209      -0.322578662598     -0.889645130783     -0.30273179394      
7700000000.0        -0.892200561767     -0.299383618699     0.107536330658      -0.319504343423     0.107536330658      -0.319504343423     -0.892200561767     -0.299383618699     
7800000000.0        -0.894672688118     -0.296087500428     0.105058507892      -0.316482415984     0.105058507892      -0.316482415984     -0.894672688118     -0.296087500428     
7900000000.0        -0.897064940712     -0.29284261661      0.102660475734      -0.313512058494     0.102660475734      -0.313512058494     -0.897064940712     -0.29284261661      
8000000000.0        -0.899380583966     -0.289648130475     0.100338969467      -0.310592434964     0.100338969467      -0.310592434964     -0.899380583966     -0.289648130475     
8100000000.0        -0.901622724835     -0.286503194826     0.0980908818324     -0.30772269903      0.0980908818324     -0.30772269903      -0.901622724835     -0.286503194826     
8200000000.0        -0.903794321298     -0.283406955418     0.0959132545432     -0.304901997334     0.0959132545432     -0.304901997334     -0.903794321298     -0.283406955418     
8300000000.0        -0.905898190366     -0.280358553937     0.0938032702813     -0.302129472499     0.0938032702813     -0.302129472499     -0.905898190366     -0.280358553937     
8400000000.0        -0.907937015623     -0.277357130629     0.0917582451518     -0.299404265757     0.0917582451518     -0.299404265757     -0.907937015623     -0.277357130629     
8500000000.0        -0.90991335434      -0.274401826595     0.0897756215694     -0.296725519252     0.0897756215694     -0.296725519252     -0.90991335434      -0.274401826595     
8600000000.0        -0.911829644184     -0.271491785819     0.0878529615523     -0.294092378054     0.0878529615523     -0.294092378054     -0.911829644184     -0.271491785819     
8700000000.0        -0.913688209535     -0.268626156922     0.0859879403992     -0.291503991925     0.0859879403992     -0.291503991925     -0.913688209535     -0.268626156922     
8800000000.0        -0.915491267457     -0.265804094696     0.0841783407273     -0.288959516846     0.0841783407273     -0.288959516846     -0.915491267457     -0.265804094696     
8900000000.0        -0.917240933309     -0.263024761439     0.082422046851      -0.286458116351     0.082422046851      -0.286458116351     -0.917240933309     -0.263024761439     
9000000000.0        -0.918939226053     -0.260287328092     0.0807170394804     -0.283998962669     0.0807170394804     -0.283998962669     -0.918939226053     -0.260287328092     
9100000000.0        -0.920588073255     -0.257590975228     0.0790613907209     -0.281581237706     0.0790613907209     -0.281581237706     -0.920588073255     -0.257590975228     
9200000000.0        -0.922189315795     -0.254934893884     0.0774532593572     -0.27920413388      0.0774532593572     -0.27920413388      -0.922189315795     -0.254934893884     
9300000000.0        -0.923744712325     -0.252318286274     0.0758908864023     -0.276866854833     0.0758908864023     -0.276866854833     -0.923744712325     -0.252318286274     
9400000000.0        -0.92525594346      -0.249740366371     0.0743725908992     -0.274568616014     0.0743725908992     -0.274568616014     -0.92525594346      -0.249740366371     
9500000000.0        -0.92672461575      -0.247200360403     0.0728967659569     -0.272308645172     0.0728967659569     -0.272308645172     -0.92672461575      -0.247200360403     
9600000000.0        -0.928152265414     -0.244697507246     0.0714618750096     -0.270086182747     0.0714618750096     -0.270086182747     -0.928152265414     -0.244697507246     
9700000000.0        -0.929540361875     -0.242231058737     0.0700664482836     -0.267900482189     0.0700664482836     -0.267900482189     -0.929540361875     -0.242231058737     
9800000000.0        -0.930890311098     -0.239800279919     0.0687090794612     -0.265750810196     0.0687090794612     -0.265750810196     -0.930890311098     -0.239800279919     
9900000000.0        -0.932203458741     -0.237404449217     0.0673884225286     -0.263636446893     0.0673884225286     -0.263636446893     -0.932203458741     -0.237404449217     
10000000000.0       -0.93348109313      -0.23504285856      0.0661031887988     -0.261556685952     0.0661031887988     -0.261556685952     -0.93348109313      -0.23504285856      
