# Hz S RI R 50.00 
100000000.0         -0.000105929885222  -0.011203827127     0.999824957111      -0.0114880993669    0.999824957111      -0.0114880993669    -0.000105929885222  -0.011203827127     
200000000.0         -0.000502919319284  -0.0223986597928    0.999427376366      -0.0229672534327    0.999427376366      -0.0229672534327    -0.000502919319284  -0.0223986597928    
300000000.0         -0.00115663708271   -0.0335759132226    0.998773105669      -0.0344289030656    0.998773105669      -0.0344289030656    -0.00115663708271   -0.0335759132226    
400000000.0         -0.00206608106285   -0.0447270144255    0.997863087569      -0.0458644949432    0.997863087569      -0.0458644949432    -0.00206608106285   -0.0447270144255    
500000000.0         -0.00322988624793   -0.0558434381346    0.996698664167      -0.0572655203955    0.996698664167      -0.0572655203955    -0.00322988624793   -0.0558434381346    
600000000.0         -0.00464631573593   -0.0669167332107    0.995281560668      -0.0686235428224    0.995281560668      -0.0686235428224    -0.00464631573593   -0.0669167332107    
700000000.0         -0.00631326297953   -0.0779385461839    0.993613876674      -0.0799302217522    0.993613876674      -0.0799302217522    -0.00631326297953   -0.0779385461839    
800000000.0         -0.00822825764256   -0.0889006432625    0.991698077984      -0.0911773351634    0.991698077984      -0.0911773351634    -0.00822825764256   -0.0889006432625    
900000000.0         -0.0103884735539    -0.0997949312043    0.989536987592      -0.102356800562     0.989536987592      -0.102356800562     -0.0103884735539    -0.0997949312043    
1000000000.0        -0.0127907382681    -0.110613477167     0.987133775604      -0.113460694982     0.987133775604      -0.113460694982     -0.0127907382681    -0.110613477167     
1100000000.0        -0.0154315440044    -0.121348527559     0.984491947997      -0.124481273942     0.984491947997      -0.124481273942     -0.0154315440044    -0.121348527559     
1200000000.0        -0.0183070598163    -0.131992525869     0.981615334288      -0.135410989367     0.981615334288      -0.135410989367     -0.0183070598163    -0.131992525869     
1300000000.0        -0.021413144873     -0.142538129423     0.978508074133      -0.146242506408     0.978508074133      -0.146242506408     -0.021413144873     -0.142538129423     
1400000000.0        -0.024745362744     -0.152978225031     0.975174602977      -0.156968719151     0.975174602977      -0.156968719151     -0.024745362744     -0.152978225031     
1500000000.0        -0.0282989965826    -0.163305943473     0.971619636822      -0.167582765146     0.971619636822      -0.167582765146     -0.0282989965826    -0.163305943473     
1600000000.0        -0.0320690651019    -0.173514672784     0.967848156213      -0.178078038734     0.967848156213      -0.178078038734     -0.0320690651019    -0.173514672784     
1700000000.0        -0.0360503392383    -0.183598070297     0.963865389557      -0.188448203128     0.963865389557      -0.188448203128     -0.0360503392383    -0.183598070297     
1800000000.0        -0.0402373593956    -0.193550073424     0.959676795854      -0.198687201223     0.959676795854      -0.198687201223     -0.0402373593956    -0.193550073424     
1900000000.0        -0.0446244531646    -0.203364909154     0.955288046971      -0.208789265116     0.955288046971      -0.208789265116     -0.0446244531646    -0.203364909154     
2000000000.0        -0.0492057534115    -0.213037102242     0.950705009538      -0.218748924332     0.950705009538      -0.218748924332     -0.0492057534115    -0.213037102242     
2100000000.0        -0.0539752166306    -0.222561482114     0.945933726591      -0.228561012741     0.945933726591      -0.228561012741     -0.0539752166306    -0.222561482114     
2200000000.0        -0.0589266414594    -0.231933188462     0.94098039905       -0.238220674178     0.94098039905       -0.238220674178     -0.0589266414594    -0.231933188462     
2300000000.0        -0.0640536872564    -0.241147675572     0.935851367137      -0.247723366786     0.935851367137      -0.247723366786     -0.0640536872564    -0.241147675572     
2400000000.0        -0.0693498926435    -0.25020071538      0.930553091829      -0.257064866095     0.930553091829      -0.257064866095     -0.0693498926435    -0.25020071538      
2500000000.0        -0.0748086939243    -0.259088399307     0.925092136435      -0.266241266866     0.925092136435      -0.266241266866     -0.0748086939243    -0.259088399307     
2600000000.0        -0.0804234432863    -0.267807138894     0.919475148397      -0.275248983746     0.919475148397      -0.275248983746     -0.0804234432863    -0.267807138894     
2700000000.0        -0.0861874267083    -0.276353665288     0.913708841375      -0.284084750765     0.913708841375      -0.284084750765     -0.0861874267083    -0.276353665288     
2800000000.0        -0.092093881494     -0.284725027619     0.907799977714      -0.292745619729     0.907799977714      -0.292745619729     -0.092093881494     -0.284725027619     
2900000000.0        -0.0981360133617    -0.292918590331     0.901755351354      -0.301228957556     0.901755351354      -0.301228957556     -0.0981360133617    -0.292918590331     
3000000000.0        -0.104307013025     -0.300932029511     0.895581771246      -0.309532442627     0.895581771246      -0.309532442627     -0.104307013025     -0.300932029511     
3100000000.0        -0.110600072206     -0.30876332829      0.889286045337      -0.317654060185     0.889286045337      -0.317654060185     -0.110600072206     -0.30876332829      
3200000000.0        -0.117008399032     -0.316410771368     0.88287496518       -0.325592096881     0.88287496518       -0.325592096881     -0.117008399032     -0.316410771368     
3300000000.0        -0.123525232765     -0.323872938735     0.876355291193      -0.333345134499     0.876355291193      -0.333345134499     -0.123525232765     -0.323872938735     
3400000000.0        -0.13014385783      -0.331148698657     0.869733738637      -0.340912042952     0.869733738637      -0.340912042952     -0.13014385783      -0.331148698657     
3500000000.0        -0.136857617109     -0.338237199988     0.863016964321      -0.348291972602     0.863016964321      -0.348291972602     -0.136857617109     -0.338237199988     
3600000000.0        -0.143659924478     -0.345137863885     0.856211554064      -0.355484345983     0.856211554064      -0.355484345983     -0.143659924478     -0.345137863885     
3700000000.0        -0.150544276555     -0.351850374988     0.849324010945      -0.36248884899      0.849324010945      -0.36248884899      -0.150544276555     -0.351850374988     
3800000000.0        -0.157504263664     -0.358374672133     0.842360744339      -0.369305421599     0.842360744339      -0.369305421599     -0.157504263664     -0.358374672133     
3900000000.0        -0.164533579992     -0.364710938677     0.835328059764      -0.375934248195     0.835328059764      -0.375934248195     -0.164533579992     -0.364710938677     
4000000000.0        -0.17162603294      -0.370859592472     0.828232149522      -0.38237574756      0.828232149522      -0.38237574756      -0.17162603294      -0.370859592472     
4100000000.0        -0.178775551681     -0.376821275589     0.82107908415       -0.388630562594     0.82107908415       -0.388630562594     -0.178775551681     -0.376821275589     
4200000000.0        -0.185976194909     -0.382596843815     0.813874804664      -0.394699549825     0.813874804664      -0.394699549825     -0.185976194909     -0.382596843815     
4300000000.0        -0.193222157811     -0.388187356004     0.806625115587      -0.400583768765     0.806625115587      -0.400583768765     -0.193222157811     -0.388187356004     
4400000000.0        -0.200507778271     -0.393594063336     0.79933567875       -0.406284471169     0.79933567875       -0.406284471169     -0.200507778271     -0.393594063336     
4500000000.0        -0.207827542319     -0.398818398524     0.792012007839      -0.411803090252     0.792012007839      -0.411803090252     -0.207827542319     -0.398818398524     
4600000000.0        -0.215176088848     -0.403861965023     0.784659463678      -0.417141229902     0.784659463678      -0.417141229902     -0.215176088848     -0.403861965023     
4700000000.0        -0.222548213628     -0.408726526295     0.777283250215      -0.422300653949     0.777283250215      -0.422300653949     -0.222548213628     -0.408726526295     
4800000000.0        -0.229938872643     -0.413413995162     0.769888411188      -0.427283275518     0.769888411188      -0.427283275518     -0.229938872643     -0.413413995162     
4900000000.0        -0.237343184765     -0.417926423281     0.762479827445      -0.43209114652      0.762479827445      -0.43209114652      -0.237343184765     -0.417926423281     
5000000000.0        -0.244756433821     -0.422265990796     0.755062214881      -0.436726447292     0.755062214881      -0.436726447292     -0.244756433821     -0.422265990796     
5100000000.0        -0.252174070059     -0.426434996175     0.747640122975      -0.441191476453     0.747640122975      -0.441191476453     -0.252174070059     -0.426434996175     
5200000000.0        -0.259591711054     -0.430435846277     0.740217933875      -0.445488640963     0.740217933875      -0.445488640963     -0.259591711054     -0.430435846277     
5300000000.0        -0.267005142097     -0.434271046668     0.732799862018      -0.449620446447     0.732799862018      -0.449620446447     -0.267005142097     -0.434271046668     
5400000000.0        -0.274410316081     -0.437943192203     0.725389954237      -0.453589487786     0.725389954237      -0.453589487786     -0.274410316081     -0.437943192203     
5500000000.0        -0.281803352929     -0.441454957911     0.717992090338      -0.45739843999      0.717992090338      -0.45739843999      -0.281803352929     -0.441454957911     
5600000000.0        -0.289180538601     -0.444809090165     0.710609984092      -0.461050049388     0.710609984092      -0.461050049388     -0.289180538601     -0.444809090165     
5700000000.0        -0.296538323694     -0.448008398195     0.70324718463       -0.46454712513      0.70324718463       -0.46454712513      -0.296538323694     -0.448008398195     
5800000000.0        -0.30387332169      -0.451055745911     0.695907078203      -0.467892531023     0.695907078203      -0.467892531023     -0.30387332169      -0.451055745911     
5900000000.0        -0.311182306869     -0.453954044074     0.688592890262      -0.471089177698     0.688592890262      -0.471089177698     -0.311182306869     -0.453954044074     
6000000000.0        -0.318462211916     -0.456706242812     0.681307687855      -0.474140015129     0.681307687855      -0.474140015129     -0.318462211916     -0.456706242812     
6100000000.0        -0.325710125265     -0.45931532447      0.674054382282      -0.477048025489     0.674054382282      -0.477048025489     -0.325710125265     -0.45931532447      
6200000000.0        -0.332923288198     -0.461784296828     0.666835731995      -0.479816216364     0.666835731995      -0.479816216364     -0.332923288198     -0.461784296828     
6300000000.0        -0.340099091722     -0.464116186649     0.659654345722      -0.482447614313     0.659654345722      -0.482447614313     -0.340099091722     -0.464116186649     
6400000000.0        -0.347235073269     -0.466314033587     0.652512685767      -0.484945258764     0.652512685767      -0.484945258764     -0.347235073269     -0.466314033587     
6500000000.0        -0.354328913223     -0.468380884432     0.645413071481      -0.487312196274     0.645413071481      -0.487312196274     -0.354328913223     -0.468380884432     
6600000000.0        -0.36137843131      -0.470319787692     0.638357682876      -0.489551475106     0.638357682876      -0.489551475106     -0.36137843131      -0.470319787692     
6700000000.0        -0.368381582874     -0.472133788518     0.631348564345      -0.491666140154     0.631348564345      -0.491666140154     -0.368381582874     -0.472133788518     
6800000000.0        -0.37533645505      -0.473825923943     0.62438762849       -0.493659228189     0.62438762849       -0.493659228189     -0.37533645505      -0.473825923943     
6900000000.0        -0.382241262867     -0.475399218447     0.61747666002       -0.495533763422     0.61747666002       -0.495533763422     -0.382241262867     -0.475399218447     
7000000000.0        -0.38909434529      -0.476856679828     0.610617319708      -0.497292753378     0.610617319708      -0.497292753378     -0.38909434529      -0.476856679828     
7100000000.0        -0.395894161223     -0.47820129538      0.60381114839       -0.498939185072     0.60381114839       -0.498939185072     -0.395894161223     -0.47820129538      
7200000000.0        -0.402639285485     -0.479436028356     0.597059570987      -0.500476021477     0.597059570987      -0.500476021477     -0.402639285485     -0.479436028356     
7300000000.0        -0.409328404778     -0.480563814709     0.590363900533      -0.501906198267     0.590363900533      -0.501906198267     -0.409328404778     -0.480563814709     
7400000000.0        -0.415960313662     -0.481587560119     0.583725342212      -0.503232620839     0.583725342212      -0.503232620839     -0.415960313662     -0.481587560119     
7500000000.0        -0.422533910538     -0.48251013726      0.577144997359      -0.504458161587     0.577144997359      -0.504458161587     -0.422533910538     -0.48251013726      
7600000000.0        -0.429048193668     -0.483334383329     0.570623867455      -0.50558565743      0.570623867455      -0.50558565743      -0.429048193668     -0.483334383329     
7700000000.0        -0.435502257225     -0.484063097809     0.564162858066      -0.506617907577     0.564162858066      -0.506617907577     -0.435502257225     -0.484063097809     
7800000000.0        -0.441895287395     -0.48469904046      0.557762782747      -0.507557671514     0.557762782747      -0.507557671514     -0.441895287395     -0.48469904046      
7900000000.0        -0.448226558531     -0.485244929523     0.551424366884      -0.508407667215     0.551424366884      -0.508407667215     -0.448226558531     -0.485244929523     
8000000000.0        -0.454495429372     -0.48570344013      0.54514825148       -0.509170569552     0.54514825148       -0.509170569552     -0.454495429372     -0.48570344013      
8100000000.0        -0.460701339329     -0.486077202913     0.538934996863      -0.509849008899     0.538934996863      -0.509849008899     -0.460701339329     -0.486077202913     
8200000000.0        -0.466843804847     -0.486368802789     0.53278508633       -0.510445569924     0.53278508633       -0.510445569924     -0.466843804847     -0.486368802789     
8300000000.0        -0.472922415842     -0.486580777923     0.526698929705      -0.510962790552     0.526698929705      -0.510962790552     -0.472922415842     -0.486580777923     
8400000000.0        -0.478936832229     -0.486715618854     0.520676866812      -0.511403161085     0.520676866812      -0.511403161085     -0.478936832229     -0.486715618854     
8500000000.0        -0.484886780531     -0.486775767769     0.514719170871      -0.511769123487     0.514719170871      -0.511769123487     -0.484886780531     -0.486775767769     
8600000000.0        -0.490772050578     -0.48676361793      0.50882605179       -0.512063070801     0.50882605179       -0.512063070801     -0.490772050578     -0.48676361793      
8700000000.0        -0.496592492301     -0.486681513223     0.502997659378      -0.512287346707     0.502997659378      -0.512287346707     -0.496592492301     -0.486681513223     
8800000000.0        -0.502348012619     -0.486531747842     0.497234086457      -0.512444245202     0.497234086457      -0.512444245202     -0.502348012619     -0.486531747842     
8900000000.0        -0.508038572416     -0.486316566089     0.491535371881      -0.5125360104       0.491535371881      -0.5125360104       -0.508038572416     -0.486316566089     
9000000000.0        -0.513664183624     -0.486038162272     0.485901503459      -0.512564836433     0.485901503459      -0.512564836433     -0.513664183624     -0.486038162272     
9100000000.0        -0.519224906389     -0.485698680716     0.480332420781      -0.51253286746      0.480332420781      -0.51253286746      -0.519224906389     -0.485698680716     
9200000000.0        -0.524720846346     -0.485300215858     0.474828017953      -0.512442197766     0.474828017953      -0.512442197766     -0.524720846346     -0.485300215858     
9300000000.0        -0.530152151982     -0.484844812432     0.469388146227      -0.512294871941     0.469388146227      -0.512294871941     -0.530152151982     -0.484844812432     
9400000000.0        -0.535519012092     -0.484334465729     0.464012616543      -0.512092885147     0.464012616543      -0.512092885147     -0.535519012092     -0.484334465729     
9500000000.0        -0.540821653342     -0.483771121931     0.458701201975      -0.511838183446     0.458701201975      -0.511838183446     -0.540821653342     -0.483771121931     
9600000000.0        -0.546060337909     -0.483156678506     0.453453640081      -0.511532664202     0.453453640081      -0.511532664202     -0.546060337909     -0.483156678506     
9700000000.0        -0.551235361226     -0.482492984671     0.448269635165      -0.511178176539     0.448269635165      -0.511178176539     -0.551235361226     -0.482492984671     
9800000000.0        -0.556347049811     -0.481781841899     0.443148860446      -0.51077652185      0.443148860446      -0.51077652185      -0.556347049811     -0.481781841899     
9900000000.0        -0.561395759184     -0.481025004482     0.438090960139      -0.510329454359     0.438090960139      -0.510329454359     -0.561395759184     -0.481025004482     
10000000000.0       -0.566381871876     -0.48022418013      0.433095551448      -0.509838681724     0.433095551448      -0.509838681724     -0.566381871876     -0.48022418013      
