# Hz S RI R 50.00 
100000000.0         0.00167295458385    0.000840825086724   0.998324915761      -0.00167697582315   0.998324915761      -0.00167697582315   0.00167295458385    0.000840825086724   
200000000.0         0.00168794516751    0.00168158785307    0.998308095926      -0.00335390565766   0.998308095926      -0.00335390565766   0.00168794516751    0.00168158785307    
300000000.0         0.00170281103353    0.00252230213276    0.99829070113       -0.00503081230542   0.99829070113       -0.00503081230542   0.00170281103353    0.00252230213276    
400000000.0         0.00171900245265    0.00336296678599    0.998271280999      -0.00670770146651   0.998271280999      -0.00670770146651   0.00171900245265    0.00336296678599    
500000000.0         0.00173707788761    0.00420357715665    0.998249276947      -0.00838457423637   0.998249276947      -0.00838457423637   0.00173707788761    0.00420357715665    
600000000.0         0.00175732209391    0.00504412703427    0.998224404082      -0.0100614294362    0.998224404082      -0.0100614294362    0.00175732209391    0.00504412703427    
700000000.0         0.00177990322865    0.00588460936571    0.998196494094      -0.0117382645128    0.998196494094      -0.0117382645128    0.00177990322865    0.00588460936571    
800000000.0         0.00180493018282    0.0067250165873     0.998165437928      -0.0134150759844    0.998165437928      -0.0134150759844    0.00180493018282    0.0067250165873     
900000000.0         0.00183247810507    0.00756534080438    0.998131160256      -0.0150918596956    0.998131160256      -0.0150918596956    0.00183247810507    0.00756534080438    
1000000000.0        0.00186260133716    0.00840557389787    0.99809360655       -0.0167686109774    0.99809360655       -0.0167686109774    0.00186260133716    0.00840557389787    
1100000000.0        0.00189534060351    0.00924570759207    0.998052735886      -0.0184453247547    0.998052735886      -0.0184453247547    0.00189534060351    0.00924570759207    
1200000000.0        0.00193072729458    0.0100857335002     0.998008516665      -0.0201219956218    0.998008516665      -0.0201219956218    0.00193072729458    0.0100857335002     
1300000000.0        0.00196878616126    0.0109256431559     0.997960923919      -0.021798617899     0.997960923919      -0.021798617899     0.00196878616126    0.0109256431559     
1400000000.0        0.00200953708552    0.011765428036      0.99790993754       -0.023475185674     0.99790993754       -0.023475185674     0.00200953708552    0.011765428036      
1500000000.0        0.00205299628689    0.0126050795772     0.997855541074      -0.0251516928356    0.997855541074      -0.0251516928356    0.00205299628689    0.0126050795772     
1600000000.0        0.00209917716949    0.0134445891891     0.997797720876      -0.0268281330995    0.997797720876      -0.0268281330995    0.00209917716949    0.0134445891891     
1700000000.0        0.00214809093249    0.0142839482633     0.997736465497      -0.0285045000297    0.997736465497      -0.0285045000297    0.00214809093249    0.0142839482633     
1800000000.0        0.00219974701969    0.0151231481812     0.997671765239      -0.030180787056     0.997671765239      -0.030180787056     0.00219974701969    0.0151231481812     
1900000000.0        0.00225415345728    0.0159621803203     0.997603611813      -0.0318569874888    0.997603611813      -0.0318569874888    0.00225415345728    0.0159621803203     
2000000000.0        0.00231131711182    0.0168010360581     0.997531998085      -0.0335330945309    0.997531998085      -0.0335330945309    0.00231131711182    0.0168010360581     
2100000000.0        0.00237124389031    0.0176397067767     0.997456917873      -0.0352091012886    0.997456917873      -0.0352091012886    0.00237124389031    0.0176397067767     
2200000000.0        0.00243393889748    0.0184781838652     0.997378365795      -0.0368850007804    0.997378365795      -0.0368850007804    0.00243393889748    0.0184781838652     
2300000000.0        0.0024994065609     0.0193164587227     0.997296337138      -0.038560785945     0.997296337138      -0.038560785945     0.0024994065609     0.0193164587227     
2400000000.0        0.00256765073163    0.0201545227599     0.997210827762      -0.0402364496483    0.997210827762      -0.0402364496483    0.00256765073163    0.0201545227599     
2500000000.0        0.00263867476598    0.0209923674011     0.997121834017      -0.0419119846891    0.997121834017      -0.0419119846891    0.00263867476598    0.0209923674011     
2600000000.0        0.00271248159255    0.0218299840853     0.997029352676      -0.0435873838049    0.997029352676      -0.0435873838049    0.00271248159255    0.0218299840853     
2700000000.0        0.00278907376761    0.0226673642675     0.99693338088       -0.0452626396766    0.99693338088       -0.0452626396766    0.00278907376761    0.0226673642675     
2800000000.0        0.00286845352124    0.0235044994195     0.996833916094      -0.0469377449324    0.996833916094      -0.0469377449324    0.00286845352124    0.0235044994195     
2900000000.0        0.00295062279604    0.0243413810305     0.996730956063      -0.0486126921522    0.996730956063      -0.0486126921522    0.00295062279604    0.0243413810305     
3000000000.0        0.00303558327986    0.0251780006082     0.996624498788      -0.0502874738708    0.996624498788      -0.0502874738708    0.00303558327986    0.0251780006082     
3100000000.0        0.00312333643347    0.0260143496788     0.996514542489      -0.051962082581     0.996514542489      -0.051962082581     0.00312333643347    0.0260143496788     
3200000000.0        0.00321388351437    0.0268504197875     0.99640108559       -0.0536365107366    0.99640108559       -0.0536365107366    0.00321388351437    0.0268504197875     
3300000000.0        0.0033072255971     0.0276862024991     0.996284126693      -0.0553107507551    0.996284126693      -0.0553107507551    0.0033072255971     0.0276862024991     
3400000000.0        0.00340336359083    0.0285216893977     0.996163664562      -0.0569847950198    0.996163664562      -0.0569847950198    0.00340336359083    0.0285216893977     
3500000000.0        0.00350229825462    0.0293568720876     0.996039698109      -0.0586586358824    0.996039698109      -0.0586586358824    0.00350229825462    0.0293568720876     
3600000000.0        0.00360403021071    0.0301917421928     0.995912226382      -0.0603322656648    0.995912226382      -0.0603322656648    0.00360403021071    0.0301917421928     
3700000000.0        0.00370855995609    0.0310262913573     0.99578124855       -0.0620056766608    0.99578124855       -0.0620056766608    0.00370855995609    0.0310262913573     
3800000000.0        0.00381588787274    0.0318605112455     0.995646763894      -0.0636788611383    0.995646763894      -0.0636788611383    0.00381588787274    0.0318605112455     
3900000000.0        0.00392601423656    0.0326943935417     0.995508771801      -0.0653518113407    0.995508771801      -0.0653518113407    0.00392601423656    0.0326943935417     
4000000000.0        0.0040389392254     0.0335279299502     0.995367271754      -0.067024519488     0.995367271754      -0.067024519488     0.0040389392254     0.0335279299502     
4100000000.0        0.00415466292604    0.0343611121957     0.995222263323      -0.0686969777789    0.995222263323      -0.0686969777789    0.00415466292604    0.0343611121957     
4200000000.0        0.00427318534048    0.0351939320227     0.995073746164      -0.0703691783916    0.995073746164      -0.0703691783916    0.00427318534048    0.0351939320227     
4300000000.0        0.00439450639157    0.0360263811959     0.994921720008      -0.0720411134851    0.994921720008      -0.0720411134851    0.00439450639157    0.0360263811959     
4400000000.0        0.00451862592802    0.0368584514997     0.99476618466       -0.0737127752004    0.99476618466       -0.0737127752004    0.00451862592802    0.0368584514997     
4500000000.0        0.00464554372889    0.0376901347386     0.994607139993      -0.0753841556616    0.994607139993      -0.0753841556616    0.00464554372889    0.0376901347386     
4600000000.0        0.00477525950768    0.0385214227365     0.994444585944      -0.0770552469768    0.994444585944      -0.0770552469768    0.00477525950768    0.0385214227365     
4700000000.0        0.00490777291596    0.0393523073371     0.994278522512      -0.078726041239     0.994278522512      -0.078726041239     0.00490777291596    0.0393523073371     
4800000000.0        0.00504308354671    0.0401827804037     0.994108949752      -0.0803965305273    0.994108949752      -0.0803965305273    0.00504308354671    0.0401827804037     
4900000000.0        0.00518119093732    0.0410128338188     0.993935867774      -0.082066706907     0.993935867774      -0.082066706907     0.00518119093732    0.0410128338188     
5000000000.0        0.00532209457233    0.0418424594841     0.993759276742      -0.0837365624313    0.993759276742      -0.0837365624313    0.00532209457233    0.0418424594841     
5100000000.0        0.0054657938859     0.0426716493208     0.993579176865      -0.0854060891413    0.993579176865      -0.0854060891413    0.0054657938859     0.0426716493208     
5200000000.0        0.00561228826412    0.0435003952685     0.993395568405      -0.0870752790672    0.993395568405      -0.0870752790672    0.00561228826412    0.0435003952685     
5300000000.0        0.00576157704706    0.0443286892862     0.993208451665      -0.0887441242284    0.993208451665      -0.0887441242284    0.00576157704706    0.0443286892862     
5400000000.0        0.0059136595307     0.0451565233513     0.993017826993      -0.0904126166348    0.993017826993      -0.0904126166348    0.0059136595307     0.0451565233513     
5500000000.0        0.00606853496867    0.0459838894597     0.992823694781      -0.0920807482867    0.992823694781      -0.0920807482867    0.00606853496867    0.0459838894597     
5600000000.0        0.00622620257387    0.0468107796259     0.992626055457      -0.093748511176     0.992626055457      -0.093748511176     0.00622620257387    0.0468107796259     
5700000000.0        0.00638666151996    0.0476371858825     0.992424909493      -0.0954158972861    0.992424909493      -0.0954158972861    0.00638666151996    0.0476371858825     
5800000000.0        0.00654991094271    0.0484631002803     0.992220257396      -0.097082898593     0.992220257396      -0.097082898593     0.00654991094271    0.0484631002803     
5900000000.0        0.00671594994131    0.0492885148881     0.992012099708      -0.0987495070651    0.992012099708      -0.0987495070651    0.00671594994131    0.0492885148881     
6000000000.0        0.00688477757951    0.0501134217923     0.99180043701       -0.100415714664     0.99180043701       -0.100415714664     0.00688477757951    0.0501134217923     
6100000000.0        0.00705639288674    0.0509378130972     0.991585269914      -0.102081513346     0.991585269914      -0.102081513346     0.00705639288674    0.0509378130972     
6200000000.0        0.0072307948591     0.0517616809244     0.991366599067      -0.10374689506      0.991366599067      -0.10374689506      0.0072307948591     0.0517616809244     
6300000000.0        0.00740798246032    0.0525850174131     0.99114442515       -0.105411851751     0.99114442515       -0.105411851751     0.00740798246032    0.0525850174131     
6400000000.0        0.00758795462264    0.0534078147194     0.990918748873      -0.107076375356     0.990918748873      -0.107076375356     0.00758795462264    0.0534078147194     
6500000000.0        0.00777071024763    0.0542300650168     0.990689570978      -0.10874045781      0.990689570978      -0.10874045781      0.00777071024763    0.0542300650168     
6600000000.0        0.00795624820697    0.0550517604953     0.990456892238      -0.110404091041     0.990456892238      -0.110404091041     0.00795624820697    0.0550517604953     
6700000000.0        0.00814456734313    0.0558728933621     0.990220713454      -0.112067266977     0.990220713454      -0.112067266977     0.00814456734313    0.0558728933621     
6800000000.0        0.00833566647009    0.0566934558406     0.989981035459      -0.113729977536     0.989981035459      -0.113729977536     0.00833566647009    0.0566934558406     
6900000000.0        0.00852954437396    0.057513440171      0.98973785911       -0.115392214638     0.98973785911       -0.115392214638     0.00852954437396    0.057513440171      
7000000000.0        0.00872619981354    0.0583328386096     0.989491185296      -0.117053970196     0.989491185296      -0.117053970196     0.00872619981354    0.0583328386096     
7100000000.0        0.00892563152093    0.0591516434291     0.989241014931      -0.118715236121     0.989241014931      -0.118715236121     0.00892563152093    0.0591516434291     
7200000000.0        0.00912783820202    0.0599698469179     0.988987348957      -0.120376004322     0.988987348957      -0.120376004322     0.00912783820202    0.0599698469179     
7300000000.0        0.009332818537      0.0607874413806     0.988730188342      -0.122036266705     0.988730188342      -0.122036266705     0.009332818537      0.0607874413806     
7400000000.0        0.00954057118081    0.0616044191373     0.98846953408       -0.123696015172     0.98846953408       -0.123696015172     0.00954057118081    0.0616044191373     
7500000000.0        0.00975109476363    0.062420772524      0.988205387191      -0.125355241625     0.988205387191      -0.125355241625     0.00975109476363    0.062420772524      
7600000000.0        0.00996438789123    0.0632364938919     0.98793774872       -0.127013937962     0.98793774872       -0.127013937962     0.00996438789123    0.0632364938919     
7700000000.0        0.0101804491454     0.0640515756077     0.987666619737      -0.128672096081     0.987666619737      -0.128672096081     0.0101804491454     0.0640515756077     
7800000000.0        0.0103992770843     0.0648660100531     0.987392001336      -0.130329707878     0.987392001336      -0.130329707878     0.0103992770843     0.0648660100531     
7900000000.0        0.010620870243      0.0656797896251     0.987113894638      -0.131986765247     0.987113894638      -0.131986765247     0.010620870243      0.0656797896251     
8000000000.0        0.0108452271334     0.0664929067355     0.986832300784      -0.133643260081     0.986832300784      -0.133643260081     0.0108452271334     0.0664929067355     
8100000000.0        0.0110723462449     0.0673053538108     0.986547220942      -0.135299184271     0.986547220942      -0.135299184271     0.0110723462449     0.0673053538108     
8200000000.0        0.0113022260446     0.0681171232923     0.986258656301      -0.136954529709     0.986258656301      -0.136954529709     0.0113022260446     0.0681171232923     
8300000000.0        0.0115348649778     0.0689282076359     0.985966608077      -0.138609288285     0.985966608077      -0.138609288285     0.0115348649778     0.0689282076359     
8400000000.0        0.0117702614677     0.0697385993115     0.985671077504      -0.140263451888     0.985671077504      -0.140263451888     0.0117702614677     0.0697385993115     
8500000000.0        0.0120084139163     0.0705482908038     0.985372065844      -0.141917012406     0.985372065844      -0.141917012406     0.0120084139163     0.0705482908038     
8600000000.0        0.0122493207043     0.0713572746113     0.985069574377      -0.143569961729     0.985069574377      -0.143569961729     0.0122493207043     0.0713572746113     
8700000000.0        0.0124929801914     0.0721655432466     0.984763604408      -0.145222291744     0.984763604408      -0.145222291744     0.0124929801914     0.0721655432466     
8800000000.0        0.0127393907166     0.0729730892362     0.984454157264      -0.14687399434      0.984454157264      -0.14687399434      0.0127393907166     0.0729730892362     
8900000000.0        0.0129885505981     0.0737799051203     0.984141234294      -0.148525061405     0.984141234294      -0.148525061405     0.0129885505981     0.0737799051203     
9000000000.0        0.0132404581342     0.0745859834528     0.983824836868      -0.150175484825     0.983824836868      -0.150175484825     0.0132404581342     0.0745859834528     
9100000000.0        0.0134951116028     0.0753913168012     0.983504966379      -0.15182525649      0.983504966379      -0.15182525649      0.0134951116028     0.0753913168012     
9200000000.0        0.0137525092618     0.0761958977462     0.98318162424       -0.153474368287     0.98318162424       -0.153474368287     0.0137525092618     0.0761958977462     
9300000000.0        0.0140126493495     0.076999718882      0.982854811888      -0.155122812105     0.982854811888      -0.155122812105     0.0140126493495     0.076999718882      
9400000000.0        0.0142755300844     0.0778027728158     0.982524530778      -0.156770579833     0.982524530778      -0.156770579833     0.0142755300844     0.0778027728158     
9500000000.0        0.0145411496658     0.0786050521679     0.982190782389      -0.158417663361     0.982190782389      -0.158417663361     0.0145411496658     0.0786050521679     
9600000000.0        0.0148095062735     0.0794065495715     0.981853568219      -0.160064054578     0.981853568219      -0.160064054578     0.0148095062735     0.0794065495715     
9700000000.0        0.0150805980683     0.0802072576728     0.981512889789      -0.161709745374     0.981512889789      -0.161709745374     0.0150805980683     0.0802072576728     
9800000000.0        0.0153544231921     0.0810071691304     0.981168748638      -0.163354727642     0.981168748638      -0.163354727642     0.0153544231921     0.0810071691304     
9900000000.0        0.0156309797678     0.0818062766157     0.98082114633       -0.164998993272     0.98082114633       -0.164998993272     0.0156309797678     0.0818062766157     
10000000000.0       0.0159102658996     0.0826045728125     0.980470084445      -0.166642534159     0.980470084445      -0.166642534159     0.0159102658996     0.0826045728125     
