# Hz S RI R 50.00 
100000000.0         0.00175290113906    6.25091693335e-05   0.998234144053      -0.00409356230105   0.998234144053      -0.00409356230105   0.00175290113906    6.25091693335e-05   
200000000.0         0.0017635292246     0.000124910032424   0.998195301466      -0.00818700854919   0.998195301466      -0.00818700854919   0.0017635292246     0.000124910032424   
300000000.0         0.00177160704169    0.000187225916657   0.99814274827       -0.0122803422625    0.99814274827       -0.0122803422625    0.00177160704169    0.000187225916657   
400000000.0         0.00177865255827    0.000249457547283   0.998074965055      -0.0163735338719    0.998074965055      -0.0163735338719    0.00177865255827    0.000249457547283   
500000000.0         0.00178524916987    0.000311601230011   0.997991366809      -0.0204665440488    0.997991366809      -0.0204665440488    0.00178524916987    0.000311601230011   
600000000.0         0.0017916935674     0.000373651666115   0.997891655101      -0.0245593283327    0.997891655101      -0.0245593283327    0.0017916935674     0.000373651666115   
700000000.0         0.00179816034218    0.000435602887652   0.997775653519      -0.0286518389932    0.997775653519      -0.0286518389932    0.00179816034218    0.000435602887652   
800000000.0         0.00180476203224    0.000497448655576   0.997643247657      -0.0327440259845    0.997643247657      -0.0327440259845    0.00180476203224    0.000497448655576   
900000000.0         0.00181157584633    0.00055918265411    0.997494358414      -0.036835837507     0.997494358414      -0.036835837507     0.00181157584633    0.00055918265411    
1000000000.0        0.00181865720465    0.000620798593535   0.997328928477      -0.0409272203701    0.997328928477      -0.0409272203701    0.00181865720465    0.000620798593535   
1100000000.0        0.00182604726381    0.000682290267598   0.997146914813      -0.0450181202408    0.997146914813      -0.0450181202408    0.00182604726381    0.000682290267598   
1200000000.0        0.00183377739981    0.00074365158627    0.996948284207      -0.0491084818242    0.996948284207      -0.0491084818242    0.00183377739981    0.00074365158627    
1300000000.0        0.00184187202821    0.000804876594566   0.99673301045       -0.0531982489984    0.99673301045       -0.0531982489984    0.00184187202821    0.000804876594566   
1400000000.0        0.00185035045801    0.000865959482992   0.996501072505      -0.0572873649189    0.996501072505      -0.0572873649189    0.00185035045801    0.000865959482992   
1500000000.0        0.00185922815514    0.00092689459293    0.996252453249      -0.0613757721017    0.996252453249      -0.0613757721017    0.00185922815514    0.00092689459293    
1600000000.0        0.0018685176302     0.000987676418751   0.995987138603      -0.06546341249      0.995987138603      -0.06546341249      0.0018685176302     0.000987676418751   
1700000000.0        0.00187822907864    0.00104829960795    0.995705116899      -0.0695502275096    0.995705116899      -0.0695502275096    0.00187822907864    0.00104829960795    
1800000000.0        0.00188837085283    0.00110875895992    0.995406378415      -0.0736361581155    0.995406378415      -0.0736361581155    0.00188837085283    0.00110875895992    
1900000000.0        0.00189894981707    0.00116904942385    0.995090915032      -0.0777211448307    0.995090915032      -0.0777211448307    0.00189894981707    0.00116904942385    
2000000000.0        0.00190997161919    0.00122916609619    0.994758719972      -0.0818051277798    0.994758719972      -0.0818051277798    0.00190997161919    0.00122916609619    
2100000000.0        0.00192144090167    0.0012891042176     0.994409787588      -0.0858880467188    0.994409787588      -0.0858880467188    0.00192144090167    0.0012891042176     
2200000000.0        0.00193336146785    0.00134885916993    0.994044113215      -0.0899698410598    0.994044113215      -0.0899698410598    0.00193336146785    0.00134885916993    
2300000000.0        0.00194573641455    0.00140842647287    0.993661693035      -0.0940504498942    0.993661693035      -0.0940504498942    0.00194573641455    0.00140842647287    
2400000000.0        0.00195856823908    0.00146780178074    0.993262523981      -0.0981298120122    0.993262523981      -0.0981298120122    0.00195856823908    0.00146780178074    
2500000000.0        0.00197185892642    0.00152698087916    0.992846603655      -0.102207865921     0.992846603655      -0.102207865921     0.00197185892642    0.00152698087916    
2600000000.0        0.00198561002097    0.00158595968181    0.992413930265      -0.10628454986      0.992413930265      -0.10628454986      0.00198561002097    0.00158595968181    
2700000000.0        0.00199982268609    0.00164473422721    0.991964502567      -0.110359801819     0.991964502567      -0.110359801819     0.0019998226861     0.00164473422721    
2800000000.0        0.00201449775396    0.0017033006756     0.991498319821      -0.114433559544     0.991498319821      -0.114433559544     0.00201449775396    0.0017033006756     
2900000000.0        0.00202963576756    0.00176165530584    0.991015381757      -0.118505760558     0.991015381757      -0.118505760558     0.00202963576756    0.00176165530584    
3000000000.0        0.00204523701636    0.00181979451242    0.990515688541      -0.122576342166     0.990515688541      -0.122576342166     0.00204523701636    0.00181979451242    
3100000000.0        0.0020613015668     0.00187771480253    0.989999240753      -0.126645241469     0.989999240753      -0.126645241469     0.0020613015668     0.00187771480253    
3200000000.0        0.0020778292885     0.0019354127932     0.989466039362      -0.13071239537      0.989466039362      -0.13071239537      0.0020778292885     0.0019354127932     
3300000000.0        0.00209481987689    0.00199288520853    0.988916085707      -0.134777740586     0.988916085707      -0.134777740586     0.00209481987689    0.00199288520853    
3400000000.0        0.002112272873      0.00205012887697    0.988349381486      -0.138841213655     0.988349381486      -0.138841213655     0.002112272873      0.00205012887697    
3500000000.0        0.0021301876806     0.0021071407287     0.987765928738      -0.142902750944     0.987765928738      -0.142902750944     0.0021301876806     0.0021071407287     
3600000000.0        0.00214856358137    0.00216391779304    0.987165729834      -0.146962288654     0.987165729834      -0.146962288654     0.00214856358137    0.00216391779304    
3700000000.0        0.00216739974825    0.00222045719599    0.986548787468      -0.151019762832     0.986548787468      -0.151019762832     0.00216739974825    0.00222045719599    
3800000000.0        0.00218669525727    0.00227675615773    0.985915104648      -0.155075109371     0.985915104648      -0.155075109371     0.00218669525727    0.00227675615773    
3900000000.0        0.00220644909806    0.00233281199028    0.985264684688      -0.159128264021     0.985264684688      -0.159128264021     0.00220644909806    0.00233281199028    
4000000000.0        0.00222666018325    0.00238862209518    0.984597531201      -0.163179162394     0.984597531201      -0.163179162394     0.00222666018325    0.00238862209518    
4100000000.0        0.00224732735692    0.00244418396119    0.983913648099      -0.167227739966     0.983913648099      -0.167227739966     0.00224732735692    0.00244418396119    
4200000000.0        0.00226844940218    0.00249949516211    0.983213039583      -0.171273932086     0.983213039583      -0.171273932086     0.00226844940218    0.00249949516211    
4300000000.0        0.00229002504801    0.00255455335458    0.982495710142      -0.17531767398      0.982495710142      -0.17531767398      0.00229002504801    0.00255455335458    
4400000000.0        0.00231205297545    0.00260935627599    0.981761664546      -0.179358900756     0.981761664546      -0.179358900756     0.00231205297545    0.00260935627599    
4500000000.0        0.00233453182328    0.00266390174238    0.981010907852      -0.183397547407     0.981010907852      -0.183397547407     0.00233453182328    0.00266390174238    
4600000000.0        0.00235746019309    0.00271818764646    0.980243445389      -0.187433548816     0.980243445389      -0.187433548816     0.00235746019309    0.00271818764646    
4700000000.0        0.00238083665401    0.00277221195553    0.979459282767      -0.19146683976      0.979459282767      -0.19146683976      0.00238083665401    0.00277221195553    
4800000000.0        0.00240465974698    0.00282597270963    0.978658425868      -0.195497354918     0.978658425868      -0.195497354918     0.00240465974698    0.00282597270963    
4900000000.0        0.00242892798873    0.00287946801957    0.977840880851      -0.199525028868     0.977840880851      -0.199525028868     0.00242892798873    0.00287946801957    
5000000000.0        0.00245363987534    0.00293269606507    0.977006654143      -0.203549796095     0.977006654143      -0.203549796095     0.00245363987534    0.00293269606507    
5100000000.0        0.00247879388564    0.0029856550929     0.976155752444      -0.207571590995     0.976155752444      -0.207571590995     0.00247879388564    0.0029856550929     
5200000000.0        0.00250438848426    0.0030383434151     0.975288182725      -0.211590347876     0.975288182725      -0.211590347876     0.00250438848426    0.0030383434151     
5300000000.0        0.00253042212452    0.00309075940721    0.974403952223      -0.215606000964     0.974403952223      -0.215606000964     0.00253042212452    0.00309075940721    
5400000000.0        0.00255689325103    0.00314290150647    0.973503068449      -0.219618484404     0.973503068449      -0.219618484404     0.00255689325103    0.00314290150647    
5500000000.0        0.00258380030222    0.00319476821017    0.972585539178      -0.223627732265     0.972585539178      -0.223627732265     0.00258380030222    0.00319476821017    
5600000000.0        0.00261114171256    0.00324635807392    0.971651372454      -0.227633678542     0.971651372454      -0.227633678542     0.00261114171256    0.00324635807392    
5700000000.0        0.00263891591472    0.00329766970998    0.970700576591      -0.23163625716      0.970700576591      -0.23163625716      0.00263891591473    0.00329766970998    
5800000000.0        0.00266712134157    0.00334870178566    0.969733160169      -0.235635401975     0.969733160169      -0.235635401975     0.00266712134157    0.00334870178566    
5900000000.0        0.00269575642799    0.00339945302171    0.968749132035      -0.239631046779     0.968749132035      -0.239631046779     0.00269575642799    0.00339945302171    
6000000000.0        0.00272481961265    0.00344992219068    0.967748501305      -0.243623125302     0.967748501305      -0.243623125302     0.00272481961265    0.00344992219068    
6100000000.0        0.00275430933959    0.00350010811541    0.966731277362      -0.247611571217     0.966731277362      -0.247611571217     0.00275430933959    0.00350010811541    
6200000000.0        0.00278422405977    0.00355000966748    0.965697469856      -0.251596318135     0.965697469856      -0.251596318135     0.00278422405977    0.00355000966748    
6300000000.0        0.00281456223245    0.00359962576568    0.964647088705      -0.25557729962      0.964647088705      -0.25557729962      0.00281456223245    0.00359962576568    
6400000000.0        0.00284532232658    0.00364895537451    0.963580144095      -0.259554449178     0.963580144095      -0.259554449178     0.00284532232658    0.00364895537451    
6500000000.0        0.00287650282196    0.00369799750271    0.962496646482      -0.263527700272     0.962496646482      -0.263527700272     0.00287650282196    0.00369799750271    
6600000000.0        0.00290810221048    0.00374675120182    0.961396606587      -0.267496986313     0.961396606587      -0.267496986313     0.00290810221048    0.00374675120182    
6700000000.0        0.00294011899718    0.00379521556471    0.960280035401      -0.271462240674     0.960280035401      -0.271462240674     0.00294011899718    0.00379521556471    
6800000000.0        0.00297255170131    0.0038433897242     0.959146944186      -0.275423396681     0.959146944186      -0.275423396681     0.00297255170131    0.0038433897242     
6900000000.0        0.00300539885724    0.00389127285163    0.957997344469      -0.279380387625     0.957997344469      -0.279380387625     0.00300539885724    0.00389127285163    
7000000000.0        0.00303865901541    0.00393886415547    0.956831248049      -0.283333146756     0.956831248049      -0.283333146756     0.00303865901541    0.00393886415547    
7100000000.0        0.00307233074316    0.00398616287999    0.955648666994      -0.287281607294     0.955648666994      -0.287281607294     0.00307233074316    0.00398616287999    
7200000000.0        0.00310641262551    0.00403316830391    0.954449613644      -0.291225702422     0.954449613644      -0.291225702422     0.00310641262551    0.00403316830391    
7300000000.0        0.00314090326593    0.00407987973904    0.953234100605      -0.295165365295     0.953234100605      -0.295165365295     0.00314090326593    0.00407987973904    
7400000000.0        0.00317580128698    0.00412629652897    0.952002140758      -0.299100529041     0.952002140758      -0.299100529041     0.00317580128698    0.00412629652897    
7500000000.0        0.00321110533102    0.0041724180478     0.950753747252      -0.303031126759     0.950753747252      -0.303031126759     0.00321110533102    0.0041724180478     
7600000000.0        0.00324681406079    0.00421824369884    0.949488933509      -0.306957091527     0.949488933509      -0.306957091527     0.00324681406079    0.00421824369884    
7700000000.0        0.00328292615993    0.00426377291334    0.948207713223      -0.310878356398     0.948207713223      -0.310878356398     0.00328292615993    0.00426377291334    
7800000000.0        0.00331944033356    0.00430900514923    0.946910100359      -0.314794854408     0.946910100359      -0.314794854408     0.00331944033356    0.00430900514923    
7900000000.0        0.00335635530875    0.00435393988991    0.945596109154      -0.318706518574     0.945596109154      -0.318706518574     0.00335635530875    0.00435393988991    
8000000000.0        0.00339366983494    0.004398576643      0.944265754119      -0.322613281898     0.944265754119      -0.322613281898     0.00339366983494    0.004398576643      
8100000000.0        0.00343138268438    0.00444291493914    0.942919050037      -0.326515077366     0.942919050037      -0.326515077366     0.00343138268438    0.00444291493914    
8200000000.0        0.00346949265249    0.0044869543308     0.941556011966      -0.330411837953     0.941556011966      -0.330411837953     0.00346949265249    0.0044869543308     
8300000000.0        0.00350799855823    0.00453069439109    0.940176655236      -0.334303496626     0.940176655236      -0.334303496626     0.00350799855823    0.00453069439109    
8400000000.0        0.00354689924438    0.00457413471261    0.938780995451      -0.338189986342     0.938780995451      -0.338189986342     0.00354689924438    0.00457413471261    
8500000000.0        0.00358619357789    0.00461727490626    0.937369048493      -0.342071240051     0.937369048493      -0.342071240051     0.00358619357789    0.00461727490626    
8600000000.0        0.00362588045005    0.00466011460015    0.935940830513      -0.3459471907       0.935940830513      -0.3459471907       0.00362588045005    0.00466011460015    
8700000000.0        0.0036659587768     0.00470265343844    0.934496357942      -0.349817771232     0.934496357942      -0.349817771232     0.0036659587768     0.00470265343844    
8800000000.0        0.00370642749887    0.00474489108021    0.933035647484      -0.353682914592     0.933035647484      -0.353682914592     0.00370642749887    0.00474489108021    
8900000000.0        0.00374728558201    0.0047868271984     0.931558716119      -0.357542553723     0.931558716119      -0.357542553723     0.00374728558201    0.0047868271984     
9000000000.0        0.0037885320171     0.0048284614787     0.930065581104      -0.361396621573     0.930065581104      -0.361396621573     0.0037885320171     0.0048284614787     
9100000000.0        0.0038301658203     0.00486979361848    0.928556259971      -0.365245051092     0.928556259971      -0.365245051092     0.0038301658203     0.00486979361848    
9200000000.0        0.00387218603313    0.0049108233257     0.927030770531      -0.36908777524      0.927030770531      -0.36908777524      0.00387218603313    0.0049108233257     
9300000000.0        0.0039145917226     0.00495155031789    0.925489130868      -0.372924726982     0.925489130868      -0.372924726982     0.0039145917226     0.00495155031789    
9400000000.0        0.0039573819812     0.00499197432111    0.923931359347      -0.376755839294     0.923931359347      -0.376755839294     0.0039573819812     0.00499197432111    
9500000000.0        0.00400055592699    0.00503209506891    0.922357474609      -0.380581045163     0.922357474609      -0.380581045163     0.00400055592699    0.00503209506891    
9600000000.0        0.00404411270359    0.00507191230129    0.920767495573      -0.384400277591     0.920767495573      -0.384400277591     0.00404411270359    0.00507191230129    
9700000000.0        0.00408805148017    0.00511142576378    0.919161441435      -0.388213469592     0.919161441435      -0.388213469592     0.00408805148017    0.00511142576378    
9800000000.0        0.00413237145145    0.00515063520633    0.917539331671      -0.3920205542       0.917539331671      -0.3920205542       0.00413237145145    0.00515063520633    
9900000000.0        0.00417707183762    0.00518954038245    0.915901186034      -0.395821464463     0.915901186034      -0.395821464463     0.00417707183762    0.00518954038245    
10000000000.0       0.00422215188428    0.00522814104816    0.914247024558      -0.399616133454     0.914247024558      -0.399616133454     0.00422215188428    0.00522814104816    
