# Hz S RI R 50.00 
100000000.0         0.000120907212338   -0.00245221214033   0.999856062759      -0.00328359186591   0.999856062759      -0.00328359186591   0.000120907212338   -0.00245221214033   
200000000.0         9.48533159413e-05   -0.00490443321526   0.999827182465      -0.00656722792157   0.999827182465      -0.00656722792157   9.48533159413e-05   -0.00490443321526   
300000000.0         5.24606181531e-05   -0.00735661540608   0.999781731754      -0.00985088171974   0.999781731754      -0.00985088171974   5.24606181531e-05   -0.00735661540608   
400000000.0         -6.15934416404e-06  -0.00980868964043   0.999719593637      -0.0131345004841    0.999719593637      -0.0131345004841    -6.15934416437e-06  -0.00980868964043   
500000000.0         -8.09652043386e-05  -0.0122605756909    0.999640721574      -0.0164180179542    0.999640721574      -0.0164180179542    -8.09652043392e-05  -0.0122605756909    
600000000.0         -0.00017193677307   -0.0147121858116    0.999545090902      -0.0197013588777    0.999545090902      -0.0197013588777    -0.000171936773069  -0.0147121858116    
700000000.0         -0.0002790625068    -0.0171634266233    0.999432686595      -0.0229844413153    0.999432686595      -0.0229844413153    -0.0002790625068    -0.0171634266233    
800000000.0         -0.000402334879136  -0.019614200258     0.999303498871      -0.0262671780326    0.999303498871      -0.0262671780326    -0.000402334879136  -0.019614200258     
900000000.0         -0.000541748279839  -0.0220644051279    0.999157521284      -0.0295494774288    0.999157521284      -0.0295494774288    -0.000541748279839  -0.0220644051279    
1000000000.0        -0.000697297919449  -0.0245139364769    0.998994749784      -0.0328312441991    0.998994749784      -0.0328312441991    -0.00069729791945   -0.0245139364769    
1100000000.0        -0.000868979196629  -0.0269626867958    0.998815182227      -0.036112379832     0.998815182227      -0.036112379832     -0.000868979196629  -0.0269626867958    
1200000000.0        -0.00105678730222   -0.0294105461484    0.998618818102      -0.0393927829965    0.998618818102      -0.0393927829965    -0.00105678730222   -0.0294105461484    
1300000000.0        -0.0012607169547    -0.0318574024343    0.998405658369      -0.0426723498541    0.998405658369      -0.0426723498541    -0.0012607169547    -0.0318574024343    
1400000000.0        -0.00148076221354   -0.0343031416081    0.998175705377      -0.0459509743157    0.998175705377      -0.0459509743157    -0.00148076221354   -0.0343031416081    
1500000000.0        -0.00171691634138   -0.0367476478637    0.99792896281       -0.0492285482584    0.99792896281       -0.0492285482584    -0.00171691634138   -0.0367476478637    
1600000000.0        -0.00196917169828   -0.0391908037945    0.997665435662      -0.0525049617112    0.997665435662      -0.0525049617112    -0.00196917169828   -0.0391908037945    
1700000000.0        -0.00223751965789   -0.0416324905331    0.997385130229      -0.0557801030177    0.997385130229      -0.0557801030177    -0.00223751965789   -0.0416324905331    
1800000000.0        -0.00252195053919   -0.0440725878757    0.997088054103      -0.0590538589787    0.997088054103      -0.0590538589787    -0.00252195053919   -0.0440725878757    
1900000000.0        -0.00282245354971   -0.0465109743943    0.996774216182      -0.0623261149806    0.996774216182      -0.0623261149806    -0.00282245354971   -0.0465109743943    
2000000000.0        -0.00313901673738   -0.0489475275376    0.996443626676      -0.0655967551113    0.996443626676      -0.0655967551113    -0.00313901673738   -0.0489475275376    
2100000000.0        -0.00347162694912   -0.0513821237251    0.996096297117      -0.0688656622657    0.996096297117      -0.0688656622657    -0.00347162694912   -0.0513821237251    
2200000000.0        -0.00382026979479   -0.0538146384325    0.995732240376      -0.0721327182428    0.995732240376      -0.0721327182428    -0.00382026979479   -0.0538146384325    
2300000000.0        -0.00418492961553   -0.0562449462719    0.995351470669      -0.0753978038356    0.995351470669      -0.0753978038356    -0.00418492961553   -0.0562449462719    
2400000000.0        -0.00456558945582   -0.0586729210673    0.994954003575      -0.078660798915     0.994954003575      -0.078660798915     -0.00456558945582   -0.0586729210673    
2500000000.0        -0.00496223103853   -0.061098435925     0.994539856046      -0.0819215825085    0.994539856046      -0.0819215825085    -0.00496223103853   -0.061098435925     
2600000000.0        -0.00537483474281   -0.0635213633005    0.994109046421      -0.0851800328741    0.994109046421      -0.0851800328741    -0.00537483474281   -0.0635213633005    
2700000000.0        -0.0058033795842    -0.0659415750621    0.993661594435      -0.0884360275704    0.993661594435      -0.0884360275704    -0.0058033795842    -0.0659415750621    
2800000000.0        -0.00624784319695   -0.068358942552     0.993197521234      -0.0916894435235    0.993197521234      -0.0916894435235    -0.00624784319695   -0.068358942552     
2900000000.0        -0.00670820181818   -0.0707733366437    0.992716849381      -0.09494015709      0.992716849381      -0.09494015709      -0.00670820181818   -0.0707733366437    
3000000000.0        -0.0071844302738    -0.0731846277984    0.992219602869      -0.0981880441187    0.992219602869      -0.0981880441187    -0.0071844302738    -0.0731846277984    
3100000000.0        -0.00767650196596   -0.0755926861185    0.991705807126      -0.101432980008     0.991705807126      -0.101432980008     -0.00767650196596   -0.0755926861185    
3200000000.0        -0.00818438886207   -0.0779973813996    0.991175489026      -0.104674839763     0.991175489026      -0.104674839763     -0.00818438886207   -0.0779973813996    
3300000000.0        -0.00870806148504   -0.0803985831805    0.990628676894      -0.107913498048     0.990628676894      -0.107913498048     -0.00870806148504   -0.0803985831805    
3400000000.0        -0.00924748890497   -0.082796160792     0.990065400511      -0.111148829241     0.990065400511      -0.111148829241     -0.00924748890497   -0.082796160792     
3500000000.0        -0.00980263873194   -0.085189983404     0.989485691122      -0.114380707484     0.989485691122      -0.114380707484     -0.00980263873194   -0.085189983404     
3600000000.0        -0.01037347711      -0.0875799200713    0.988889581438      -0.11760900673      0.988889581438      -0.11760900673      -0.01037347711      -0.0875799200713    
3700000000.0        -0.0109599687121    -0.0899658397784    0.98827710564       -0.120833600792     0.98827710564       -0.120833600792     -0.0109599687121    -0.0899658397784    
3800000000.0        -0.0115620767365    -0.0923476114829    0.987648299382      -0.124054363391     0.987648299382      -0.124054363391     -0.0115620767365    -0.0923476114829    
3900000000.0        -0.0121797629037    -0.0947251041582    0.987003199791      -0.127271168198     0.987003199791      -0.127271168198     -0.0121797629037    -0.0947251041582    
4000000000.0        -0.0128129874543    -0.0970981868345    0.986341845469      -0.13048388888      0.986341845469      -0.13048388888      -0.0128129874543    -0.0970981868345    
4100000000.0        -0.0134617091485    -0.0994667286395    0.985664276495      -0.133692399142     0.985664276495      -0.133692399142     -0.0134617091485    -0.0994667286395    
4200000000.0        -0.0141258852653    -0.101830598838     0.984970534422      -0.13689657277      0.984970534422      -0.13689657277      -0.0141258852653    -0.101830598838     
4300000000.0        -0.0148054716039    -0.10418966687      0.984260662276      -0.14009628367      0.984260662276      -0.14009628367      -0.0148054716039    -0.10418966687      
4400000000.0        -0.015500422485     -0.10654380239      0.983534704552      -0.14329140591      0.983534704552      -0.14329140591      -0.015500422485     -0.10654380239      
4500000000.0        -0.0162106907529    -0.108892875303     0.982792707217      -0.146481813756     0.982792707217      -0.146481813756     -0.0162106907529    -0.108892875303     
4600000000.0        -0.0169362277791    -0.1112367558       0.9820347177        -0.149667381713     0.9820347177        -0.149667381713     -0.0169362277791    -0.1112367558       
4700000000.0        -0.0176769834658    -0.113575314396     0.981260784889      -0.152847984562     0.981260784889      -0.152847984562     -0.0176769834658    -0.113575314396     
4800000000.0        -0.0184329062508    -0.115908421962     0.980470959132      -0.156023497394     0.980470959132      -0.156023497394     -0.0184329062508    -0.115908421962     
4900000000.0        -0.0192039431127    -0.118235949761     0.97966529222       -0.159193795648     0.97966529222       -0.159193795648     -0.0192039431127    -0.118235949761     
5000000000.0        -0.0199900395768    -0.12055776948      0.978843837393      -0.162358755147     0.978843837393      -0.162358755147     -0.0199900395768    -0.12055776948      
5100000000.0        -0.0207911397222    -0.122873753267     0.978006649324      -0.165518252127     0.978006649324      -0.165518252127     -0.0207911397222    -0.122873753267     
5200000000.0        -0.0216071861885    -0.125183773756     0.977153784117      -0.168672163278     0.977153784117      -0.168672163278     -0.0216071861885    -0.125183773756     
5300000000.0        -0.0224381201844    -0.127487704104     0.976285299293      -0.17182036577      0.976285299293      -0.17182036577      -0.0224381201844    -0.127487704104     
5400000000.0        -0.0232838814957    -0.12978541802      0.975401253789      -0.17496273729      0.975401253789      -0.17496273729      -0.0232838814957    -0.12978541802      
5500000000.0        -0.0241444084949    -0.132076789796     0.974501707941      -0.17809915607      0.974501707941      -0.17809915607      -0.0241444084949    -0.132076789796     
5600000000.0        -0.0250196381509    -0.134361694337     0.97358672348       -0.181229500919     0.97358672348       -0.181229500919     -0.0250196381509    -0.134361694337     
5700000000.0        -0.0259095060387    -0.136640007186     0.972656363519      -0.184353651256     0.972656363519      -0.184353651256     -0.0259095060387    -0.136640007186     
5800000000.0        -0.0268139463513    -0.138911604558     0.971710692541      -0.187471487134     0.971710692541      -0.187471487134     -0.0268139463513    -0.138911604558     
5900000000.0        -0.0277328919101    -0.141176363367     0.970749776389      -0.190582889273     0.970749776389      -0.190582889273     -0.0277328919101    -0.141176363367     
6000000000.0        -0.0286662741772    -0.143434161247     0.969773682254      -0.193687739087     0.969773682254      -0.193687739087     -0.0286662741772    -0.143434161247     
6100000000.0        -0.0296140232679    -0.145684876589     0.968782478662      -0.196785918713     0.968782478662      -0.196785918713     -0.0296140232679    -0.145684876589     
6200000000.0        -0.0305760679634    -0.147928388558     0.967776235462      -0.199877311033     0.967776235462      -0.199877311033     -0.0305760679634    -0.147928388558     
6300000000.0        -0.031552335724     -0.150164577122     0.966755023812      -0.202961799707     0.966755023812      -0.202961799707     -0.031552335724     -0.150164577122     
6400000000.0        -0.0325427527031    -0.15239332308      0.965718916164      -0.206039269197     0.965718916164      -0.206039269197     -0.0325427527031    -0.15239332308      
6500000000.0        -0.0335472437614    -0.154614508081     0.964667986251      -0.209109604788     0.964667986251      -0.209109604788     -0.0335472437614    -0.154614508081     
6600000000.0        -0.0345657324814    -0.156828014651     0.963602309072      -0.212172692618     0.963602309072      -0.212172692618     -0.0345657324814    -0.156828014651     
6700000000.0        -0.0355981411827    -0.159033726216     0.962521960879      -0.2152284197       0.962521960879      -0.2152284197       -0.0355981411827    -0.159033726216     
6800000000.0        -0.0366443909371    -0.161231527126     0.961427019157      -0.218276673944     0.961427019157      -0.218276673944     -0.0366443909371    -0.161231527126     
6900000000.0        -0.0377044015849    -0.163421302673     0.960317562611      -0.221317344182     0.960317562611      -0.221317344182     -0.0377044015849    -0.163421302673     
7000000000.0        -0.0387780917506    -0.165602939118     0.95919367115       -0.224350320191     0.95919367115       -0.224350320191     -0.0387780917506    -0.165602939118     
7100000000.0        -0.0398653788599    -0.167776323708     0.95805542587       -0.227375492711     0.95805542587       -0.227375492711     -0.0398653788599    -0.167776323708     
7200000000.0        -0.0409661791562    -0.169941344699     0.956902909035      -0.230392753471     0.956902909035      -0.230392753471     -0.0409661791562    -0.169941344699     
7300000000.0        -0.0420804077183    -0.172097891374     0.955736204064      -0.233401995206     0.955736204064      -0.233401995206     -0.0420804077183    -0.172097891374     
7400000000.0        -0.0432079784776    -0.174245854066     0.95455539551       -0.236403111678     0.95455539551       -0.236403111678     -0.0432079784776    -0.174245854066     
7500000000.0        -0.044348804236     -0.176385124172     0.953360569042      -0.239395997697     0.953360569042      -0.239395997697     -0.044348804236     -0.176385124172     
7600000000.0        -0.0455027966842    -0.178515594177     0.952151811429      -0.242380549138     0.952151811429      -0.242380549138     -0.0455027966842    -0.178515594177     
7700000000.0        -0.04666986642      -0.180637157666     0.950929210519      -0.245356662962     0.950929210519      -0.245356662962     -0.04666986642      -0.180637157666     
7800000000.0        -0.047849922967     -0.182749709347     0.949692855225      -0.248324237231     0.949692855225      -0.248324237231     -0.047849922967     -0.182749709347     
7900000000.0        -0.0490428747937    -0.184853145065     0.948442835499      -0.251283171125     0.948442835499      -0.251283171125     -0.0490428747937    -0.184853145065     
8000000000.0        -0.0502486293324    -0.186947361817     0.947179242319      -0.254233364964     0.947179242319      -0.254233364964     -0.0502486293324    -0.186947361817     
8100000000.0        -0.051467092999     -0.189032257772     0.945902167666      -0.257174720217     0.945902167666      -0.257174720217     -0.051467092999     -0.189032257772     
8200000000.0        -0.0526981712122    -0.19110773228      0.944611704504      -0.260107139525     0.944611704504      -0.260107139525     -0.0526981712122    -0.19110773228      
8300000000.0        -0.0539417684138    -0.193173685895     0.943307946765      -0.263030526708     0.943307946765      -0.263030526708     -0.0539417684138    -0.193173685895     
8400000000.0        -0.0551977880884    -0.195230020381     0.941990989323      -0.26594478679      0.941990989323      -0.26594478679      -0.0551977880884    -0.195230020381     
8500000000.0        -0.0564661327837    -0.197276638731     0.940660927976      -0.268849826001     0.940660927976      -0.268849826001     -0.0564661327837    -0.197276638731     
8600000000.0        -0.0577467041313    -0.19931344518      0.939317859428      -0.271745551803     0.939317859428      -0.271745551803     -0.0577467041313    -0.19931344518      
8700000000.0        -0.0590394028664    -0.201340345215     0.937961881264      -0.274631872892     0.937961881264      -0.274631872892     -0.0590394028664    -0.201340345215     
8800000000.0        -0.0603441288493    -0.203357245589     0.936593091932      -0.277508699219     0.936593091932      -0.277508699219     -0.0603441288493    -0.203357245589     
8900000000.0        -0.0616607810861    -0.205364054331     0.935211590723      -0.280375941997     0.935211590723      -0.280375941997     -0.0616607810861    -0.205364054331     
9000000000.0        -0.0629892577493    -0.207360680762     0.933817477746      -0.283233513715     0.933817477746      -0.283233513715     -0.0629892577493    -0.207360680762     
9100000000.0        -0.0643294561992    -0.209347035499     0.932410853913      -0.286081328148     0.932410853913      -0.286081328148     -0.0643294561992    -0.209347035499     
9200000000.0        -0.0656812730051    -0.21132303047      0.930991820911      -0.288919300368     0.930991820911      -0.288919300368     -0.0656812730051    -0.21132303047      
9300000000.0        -0.0670446039665    -0.213288578923     0.929560481186      -0.291747346753     0.929560481186      -0.291747346753     -0.0670446039665    -0.213288578923     
9400000000.0        -0.0684193441345    -0.215243595432     0.928116937919      -0.294565384999     0.928116937919      -0.294565384999     -0.0684193441345    -0.215243595432     
9500000000.0        -0.0698053878334    -0.217187995912     0.926661295005      -0.297373334126     0.926661295005      -0.297373334126     -0.0698053878334    -0.217187995912     
9600000000.0        -0.0712026286817    -0.21912169762      0.925193657032      -0.300171114488     0.925193657032      -0.300171114488     -0.0712026286817    -0.21912169762      
9700000000.0        -0.0726109596147    -0.221044619169     0.923714129259      -0.302958647782     0.923714129259      -0.302958647782     -0.0726109596147    -0.221044619169     
9800000000.0        -0.0740302729049    -0.222956680531     0.922222817592      -0.305735857053     0.922222817592      -0.305735857053     -0.0740302729049    -0.222956680531     
9900000000.0        -0.0754604601847    -0.224857803047     0.920719828569      -0.308502666706     0.920719828569      -0.308502666706     -0.0754604601847    -0.224857803047     
10000000000.0       -0.0769014124674    -0.226747909431     0.91920526933       -0.311259002506     0.91920526933       -0.311259002506     -0.0769014124674    -0.226747909431     
