# Hz S RI R 50.00 
100000000.0         0.00358286643979    0.000289756018836   0.996406711021      -0.00378870067381   0.996406711021      -0.00378870067381   0.00358286643979    0.000289756018836   
200000000.0         0.00360845067782    0.000579306068095   0.996359446651      -0.00757715440449   0.996359446651      -0.00757715440449   0.00360845067782    0.000579306068095   
300000000.0         0.00362997134841    0.000868708021051   0.996303988007      -0.0113653908047    0.996303988007      -0.0113653908047    0.00362997134841    0.000868708021051   
400000000.0         0.00365052672601    0.00115796951826    0.996237236601      -0.0151533867614    0.996237236601      -0.0151533867614    0.00365052672601    0.00115796951826    
500000000.0         0.0036713087498     0.00144708675052    0.996158000308      -0.018941106461     0.996158000308      -0.018941106461     0.0036713087498     0.00144708675052    
600000000.0         0.0036929244013     0.00173605093141    0.996065671991      -0.022728508297     0.996065671991      -0.022728508297     0.0036929244013     0.00173605093141    
700000000.0         0.00371573149563    0.00202485059993    0.995959893711      -0.0265155473935    0.995959893711      -0.0265155473935    0.00371573149563    0.00202485059993    
800000000.0         0.00373996119275    0.00231347267827    0.99584043422       -0.0303021767959    0.99584043422       -0.0303021767959    0.00373996119275    0.00231347267827    
900000000.0         0.00376577252686    0.00260190303465    0.995707134438      -0.0340883481196    0.995707134438      -0.0340883481196    0.00376577252686    0.00260190303465    
1000000000.0        0.00379328003664    0.0028901268135     0.995559879824      -0.0378740119419    0.995559879824      -0.0378740119419    0.00379328003664    0.0028901268135     
1100000000.0        0.00382256911922    0.00317812864311    0.995398585023      -0.0416591180537    0.995398585023      -0.0416591180537    0.00382256911922    0.00317812864311    
1200000000.0        0.00385370517582    0.00346589277354    0.995223184727      -0.0454436156317    0.995223184727      -0.0454436156317    0.00385370517582    0.00346589277354    
1300000000.0        0.00388673936382    0.003753403172      0.995033627922      -0.0492274533606    0.995033627922      -0.0492274533606    0.00388673936382    0.003753403172      
1400000000.0        0.0039217123762     0.00404064359125    0.994829874111      -0.0530105795227    0.994829874111      -0.0530105795227    0.0039217123762     0.00404064359125    
1500000000.0        0.00395865701599    0.00432759761988    0.994611890744      -0.0567929420657    0.994611890744      -0.0567929420657    0.00395865701599    0.00432759761988    
1600000000.0        0.0039976000039     0.00461424872042    0.994379651408      -0.0605744886553    0.994379651408      -0.0605744886553    0.00399760000389    0.00461424872042    
1700000000.0        0.0040385632804     0.00490058025854    0.994133134532      -0.0643551667168    0.994133134532      -0.0643551667168    0.0040385632804     0.00490058025854    
1800000000.0        0.00408156496496    0.00518657552611    0.993872322423      -0.0681349234682    0.993872322423      -0.0681349234682    0.00408156496496    0.00518657552611    
1900000000.0        0.00412662007632    0.00547221775953    0.993597200555      -0.0719137059479    0.993597200555      -0.0719137059479    0.00412662007632    0.00547221775953    
2000000000.0        0.00417374108264    0.00575749015458    0.993307757012      -0.0756914610371    0.993307757012      -0.0756914610371    0.00417374108264    0.00575749015458    
2100000000.0        0.00422293832821    0.0060423758786     0.993003982069      -0.0794681354786    0.993003982069      -0.0794681354786    0.00422293832821    0.0060423758786     
2200000000.0        0.00427422036876    0.00632685808057    0.992685867854      -0.0832436758935    0.992685867854      -0.0832436758935    0.00427422036876    0.00632685808057    
2300000000.0        0.00432759423826    0.00661091989967    0.992353408085      -0.0870180287944    0.992353408085      -0.0870180287944    0.00432759423826    0.00661091989967    
2400000000.0        0.00438306566347    0.00689454447242    0.992006597855      -0.0907911405977    0.992006597855      -0.0907911405977    0.00438306566347    0.00689454447242    
2500000000.0        0.0044406392383     0.00717771493887    0.99164543346       -0.094562957634     0.99164543346       -0.094562957634     0.0044406392383     0.00717771493887    
2600000000.0        0.00450031856668    0.00746041444795    0.991269912257      -0.0983334261573    0.991269912257      -0.0983334261573    0.00450031856668    0.00746041444795    
2700000000.0        0.0045621063807     0.00774262616209    0.990880032544      -0.102102492353     0.990880032544      -0.102102492353     0.0045621063807     0.00774262616209    
2800000000.0        0.00462600463901    0.00802433326137    0.990475793468      -0.105870102345     0.990475793468      -0.105870102345     0.00462600463901    0.00802433326137    
2900000000.0        0.00469201460938    0.00830551894708    0.990057194938      -0.109636202204     0.990057194938      -0.109636202204     0.00469201460938    0.00830551894708    
3000000000.0        0.00476013693845    0.00858616644503    0.989624237561      -0.113400737951     0.989624237561      -0.113400737951     0.00476013693845    0.00858616644503    
3100000000.0        0.00483037171093    0.0088662590084     0.98917692258       -0.117163655562     0.98917692258       -0.117163655562     0.00483037171093    0.0088662590084     
3200000000.0        0.00490271850029    0.00914577992044    0.988715251824      -0.120924900978     0.988715251824      -0.120924900978     0.00490271850029    0.00914577992044    
3300000000.0        0.00497717641221    0.00942471249685    0.988239227671      -0.124684420103     0.988239227671      -0.124684420103     0.00497717641221    0.00942471249685    
3400000000.0        0.00505374412221    0.00970304008797    0.987748853002      -0.128442158813     0.987748853002      -0.128442158813     0.00505374412221    0.00970304008797    
3500000000.0        0.00513241990822    0.00998074608088    0.987244131178      -0.132198062958     0.987244131178      -0.132198062958     0.00513241990822    0.00998074608088    
3600000000.0        0.00521320167902    0.0102578139012     0.986725066008      -0.135952078366     0.986725066008      -0.135952078366     0.00521320167902    0.0102578139012     
3700000000.0        0.00529608699911    0.010534227015      0.986191661725      -0.139704150844     0.986191661725      -0.139704150844     0.00529608699911    0.010534227015      
3800000000.0        0.0053810731106     0.0108099689302     0.985643922964      -0.143454226185     0.985643922964      -0.143454226185     0.0053810731106     0.0108099689302     
3900000000.0        0.00546815695248    0.0110850231985     0.985081854749      -0.14720225017      0.985081854749      -0.14720225017      0.00546815695248    0.0110850231985     
4000000000.0        0.00555733517777    0.0113593734165     0.984505462467      -0.150948168569     0.984505462467      -0.150948168569     0.00555733517777    0.0113593734165     
4100000000.0        0.00564860416867    0.0116330032273     0.983914751864      -0.154691927144     0.983914751864      -0.154691927144     0.00564860416867    0.0116330032273     
4200000000.0        0.00574196005013    0.0119058963216     0.983309729024      -0.158433471653     0.983309729024      -0.158433471653     0.00574196005013    0.0119058963216     
4300000000.0        0.00583739870201    0.0121780364395     0.982690400362      -0.162172747851     0.982690400362      -0.162172747851     0.00583739870201    0.0121780364395     
4400000000.0        0.00593491576993    0.0124494073711     0.982056772611      -0.165909701495     0.982056772611      -0.165909701495     0.00593491576993    0.0124494073711     
4500000000.0        0.00603450667512    0.0127199929579     0.981408852817      -0.169644278342     0.981408852817      -0.169644278342     0.00603450667512    0.0127199929579     
4600000000.0        0.00613616662327    0.0129897770943     0.980746648324      -0.173376424153     0.980746648324      -0.173376424153     0.00613616662327    0.0129897770943     
4700000000.0        0.00623989061255    0.0132587437281     0.980070166773      -0.177106084697     0.980070166773      -0.177106084697     0.00623989061255    0.0132587437281     
4800000000.0        0.00634567344094    0.0135268768619     0.979379416094      -0.18083320575      0.979379416094      -0.18083320575      0.00634567344094    0.0135268768619     
4900000000.0        0.00645350971282    0.0137941605543     0.978674404497      -0.184557733098     0.978674404497      -0.184557733098     0.00645350971282    0.0137941605543     
5000000000.0        0.00656339384511    0.0140605789204     0.977955140468      -0.18827961254      0.977955140468      -0.18827961254      0.00656339384511    0.0140605789204     
5100000000.0        0.00667532007282    0.0143261161333     0.977221632767      -0.191998789887     0.977221632767      -0.191998789887     0.00667532007282    0.0143261161333     
5200000000.0        0.00678928245411    0.0145907564249     0.976473890418      -0.195715210969     0.976473890418      -0.195715210969     0.00678928245411    0.0145907564249     
5300000000.0        0.00690527487506    0.0148544840865     0.975711922709      -0.199428821628     0.975711922709      -0.199428821628     0.00690527487506    0.0148544840865     
5400000000.0        0.00702329105401    0.0151172834703     0.974935739187      -0.203139567729     0.974935739187      -0.203139567729     0.00702329105401    0.0151172834703     
5500000000.0        0.00714332454555    0.0153791389899     0.974145349654      -0.206847395155     0.974145349654      -0.206847395155     0.00714332454555    0.0153791389899     
5600000000.0        0.00726536874427    0.0156400351213     0.973340764166      -0.210552249812     0.973340764166      -0.210552249812     0.00726536874427    0.0156400351213     
5700000000.0        0.00738941688825    0.015899956404      0.972521993027      -0.21425407763      0.972521993027      -0.21425407763      0.00738941688825    0.015899956404      
5800000000.0        0.00751546206227    0.0161588874413     0.971689046786      -0.217952824561     0.971689046786      -0.217952824561     0.00751546206227    0.0161588874413     
5900000000.0        0.00764349720086    0.0164168129018     0.970841936239      -0.221648436588     0.970841936239      -0.221648436588     0.00764349720086    0.0164168129018     
6000000000.0        0.00777351509112    0.0166737175197     0.969980672423      -0.225340859717     0.969980672423      -0.225340859717     0.00777351509112    0.0166737175197     
6100000000.0        0.00790550837539    0.0169295860961     0.969105266615      -0.229030039986     0.969105266615      -0.229030039986     0.00790550837539    0.0169295860961     
6200000000.0        0.00803946955377    0.0171844034994     0.968215730328      -0.232715923463     0.968215730328      -0.232715923463     0.00803946955377    0.0171844034994     
6300000000.0        0.00817539098645    0.0174381546664     0.967312075313      -0.236398456247     0.967312075313      -0.236398456247     0.00817539098645    0.0174381546664     
6400000000.0        0.00831326489596    0.0176908246029     0.966394313554      -0.240077584473     0.966394313554      -0.240077584473     0.00831326489596    0.0176908246029     
6500000000.0        0.00845308336932    0.0179423983846     0.965462457267      -0.243753254307     0.965462457267      -0.243753254307     0.00845308336932    0.0179423983846     
6600000000.0        0.00859483836       0.0181928611578     0.964516518901      -0.247425411953     0.964516518901      -0.247425411953     0.00859483836       0.0181928611578     
6700000000.0        0.00873852168986    0.0184421981403     0.963556511134      -0.251094003651     0.963556511134      -0.251094003651     0.00873852168986    0.0184421981403     
6800000000.0        0.00888412505099    0.0186903946221     0.962582446869      -0.254758975679     0.962582446869      -0.254758975679     0.00888412505099    0.0186903946221     
6900000000.0        0.0090316400074     0.0189374359659     0.961594339241      -0.258420274358     0.961594339241      -0.258420274358     0.0090316400074     0.0189374359659     
7000000000.0        0.00918105799677    0.0191833076084     0.960592201608      -0.262077846045     0.960592201608      -0.262077846045     0.00918105799677    0.0191833076084     
7100000000.0        0.00933237033197    0.0194279950606     0.959576047552      -0.265731637141     0.959576047552      -0.265731637141     0.00933237033197    0.0194279950606     
7200000000.0        0.00948556820266    0.0196714839085     0.95854589088       -0.269381594092     0.95854589088       -0.269381594092     0.00948556820266    0.0196714839085     
7300000000.0        0.00964064267673    0.0199137598141     0.957501745622      -0.273027663386     0.957501745622      -0.273027663386     0.00964064267673    0.0199137598141     
7400000000.0        0.00979758470176    0.0201548085161     0.956443626028      -0.276669791556     0.956443626028      -0.276669791556     0.00979758470176    0.0201548085161     
7500000000.0        0.00995638510639    0.0203946158304     0.95537154657       -0.280307925185     0.95537154657       -0.280307925185     0.00995638510639    0.0203946158304     
7600000000.0        0.0101170346017     0.020633167651      0.954285521938      -0.2839420109       0.954285521938      -0.2839420109       0.0101170346017     0.020633167651      
7700000000.0        0.0102795237823     0.0208704499505     0.953185567044      -0.287571995379     0.953185567044      -0.287571995379     0.0102795237823     0.0208704499505     
7800000000.0        0.010443843128      0.021106448781      0.952071697015      -0.291197825351     0.952071697015      -0.291197825351     0.010443843128      0.021106448781      
7900000000.0        0.0106099830046     0.0213411502748     0.950943927197      -0.294819447592     0.950943927197      -0.294819447592     0.0106099830046     0.0213411502748     
8000000000.0        0.0107779336653     0.0215745406449     0.949802273153      -0.298436808936     0.949802273153      -0.298436808936     0.0107779336653     0.0215745406449     
8100000000.0        0.0109476852521     0.0218066061858     0.948646750661      -0.302049856265     0.948646750661      -0.302049856265     0.0109476852521     0.0218066061858     
8200000000.0        0.0111192277962     0.0220373332742     0.947477375713      -0.30565853652      0.947477375713      -0.30565853652      0.0111192277962     0.0220373332742     
8300000000.0        0.0112925512201     0.0222667083695     0.946294164518      -0.309262796693     0.946294164518      -0.309262796693     0.0112925512201     0.0222667083695     
8400000000.0        0.0114676453377     0.0224947180147     0.945097133497      -0.312862583835     0.945097133497      -0.312862583835     0.0114676453377     0.0224947180147     
8500000000.0        0.0116444998564     0.022721348837      0.943886299286      -0.316457845056     0.943886299286      -0.316457845056     0.0116444998564     0.022721348837      
8600000000.0        0.011823104377      0.0229465875483     0.942661678731      -0.320048527521     0.942661678731      -0.320048527521     0.011823104377      0.0229465875483     
8700000000.0        0.0120034483958     0.0231704209459     0.941423288892      -0.323634578458     0.941423288892      -0.323634578458     0.0120034483958     0.0231704209459     
8800000000.0        0.012185521305      0.0233928359133     0.94017114704       -0.327215945152     0.94017114704       -0.327215945152     0.012185521305      0.0233928359133     
8900000000.0        0.0123693123938     0.0236138194207     0.938905270656      -0.330792574954     0.938905270656      -0.330792574954     0.0123693123938     0.0236138194207     
9000000000.0        0.0125548108496     0.0238333585256     0.937625677432      -0.334364415275     0.937625677432      -0.334364415275     0.0125548108496     0.0238333585256     
9100000000.0        0.0127420057585     0.0240514403737     0.93633238527       -0.337931413589     0.93633238527       -0.337931413589     0.0127420057585     0.0240514403737     
9200000000.0        0.0129308861071     0.0242680521989     0.935025412279      -0.341493517436     0.935025412279      -0.341493517436     0.0129308861071     0.0242680521989     
9300000000.0        0.0131214407824     0.0244831813246     0.933704776779      -0.345050674423     0.933704776779      -0.345050674423     0.0131214407824     0.0244831813246     
9400000000.0        0.0133136585735     0.0246968151642     0.932370497297      -0.34860283222      0.932370497297      -0.34860283222      0.0133136585735     0.0246968151642     
9500000000.0        0.0135075281724     0.0249089412211     0.931022592567      -0.352149938568     0.931022592567      -0.352149938568     0.0135075281724     0.0249089412211     
9600000000.0        0.0137030381747     0.0251195470901     0.929661081531      -0.355691941275     0.929661081531      -0.355691941275     0.0137030381747     0.0251195470901     
9700000000.0        0.0139001770808     0.0253286204574     0.928285983337      -0.359228788219     0.928285983337      -0.359228788219     0.0139001770808     0.0253286204574     
9800000000.0        0.0140989332964     0.0255361491018     0.926897317339      -0.362760427348     0.926897317339      -0.362760427348     0.0140989332964     0.0255361491018     
9900000000.0        0.0142992951338     0.0257421208944     0.925495103095      -0.366286806681     0.925495103095      -0.366286806681     0.0142992951338     0.0257421208944     
10000000000.0       0.0145012508127     0.0259465238001     0.924079360372      -0.369807874311     0.924079360372      -0.369807874311     0.0145012508127     0.0259465238001     
