# Hz S RI R 50.00 
100000000.0         0.00529616539607    0.00137014224763    0.994700952082      -0.0025825791283    0.994700952082      -0.0025825791283    0.00529616539607    0.00137014224763    
200000000.0         0.00534129588792    0.00273997128424    0.994652466346      -0.00516486240223   0.994652466346      -0.00516486240223   0.00534129588792    0.00273997128424    
300000000.0         0.00538420696556    0.00410955964092    0.99460472714       -0.00774693277951   0.99460472714       -0.00774693277951   0.00538420696556    0.00410955964092    
400000000.0         0.0054294787916     0.0054789064113     0.994553154107      -0.0103287974168    0.994553154107      -0.0103287974168    0.0054294787916     0.0054789064113     
500000000.0         0.00547887566063    0.0068479935653     0.994495982724      -0.0129104451483    0.994495982724      -0.0129104451483    0.00547887566063    0.0068479935653     
600000000.0         0.00553329715201    0.00821679549294    0.994432313152      -0.0154918564397    0.994432313152      -0.0154918564397    0.00553329715201    0.00821679549294    
700000000.0         0.0055932742322     0.00958528244034    0.994361614138      -0.0180730070336    0.994361614138      -0.0180730070336    0.0055932742322     0.00958528244034    
800000000.0         0.00565915034589    0.010953422107      0.994283541923      -0.0206538696724    0.994283541923      -0.0206538696724    0.00565915034589    0.010953422107      
900000000.0         0.00573116205852    0.0123211805053     0.9941978596        -0.0232344150414    0.9941978596        -0.0232344150414    0.00573116205852    0.0123211805053     
1000000000.0        0.00580947993744    0.0136885224709     0.994104396239      -0.0258146123372    0.994104396239      -0.0258146123372    0.00580947993744    0.0136885224709     
1100000000.0        0.00589423127985    0.015055411987      0.994003024153      -0.0283944296356    0.994003024153      -0.0283944296356    0.00589423127985    0.015055411987      
1200000000.0        0.00598551365719    0.0164218124024     0.993893645361      -0.030973834143     0.993893645361      -0.030973834143     0.00598551365719    0.0164218124024     
1300000000.0        0.00608340343733    0.0177876865844     0.993776183064      -0.0335527923751    0.993776183064      -0.0335527923751    0.00608340343733    0.0177876865844     
1400000000.0        0.00618796138681    0.0191529970291     0.993650576043      -0.0361312702887    0.993650576043      -0.0361312702887    0.00618796138681    0.0191529970291     
1500000000.0        0.00629923648857    0.020517705944      0.993516774842      -0.0387092333817    0.993516774842      -0.0387092333817    0.00629923648857    0.020517705944      
1600000000.0        0.00641726862358    0.0218817753109     0.99337473909       -0.0412866467702    0.99337473909       -0.0412866467702    0.00641726862358    0.0218817753109     
1700000000.0        0.00654209050354    0.0232451669353     0.993224435565      -0.0438634752504    0.993224435565      -0.0438634752504    0.00654209050354    0.0232451669353     
1800000000.0        0.00667372909508    0.0246078424848     0.993065836772      -0.0464396833483    0.993065836772      -0.0464396833483    0.00667372909508    0.0246078424848     
1900000000.0        0.00681220668971    0.0259697635213     0.992898919874      -0.0490152353597    0.992898919874      -0.0490152353597    0.00681220668971    0.0259697635213     
2000000000.0        0.00695754172146    0.0273308915264     0.992723665876      -0.0515900953848    0.992723665876      -0.0515900953848    0.00695754172146    0.0273308915264     
2100000000.0        0.00710974940125    0.0286911879226     0.992540058988      -0.0541642273561    0.992540058988      -0.0541642273561    0.00710974940125    0.0286911879226     
2200000000.0        0.0072688422156     0.0300506140919     0.992348086128      -0.0567375950631    0.992348086128      -0.0567375950631    0.0072688422156     0.0300506140919     
2300000000.0        0.00743483032368    0.0314091313903     0.992147736526      -0.0593101621727    0.992147736526      -0.0593101621727    0.00743483032368    0.0314091313903     
2400000000.0        0.00760772187673    0.0327667011616     0.991939001408      -0.0618818922478    0.991939001408      -0.0618818922478    0.00760772187673    0.0327667011616     
2500000000.0        0.00778752327772    0.034123284748      0.991721873729      -0.064452748763     0.991721873729      -0.064452748763     0.00778752327772    0.034123284748      
2600000000.0        0.00797423939424    0.0354788435006     0.991496347967      -0.0670226951185    0.991496347967      -0.0670226951185    0.00797423939424    0.0354788435006     
2700000000.0        0.0081678737347     0.0368333387879     0.991262419946      -0.069591694653     0.991262419946      -0.069591694653     0.0081678737347     0.0368333387879     
2800000000.0        0.00836842859507    0.0381867320035     0.991020086686      -0.0721597106546    0.991020086686      -0.0721597106546    0.00836842859507    0.0381867320035     
2900000000.0        0.00857590518215    0.039538984573      0.990769346287      -0.0747267063708    0.990769346287      -0.0747267063708    0.00857590518215    0.039538984573      
3000000000.0        0.00879030371768    0.0408900579602     0.990510197817      -0.0772926450182    0.990510197817      -0.0772926450182    0.00879030371768    0.0408900579602     
3100000000.0        0.00901162352693    0.042239913673      0.99024264123       -0.0798574897902    0.99024264123       -0.0798574897902    0.00901162352693    0.042239913673      
3200000000.0        0.00923986311439    0.0435885132683     0.989966677288      -0.0824212038654    0.989966677288      -0.0824212038654    0.00923986311439    0.0435885132683     
3300000000.0        0.00947502022894    0.0449358183568     0.989682307495      -0.084983750414     0.989682307495      -0.084983750414     0.00947502022894    0.0449358183568     
3400000000.0        0.0097170919201     0.0462817906073     0.989389534044      -0.0875450926048    0.989389534044      -0.0875450926048    0.0097170919201     0.0462817906073     
3500000000.0        0.00996607458698    0.0476263917509     0.989088359766      -0.0901051936111    0.989088359766      -0.0901051936111    0.00996607458698    0.0476263917509     
3600000000.0        0.0102219640209     0.0489695835847     0.988778788089      -0.0926640166166    0.988778788089      -0.0926640166166    0.0102219640209     0.0489695835847     
3700000000.0        0.0104847554429     0.0503113279751     0.988460822999      -0.0952215248205    0.988460822999      -0.0952215248205    0.0104847554429     0.0503113279751     
3800000000.0        0.0107544435364     0.0516515868616     0.988134469009      -0.0977776814426    0.988134469009      -0.0977776814426    0.0107544435364     0.0516515868616     
3900000000.0        0.0110310224765     0.0529903222593     0.987799731131      -0.100332449728     0.987799731131      -0.100332449728     0.0110310224765     0.0529903222593     
4000000000.0        0.011314485956      0.0543274962625     0.987456614848      -0.102885792952     0.987456614848      -0.102885792952     0.011314485956      0.0543274962625     
4100000000.0        0.0116048272078     0.0556630710471     0.98710512609       -0.105437674423     0.98710512609       -0.105437674423     0.0116048272078     0.0556630710471     
4200000000.0        0.0119020390258     0.0569970088733     0.986745271219      -0.107988057488     0.986745271219      -0.107988057488     0.0119020390258     0.0569970088733     
4300000000.0        0.0122061137834     0.0583292720885     0.986377057007      -0.110536905537     0.986377057007      -0.110536905537     0.0122061137834     0.0583292720885     
4400000000.0        0.0125170434499     0.0596598231292     0.98600049062       -0.113084182005     0.98600049062       -0.113084182005     0.0125170434499     0.0596598231292     
4500000000.0        0.0128348196053     0.0609886245241     0.985615579604      -0.115629850374     0.985615579604      -0.115629850374     0.0128348196053     0.0609886245241     
4600000000.0        0.0131594334544     0.0623156388956     0.985222331869      -0.118173874183     0.985222331869      -0.118173874183     0.0131594334544     0.0623156388956     
4700000000.0        0.0134908758385     0.0636408289626     0.984820755682      -0.120716217022     0.984820755682      -0.120716217022     0.0134908758385     0.0636408289626     
4800000000.0        0.0138291372467     0.0649641575424     0.984410859652      -0.123256842544     0.984410859652      -0.123256842544     0.0138291372467     0.0649641575424     
4900000000.0        0.0141742078267     0.0662855875527     0.98399265272       -0.125795714461     0.98399265272       -0.125795714461     0.0141742078267     0.0662855875527     
5000000000.0        0.0145260773936     0.0676050820138     0.983566144152      -0.128332796553     0.983566144152      -0.128332796553     0.0145260773936     0.0676050820138     
5100000000.0        0.0148847354388     0.0689226040505     0.983131343527      -0.130868052664     0.983131343527      -0.130868052664     0.0148847354388     0.0689226040505     
5200000000.0        0.0152501711378     0.0702381168937     0.982688260735      -0.133401446712     0.982688260735      -0.133401446712     0.0152501711378     0.0702381168937     
5300000000.0        0.0156223733578     0.0715515838828     0.982236905962      -0.135932942687     0.982236905962      -0.135932942687     0.0156223733578     0.0715515838828     
5400000000.0        0.0160013306645     0.072862968467      0.981777289691      -0.138462504653     0.981777289691      -0.138462504653     0.0160013306645     0.072862968467      
5500000000.0        0.0163870313282     0.0741722342076     0.981309422691      -0.140990096754     0.981309422691      -0.140990096754     0.0163870313282     0.0741722342076     
5600000000.0        0.01677946333       0.0754793447791     0.98083331601       -0.143515683216     0.98083331601       -0.143515683216     0.01677946333       0.0754793447791     
5700000000.0        0.0171786143673     0.0767842639715     0.980348980976      -0.146039228345     0.980348980976      -0.146039228345     0.0171786143673     0.0767842639715     
5800000000.0        0.0175844718588     0.0780869556916     0.979856429186      -0.148560696535     0.979856429186      -0.148560696535     0.0175844718588     0.0780869556916     
5900000000.0        0.0179970229495     0.0793873839648     0.979355672503      -0.151080052268     0.979355672503      -0.151080052268     0.0179970229495     0.0793873839648     
6000000000.0        0.0184162545154     0.0806855129366     0.978846723053      -0.153597260113     0.978846723053      -0.153597260113     0.0184162545154     0.0806855129366     
6100000000.0        0.0188421531677     0.0819813068743     0.978329593217      -0.156112284733     0.978329593217      -0.156112284733     0.0188421531677     0.0819813068743     
6200000000.0        0.0192747052569     0.0832747301684     0.977804295634      -0.158625090887     0.977804295634      -0.158625090887     0.0192747052569     0.0832747301684     
6300000000.0        0.0197138968768     0.0845657473343     0.977270843187      -0.161135643428     0.977270843187      -0.161135643428     0.0197138968768     0.0845657473343     
6400000000.0        0.0201597138681     0.0858543230137     0.976729249011      -0.163643907308     0.976729249011      -0.163643907308     0.0201597138681     0.0858543230137     
6500000000.0        0.020612141822      0.087140421976      0.97617952648       -0.166149847579     0.97617952648       -0.166149847579     0.020612141822      0.087140421976      
6600000000.0        0.0210711660838     0.0884240091199     0.975621689208      -0.168653429395     0.975621689208      -0.168653429395     0.0210711660838     0.0884240091199     
6700000000.0        0.0215367717554     0.089705049475      0.975055751046      -0.171154618017     0.975055751046      -0.171154618017     0.0215367717554     0.089705049475      
6800000000.0        0.0220089436994     0.0909835082025     0.974481726078      -0.173653378809     0.974481726078      -0.173653378809     0.0220089436994     0.0909835082025     
6900000000.0        0.0224876665414     0.0922593505977     0.97389962862       -0.176149677244     0.97389962862       -0.176149677244     0.0224876665414     0.0922593505977     
7000000000.0        0.0229729246731     0.0935325420902     0.973309473213      -0.178643478905     0.973309473213      -0.178643478905     0.0229729246731     0.0935325420902     
7100000000.0        0.023464702255      0.0948030482461     0.972711274624      -0.181134749486     0.972711274624      -0.181134749486     0.023464702255      0.0948030482461     
7200000000.0        0.0239629832192     0.0960708347691     0.972105047844      -0.183623454796     0.972105047844      -0.183623454796     0.0239629832192     0.0960708347691     
7300000000.0        0.0244677512721     0.0973358675016     0.971490808082      -0.186109560756     0.971490808082      -0.186109560756     0.0244677512721     0.0973358675016     
7400000000.0        0.0249789898964     0.0985981124262     0.970868570765      -0.188593033407     0.970868570765      -0.188593033407     0.0249789898964     0.0985981124262     
7500000000.0        0.0254966823544     0.099857535667      0.970238351535      -0.191073838905     0.970238351535      -0.191073838905     0.0254966823544     0.099857535667      
7600000000.0        0.0260208116897     0.101114103491      0.969600166248      -0.19355194353      0.969600166248      -0.19355194353      0.0260208116897     0.101114103491      
7700000000.0        0.0265513607297     0.102367782308      0.968954030967      -0.196027313679     0.968954030967      -0.196027313679     0.0265513607297     0.102367782308      
7800000000.0        0.0270883120881     0.103618538675      0.968299961969      -0.198499915877     0.968299961969      -0.198499915877     0.0270883120881     0.103618538675      
7900000000.0        0.027631648167      0.104866339294      0.967637975731      -0.200969716768     0.967637975731      -0.200969716768     0.027631648167      0.104866339294      
8000000000.0        0.028181351159      0.106111151015      0.966968088938      -0.203436683128     0.966968088938      -0.203436683128     0.028181351159      0.106111151015      
8100000000.0        0.0287374030494     0.107352940836      0.966290318477      -0.205900781857     0.966290318477      -0.205900781857     0.0287374030494     0.107352940836      
8200000000.0        0.0292997856185     0.108591675906      0.965604681433      -0.208361979986     0.965604681433      -0.208361979986     0.0292997856185     0.108591675906      
8300000000.0        0.0298684804432     0.109827323525      0.96491119509       -0.210820244675     0.96491119509       -0.210820244675     0.0298684804432     0.109827323525      
8400000000.0        0.0304434688996     0.111059851144      0.964209876928      -0.213275543217     0.964209876928      -0.213275543217     0.0304434688996     0.111059851144      
8500000000.0        0.0310247321646     0.112289226369      0.963500744621      -0.215727843039     0.963500744621      -0.215727843039     0.0310247321646     0.112289226369      
8600000000.0        0.0316122512182     0.113515416959      0.962783816036      -0.218177111702     0.962783816036      -0.218177111702     0.0316122512182     0.113515416959      
8700000000.0        0.032206006845      0.11473839083       0.962059109228      -0.220623316903     0.962059109228      -0.220623316903     0.032206006845      0.11473839083       
8800000000.0        0.0328059796366     0.115958116053      0.961326642443      -0.223066426478     0.961326642443      -0.223066426478     0.0328059796366     0.115958116053      
8900000000.0        0.0334121499932     0.117174560859      0.960586434113      -0.225506408399     0.960586434113      -0.225506408399     0.0334121499932     0.117174560859      
9000000000.0        0.0340244981258     0.118387693634      0.959838502854      -0.227943230782     0.959838502854      -0.227943230782     0.0340244981258     0.118387693634      
9100000000.0        0.0346430040576     0.119597482927      0.959082867464      -0.23037686188      0.959082867464      -0.23037686188      0.0346430040576     0.119597482927      
9200000000.0        0.0352676476261     0.120803897447      0.958319546926      -0.232807270093     0.958319546926      -0.232807270093     0.0352676476261     0.120803897447      
9300000000.0        0.0358984084853     0.122006906064      0.957548560398      -0.235234423962     0.957548560398      -0.235234423962     0.0358984084853     0.122006906064      
9400000000.0        0.0365352661068     0.123206477811      0.956769927218      -0.237658292173     0.956769927218      -0.237658292173     0.0365352661068     0.123206477811      
9500000000.0        0.0371781997822     0.124402581885      0.955983666901      -0.24007884356      0.955983666901      -0.24007884356      0.0371781997822     0.124402581885      
9600000000.0        0.0378271886244     0.125595187647      0.955189799133      -0.242496047103     0.955189799133      -0.242496047103     0.0378271886244     0.125595187647      
9700000000.0        0.03848221157       0.126784264624      0.954388343775      -0.244909871932     0.954388343775      -0.244909871932     0.03848221157       0.126784264624      
9800000000.0        0.0391432473805     0.127969782511      0.953579320858      -0.247320287325     0.953579320858      -0.247320287325     0.0391432473805     0.127969782511      
9900000000.0        0.0398102746442     0.129151711168      0.952762750582      -0.249727262712     0.952762750582      -0.249727262712     0.0398102746442     0.129151711168      
10000000000.0       0.0404832717782     0.130330020625      0.951938653314      -0.252130767674     0.951938653314      -0.252130767674     0.0404832717782     0.130330020625      
