# Hz S RI R 50.00 
100000000.0         -0.00063649490671   -0.0248734956113    0.999342390504      -0.0249805822587    0.999342390504      -0.0249805822587    -0.00063649490671   -0.0248734956113    
200000000.0         -0.00252140452832   -0.0496490174866    0.997457319477      -0.0498632254012    0.997457319477      -0.0498632254012    -0.00252140452832   -0.0496490174866    
300000000.0         -0.00563009825519   -0.0742337145803    0.994348489153      -0.0745550958486    0.994348489153      -0.0745550958486    -0.00563009825519   -0.0742337145803    
400000000.0         -0.0099388282956    -0.0985375103694    0.990039629157      -0.098966130111     0.990039629157      -0.098966130111     -0.0099388282956    -0.0985375103694    
500000000.0         -0.0154152706713    -0.122474015536     0.984563056489      -0.123009949511     0.984563056489      -0.123009949511     -0.0154152706713    -0.122474015536     
600000000.0         -0.0220191417907    -0.145961450294     0.977959051184      -0.146604783235     0.977959051184      -0.146604783235     -0.0220191417907    -0.145961450294     
700000000.0         -0.029702936734     -0.16892347834      0.970275116058      -0.169674302664     0.970275116058      -0.169674302664     -0.029702936734     -0.16892347834      
800000000.0         -0.0384127662601    -0.191289919932     0.961565138981      -0.192148334681     0.961565138981      -0.192148334681     -0.0384127662601    -0.191289919932     
900000000.0         -0.0480892675947    -0.212997327069     0.951888481772      -0.213963437019     0.951888481772      -0.213963437019     -0.0480892675947    -0.212997327069     
1000000000.0        -0.0586685628202    -0.233989412283     0.941309021651      -0.235063327162     0.941309021651      -0.235063327162     -0.0586685628202    -0.233989412283     
1100000000.0        -0.0700832387522    -0.254217328943     0.929894171269      -0.255399162749     0.929894171269      -0.255399162749     -0.0700832387522    -0.254217328943     
1200000000.0        -0.082263323402     -0.273639806441     0.917713902193      -0.274929676833     0.917713902193      -0.274929676833     -0.082263323402     -0.273639806441     
1300000000.0        -0.0951372362842    -0.292223148113     0.904839794572      -0.293621175861     0.904839794572      -0.293621175861     -0.0951372362842    -0.292223148113     
1400000000.0        -0.108632692717     -0.309941103443     0.891344132805      -0.311447411937     0.891344132805      -0.311447411937     -0.108632692717     -0.309941103443     
1500000000.0        -0.122677545631     -0.326774628857     0.877299063723      -0.328389343664     0.877299063723      -0.328389343664     -0.122677545631     -0.326774628857     
1600000000.0        -0.137200552027     -0.342711553264     0.862775830125      -0.344434801721     0.862775830125      -0.344434801721     -0.137200552027     -0.342711553264     
1700000000.0        -0.152132054894     -0.357746165514     0.847844088841      -0.359578076361     0.847844088841      -0.359578076361     -0.152132054894     -0.357746165514     
1800000000.0        -0.167404574954     -0.371878741168     0.832571318994      -0.373819444218     0.832571318994      -0.373819444218     -0.167404574954     -0.371878741168     
1900000000.0        -0.182953309844     -0.38511502552      0.817022322807      -0.387164651355     0.817022322807      -0.387164651355     -0.182953309844     -0.38511502552      
2000000000.0        -0.198716541259     -0.39746568883      0.80125881846       -0.399624368529     0.80125881846       -0.399624368529     -0.198716541259     -0.39746568883      
2100000000.0        -0.214635952991     -0.40894576831      0.785339122046      -0.411213633201     0.785339122046      -0.411213633201     -0.214635952991     -0.40894576831      
2200000000.0        -0.230656864794     -0.419574109709     0.769317913705      -0.421951291143     0.769317913705      -0.421951291143     -0.230656864794     -0.419574109709     
2300000000.0        -0.246728388458     -0.429372819506     0.753246081552      -0.431859448656     0.753246081552      -0.431859448656     -0.246728388458     -0.429372819506     
2400000000.0        -0.262803513531     -0.438366736783     0.737170635947      -0.440962944462     0.737170635947      -0.440962944462     -0.262803513531     -0.438366736783     
2500000000.0        -0.278839130743     -0.446582931995     0.721134686079      -0.449288848492     0.721134686079      -0.449288848492     -0.278839130743     -0.446582931995     
2600000000.0        -0.29479600143      -0.454050238032     0.705177470532      -0.456865992964     0.705177470532      -0.456865992964     -0.29479600143      -0.454050238032     
2700000000.0        -0.310638681241     -0.46079881737      0.689334433585      -0.463724539554     0.689334433585      -0.463724539554     -0.310638681241     -0.46079881737      
2800000000.0        -0.326335406105     -0.466859767628     0.673637339238      -0.469895584962     0.673637339238      -0.469895584962     -0.326335406105     -0.466859767628     
2900000000.0        -0.34185794799      -0.472264766582     0.658114415458      -0.475410805946     0.658114415458      -0.475410805946     -0.34185794799      -0.472264766582     
3000000000.0        -0.357181447381     -0.477045756667     0.642790521698      -0.48030214383      0.642790521698      -0.48030214383      -0.357181447381     -0.477045756667     
3100000000.0        -0.372284228733     -0.481234668095     0.627687333443      -0.484601527636     0.627687333443      -0.484601527636     -0.372284228733     -0.481234668095     
3200000000.0        -0.387147604447     -0.48486317908      0.612823538235      -0.488340634323     0.612823538235      -0.488340634323     -0.387147604447     -0.48486317908      
3300000000.0        -0.401755672169     -0.487962511143     0.598215038376      -0.491550684095     0.598215038376      -0.491550684095     -0.401755672169     -0.487962511143     
3400000000.0        -0.416095109532     -0.490563257123     0.58387515618       -0.494262268427     0.58387515618       -0.494262268427     -0.416095109532     -0.490563257123     
3500000000.0        -0.430154969757     -0.492695239296     0.569814838376      -0.496505208189     0.569814838376      -0.496505208189     -0.430154969757     -0.492695239296     
3600000000.0        -0.443926480931     -0.494387394879     0.556042856832      -0.498308439158     0.556042856832      -0.498308439158     -0.443926480931     -0.494387394879     
3700000000.0        -0.457402851176     -0.495667686202     0.542566003377      -0.499699922196     0.542566003377      -0.499699922196     -0.457402851176     -0.495667686202     
3800000000.0        -0.470579081457     -0.496563032811     0.529389277004      -0.500706575364     0.529389277004      -0.500706575364     -0.470579081457     -0.496563032811     
3900000000.0        -0.483451787287     -0.497099262944     0.516516062158      -0.501354225396     0.516516062158      -0.501354225396     -0.483451787287     -0.497099262944     
4000000000.0        -0.496019030235     -0.497301081873     0.503948297228      -0.501667576053     0.503948297228      -0.501667576053     -0.496019030235     -0.497301081873     
4100000000.0        -0.508280159798     -0.497192054831     0.491686632679      -0.501670191048     0.491686632679      -0.501670191048     -0.508280159798     -0.497192054831     
4200000000.0        -0.520235665926     -0.496794602374     0.479730578522      -0.501384489423     0.479730578522      -0.501384489423     -0.520235665926     -0.496794602374     
4300000000.0        -0.531887042278     -0.496130006262     0.468078641061      -0.50083175142      0.468078641061      -0.50083175142      -0.531887042278     -0.496130006262     
4400000000.0        -0.543236660081     -0.495218424067     0.456728449034      -0.500032133105     0.456728449034      -0.500032133105     -0.543236660081     -0.495218424067     
4500000000.0        -0.554287652353     -0.494078910972     0.44567686939       -0.499004688161     0.44567686939       -0.499004688161     -0.554287652353     -0.494078910972     
4600000000.0        -0.565043808108     -0.492729447341     0.434920113078      -0.497767395468     0.434920113078      -0.497767395468     -0.565043808108     -0.492729447341     
4700000000.0        -0.575509476126     -0.491186970852     0.424453831288      -0.496337191231     0.424453831288      -0.496337191231     -0.575509476126     -0.491186970852     
4800000000.0        -0.585689477756     -0.489467412107     0.414273202638      -0.494730004601     0.414273202638      -0.494730004601     -0.585689477756     -0.489467412107     
4900000000.0        -0.59558902825      -0.487585732812     0.404373011848      -0.492960795849     0.404373011848      -0.492960795849     -0.59558902825      -0.487585732812     
5000000000.0        -0.605213666046     -0.485555965715     0.394747720447      -0.49104359631      0.394747720447      -0.49104359631      -0.605213666046     -0.485555965715     
5100000000.0        -0.614569189464     -0.483391255644     0.385391530088      -0.488991549421     0.385391530088      -0.488991549421     -0.614569189464     -0.483391255644     
5200000000.0        -0.623661600241     -0.481103901057     0.376298439004      -0.486816952274     0.376298439004      -0.486816952274     -0.623661600241     -0.481103901057     
5300000000.0        -0.632497053374     -0.478705395656     0.367462292172      -0.48453129723      0.367462292172      -0.48453129723      -0.632497053374     -0.478705395656     
5400000000.0        -0.641081812741     -0.476206469643     0.358876825686      -0.482145313175     0.358876825686      -0.482145313175     -0.641081812741     -0.476206469643     
5500000000.0        -0.649422211999     -0.473617130332     0.350535705864      -0.479669006135     0.350535705864      -0.479669006135     -0.649422211999     -0.473617130332     
5600000000.0        -0.657524620292     -0.470946701835     0.342432563534      -0.477111698961     0.342432563534      -0.477111698961     -0.657524620292     -0.470946701835     
5700000000.0        -0.665395412309     -0.468203863642     0.334561023985      -0.474482069909     0.334561023985      -0.474482069909     -0.665395412309     -0.468203863642     
5800000000.0        -0.673040942282     -0.465396687932     0.326914732958      -0.471788189956     0.326914732958      -0.471788189956     -0.673040942282     -0.465396687932     
5900000000.0        -0.680467521541     -0.462532675512     0.319487379098      -0.469037558731     0.319487379098      -0.469037558731     -0.680467521541     -0.462532675512     
6000000000.0        -0.687681399253     -0.459618790292     0.312272713217      -0.466237138999     0.312272713217      -0.466237138999     -0.687681399253     -0.459618790292     
6100000000.0        -0.694688746021     -0.45666149226      0.305264564687      -0.463393389632     0.305264564687      -0.463393389632     -0.694688746021     -0.45666149226      
6200000000.0        -0.701495640043     -0.45366676893      0.298456855289      -0.460512297054     0.298456855289      -0.460512297054     -0.701495640043     -0.45366676893      
6300000000.0        -0.708108055542     -0.450640165243     0.291843610775      -0.457599405149     0.291843610775      -0.457599405149     -0.708108055542     -0.450640165243     
6400000000.0        -0.714531853228     -0.447586811947     0.285418970414      -0.454659843637     0.285418970414      -0.454659843637     -0.714531853228     -0.447586811947     
6500000000.0        -0.720772772546     -0.444511452473     0.279177194739      -0.451698354949     0.279177194739      -0.451698354949     -0.720772772546     -0.444511452473     
6600000000.0        -0.726836425513     -0.441418468338     0.273112671713      -0.448719319628     0.273112671713      -0.448719319628     -0.726836425513     -0.441418468338     
6700000000.0        -0.732728291949     -0.438311903111     0.267219921494      -0.445726780306     0.267219921494      -0.445726780306     -0.732728291949     -0.438311903111     
6800000000.0        -0.738453715937     -0.435195485009     0.261493599978      -0.442724464282     0.261493599978      -0.442724464282     -0.738453715937     -0.435195485009     
6900000000.0        -0.744017903351     -0.432072648144     0.25592850127       -0.439715804786     0.25592850127       -0.439715804786     -0.744017903351     -0.432072648144     
7000000000.0        -0.749425920325     -0.428946552507     0.250519559217      -0.43670396095      0.250519559217      -0.43670396095      -0.749425920325     -0.428946552507     
7100000000.0        -0.75468269253      -0.425820102719     0.245261848126      -0.433691836567     0.245261848126      -0.433691836567     -0.75468269253      -0.425820102719     
7200000000.0        -0.759793005155     -0.422695965625     0.240150582789      -0.430682097678     0.240150582789      -0.430682097678     -0.759793005155     -0.422695965625     
7300000000.0        -0.764761503492     -0.419576586775     0.235181117896      -0.427677189058     0.235181117896      -0.427677189058     -0.764761503492     -0.419576586775     
7400000000.0        -0.769592694034     -0.416464205858     0.230348946932      -0.424679349647     0.230348946932      -0.424679349647     -0.769592694034     -0.416464205858     
7500000000.0        -0.774290946022     -0.413360871145     0.225649700638      -0.421690626992     0.225649700638      -0.421690626992     -0.774290946022     -0.413360871145     
7600000000.0        -0.778860493347     -0.410268452988     0.221079145104      -0.418712890748     0.221079145104      -0.418712890748     -0.778860493347     -0.410268452988     
7700000000.0        -0.783305436775     -0.407188656439     0.216633179543      -0.415747845293     0.216633179543      -0.415747845293     -0.783305436775     -0.407188656439     
7800000000.0        -0.787629746418     -0.404123033026     0.212307833826      -0.41279704151      0.212307833826      -0.41279704151      -0.787629746418     -0.404123033026     
7900000000.0        -0.79183726442      -0.40107299176      0.20809926579       -0.409861887782     0.20809926579       -0.409861887782     -0.79183726442      -0.40107299176      
8000000000.0        -0.795931707799     -0.398039809388     0.204003758397      -0.406943660259     0.204003758397      -0.406943660259     -0.795931707799     -0.398039809388     
8100000000.0        -0.79991667143      -0.395024639967     0.200017716754      -0.40404351242      0.200017716754      -0.40404351242      -0.79991667143      -0.395024639967     
8200000000.0        -0.80379563112      -0.392028523784     0.196137665036      -0.401162483998     0.196137665036      -0.401162483998     -0.80379563112      -0.392028523784     
8300000000.0        -0.80757194675      -0.389052395673     0.192360243343      -0.398301509293     0.192360243343      -0.398301509293     -0.80757194675      -0.389052395673     
8400000000.0        -0.811248865472     -0.386097092755     0.188682204505      -0.395461424919     0.188682204505      -0.395461424919     -0.811248865472     -0.386097092755     
8500000000.0        -0.814829524916     -0.383163361659     0.185100410872      -0.392642977013     0.185100410872      -0.392642977013     -0.814829524916     -0.383163361659     
8600000000.0        -0.818316956422     -0.380251865233     0.181611831088      -0.389846827958     0.181611831088      -0.389846827958     -0.818316956422     -0.380251865233     
8700000000.0        -0.821714088249     -0.377363188802     0.178213536874      -0.38707356263      0.178213536874      -0.38707356263      -0.821714088249     -0.377363188802     
8800000000.0        -0.825023748764     -0.374497845985     0.174902699845      -0.384323694219     0.174902699845      -0.384323694219     -0.825023748764     -0.374497845985     
8900000000.0        -0.828248669608     -0.37165628411      0.171676588342      -0.381597669646     0.171676588342      -0.381597669646     -0.828248669608     -0.37165628411      
9000000000.0        -0.831391488807     -0.368838889249     0.168532564321      -0.378895874595     0.168532564321      -0.378895874595     -0.831391488807     -0.368838889249     
9100000000.0        -0.834454753836     -0.366045990908     0.165468080287      -0.3762186382       0.165468080287      -0.3762186382       -0.834454753836     -0.366045990908     
9200000000.0        -0.837440924634     -0.363277866381     0.162480676284      -0.373566237402     0.162480676284      -0.373566237402     -0.837440924634     -0.363277866381     
9300000000.0        -0.840352376547     -0.360534744799     0.159567976947      -0.370938900998     0.159567976947      -0.370938900998     -0.840352376547     -0.360534744799     
9400000000.0        -0.843191403207     -0.357816810899     0.156727688627      -0.368336813407     0.156727688627      -0.368336813407     -0.843191403207     -0.357816810899     
9500000000.0        -0.845960219345     -0.355124208524     0.153957596573      -0.365760118172     0.153957596573      -0.365760118172     -0.845960219345     -0.355124208524     
9600000000.0        -0.848660963528     -0.352457043873     0.151255562201      -0.363208921207     0.151255562201      -0.363208921207     -0.848660963528     -0.352457043873     
9700000000.0        -0.851295700824     -0.349815388527     0.148619520423      -0.360683293825     0.148619520423      -0.360683293825     -0.851295700824     -0.349815388527     
9800000000.0        -0.853866425391     -0.347199282254     0.146047477064      -0.358183275543     0.146047477064      -0.358183275543     -0.853866425391     -0.347199282254     
9900000000.0        -0.856375062988     -0.34460873562      0.143537506345      -0.355708876687     0.143537506345      -0.355708876687     -0.856375062988     -0.34460873562      
10000000000.0       -0.858823473419     -0.34204373241      0.141087748444      -0.353260080822     0.141087748444      -0.353260080822     -0.858823473419     -0.34204373241      
