# Hz S RI R 50.00 
100000000.0         0.00015936386019    -0.00227791864411   0.999818162363      -0.0033761889307    0.999818162363      -0.0033761889307    0.00015936386019    -0.00227791864411   
200000000.0         0.000134695781614   -0.00455587212353   0.999789381991      -0.00675246044034   0.999789381991      -0.00675246044034   0.000134695781614   -0.00455587212353   
300000000.0         9.43442089265e-05   -0.00683382774092   0.999744303875      -0.0101288116777    0.999744303875      -0.0101288116777    9.43442089267e-05   -0.00683382774092   
400000000.0         3.84526101296e-05   -0.00911172959493   0.999682777         -0.0135052093388    0.999682777         -0.0135052093388    3.84526101294e-05   -0.00911172959493   
500000000.0         -3.29262087894e-05  -0.0113895094791    0.99960474078       -0.0168816045526    0.99960474078       -0.0168816045526    -3.29262087894e-05  -0.0113895094791    
600000000.0         -0.000119767041803  -0.0136670908483    0.999510162458      -0.0202579380621    0.999510162458      -0.0202579380621    -0.000119767041803  -0.0136670908483    
700000000.0         -0.000222056167869  -0.015944390882     0.999399021328      -0.0236341428793    0.999399021328      -0.0236341428793    -0.000222056167869  -0.015944390882     
800000000.0         -0.000339785408844  -0.0182213217413    0.999271303054      -0.0270101458894    0.999271303054      -0.0270101458894    -0.000339785408844  -0.0182213217413    
900000000.0         -0.000472949439198  -0.0204977914142    0.999126997193      -0.0303858689187    0.999126997193      -0.0303858689187    -0.000472949439198  -0.0204977914142    
1000000000.0        -0.000621544388455  -0.0227737043224    0.998966095976      -0.0337612294973    0.998966095976      -0.0337612294973    -0.000621544388455  -0.0227737043224    
1100000000.0        -0.000785567037782  -0.0250489617794    0.998788593663      -0.0371361414304    0.998788593663      -0.0371361414304    -0.000785567037782  -0.0250489617794    
1200000000.0        -0.000965014320017  -0.0273234623496    0.998594486181      -0.0405105152429    0.998594486181      -0.0405105152429    -0.000965014320017  -0.0273234623496    
1300000000.0        -0.00115988298779   -0.0295971021383    0.998383770911      -0.0438842585366    0.998383770911      -0.0438842585366    -0.00115988298779   -0.0295971021383    
1400000000.0        -0.00137016938104   -0.0318697750328    0.998156446569      -0.047257276285     0.998156446569      -0.047257276285     -0.00137016938104   -0.0318697750328    
1500000000.0        -0.00159586925666   -0.0341413729056    0.997912513134      -0.05062947108      0.997912513134      -0.05062947108      -0.00159586925666   -0.0341413729056    
1600000000.0        -0.00183697765862   -0.0364117857903    0.997651971809      -0.054000743344     0.997651971809      -0.054000743344     -0.00183697765862   -0.0364117857903    
1700000000.0        -0.00209348881588   -0.0386809020352    0.997374825         -0.0573709915139    0.997374825         -0.0573709915139    -0.00209348881588   -0.0386809020352    
1800000000.0        -0.00236539605971   -0.0409486084396    0.997081076312      -0.0607401122038    0.997081076312      -0.0607401122038    -0.00236539605971   -0.0409486084396    
1900000000.0        -0.00265269175532   -0.0432147903762    0.996770730549      -0.0641080003489    0.996770730549      -0.0641080003489    -0.00265269175532   -0.0432147903762    
2000000000.0        -0.00295536724416   -0.0454793319017    0.996443793724      -0.0674745493365    0.996443793724      -0.0674745493365    -0.00295536724416   -0.0454793319017    
2100000000.0        -0.00327341279443   -0.0477421158588    0.996100273065      -0.0708396511237    0.996100273065      -0.0708396511237    -0.00327341279443   -0.0477421158588    
2200000000.0        -0.00360681755821   -0.0500030239687    0.99574017703       -0.0742031963464    0.99574017703       -0.0742031963464    -0.00360681755821   -0.0500030239687    
2300000000.0        -0.0039555695338    -0.0522619369189    0.99536351532       -0.0775650744191    0.99536351532       -0.0775650744191    -0.0039555695338    -0.0522619369189    
2400000000.0        -0.00431965553242   -0.0545187344434    0.994970298893      -0.0809251736277    0.994970298893      -0.0809251736277    -0.00431965553242   -0.0545187344434    
2500000000.0        -0.00469906114864   -0.0567732953992    0.994560539978      -0.0842833812168    0.994560539978      -0.0842833812168    -0.00469906114864   -0.0567732953992    
2600000000.0        -0.00509377073388   -0.0590254978381    0.994134252088      -0.0876395834703    0.994134252088      -0.0876395834703    -0.00509377073388   -0.0590254978381    
2700000000.0        -0.00550376737272   -0.0612752190743    0.993691450034      -0.0909936657893    0.993691450034      -0.0909936657893    -0.00550376737272   -0.0612752190743    
2800000000.0        -0.00592903286156   -0.0635223357498    0.993232149939      -0.0943455127636    0.993232149939      -0.0943455127636    -0.00592903286156   -0.0635223357498    
2900000000.0        -0.00636954768945   -0.0657667238957    0.992756369246      -0.097695008242     0.992756369246      -0.097695008242     -0.00636954768945   -0.0657667238957    
3000000000.0        -0.00682529102089   -0.0680082589913    0.992264126734      -0.101042035397     0.992264126734      -0.101042035397     -0.00682529102089   -0.0680082589913    
3100000000.0        -0.00729624068035   -0.0702468160213    0.991755442524      -0.104386476789     0.991755442524      -0.104386476789     -0.00729624068035   -0.0702468160213    
3200000000.0        -0.00778237313846   -0.0724822695303    0.991230338094      -0.107728214425     0.991230338094      -0.107728214425     -0.00778237313846   -0.0724822695303    
3300000000.0        -0.00828366349967   -0.0747144936753    0.990688836281      -0.111067129819     0.990688836281      -0.111067129819     -0.00828366349967   -0.0747144936753    
3400000000.0        -0.00880008549133   -0.076943362277     0.990130961295      -0.114403104046     0.990130961295      -0.114403104046     -0.00880008549133   -0.076943362277     
3500000000.0        -0.00933161145407   -0.0791687488691    0.989556738722      -0.117736017795     0.989556738722      -0.117736017795     -0.00933161145407   -0.0791687488691    
3600000000.0        -0.00987821233346   -0.0813905267458    0.988966195531      -0.121065751426     0.988966195531      -0.121065751426     -0.00987821233346   -0.0813905267458    
3700000000.0        -0.0104398576727    -0.0836085690087    0.988359360082      -0.124392185013     0.988359360082      -0.124392185013     -0.0104398576727    -0.0836085690087    
3800000000.0        -0.0110165156068    -0.0858227486116    0.987736262126      -0.127715198399     0.987736262126      -0.127715198399     -0.0110165156068    -0.0858227486116    
3900000000.0        -0.011608152857     -0.0880329384046    0.987096932811      -0.131034671241     0.987096932811      -0.131034671241     -0.011608152857     -0.0880329384046    
4000000000.0        -0.0122147347273    -0.0902390111771    0.986441404684      -0.134350483056     0.986441404684      -0.134350483056     -0.0122147347273    -0.0902390111771    
4100000000.0        -0.0128362251012    -0.0924408396989    0.985769711694      -0.137662513267     0.985769711694      -0.137662513267     -0.0128362251012    -0.0924408396989    
4200000000.0        -0.0134725864394    -0.0946382967617    0.985081889194      -0.140970641246     0.985081889194      -0.140970641246     -0.0134725864394    -0.0946382967617    
4300000000.0        -0.0141237797786    -0.0968312552183    0.984377973937      -0.144274746354     0.984377973937      -0.144274746354     -0.0141237797786    -0.0968312552183    
4400000000.0        -0.0147897647315    -0.0990195880216    0.98365800408       -0.147574707987     0.98365800408       -0.147574707987     -0.0147897647315    -0.0990195880216    
4500000000.0        -0.0154704994865    -0.101203168262     0.982922019182      -0.150870405613     0.982922019182      -0.150870405613     -0.0154704994865    -0.101203168262     
4600000000.0        -0.0161659408097    -0.103381869207     0.982170060201      -0.154161718815     0.982170060201      -0.154161718815     -0.0161659408097    -0.103381869207     
4700000000.0        -0.0168760440463    -0.105555564333     0.981402169492      -0.157448527324     0.981402169492      -0.157448527324     -0.0168760440463    -0.105555564333     
4800000000.0        -0.0176007631238    -0.107724127364     0.980618390804      -0.160730711061     0.980618390804      -0.160730711061     -0.0176007631238    -0.107724127364     
4900000000.0        -0.0183400505549    -0.109887432307     0.979818769276      -0.164008150172     0.979818769276      -0.164008150172     -0.0183400505549    -0.109887432307     
5000000000.0        -0.0190938574425    -0.112045353484     0.979003351434      -0.167280725067     0.979003351434      -0.167280725067     -0.0190938574425    -0.112045353484     
5100000000.0        -0.0198621334838    -0.114197765564     0.978172185181      -0.170548316448     0.978172185181      -0.170548316448     -0.0198621334838    -0.114197765564     
5200000000.0        -0.020644826976     -0.116344543602     0.977325319798      -0.173810805352     0.977325319798      -0.173810805352     -0.020644826976     -0.116344543602     
5300000000.0        -0.0214418848227    -0.118485563061     0.976462805933      -0.177068073177     0.976462805933      -0.177068073177     -0.0214418848227    -0.118485563061     
5400000000.0        -0.0222532525404    -0.120620699854     0.975584695594      -0.180320001722     0.975584695594      -0.180320001722     -0.0222532525404    -0.120620699854     
5500000000.0        -0.0230788742659    -0.122749830366     0.974691042144      -0.183566473212     0.974691042144      -0.183566473212     -0.0230788742659    -0.122749830366     
5600000000.0        -0.0239186927642    -0.124872831488     0.97378190029       -0.186807370334     0.97378190029       -0.186807370334     -0.0239186927642    -0.124872831488     
5700000000.0        -0.0247726494372    -0.126989580647     0.972857326079      -0.190042576268     0.972857326079      -0.190042576268     -0.0247726494372    -0.126989580647     
5800000000.0        -0.0256406843322    -0.129099955832     0.971917376881      -0.193271974713     0.971917376881      -0.193271974713     -0.0256406843322    -0.129099955832     
5900000000.0        -0.0265227361524    -0.131203835625     0.970962111387      -0.19649544992      0.970962111387      -0.19649544992      -0.0265227361524    -0.131203835625     
6000000000.0        -0.0274187422661    -0.133301099225     0.969991589596      -0.199712886721     0.969991589596      -0.199712886721     -0.0274187422661    -0.133301099225     
6100000000.0        -0.0283286387175    -0.135391626479     0.969005872802      -0.202924170553     0.969005872802      -0.202924170553     -0.0283286387175    -0.135391626479     
6200000000.0        -0.0292523602383    -0.137475297907     0.968005023585      -0.206129187491     0.968005023585      -0.206129187491     -0.0292523602383    -0.137475297907     
6300000000.0        -0.0301898402584    -0.139551994724     0.966989105802      -0.209327824271     0.966989105802      -0.209327824271     -0.0301898402584    -0.139551994724     
6400000000.0        -0.0311410109187    -0.141621598873     0.965958184568      -0.212519968318     0.965958184568      -0.212519968318     -0.0311410109187    -0.141621598873     
6500000000.0        -0.0321058030829    -0.143683993041     0.964912326251      -0.215705507768     0.964912326251      -0.215705507768     -0.0321058030829    -0.143683993041     
6600000000.0        -0.0330841463506    -0.145739060689     0.963851598453      -0.218884331501     0.963851598453      -0.218884331501     -0.0330841463506    -0.145739060689     
6700000000.0        -0.0340759690706    -0.147786686075     0.962776070001      -0.222056329157     0.962776070001      -0.222056329157     -0.0340759690706    -0.147786686075     
6800000000.0        -0.0350811983548    -0.149826754274     0.961685810931      -0.225221391163     0.961685810931      -0.225221391163     -0.0350811983548    -0.149826754274     
6900000000.0        -0.0360997600915    -0.151859151202     0.960580892474      -0.22837940876      0.960580892474      -0.22837940876      -0.0360997600915    -0.151859151202     
7000000000.0        -0.0371315789605    -0.153883763642     0.959461387042      -0.231530274019     0.959461387042      -0.231530274019     -0.0371315789605    -0.153883763642     
7100000000.0        -0.0381765784479    -0.155900479256     0.958327368215      -0.234673879868     0.958327368215      -0.234673879868     -0.0381765784479    -0.155900479256     
7200000000.0        -0.0392346808608    -0.157909186615     0.957178910721      -0.237810120112     0.957178910721      -0.237810120112     -0.0392346808608    -0.157909186615     
7300000000.0        -0.0403058073428    -0.159909775217     0.956016090424      -0.240938889453     0.956016090424      -0.240938889453     -0.0403058073428    -0.159909775217     
7400000000.0        -0.0413898778902    -0.161902135501     0.95483898431       -0.244060083514     0.95483898431       -0.244060083514     -0.0413898778902    -0.161902135501     
7500000000.0        -0.0424868113678    -0.163886158876     0.953647670466      -0.247173598855     0.953647670466      -0.247173598855     -0.0424868113678    -0.163886158876     
7600000000.0        -0.0435965255251    -0.165861737731     0.952442228066      -0.250279332994     0.952442228066      -0.250279332994     -0.0435965255251    -0.165861737731     
7700000000.0        -0.0447189370133    -0.167828765459     0.951222737356      -0.253377184425     0.951222737356      -0.253377184425     -0.0447189370133    -0.167828765459     
7800000000.0        -0.0458539614022    -0.169787136472     0.949989279634      -0.25646705264      0.949989279634      -0.25646705264      -0.0458539614022    -0.169787136472     
7900000000.0        -0.0470015131972    -0.171736746219     0.948741937234      -0.25954883814      0.948741937234      -0.25954883814      -0.0470015131972    -0.171736746219     
8000000000.0        -0.0481615058569    -0.173677491204     0.947480793509      -0.26262244246      0.947480793509      -0.26262244246      -0.0481615058569    -0.173677491204     
8100000000.0        -0.0493338518107    -0.175609268997     0.946205932812      -0.265687768178     0.946205932812      -0.265687768178     -0.0493338518107    -0.175609268997     
8200000000.0        -0.0505184624767    -0.177531978259     0.94491744048       -0.268744718939     0.94491744048       -0.268744718939     -0.0505184624767    -0.177531978259     
8300000000.0        -0.0517152482801    -0.179445518749     0.943615402814      -0.271793199464     0.943615402814      -0.271793199464     -0.0517152482801    -0.179445518749     
8400000000.0        -0.0529241186712    -0.181349791341     0.942299907061      -0.27483311557      0.942299907061      -0.27483311557      -0.0529241186712    -0.181349791341     
8500000000.0        -0.0541449821441    -0.18324469804      0.940971041396      -0.277864374181     0.940971041396      -0.277864374181     -0.0541449821441    -0.18324469804      
8600000000.0        -0.0553777462552    -0.185130141995     0.939628894904      -0.280886883345     0.939628894904      -0.280886883345     -0.0553777462552    -0.185130141995     
8700000000.0        -0.0566223176424    -0.187006027512     0.938273557558      -0.283900552246     0.938273557558      -0.283900552246     -0.0566223176424    -0.187006027512     
8800000000.0        -0.0578786020441    -0.188872260065     0.936905120203      -0.286905291218     0.936905120203      -0.286905291218     -0.0578786020441    -0.188872260065     
8900000000.0        -0.059146504318     -0.190728746313     0.935523674536      -0.289901011757     0.935523674536      -0.289901011757     -0.059146504318     -0.190728746313     
9000000000.0        -0.0604259284609    -0.192575394106     0.934129313085      -0.292887626534     0.934129313085      -0.292887626534     -0.0604259284609    -0.192575394106     
9100000000.0        -0.0617167776282    -0.194412112501     0.932722129193      -0.295865049406     0.932722129193      -0.295865049406     -0.0617167776282    -0.194412112501     
9200000000.0        -0.0630189541528    -0.196238811771     0.931302216994      -0.298833195428     0.931302216994      -0.298833195428     -0.0630189541528    -0.196238811771     
9300000000.0        -0.0643323595658    -0.198055403416     0.929869671395      -0.301791980863     0.929869671395      -0.301791980863     -0.0643323595658    -0.198055403416     
9400000000.0        -0.0656568946154    -0.199861800171     0.92842458806       -0.304741323193     0.92842458806       -0.304741323193     -0.0656568946154    -0.199861800171     
9500000000.0        -0.0669924592876    -0.20165791602      0.926967063382      -0.307681141126     0.926967063382      -0.307681141126     -0.0669924592876    -0.20165791602      
9600000000.0        -0.0683389528253    -0.203443666199     0.925497194472      -0.310611354611     0.925497194472      -0.310611354611     -0.0683389528253    -0.203443666199     
9700000000.0        -0.0696962737493    -0.20521896721      0.92401507913       -0.313531884842     0.92401507913       -0.313531884842     -0.0696962737493    -0.20521896721      
9800000000.0        -0.0710643198776    -0.206983736827     0.922520815833      -0.316442654266     0.922520815833      -0.316442654266     -0.0710643198776    -0.206983736827     
9900000000.0        -0.0724429883461    -0.208737894101     0.921014503709      -0.319343586596     0.921014503709      -0.319343586596     -0.0724429883461    -0.208737894101     
10000000000.0       -0.0738321756286    -0.210481359374     0.91949624252       -0.322234606813     0.91949624252       -0.322234606813     -0.0738321756286    -0.210481359374     
