# Hz S RI R 50.00 
100000000.0         -0.00333690292679   -0.0572057489824    0.996641507899      -0.0573180658411    0.996641507899      -0.0573180658411    -0.00333690292679   -0.0572057489824    
200000000.0         -0.01313073047      -0.113269282794     0.986847513819      -0.113493973296     0.986847513819      -0.113493973296     -0.01313073047      -0.113269282794     
300000000.0         -0.0289899473659    -0.167141151335     0.970988154763      -0.167478300651     0.970988154763      -0.167478300651     -0.0289899473659    -0.167141151335     
400000000.0         -0.0503234281622    -0.217910129523     0.949654537597      -0.218359843631     0.949654537597      -0.218359843631     -0.0503234281622    -0.217910129523     
500000000.0         -0.0763832146399    -0.264847591628     0.92359461339       -0.265409993079     0.92359461339       -0.265409993079     -0.0763832146399    -0.264847591628     
600000000.0         -0.10632547185      -0.307431161728     0.893652213437      -0.308106386625     0.893652213437      -0.308106386625     -0.10632547185      -0.307431161728     
700000000.0         -0.139271098642     -0.345347525458     0.860706436713      -0.346135721075     0.860706436713      -0.346135721075     -0.139271098642     -0.345347525458     
800000000.0         -0.174359122849     -0.378477682057     0.825618253966      -0.379379004879     0.825618253966      -0.379379004879     -0.174359122849     -0.378477682057     
900000000.0         -0.210788511255     -0.406869814117     0.789188697409      -0.407884428163     0.789188697409      -0.407884428163     -0.210788511255     -0.406869814117     
1000000000.0        -0.247846687621     -0.430705431616     0.752130342548      -0.431833507003     0.752130342548      -0.431833507004     -0.247846687621     -0.430705431616     
1100000000.0        -0.284925262707     -0.450263826493     0.715051578051      -0.451505538176     0.715051578051      -0.451505538176     -0.284925262707     -0.450263826493     
1200000000.0        -0.321524935828     -0.46588863022      0.678451704155      -0.467244156886     0.678451704155      -0.467244156886     -0.321524935828     -0.46588863022      
1300000000.0        -0.357252208357     -0.477958851082     0.642724219116      -0.479428374182     0.642724219116      -0.479428374182     -0.357252208357     -0.477958851082     
1400000000.0        -0.391810614885     -0.486865498068     0.608165588035      -0.488449200963     0.608165588035      -0.488449200963     -0.391810614885     -0.486865498068     
1500000000.0        -0.424988850869     -0.492993935129     0.57498711519       -0.494692002339     0.57498711519       -0.494692002339     -0.424988850869     -0.492993935129     
1600000000.0        -0.456647664565     -0.49671148661      0.543328052099      -0.498524103159     0.543328052099      -0.498524103159     -0.456647664565     -0.49671148661      
1700000000.0        -0.486706838307     -0.498359487834     0.513268616226      -0.500286838672     0.513268616226      -0.500286838672     -0.486706838307     -0.498359487834     
1800000000.0        -0.51513310086      -0.498248867577     0.48484207863       -0.50029113708      0.48484207863       -0.50029113708      -0.51513310086      -0.498248867577     
1900000000.0        -0.541929428827     -0.496658383143     0.458045462546      -0.498815754684     0.458045462546      -0.498815754684     -0.541929428827     -0.496658383143     
2000000000.0        -0.567125917324     -0.493834739047     0.432848672714      -0.496107394618     0.432848672714      -0.496107394618     -0.567125917324     -0.493834739047     
2100000000.0        -0.590772216181     -0.489993960719     0.409202059171      -0.492382080619     0.409202059171      -0.492382080619     -0.590772216181     -0.489993960719     
2200000000.0        -0.612931418133     -0.485323536135     0.387042529061      -0.487827298696     0.387042529061      -0.487827298696     -0.612931418133     -0.485323536135     
2300000000.0        -0.633675229506     -0.479984965011     0.366298375946      -0.482604546379     0.366298375946      -0.482604546379     -0.633675229506     -0.479984965011     
2400000000.0        -0.653080234183     -0.47411646077      0.346893015839      -0.476852034716     0.346893015839      -0.476852034716     -0.653080234183     -0.47411646077      
2500000000.0        -0.671225064451     -0.46783563363      0.328747816358      -0.470687371406     0.328747816358      -0.470687371406     -0.671225064451     -0.46783563363      
2600000000.0        -0.688188307643     -0.461242046098     0.311784190075      -0.464210116313     0.311784190075      -0.464210116313     -0.688188307643     -0.461242046098     
2700000000.0        -0.704046998778     -0.454419577816     0.295925101888      -0.457504146354     0.295925101888      -0.457504146354     -0.704046998778     -0.454419577816     
2800000000.0        -0.718875572213     -0.447438568854     0.281096117361      -0.450639798804     0.281096117361      -0.450639798804     -0.718875572213     -0.447438568854     
2900000000.0        -0.732745167364     -0.440357732133     0.267226097001      -0.44367578375      0.267226097001      -0.44367578375      -0.732745167364     -0.440357732133     
3000000000.0        -0.745723203422     -0.433225839636     0.254247621545      -0.43666087032      0.254247621545      -0.43666087032      -0.745723203422     -0.433225839636     
3100000000.0        -0.757873155194     -0.426083195455     0.242097216119      -0.429635359742     0.242097216119      -0.429635359742     -0.757873155194     -0.426083195455     
3200000000.0        -0.76925447664      -0.418962913294     0.230715426699      -0.422632362869     0.230715426699      -0.422632362869     -0.76925447664      -0.418962913294     
3300000000.0        -0.779922630586     -0.411892018015     0.220046790395      -0.415678901733     0.220046790395      -0.415678901733     -0.779922630586     -0.411892018015     
3400000000.0        -0.789929192689     -0.404892391113     0.210039731493      -0.408796855036     0.210039731493      -0.408796855036     -0.789929192689     -0.404892391113     
3500000000.0        -0.79932200535      -0.397981579247     0.200646407534      -0.402003766683     0.200646407534      -0.402003766683     -0.79932200535      -0.397981579247     
3600000000.0        -0.808145363358     -0.391173483616     0.191822523677      -0.395313535175     0.191822523677      -0.395313535175     -0.808145363358     -0.391173483616     
3700000000.0        -0.816440217692     -0.384478946335     0.183527128889      -0.388736999986     0.183527128889      -0.388736999986     -0.816440217692     -0.384478946335     
3800000000.0        -0.824244387591     -0.377906248228     0.175722403883      -0.382282439367     0.175722403883      -0.382282439367     -0.824244387591     -0.377906248228     
3900000000.0        -0.831592773759     -0.371461530737     0.168373447907      -0.375955992251     0.168373447907      -0.375955992251     -0.831592773759     -0.371461530737     
4000000000.0        -0.838517567713     -0.365149153033     0.161448069394      -0.369762015377     0.161448069394      -0.369762015377     -0.838517567713     -0.365149153033     
4100000000.0        -0.845048453878     -0.358971993941     0.154916583878      -0.363703385216     0.154916583878      -0.363703385216     -0.845048453878     -0.358971993941     
4200000000.0        -0.85121280221      -0.352931706936     0.148751621358      -0.357781752965     0.148751621358      -0.357781752965     -0.85121280221      -0.352931706936     
4300000000.0        -0.85703585005      -0.347028935315     0.14292794445       -0.351997759725     0.14292794445       -0.351997759725     -0.85703585005      -0.347028935315     
4400000000.0        -0.86254087252      -0.341263493592     0.137422277991      -0.346351217896     0.137422277991      -0.346351217896     -0.86254087252      -0.341263493592     
4500000000.0        -0.867749341258     -0.335634520284     0.132213150304      -0.340841263963     0.132213150304      -0.340841263963     -0.867749341258     -0.335634520284     
4600000000.0        -0.872681071606     -0.330140606477     0.127280746006      -0.335466487062     0.127280746006      -0.335466487062     -0.872681071606     -0.330140606477     
4700000000.0        -0.877354358606     -0.324779903896     0.122606770017      -0.330225037053     0.122606770017      -0.330225037053     -0.877354358606     -0.324779903896     
4800000000.0        -0.881786102278     -0.31955021564      0.118174322279      -0.325114715249     0.118174322279      -0.325114715249     -0.881786102278     -0.31955021564      
4900000000.0        -0.885991922773     -0.314449072259     0.113967782607      -0.3201330505       0.113967782607      -0.3201330505       -0.885991922773     -0.314449072259     
5000000000.0        -0.889986266023     -0.309473795438     0.109972705029      -0.315277362868     0.109972705029      -0.315277362868     -0.889986266023     -0.309473795438     
5100000000.0        -0.89378250055      -0.304621551207     0.106175720989      -0.310544816839     0.106175720989      -0.310544816839     -0.89378250055      -0.304621551207     
5200000000.0        -0.897393006066     -0.299889394298     0.102564450741      -0.305932465683     0.102564450741      -0.305932465683     -0.897393006066     -0.299889394298     
5300000000.0        -0.900829254509     -0.295274305025     0.0991274223107     -0.301437288325     0.0991274223107     -0.301437288325     -0.900829254509     -0.295274305025     
5400000000.0        -0.904101884122     -0.29077321985      0.0958539974213     -0.297056219914     0.0958539974213     -0.297056219914     -0.904101884122     -0.29077321985      
5500000000.0        -0.907220767137     -0.28638305661      0.0927343038068     -0.29278617705      0.0927343038068     -0.29278617705      -0.907220767137     -0.28638305661      
5600000000.0        -0.910195071618     -0.282100735248     0.089759173369      -0.288624078509     0.089759173369      -0.288624078509     -0.910195071618     -0.282100735248     
5700000000.0        -0.913033317961     -0.277923194746     0.0869200856797     -0.284566862175     0.0869200856797     -0.284566862175     -0.913033317961     -0.277923194746     
5800000000.0        -0.915743430509     -0.273847406853     0.0842091163616     -0.280611498769     0.0842091163616     -0.280611498769     -0.915743430509     -0.273847406853     
5900000000.0        -0.918332784727     -0.269870387124     0.0816188899169     -0.276755002883     0.0816188899169     -0.276755002883     -0.918332784727     -0.269870387124     
6000000000.0        -0.920808250317     -0.265989203684     0.0791425366107     -0.272994441745     0.0791425366107     -0.272994441745     -0.920808250317     -0.265989203684     
6100000000.0        -0.923176230643     -0.262200984092     0.0767736530462     -0.269326942081     0.0767736530462     -0.269326942081     -0.923176230643     -0.262200984092     
6200000000.0        -0.925442698795     -0.258502920603     0.0745062661014     -0.265749695369     0.0745062661014     -0.265749695369     -0.925442698795     -0.258502920603     
6300000000.0        -0.927613230588     -0.25489227409      0.0723347999272     -0.26225996177      0.0723347999272     -0.26225996177      -0.927613230588     -0.25489227409      
6400000000.0        -0.929693034783     -0.25136637685      0.0702540457302     -0.258855072922     0.0702540457302     -0.258855072922     -0.929693034783     -0.25136637685      
6500000000.0        -0.931686980765     -0.247922634478     0.0682591340927     -0.255532433817     0.0682591340927     -0.255532433817     -0.931686980765     -0.247922634478     
6600000000.0        -0.933599623916     -0.244558526961     0.0663455096004     -0.252289523897     0.0663455096004     -0.252289523897     -0.933599623916     -0.244558526961     
6700000000.0        -0.935435228882     -0.241271609145     0.0645089075739     -0.249123897508     0.0645089075739     -0.249123897508     -0.935435228882     -0.241271609145     
6800000000.0        -0.937197790928     -0.238059510659     0.062745332715      -0.246033183835     0.062745332715      -0.246033183835     -0.937197790928     -0.238059510659     
6900000000.0        -0.938891055545     -0.234919935421     0.0610510394989     -0.243015086398     0.0610510394989     -0.243015086398     -0.938891055545     -0.234919935421     
7000000000.0        -0.940518536469     -0.23185066079      0.0594225141577     -0.240067382206     0.0594225141577     -0.240067382206     -0.940518536469     -0.23185066079      
7100000000.0        -0.942083532243     -0.228849536433     0.0578564581144     -0.237187920621     0.0578564581144     -0.237187920621     -0.942083532243     -0.228849536433     
7200000000.0        -0.943589141459     -0.225914482977     0.0563497727426     -0.234374622008     0.0563497727426     -0.234374622008     -0.943589141459     -0.225914482977     
7300000000.0        -0.945038276792     -0.223043490476     0.0548995453344     -0.231625476203     0.0548995453344     -0.231625476203     -0.945038276792     -0.223043490476     
7400000000.0        -0.946433677924     -0.220234616752     0.0535030361726     -0.228938540851     0.0535030361726     -0.228938540851     -0.946433677924     -0.220234616752     
7500000000.0        -0.947777923465     -0.217485985634     0.0521576666132     -0.226311939642     0.0521576666132     -0.226311939642     -0.947777923465     -0.217485985634     
7600000000.0        -0.949073441947     -0.214795785123     0.0508610080903     -0.223743860477     0.0508610080903     -0.223743860477     -0.949073441947     -0.214795785123     
7700000000.0        -0.950322521972     -0.212162265514     0.049610771966      -0.22123255359      0.049610771966      -0.22123255359      -0.950322521972     -0.212162265514     
7800000000.0        -0.951527321591     -0.209583737493     0.0484048001543     -0.218776329636     0.0484048001543     -0.218776329636     -0.951527321591     -0.209583737493     
7900000000.0        -0.952689876971     -0.207058570215     0.0472410564528     -0.21637355778      0.0472410564528     -0.21637355778      -0.952689876971     -0.207058570215     
8000000000.0        -0.953812110413     -0.204585189395     0.0461176185245     -0.214022663776     0.0461176185245     -0.214022663776     -0.953812110413     -0.204585189395     
8100000000.0        -0.954895837774     -0.202162075407     0.0450326704766     -0.211722128071     0.0450326704766     -0.211722128071     -0.954895837774     -0.202162075407     
8200000000.0        -0.955942775342     -0.199787761413     0.0439844959845     -0.209470483929     0.0439844959845     -0.209470483929     -0.955942775342     -0.199787761413     
8300000000.0        -0.956954546207     -0.197460831511     0.0429714719202     -0.207266315583     0.0429714719202     -0.207266315583     -0.956954546207     -0.197460831511     
8400000000.0        -0.957932686176     -0.195179918935     0.0419920624418     -0.205108256427     0.0419920624418     -0.205108256427     -0.957932686176     -0.195179918935     
8500000000.0        -0.958878649251     -0.192943704283     0.0410448135079     -0.20299498725      0.0410448135079     -0.20299498725      -0.958878649251     -0.192943704283     
8600000000.0        -0.95979381273      -0.190750913798     0.0401283477832     -0.200925234511     0.0401283477832     -0.200925234511     -0.95979381273      -0.190750913798     
8700000000.0        -0.960679481938     -0.18860031769      0.0392413599046     -0.198897768664     0.0392413599046     -0.198897768664     -0.960679481938     -0.18860031769      
8800000000.0        -0.961536894629     -0.186490728512     0.0383826120782     -0.196911402528     0.0383826120782     -0.196911402528     -0.961536894629     -0.186490728512     
8900000000.0        -0.962367225086     -0.184420999582     0.0375509299837     -0.194964989716     0.0375509299837     -0.194964989716     -0.962367225086     -0.184420999582     
9000000000.0        -0.963171587929     -0.182390023459     0.03674519896       -0.193057423101     0.03674519896       -0.193057423101     -0.963171587929     -0.182390023459     
9100000000.0        -0.963951041673     -0.180396730469     0.0359643604522     -0.191187633346     0.0359643604522     -0.191187633346     -0.963951041673     -0.180396730469     
9200000000.0        -0.96470659204      -0.178440087276     0.0352074086994     -0.189354587478     0.0352074086994     -0.189354587478     -0.96470659204      -0.178440087276     
9300000000.0        -0.965439195044     -0.176519095517     0.0344733876452     -0.187557287513     0.0344733876452     -0.187557287513     -0.965439195044     -0.176519095517     
9400000000.0        -0.966149759879     -0.174632790468     0.0337613880543     -0.185794769132     0.0337613880543     -0.185794769132     -0.966149759879     -0.174632790468     
9500000000.0        -0.966839151612     -0.17278023978      0.0330705448195     -0.184066100405     0.0330705448195     -0.184066100405     -0.966839151612     -0.17278023978      
9600000000.0        -0.967508193694     -0.17096054224      0.0324000344459     -0.182370380562     0.0324000344459     -0.182370380562     -0.967508193694     -0.17096054224      
9700000000.0        -0.968157670318     -0.169172826601     0.0317490726985     -0.180706738815     0.0317490726985     -0.180706738815     -0.968157670318     -0.169172826601     
9800000000.0        -0.968788328618     -0.167416250438     0.0311169124013     -0.179074333217     0.0311169124013     -0.179074333217     -0.968788328618     -0.167416250438     
9900000000.0        -0.969400880725     -0.165689999062     0.030502841378      -0.177472349573     0.030502841378      -0.177472349573     -0.969400880725     -0.165689999062     
10000000000.0       -0.969996005701     -0.163993284469     0.029906180523      -0.175900000393     0.029906180523      -0.175900000393     -0.969996005701     -0.163993284469     
