# Hz S RI R 50.00 
100000000.0         0.00014543184584    -0.0040805897912    0.999803770418      -0.00496971457894   0.999803770418      -0.00496971457894   0.00014543184584    -0.0040805897912    
200000000.0         8.13253448149e-05   -0.00816076831796   0.999736167397      -0.00993904885663   0.999736167397      -0.00993904885663   8.13253448149e-05   -0.00816076831796   
300000000.0         -2.36314527974e-05  -0.0122401001747    0.999627515784      -0.0149075883026    0.999627515784      -0.0149075883026    -2.36314527974e-05  -0.0122401001747    
400000000.0         -0.000169278407004  -0.0163181256418    0.999477681         -0.0198748892415    0.999477681         -0.0198748892415    -0.000169278407004  -0.0163181256418    
500000000.0         -0.000355539150347  -0.0203943725552    0.999286626102      -0.0248404934241    0.999286626102      -0.0248404934241    -0.000355539150347  -0.0203943725552    
600000000.0         -0.000582357794538  -0.0244683606707    0.999054349207      -0.0298039331892    0.999054349207      -0.0298039331892    -0.000582357794538  -0.0244683606707    
700000000.0         -0.000849682707202  -0.0285396039874    0.998780867765      -0.0347647341738    0.998780867765      -0.0347647341738    -0.000849682707202  -0.0285396039874    
800000000.0         -0.00115746050382   -0.0326076122186    0.998466212933      -0.039722417007     0.998466212933      -0.039722417007     -0.00115746050382   -0.0326076122186    
900000000.0         -0.00150563331446   -0.0366718918262    0.998110427125      -0.0446764984897    0.998110427125      -0.0446764984897    -0.00150563331446   -0.0366718918262    
1000000000.0        -0.00189413735855   -0.0407319468051    0.997713562823      -0.0496264924785    0.997713562823      -0.0496264924785    -0.00189413735855   -0.0407319468051    
1100000000.0        -0.00232290212576   -0.0447872793123    0.997275681942      -0.0545719105878    0.997275681942      -0.0545719105878    -0.00232290212576   -0.0447872793123    
1200000000.0        -0.00279184987004   -0.0488373901939    0.996796855472      -0.0595122627723    0.996796855472      -0.0595122627723    -0.00279184987004   -0.0488373901939    
1300000000.0        -0.00330089528023   -0.05288177944      0.996277163262      -0.0644470578246    0.996277163262      -0.0644470578246    -0.00330089528023   -0.05288177944      
1400000000.0        -0.00384994525771   -0.0569199465901    0.995716693891      -0.0693758038152    0.995716693891      -0.0693758038152    -0.00384994525771   -0.0569199465901    
1500000000.0        -0.00443889876319   -0.0609513910988    0.995115544575      -0.0742980084864    0.995115544575      -0.0742980084864    -0.00443889876319   -0.0609513910988    
1600000000.0        -0.00506764671055   -0.0649756126742    0.994473821103      -0.0792131796137    0.994473821103      -0.0792131796137    -0.00506764671055   -0.0649756126742    
1700000000.0        -0.00573607189469   -0.0689921115924    0.993791637794      -0.0841208253402    0.993791637794      -0.0841208253402    -0.00573607189469   -0.0689921115924    
1800000000.0        -0.00644404894477   -0.0730003889944    0.993069117445      -0.0890204544902    0.993069117445      -0.0890204544902    -0.00644404894477   -0.0730003889944    
1900000000.0        -0.00719144429745   -0.0769999471682    0.992306391298      -0.093911576866     0.992306391298      -0.093911576866     -0.00719144429745   -0.0769999471682    
2000000000.0        -0.00797811618641   -0.0809902898187    0.991503598995      -0.0987937035293    0.991503598995      -0.0987937035293    -0.00797811618641   -0.0809902898187    
2100000000.0        -0.00880391464544   -0.0849709223264    0.990660888536      -0.103666347072     0.990660888536      -0.103666347072     -0.00880391464544   -0.0849709223264    
2200000000.0        -0.00966868152334   -0.0889413519978    0.989778416238      -0.108529021877     0.989778416238      -0.108529021877     -0.00966868152334   -0.0889413519978    
2300000000.0        -0.0105722505093    -0.092901088307     0.988856346677      -0.113381244366     0.988856346677      -0.113381244366     -0.0105722505093    -0.092901088307     
2400000000.0        -0.0115144471673    -0.0968496431308    0.98789485264       -0.118222533244     0.98789485264       -0.118222533244     -0.0115144471673    -0.0968496431308    
2500000000.0        -0.0124950889796    -0.100786530977     0.986894115065      -0.123052409736     0.986894115065      -0.123052409736     -0.0124950889796    -0.100786530977     
2600000000.0        -0.0135139853977    -0.104711269206     0.985854322973      -0.12787039781      0.985854322973      -0.12787039781      -0.0135139853977    -0.104711269206     
2700000000.0        -0.0145709379008    -0.108623378247     0.984775673405      -0.132676024407     0.984775673405      -0.132676024407     -0.0145709379008    -0.108623378247     
2800000000.0        -0.0156657400609    -0.112522381811     0.983658371342      -0.137468819651     0.983658371342      -0.137468819651     -0.0156657400609    -0.112522381811     
2900000000.0        -0.0167981776153    -0.116407807095     0.98250262963       -0.142248317062     0.98250262963       -0.142248317062     -0.0167981776153    -0.116407807095     
3000000000.0        -0.0179680285445    -0.120279184981     0.981308668893      -0.147014053762     0.981308668893      -0.147014053762     -0.0179680285445    -0.120279184981     
3100000000.0        -0.0191750631563    -0.124136050237     0.980076717445      -0.151765570671     0.980076717445      -0.151765570671     -0.0191750631563    -0.124136050237     
3200000000.0        -0.0204190441759    -0.127977941702     0.978807011196      -0.156502412711     0.978807011196      -0.156502412711     -0.0204190441759    -0.127977941702     
3300000000.0        -0.0216997268409    -0.13180440248      0.977499793551      -0.161224128984     0.977499793551      -0.161224128984     -0.0216997268409    -0.13180440248      
3400000000.0        -0.0230168590021    -0.135614980112     0.976155315308      -0.165930272968     0.976155315308      -0.165930272968     -0.0230168590021    -0.135614980112     
3500000000.0        -0.0243701812289    -0.139409226763     0.974773834549      -0.170620402689     0.974773834549      -0.170620402689     -0.0243701812289    -0.139409226763     
3600000000.0        -0.0257594269199    -0.143186699387     0.973355616527      -0.1752940809       0.973355616527      -0.1752940809       -0.0257594269199    -0.143186699387     
3700000000.0        -0.0271843224175    -0.146946959897     0.971900933551      -0.179950875253     0.971900933551      -0.179950875253     -0.0271843224175    -0.146946959897     
3800000000.0        -0.0286445871278    -0.150689575331     0.97041006486       -0.184590358459     0.97041006486       -0.184590358459     -0.0286445871278    -0.150689575331     
3900000000.0        -0.030139933644     -0.154414118006     0.968883296503      -0.189212108456     0.968883296503      -0.189212108456     -0.030139933644     -0.154414118006     
4000000000.0        -0.0316700678741    -0.158120165672     0.967320921207      -0.193815708556     0.967320921207      -0.193815708556     -0.0316700678741    -0.158120165672     
4100000000.0        -0.0332346891728    -0.161807301663     0.965723238247      -0.198400747604     0.965723238247      -0.198400747604     -0.0332346891728    -0.161807301663     
4200000000.0        -0.0348334904764    -0.16547511504      0.964090553303      -0.20296682012      0.964090553303      -0.20296682012      -0.0348334904764    -0.16547511504      
4300000000.0        -0.0364661584421    -0.169123200729     0.962423178328      -0.20751352644      0.962423178328      -0.20751352644      -0.0364661584421    -0.169123200729     
4400000000.0        -0.0381323735899    -0.172751159656     0.960721431402      -0.212040472852     0.960721431402      -0.212040472852     -0.0381323735899    -0.172751159656     
4500000000.0        -0.0398318104482    -0.176358598877     0.958985636583      -0.216547271729     0.958985636583      -0.216547271729     -0.0398318104482    -0.176358598877     
4600000000.0        -0.0415641377019    -0.1799451317       0.957216123762      -0.221033541651     0.957216123762      -0.221033541651     -0.0415641377019    -0.1799451317       
4700000000.0        -0.0433290183439    -0.183510377807     0.955413228509      -0.225498907532     0.955413228509      -0.225498907532     -0.0433290183439    -0.183510377807     
4800000000.0        -0.0451261098289    -0.187053963367     0.953577291922      -0.229943000729     0.953577291922      -0.229943000729     -0.0451261098289    -0.187053963367     
4900000000.0        -0.0469550642294    -0.190575521147     0.951708660463      -0.234365459159     0.951708660463      -0.234365459159     -0.0469550642294    -0.190575521147     
5000000000.0        -0.0488155283951    -0.194074690613     0.949807685806      -0.238765927399     0.949807685806      -0.238765927399     -0.0488155283951    -0.194074690613     
5100000000.0        -0.0507071441129    -0.197551118032     0.947874724674      -0.243144056794     0.947874724674      -0.243144056794     -0.0507071441129    -0.197551118032     
5200000000.0        -0.0526295482702    -0.201004456567     0.945910138674      -0.247499505542     0.945910138674      -0.247499505542     -0.0526295482702    -0.201004456567     
5300000000.0        -0.0545823730194    -0.204434366362     0.943914294132      -0.251831938797     0.943914294132      -0.251831938797     -0.0545823730194    -0.204434366362     
5400000000.0        -0.0565652459438    -0.207840514632     0.941887561929      -0.256141028742     0.941887561929      -0.256141028742     -0.0565652459438    -0.207840514632     
5500000000.0        -0.0585777902258    -0.211222575737     0.939830317333      -0.260426454679     0.939830317333      -0.260426454679     -0.0585777902258    -0.211222575737     
5600000000.0        -0.0606196248155    -0.214580231258     0.937742939825      -0.264687903097     0.937742939825      -0.264687903097     -0.0606196248155    -0.214580231258     
5700000000.0        -0.0626903646008    -0.217913170066     0.935625812937      -0.268925067747     0.935625812937      -0.268925067747     -0.0626903646008    -0.217913170066     
5800000000.0        -0.0647896205789    -0.221221088387     0.933479324072      -0.273137649704     0.933479324072      -0.273137649704     -0.0647896205789    -0.221221088387     
5900000000.0        -0.0669170000277    -0.224503689856     0.931303864336      -0.277325357426     0.931303864336      -0.277325357426     -0.0669170000277    -0.224503689856     
6000000000.0        -0.0690721066788    -0.227760685577     0.929099828369      -0.281487906813     0.929099828369      -0.281487906813     -0.0690721066788    -0.227760685577     
6100000000.0        -0.0712545408903    -0.230991794169     0.926867614163      -0.285625021252     0.926867614163      -0.285625021252     -0.0712545408903    -0.230991794169     
6200000000.0        -0.0734638998203    -0.234196741808     0.924607622896      -0.289736431664     0.924607622896      -0.289736431664     -0.0734638998203    -0.234196741808     
6300000000.0        -0.0756997776008    -0.237375262271     0.922320258755      -0.293821876544     0.922320258755      -0.293821876544     -0.0756997776008    -0.237375262271     
6400000000.0        -0.0779617655107    -0.240527096963     0.920005928764      -0.297881101993     0.920005928764      -0.297881101993     -0.0779617655107    -0.240527096963     
6500000000.0        -0.0802494521501    -0.243651994954     0.917665042605      -0.301913861754     0.917665042605      -0.301913861754     -0.0802494521501    -0.243651994954     
6600000000.0        -0.082562423613     -0.246749712996     0.915298012455      -0.30591991723      0.915298012455      -0.30591991723      -0.082562423613     -0.246749712996     
6700000000.0        -0.0849002636607    -0.249820015549     0.9129052528        -0.309899037511     0.9129052528        -0.309899037511     -0.0849002636607    -0.249820015549     
6800000000.0        -0.0872625538938    -0.252862674791     0.910487180275      -0.313850999383     0.910487180275      -0.313850999383     -0.0872625538938    -0.252862674791     
6900000000.0        -0.0896488739241    -0.255877470634     0.908044213482      -0.317775587346     0.908044213482      -0.317775587346     -0.0896488739241    -0.255877470634     
7000000000.0        -0.0920588015456    -0.258864190722     0.905576772826      -0.321672593616     0.905576772826      -0.321672593616     -0.0920588015456    -0.258864190722     
7100000000.0        -0.0944919129044    -0.26182263044      0.903085280342      -0.325541818126     0.903085280342      -0.325541818126     -0.0944919129044    -0.26182263044      
7200000000.0        -0.0969477826675    -0.264752592906     0.900570159524      -0.329383068528     0.900570159524      -0.329383068528     -0.0969477826675    -0.264752592906     
7300000000.0        -0.099425984191     -0.267653888965     0.898031835163      -0.333196160184     0.898031835163      -0.333196160184     -0.099425984191     -0.267653888965     
7400000000.0        -0.101926089686     -0.270526337178     0.895470733174      -0.336980916151     0.895470733174      -0.336980916151     -0.101926089686     -0.270526337178     
7500000000.0        -0.104447670385     -0.273369763806     0.892887280435      -0.340737167173     0.892887280435      -0.340737167173     -0.104447670385     -0.273369763806     
7600000000.0        -0.106990296702     -0.276184002786     0.890281904621      -0.344464751654     0.890281904621      -0.344464751654     -0.106990296702     -0.276184002786     
7700000000.0        -0.1095535384       -0.278968895714     0.887655034045      -0.34816351564      0.887655034045      -0.34816351564      -0.1095535384       -0.278968895714     
7800000000.0        -0.112136964746     -0.281724291809     0.885007097494      -0.351833312788     0.885007097494      -0.351833312788     -0.112136964746     -0.281724291809     
7900000000.0        -0.114740144671     -0.284450047887     0.882338524073      -0.355474004336     0.882338524073      -0.355474004336     -0.114740144671     -0.284450047887     
8000000000.0        -0.117362646929     -0.287146028322     0.879649743049      -0.359085459067     0.879649743049      -0.359085459067     -0.117362646929     -0.287146028322     
8100000000.0        -0.120004040248     -0.289812105009     0.876941183693      -0.36266755327      0.876941183693      -0.36266755327      -0.120004040248     -0.289812105009     
8200000000.0        -0.122663893483     -0.292448157318     0.874213275133      -0.366220170699     0.874213275133      -0.366220170699     -0.122663893483     -0.292448157318     
8300000000.0        -0.125341775767     -0.295054072048     0.871466446198      -0.369743202523     0.871466446198      -0.369743202523     -0.125341775767     -0.295054072048     
8400000000.0        -0.12803725666      -0.29762974338      0.868701125276      -0.373236547282     0.868701125276      -0.373236547282     -0.12803725666      -0.29762974338      
8500000000.0        -0.13074990629      -0.30017507282      0.865917740164      -0.376700110829     0.865917740164      -0.376700110829     -0.13074990629      -0.30017507282      
8600000000.0        -0.133479295502     -0.302689969145     0.863116717925      -0.380133806277     0.863116717925      -0.380133806277     -0.133479295502     -0.302689969145     
8700000000.0        -0.136224995993     -0.305174348343     0.860298484751      -0.383537553938     0.860298484751      -0.383537553938     -0.136224995993     -0.305174348343     
8800000000.0        -0.138986580456     -0.307628133547     0.857463465822      -0.386911281263     0.857463465822      -0.386911281263     -0.138986580456     -0.307628133547     
8900000000.0        -0.141763622708     -0.310051254976     0.85461208517       -0.390254922775     0.85461208517       -0.390254922775     -0.141763622708     -0.310051254976     
9000000000.0        -0.14455569783      -0.312443649861     0.851744765549      -0.393568420002     0.851744765549      -0.393568420002     -0.14455569783      -0.312443649861     
9100000000.0        -0.147362382293     -0.314805262377     0.848861928302      -0.396851721405     0.848861928302      -0.396851721405     -0.147362382293     -0.314805262377     
9200000000.0        -0.150183254084     -0.31713604357      0.845963993236      -0.400104782308     0.845963993236      -0.400104782308     -0.150183254084     -0.31713604357      
9300000000.0        -0.153017892834     -0.319435951276     0.843051378496      -0.403327564818     0.843051378496      -0.403327564818     -0.153017892834     -0.319435951276     
9400000000.0        -0.15586587994      -0.321704950051     0.840124500444      -0.40652003775      0.840124500444      -0.40652003775      -0.15586587994      -0.321704950051     
9500000000.0        -0.158726798678     -0.323943011083     0.83718377354       -0.409682176548     0.83718377354       -0.409682176548     -0.158726798678     -0.323943011083     
9600000000.0        -0.161600234324     -0.326150112111     0.834229610226      -0.412813963198     0.834229610226      -0.412813963198     -0.161600234324     -0.326150112111     
9700000000.0        -0.164485774267     -0.328326237343     0.831262420814      -0.415915386146     0.831262420814      -0.415915386146     -0.164485774267     -0.328326237343     
9800000000.0        -0.167383008114     -0.330471377368     0.828282613376      -0.418986440214     0.828282613376      -0.418986440214     -0.167383008114     -0.330471377368     
9900000000.0        -0.170291527802     -0.332585529063     0.825290593636      -0.422027126505     0.825290593636      -0.422027126505     -0.170291527802     -0.332585529063     
10000000000.0       -0.173210927699     -0.33466869551      0.822286764866      -0.425037452322     0.822286764866      -0.425037452322     -0.173210927699     -0.33466869551      
