# Hz S RI R 50.00 
100000000.0         0.00443273373249    0.000598459900749   0.995565937714      -0.000899704611049  0.995565937714      -0.000899704611049  0.00443273373249    0.000598459900749   
200000000.0         0.00446343319306    0.00119683209824    0.995534818808      -0.00179932493059   0.995534818808      -0.00179932493059   0.00446343319306    0.00119683209824    
300000000.0         0.00448734710175    0.0017951511036     0.995510394554      -0.00269889732307   0.995510394554      -0.00269889732307   0.00448734710175    0.0017951511036     
400000000.0         0.00450832270265    0.0023934279971     0.995488817699      -0.00359843430375   0.995488817699      -0.00359843430375   0.00450832270265    0.0023934279971     
500000000.0         0.0045278441683     0.00299166835814    0.995468604059      -0.00449794267601   0.995468604059      -0.00449794267601   0.0045278441683     0.00299166835814    
600000000.0         0.00454666965999    0.00358987531474    0.995448995462      -0.00539742665349   0.995448995462      -0.00539742665349   0.00454666965999    0.00358987531474    
700000000.0         0.00456524776978    0.00418805064441    0.995429543304      -0.00629688899825   0.995429543304      -0.00629688899825   0.00456524776978    0.00418805064441    
800000000.0         0.00458386960375    0.00478619528705    0.995409956465      -0.00719633155588   0.995409956465      -0.00719633155588   0.00458386960375    0.00478619528705    
900000000.0         0.00460273653807    0.00538430962187    0.995390033555      -0.00809575554669   0.995390033555      -0.00809575554669   0.00460273653807    0.00538430962187    
1000000000.0        0.0046219945835     0.00598239363145    0.99536962855       -0.00899516174073   0.99536962855       -0.00899516174073   0.0046219945835     0.00598239363145    
1100000000.0        0.00464175349924    0.00658044700687    0.995348631673      -0.00989455056993   0.995348631673      -0.00989455056993   0.00464175349924    0.00658044700687    
1200000000.0        0.00466209818906    0.00717846921792    0.995326958005      -0.0107939222045    0.995326958005      -0.0107939222045    0.00466209818906    0.00717846921792    
1300000000.0        0.00468309587517    0.00777645956246    0.995304540307      -0.0116932766066    0.995304540307      -0.0116932766066    0.00468309587517    0.00777645956246    
1400000000.0        0.00470480081633    0.00837441720211    0.995281324303      -0.0125926135699    0.995281324303      -0.0125926135699    0.00470480081633    0.00837441720211    
1500000000.0        0.0047272575247     0.00897234118873    0.995257265463      -0.0134919327491    0.995257265463      -0.0134919327491    0.0047272575247     0.00897234118873    
1600000000.0        0.00475050302642    0.00957023048473    0.995232326742      -0.0143912336826    0.995232326742      -0.0143912336826    0.00475050302642    0.00957023048473    
1700000000.0        0.00477456849161    0.0101680839787     0.995206476949      -0.0152905158103    0.995206476949      -0.0152905158103    0.00477456849161    0.0101680839787     
1800000000.0        0.00479948043598    0.0107659004978     0.995179689551      -0.016189778488     0.995179689551      -0.016189778488     0.00479948043598    0.0107659004978     
1900000000.0        0.00482526162407    0.0113636788177     0.995151941762      -0.0170890209987    0.995151941762      -0.0170890209987    0.00482526162407    0.0113636788177     
2000000000.0        0.00485193175967    0.0119614176706     0.995123213857      -0.0179882425622    0.995123213857      -0.0179882425622    0.00485193175967    0.0119614176706     
2100000000.0        0.00487950802165    0.0125591157521     0.995093488637      -0.0188874423428    0.995093488637      -0.0188874423428    0.00487950802165    0.0125591157521     
2200000000.0        0.00490800548548    0.013156771726      0.995062751004      -0.0197866194557    0.995062751004      -0.0197866194557    0.00490800548548    0.013156771726      
2300000000.0        0.00493743745868    0.0137543842298     0.995030987629      -0.0206857729731    0.995030987629      -0.0206857729731    0.00493743745868    0.0137543842298     
2400000000.0        0.00496781575095    0.0143519518778     0.994998186679      -0.0215849019282    0.994998186679      -0.0215849019282    0.00496781575095    0.0143519518778     
2500000000.0        0.00499915089365    0.0149494732647     0.994964337601      -0.0224840053198    0.994964337601      -0.0224840053198    0.00499915089365    0.0149494732647     
2600000000.0        0.0050314523198     0.0155469469684     0.994929430937      -0.0233830821155    0.994929430937      -0.0233830821155    0.0050314523198     0.0155469469684     
2700000000.0        0.00506472851302    0.0161443715525     0.99489345818       -0.0242821312549    0.99489345818       -0.0242821312549    0.00506472851302    0.0161443715525     
2800000000.0        0.00509898713154    0.016741745568      0.994856411649      -0.0251811516523    0.994856411649      -0.0251811516523    0.00509898713154    0.016741745568      
2900000000.0        0.00513423511234    0.0173390675556     0.994818284382      -0.0260801421989    0.994818284382      -0.0260801421989    0.00513423511234    0.0173390675556     
3000000000.0        0.00517047875908    0.0179363360469     0.99477907005       -0.0269791017648    0.99477907005       -0.0269791017648    0.00517047875908    0.0179363360469     
3100000000.0        0.00520772381677    0.018533549566      0.994738762884      -0.0278780292011    0.994738762884      -0.0278780292011    0.00520772381676    0.018533549566      
3200000000.0        0.00524597553561    0.0191307066304     0.994697357608      -0.0287769233414    0.994697357608      -0.0287769233414    0.00524597553561    0.0191307066304     
3300000000.0        0.00528523872588    0.0197278057527     0.994654849385      -0.0296757830033    0.994654849385      -0.0296757830033    0.00528523872588    0.0197278057527     
3400000000.0        0.00532551780515    0.0203248454407     0.994611233774      -0.0305746069895    0.994611233774      -0.0305746069895    0.00532551780515    0.0203248454407     
3500000000.0        0.00536681683939    0.0209218241991     0.99456650668       -0.0314733940896    0.99456650668       -0.0314733940896    0.00536681683939    0.0209218241991     
3600000000.0        0.00540913957866    0.0215187405296     0.994520664329      -0.0323721430801    0.994520664329      -0.0323721430801    0.00540913957866    0.0215187405296     
3700000000.0        0.00545248948836    0.0221155929319     0.994473703228      -0.0332708527266    0.994473703228      -0.0332708527266    0.00545248948836    0.0221155929319     
3800000000.0        0.00549686977663    0.022712379904      0.994425620141      -0.0341695217837    0.994425620141      -0.0341695217837    0.00549686977663    0.022712379904      
3900000000.0        0.00554228341849    0.0233090999432     0.994376412068      -0.0350681489962    0.994376412068      -0.0350681489962    0.00554228341849    0.0233090999432     
4000000000.0        0.00558873317719    0.023905751546      0.994326076216      -0.0359667331001    0.994326076216      -0.0359667331001    0.00558873317719    0.023905751546      
4100000000.0        0.00563622162313    0.0245023332092     0.994274609989      -0.0368652728227    0.994274609989      -0.0368652728227    0.00563622162313    0.0245023332092     
4200000000.0        0.00568475115065    0.0250988434297     0.994222010964      -0.0377637668835    0.994222010964      -0.0377637668835    0.00568475115065    0.0250988434297     
4300000000.0        0.00573432399311    0.0256952807051     0.99416827688       -0.0386622139947    0.99416827688       -0.0386622139947    0.00573432399311    0.0256952807051     
4400000000.0        0.00578494223621    0.0262916435339     0.994113405623      -0.0395606128621    0.994113405623      -0.0395606128621    0.00578494223621    0.0262916435339     
4500000000.0        0.00583660783013    0.026887930416      0.994057395214      -0.0404589621848    0.994057395214      -0.0404589621848    0.00583660783013    0.026887930416      
4600000000.0        0.00588932260028    0.0274841398529     0.994000243801      -0.0413572606562    0.994000243801      -0.0413572606562    0.00588932260028    0.0274841398529     
4700000000.0        0.00594308825706    0.0280802703475     0.993941949643      -0.0422555069645    0.993941949643      -0.0422555069645    0.00594308825706    0.0280802703475     
4800000000.0        0.0059979064047     0.028676320405      0.993882511108      -0.0431536997925    0.993882511108      -0.0431536997925    0.0059979064047     0.028676320405      
4900000000.0        0.00605377854919    0.0292722885326     0.993821926662      -0.0440518378186    0.993821926662      -0.0440518378186    0.00605377854919    0.0292722885326     
5000000000.0        0.00611070610553    0.0298681732398     0.993760194859      -0.0449499197165    0.993760194859      -0.0449499197165    0.00611070610553    0.0298681732398     
5100000000.0        0.00616869040433    0.0304639730388     0.993697314341      -0.0458479441561    0.993697314341      -0.0458479441561    0.00616869040433    0.0304639730388     
5200000000.0        0.00622773269774    0.031059686444      0.993633283826      -0.0467459098034    0.993633283826      -0.0467459098034    0.00622773269774    0.031059686444      
5300000000.0        0.00628783416493    0.0316553119728     0.993568102105      -0.0476438153207    0.993568102105      -0.0476438153207    0.00628783416493    0.0316553119728     
5400000000.0        0.00634899591711    0.0322508481454     0.993501768038      -0.0485416593671    0.993501768038      -0.0485416593671    0.00634899591711    0.0322508481454     
5500000000.0        0.00641121900206    0.0328462934851     0.993434280548      -0.0494394405987    0.993434280548      -0.0494394405987    0.00641121900206    0.0328462934851     
5600000000.0        0.00647450440836    0.0334416465179     0.993365638616      -0.0503371576685    0.993365638616      -0.0503371576685    0.00647450440836    0.0334416465179     
5700000000.0        0.00653885306918    0.0340369057732     0.99329584128       -0.0512348092271    0.99329584128       -0.0512348092271    0.00653885306918    0.0340369057732     
5800000000.0        0.00660426586589    0.0346320697834     0.993224887629      -0.0521323939223    0.993224887629      -0.0521323939223    0.00660426586589    0.0346320697834     
5900000000.0        0.00667074363127    0.0352271370843     0.993152776799      -0.0530299103998    0.993152776799      -0.0530299103998    0.00667074363127    0.0352271370843     
6000000000.0        0.00673828715254    0.0358221062151     0.993079507974      -0.053927357303     0.993079507974      -0.053927357303     0.00673828715254    0.0358221062151     
6100000000.0        0.00680689717413    0.036416975718      0.99300508038       -0.0548247332733    0.99300508038       -0.0548247332733    0.00680689717413    0.036416975718      
6200000000.0        0.00687657440028    0.0370117441391     0.992929493281      -0.0557220369501    0.992929493281      -0.0557220369501    0.00687657440028    0.0370117441391     
6300000000.0        0.00694731949737    0.0376064100275     0.992852745983      -0.0566192669714    0.992852745983      -0.0566192669714    0.00694731949737    0.0376064100275     
6400000000.0        0.00701913309617    0.0382009719361     0.992774837824      -0.0575164219731    0.992774837824      -0.0575164219731    0.00701913309618    0.0382009719361     
6500000000.0        0.00709201579391    0.0387954284212     0.992695768177      -0.0584135005898    0.992695768177      -0.0584135005898    0.00709201579391    0.0387954284212     
6600000000.0        0.00716596815613    0.0393897780427     0.992615536446      -0.0593105014548    0.992615536446      -0.0593105014548    0.00716596815613    0.0393897780427     
6700000000.0        0.00724099071848    0.0399840193639     0.992534142065      -0.0602074232       0.992534142065      -0.0602074232       0.00724099071848    0.0399840193639     
6800000000.0        0.00731708398839    0.0405781509519     0.992451584497      -0.061104264456     0.992451584497      -0.061104264456     0.00731708398839    0.0405781509519     
6900000000.0        0.0073942484466     0.0411721713772     0.992367863232      -0.0620010238523    0.992367863232      -0.0620010238523    0.0073942484466     0.0411721713772     
7000000000.0        0.00747248454861    0.0417660792142     0.992282977783      -0.0628977000174    0.992282977783      -0.0628977000174    0.00747248454861    0.0417660792142     
7100000000.0        0.00755179272599    0.0423598730405     0.992196927688      -0.0637942915789    0.992196927688      -0.0637942915789    0.00755179272599    0.0423598730405     
7200000000.0        0.0076321733877     0.0429535514378     0.99210971251       -0.0646907971634    0.99210971251       -0.0646907971634    0.0076321733877     0.0429535514378     
7300000000.0        0.0077136269212     0.0435471129909     0.992021331829      -0.0655872153966    0.992021331829      -0.0655872153966    0.0077136269212     0.0435471129909     
7400000000.0        0.00779615369362    0.0441405562888     0.99193178525       -0.0664835449037    0.99193178525       -0.0664835449037    0.00779615369362    0.0441405562888     
7500000000.0        0.00787975405277    0.0447338799236     0.991841072394      -0.067379784309     0.991841072394      -0.067379784309     0.00787975405277    0.0447338799236     
7600000000.0        0.00796442832807    0.0453270824913     0.991749192902      -0.0682759322361    0.991749192902      -0.0682759322361    0.00796442832808    0.0453270824913     
7700000000.0        0.00805017683157    0.0459201625915     0.991656146432      -0.0691719873083    0.991656146432      -0.0691719873083    0.00805017683157    0.0459201625915     
7800000000.0        0.00813699985871    0.0465131188275     0.991561932658      -0.070067948148     0.991561932658      -0.070067948148     0.00813699985871    0.0465131188275     
7900000000.0        0.00822489768916    0.0471059498059     0.991466551271      -0.0709638133774    0.991466551271      -0.0709638133774    0.00822489768916    0.0471059498059     
8000000000.0        0.00831387058763    0.0476986541371     0.991370001977      -0.0718595816181    0.991370001977      -0.0718595816181    0.00831387058763    0.0476986541371     
8100000000.0        0.00840391880452    0.0482912304352     0.991272284494      -0.0727552514913    0.991272284494      -0.0727552514913    0.00840391880452    0.0482912304352     
8200000000.0        0.00849504257664    0.0488836773176     0.991173398558      -0.0736508216178    0.991173398558      -0.0736508216178    0.00849504257664    0.0488836773176     
8300000000.0        0.00858724212785    0.0494759934055     0.991073343914      -0.0745462906183    0.991073343914      -0.0745462906183    0.00858724212785    0.0494759934055     
8400000000.0        0.00868051766966    0.0500681773234     0.990972120322      -0.0754416571129    0.990972120322      -0.0754416571129    0.00868051766966    0.0500681773234     
8500000000.0        0.00877486940179    0.0506602276995     0.990869727551      -0.0763369197215    0.990869727551      -0.0763369197215    0.00877486940179    0.0506602276995     
8600000000.0        0.00887029751273    0.0512521431655     0.990766165385      -0.077232077064     0.990766165385      -0.077232077064     0.00887029751273    0.0512521431655     
8700000000.0        0.00896680218025    0.0518439223566     0.990661433616      -0.0781271277597    0.990661433616      -0.0781271277597    0.00896680218025    0.0518439223566     
8800000000.0        0.00906438357189    0.0524355639113     0.990555532047      -0.079022070428     0.990555532047      -0.079022070428     0.00906438357189    0.0524355639113     
8900000000.0        0.00916304184539    0.0530270664718     0.990448460492      -0.0799169036881    0.990448460492      -0.0799169036881    0.00916304184539    0.0530270664718     
9000000000.0        0.00926277714918    0.0536184286835     0.990340218773      -0.0808116261589    0.990340218773      -0.0808116261589    0.00926277714918    0.0536184286835     
9100000000.0        0.00936358962276    0.0542096491955     0.990230806721      -0.0817062364593    0.990230806721      -0.0817062364593    0.00936358962276    0.0542096491955     
9200000000.0        0.00946547939709    0.05480072666       0.990120224178      -0.0826007332082    0.990120224178      -0.0826007332082    0.00946547939709    0.05480072666       
9300000000.0        0.00956844659501    0.0553916597328     0.990008470991      -0.0834951150241    0.990008470991      -0.0834951150241    0.00956844659501    0.0553916597328     
9400000000.0        0.00967249133152    0.055982447073      0.989895547016      -0.0843893805258    0.989895547016      -0.0843893805258    0.00967249133152    0.055982447073      
9500000000.0        0.00977761371421    0.0565730873429     0.989781452119      -0.0852835283317    0.989781452119      -0.0852835283317    0.00977761371421    0.0565730873429     
9600000000.0        0.0098838138435     0.0571635792083     0.989666186169      -0.0861775570604    0.989666186169      -0.0861775570604    0.0098838138435     0.0571635792083     
9700000000.0        0.009991091813      0.0577539213381     0.989549749046      -0.0870714653303    0.989549749046      -0.0870714653303    0.009991091813      0.0577539213381     
9800000000.0        0.0100994477098     0.0583441124046     0.989432140633      -0.08796525176      0.989432140633      -0.08796525176      0.0100994477098     0.0583441124046     
9900000000.0        0.0102088816147     0.0589341510834     0.989313360823      -0.0888589149679    0.989313360823      -0.0888589149679    0.0102088816147     0.0589341510834     
10000000000.0       0.0103193936026     0.0595240360531     0.989193409512      -0.0897524535723    0.989193409512      -0.0897524535723    0.0103193936026     0.0595240360531     
