# Hz S RI R 50.00 
100000000.0         0.00208156390084    0.000916315803827   0.997916355621      -0.00172372459496   0.997916355621      -0.00172372459496   0.00208156390084    0.000916315803827   
200000000.0         0.00209978170446    0.00183255115314    0.997896404924      -0.00344738384904   0.997896404924      -0.00344738384904   0.00209978170446    0.00183255115314    
300000000.0         0.00211749300341    0.00274872530889    0.997876308241      -0.00517100537201   0.997876308241      -0.00517100537201   0.00211749300341    0.00274872530889    
400000000.0         0.00213650220109    0.00366483800279    0.997854261074      -0.00689459528766   0.997854261074      -0.00689459528766   0.00213650220109    0.00366483800279    
500000000.0         0.00215750424327    0.00458088437016    0.997829568366      -0.00861815412452   0.997829568366      -0.00861815412452   0.00215750424327    0.00458088437016    
600000000.0         0.00218085352602    0.00549685750621    0.997801875598      -0.0103416797102    0.997801875598      -0.0103416797102    0.00218085352602    0.00549685750621    
700000000.0         0.00220675935414    0.00641274939262    0.997770973326      -0.0120651682714    0.997770973326      -0.0120651682714    0.00220675935414    0.00641274939262    
800000000.0         0.00223535727385    0.00732855133047    0.997736725856      -0.0137886149717    0.997736725856      -0.0137886149717    0.00223535727385    0.00732855133047    
900000000.0         0.00226674083186    0.00824425417454    0.997699039479      -0.0155120142143    0.997699039479      -0.0155120142143    0.00226674083186    0.00824425417454    
1000000000.0        0.0023009776722     0.00915984847249    0.997657846381      -0.0172353598307    0.997657846381      -0.0172353598307    0.0023009776722     0.00915984847249    
1100000000.0        0.00233811848364    0.0100753245536     0.997613095693      -0.0189586452057    0.997613095693      -0.0189586452057    0.00233811848364    0.0100753245536     
1200000000.0        0.00237820233065    0.0109906725883     0.997564748161      -0.0206818633646    0.997564748161      -0.0206818633646    0.00237820233065    0.0109906725883     
1300000000.0        0.00242126000713    0.0119058826301     0.997512772795      -0.0224050070375    0.997512772795      -0.0224050070375    0.00242126000713    0.0119058826301     
1400000000.0        0.00246731624053    0.0128209446454     0.997457144661      -0.0241280687068    0.997457144661      -0.0241280687068    0.00246731624053    0.0128209446454     
1500000000.0        0.00251639119367    0.0137358485356     0.997397843383      -0.0258510406444    0.997397843383      -0.0258510406444    0.00251639119367    0.0137358485356     
1600000000.0        0.00256850151937    0.0146505841544     0.997334852089      -0.0275739149413    0.997334852089      -0.0275739149413    0.00256850151937    0.0146505841544     
1700000000.0        0.00262366112046    0.0155651413204     0.997268156649      -0.0292966835305    0.997268156649      -0.0292966835305    0.00262366112046    0.0155651413204     
1800000000.0        0.00268188170962    0.0164795098277     0.997197745118      -0.0310193382069    0.997197745118      -0.0310193382069    0.00268188170962    0.0164795098277     
1900000000.0        0.00274317322994    0.0173936794535     0.997123607313      -0.032741870643     0.997123607313      -0.032741870643     0.00274317322994    0.0173936794535     
2000000000.0        0.00280754417621    0.018307639965      0.997045734495      -0.0344642724023    0.997045734495      -0.0344642724023    0.00280754417621    0.018307639965      
2100000000.0        0.0028750018441     0.0192213811247     0.996964119118      -0.0361865349511    0.996964119118      -0.0361865349511    0.0028750018441     0.0192213811247     
2200000000.0        0.00294555252606    0.0201348926941     0.996878754635      -0.0379086496675    0.996878754635      -0.0379086496675    0.00294555252606    0.0201348926941     
2300000000.0        0.00301920166715    0.0210481644381     0.996789635339      -0.0396306078507    0.996789635339      -0.0396306078507    0.00301920166715    0.0210481644381     
2400000000.0        0.00309595399044    0.0219611861274     0.996696756243      -0.0413524007279    0.996696756243      -0.0413524007279    0.00309595399044    0.0219611861274     
2500000000.0        0.00317581359884    0.0228739475409     0.996600112974      -0.0430740194606    0.996600112974      -0.0430740194606    0.00317581359884    0.0228739475409     
2600000000.0        0.00325878405861    0.0237864384684     0.996499701693      -0.044795455151     0.996499701693      -0.044795455151     0.00325878405861    0.0237864384684     
2700000000.0        0.00334486846837    0.0246986487115     0.996395519022      -0.0465166988462    0.996395519022      -0.0465166988462    0.00334486846837    0.0246986487115     
2800000000.0        0.00343406951661    0.0256105680855     0.996287561993      -0.0482377415434    0.996287561993      -0.0482377415434    0.00343406951661    0.0256105680855     
2900000000.0        0.00352638952991    0.0265221864206     0.996175827992      -0.0499585741934    0.996175827992      -0.0499585741934    0.00352638952991    0.0265221864206     
3000000000.0        0.00362183051365    0.0274334935632     0.996060314727      -0.0516791877048    0.996060314727      -0.0516791877048    0.00362183051365    0.0274334935632     
3100000000.0        0.00372039418664    0.028344479376      0.995941020185      -0.0533995729469    0.995941020185      -0.0533995729469    0.00372039418664    0.028344479376      
3200000000.0        0.00382208201065    0.0292551337396     0.995817942609      -0.0551197207529    0.995817942609      -0.0551197207529    0.00382208201065    0.0292551337396     
3300000000.0        0.00392689521579    0.0301654465528     0.995691080473      -0.0568396219225    0.995691080473      -0.0568396219225    0.00392689521579    0.0301654465528     
3400000000.0        0.00403483482242    0.0310754077331     0.995560432453      -0.0585592672243    0.995560432453      -0.0585592672243    0.00403483482242    0.0310754077331     
3500000000.0        0.00414590166018    0.0319850072171     0.995425997416      -0.0602786473986    0.995425997416      -0.0602786473986    0.00414590166018    0.0319850072171     
3600000000.0        0.0042600963845     0.0328942349612     0.995287774401      -0.0619977531589    0.995287774401      -0.0619977531589    0.0042600963845     0.0328942349612     
3700000000.0        0.00437741949109    0.0338030809414     0.995145762602      -0.0637165751941    0.995145762602      -0.0637165751941    0.00437741949109    0.0338030809414     
3800000000.0        0.00449787132865    0.0347115351542     0.99499996136       -0.0654351041703    0.99499996136       -0.0654351041703    0.00449787132865    0.0347115351542     
3900000000.0        0.00462145211005    0.0356195876165     0.994850370149      -0.0671533307324    0.994850370149      -0.0671533307324    0.00462145211005    0.0356195876165     
4000000000.0        0.00474816192228    0.0365272283656     0.994696988566      -0.0688712455058    0.994696988566      -0.0688712455058    0.00474816192228    0.0365272283656     
4100000000.0        0.00487800073518    0.0374344474596     0.994539816324      -0.0705888390975    0.994539816324      -0.0705888390975    0.00487800073518    0.0374344474596     
4200000000.0        0.00501096840932    0.0383412349777     0.994378853242      -0.0723061020977    0.994378853242      -0.0723061020977    0.00501096840932    0.0383412349777     
4300000000.0        0.00514706470293    0.0392475810198     0.994214099243      -0.0740230250812    0.994214099243      -0.0740230250812    0.00514706470293    0.0392475810198     
4400000000.0        0.00528628927823    0.0401534757071     0.99404555434       -0.0757395986079    0.99404555434       -0.0757395986079    0.00528628927823    0.0401534757071     
4500000000.0        0.00542864170696    0.0410589091816     0.993873218638      -0.0774558132248    0.993873218638      -0.0774558132248    0.00542864170696    0.0410589091816     
4600000000.0        0.00557412147554    0.0419638716066     0.993697092325      -0.0791716594662    0.993697092325      -0.0791716594662    0.00557412147553    0.0419638716066     
4700000000.0        0.00572272798953    0.0428683531666     0.993517175668      -0.0808871278552    0.993517175668      -0.0808871278552    0.00572272798953    0.0428683531666     
4800000000.0        0.00587446057788    0.0437723440671     0.99333346901       -0.0826022089042    0.99333346901       -0.0826022089042    0.00587446057788    0.0437723440671     
4900000000.0        0.00602931849658    0.0446758345347     0.993145972766      -0.0843168931162    0.993145972766      -0.0843168931162    0.00602931849658    0.0446758345347     
5000000000.0        0.00618730093212    0.0455788148174     0.99295468742       -0.0860311709853    0.99295468742       -0.0860311709853    0.00618730093212    0.0455788148174     
5100000000.0        0.00634840700459    0.046481275184      0.992759613519      -0.0877450329974    0.992759613519      -0.0877450329974    0.00634840700459    0.046481275184      
5200000000.0        0.00651263577053    0.0473832059245     0.992560751674      -0.0894584696311    0.992560751674      -0.0894584696311    0.00651263577053    0.0473832059245     
5300000000.0        0.00667998622549    0.0482845973498     0.992358102558      -0.0911714713583    0.992358102558      -0.0911714713583    0.00667998622549    0.0482845973498     
5400000000.0        0.00685045730645    0.0491854397917     0.9921516669        -0.0928840286447    0.9921516669        -0.0928840286447    0.00685045730645    0.0491854397917     
5500000000.0        0.00702404789399    0.0500857236032     0.991941445483      -0.0945961319509    0.991941445483      -0.0945961319509    0.00702404789399    0.0500857236032     
5600000000.0        0.0072007568143     0.0509854391578     0.991727439148      -0.0963077717322    0.991727439148      -0.0963077717322    0.0072007568143     0.0509854391578     
5700000000.0        0.00738058284105    0.0518845768499     0.991509648785      -0.0980189384399    0.991509648785      -0.0980189384399    0.00738058284105    0.0518845768499     
5800000000.0        0.0075635246971     0.0527831270947     0.991288075335      -0.0997296225211    0.991288075335      -0.0997296225211    0.0075635246971     0.0527831270947     
5900000000.0        0.00774958105607    0.0536810803278     0.991062719789      -0.10143981442      0.991062719789      -0.10143981442      0.00774958105607    0.0536810803278     
6000000000.0        0.00793875054384    0.0545784270056     0.990833583183      -0.103149504577     0.990833583183      -0.103149504577     0.00793875054384    0.0545784270056     
6100000000.0        0.0081310317399     0.0554751576047     0.990600666601      -0.104858683432     0.990600666601      -0.104858683432     0.0081310317399     0.0554751576047     
6200000000.0        0.00832642317861    0.0563712626224     0.990363971172      -0.106567341421     0.990363971172      -0.106567341421     0.00832642317861    0.0563712626224     
6300000000.0        0.0085249233504     0.057266732576      0.990123498069      -0.10827546898      0.990123498069      -0.10827546898      0.0085249233504     0.057266732576      
6400000000.0        0.00872653070287    0.0581615580032     0.989879248507      -0.109983056541     0.989879248507      -0.109983056541     0.00872653070287    0.0581615580032     
6500000000.0        0.00893124364181    0.0590557294619     0.989631223743      -0.111690094538     0.989631223743      -0.111690094538     0.00893124364181    0.0590557294619     
6600000000.0        0.00913906053217    0.0599492375299     0.989379425074      -0.113396573404     0.989379425074      -0.113396573404     0.00913906053217    0.0599492375299     
6700000000.0        0.00934997969897    0.0608420728051     0.989123853839      -0.11510248357      0.989123853839      -0.11510248357      0.00934997969897    0.0608420728051     
6800000000.0        0.00956399942813    0.0617342259051     0.988864511416      -0.116807815471     0.988864511416      -0.116807815471     0.00956399942813    0.0617342259051     
6900000000.0        0.00978111796727    0.0626256874675     0.98860139922       -0.118512559537     0.98860139922       -0.118512559537     0.00978111796727    0.0626256874675     
7000000000.0        0.0100013335265     0.0635164481495     0.988334518704      -0.120216706204     0.988334518704      -0.120216706204     0.0100013335265     0.0635164481495     
7100000000.0        0.010224644279      0.064406498628      0.988063871361      -0.121920245906     0.988063871361      -0.121920245906     0.010224644279      0.064406498628      
7200000000.0        0.0104510483618     0.0652958295994     0.987789458718      -0.123623169079     0.987789458718      -0.123623169079     0.0104510483618     0.0652958295994     
7300000000.0        0.0106805438764     0.0661844317793     0.987511282337      -0.12532546616      0.987511282337      -0.12532546616      0.0106805438764     0.0661844317793     
7400000000.0        0.0109131288893     0.0670722959031     0.987229343819      -0.127027127589     0.987229343819      -0.127027127589     0.0109131288893     0.0670722959031     
7500000000.0        0.0111488014327     0.0679594127252     0.986943644798      -0.128728143808     0.986943644798      -0.128728143808     0.0111488014327     0.0679594127252     
7600000000.0        0.0113875595048     0.068845773019      0.986654186941      -0.13042850526      0.986654186941      -0.13042850526      0.0113875595048     0.068845773019      
7700000000.0        0.0116294010704     0.0697313675775     0.986360971952      -0.132128202391     0.986360971952      -0.132128202391     0.0116294010704     0.0697313675775     
7800000000.0        0.0118743240615     0.0706161872121     0.986064001566      -0.133827225651     0.986064001566      -0.133827225651     0.0118743240615     0.0706161872121     
7900000000.0        0.0121223263776     0.0715002227537     0.985763277554      -0.13552556549      0.985763277554      -0.13552556549      0.0121223263776     0.0715002227537     
8000000000.0        0.0123734058862     0.0723834650516     0.985458801718      -0.137223212364     0.985458801718      -0.137223212364     0.0123734058862     0.0723834650516     
8100000000.0        0.0126275604232     0.073265904974      0.985150575891      -0.138920156731     0.985150575891      -0.138920156731     0.0126275604232     0.073265904974      
8200000000.0        0.0128847877932     0.0741475334077     0.984838601942      -0.140616389052     0.984838601942      -0.140616389052     0.0128847877932     0.0741475334077     
8300000000.0        0.01314508577       0.0750283412582     0.984522881768      -0.142311899792     0.984522881768      -0.142311899792     0.01314508577       0.0750283412582     
8400000000.0        0.013408452097      0.0759083194494     0.9842034173        -0.14400667942      0.9842034173        -0.14400667942      0.013408452097      0.0759083194494     
8500000000.0        0.0136748844874     0.0767874589237     0.983880210499      -0.145700718409     0.983880210499      -0.145700718409     0.0136748844874     0.0767874589237     
8600000000.0        0.0139443806244     0.0776657506415     0.983553263358      -0.147394007236     0.983553263358      -0.147394007236     0.0139443806244     0.0776657506415     
8700000000.0        0.0142169381618     0.0785431855819     0.983222577898      -0.149086536381     0.983222577898      -0.149086536381     0.0142169381618     0.0785431855819     
8800000000.0        0.0144925547244     0.0794197547419     0.982888156173      -0.15077829633      0.982888156173      -0.15077829633      0.0144925547244     0.0794197547419     
8900000000.0        0.0147712279076     0.0802954491366     0.982550000266      -0.152469277572     0.982550000266      -0.152469277572     0.0147712279076     0.0802954491366     
9000000000.0        0.0150529552785     0.0811702597991     0.982208112291      -0.154159470603     0.982208112291      -0.154159470603     0.0150529552785     0.0811702597991     
9100000000.0        0.0153377343756     0.0820441777804     0.98186249439       -0.155848865921     0.98186249439       -0.155848865921     0.0153377343756     0.0820441777804     
9200000000.0        0.0156255627094     0.0829171941494     0.981513148736      -0.15753745403      0.981513148736      -0.15753745403      0.0156255627094     0.0829171941494     
9300000000.0        0.0159164377622     0.0837892999928     0.98116007753       -0.159225225438     0.98116007753       -0.159225225438     0.0159164377622     0.0837892999928     
9400000000.0        0.016210356989      0.0846604864148     0.980803283002      -0.160912170661     0.980803283002      -0.160912170661     0.016210356989      0.0846604864148     
9500000000.0        0.0165073178169     0.0855307445375     0.980442767413      -0.162598280217     0.980442767413      -0.162598280217     0.0165073178169     0.0855307445375     
9600000000.0        0.0168073176462     0.0864000655002     0.98007853305       -0.16428354463      0.98007853305       -0.16428354463      0.0168073176462     0.0864000655002     
9700000000.0        0.0171103538497     0.0872684404599     0.979710582231      -0.165967954431     0.979710582231      -0.165967954431     0.0171103538497     0.0872684404599     
9800000000.0        0.0174164237737     0.088135860591      0.979338917299      -0.167651500154     0.979338917299      -0.167651500154     0.0174164237737     0.088135860591      
9900000000.0        0.0177255247377     0.0890023170849     0.97896354063       -0.16933417234      0.97896354063       -0.16933417234      0.0177255247377     0.0890023170849     
10000000000.0       0.0180376540347     0.0898678011507     0.978584454623      -0.171015961536     0.978584454623      -0.171015961536     0.0180376540347     0.0898678011507     
