# Hz S RI R 50.00 
100000000.0         -9.91884148382e-06  -0.00308779211867   0.999983506342      -0.00311825014927   0.999983506342      -0.00311825014927   -9.91884148405e-06  -0.00308779211867   
200000000.0         -4.18558705904e-05  -0.00617518076671   0.99995152309       -0.00623610415517   0.99995152309       -0.00623610415517   -4.18558705901e-05  -0.00617518076671   
300000000.0         -9.30429628062e-05  -0.00926189296075   0.99990030018       -0.00935329273246   0.99990030018       -0.00935329273246   -9.30429628061e-05  -0.00926189296075   
400000000.0         -0.000163464327903  -0.0123476790824    0.999829847748      -0.0124695690461    0.999829847748      -0.0124695690461    -0.000163464327903  -0.0123476790824    
500000000.0         -0.000253102366241  -0.0154323019575    0.999740181225      -0.0155846982231    0.999740181225      -0.0155846982231    -0.000253102366241  -0.0154323019575    
600000000.0         -0.000361936687959  -0.0185155330639    0.9996313199        -0.0186984537131    0.9996313199        -0.0186984537131    -0.000361936687959  -0.0185155330639    
700000000.0         -0.000489943981927  -0.0215971505869    0.999503286434      -0.0218106154226    0.999503286434      -0.0218106154226    -0.000489943981928  -0.0215971505869    
800000000.0         -0.000637098045614  -0.0246769382679    0.999356106613      -0.0249209686117    0.999356106613      -0.0249209686117    -0.000637098045614  -0.0246769382679    
900000000.0         -0.000803369855783  -0.0277546846358    0.999189809171      -0.0280293031573    0.999189809171      -0.0280293031573    -0.000803369855783  -0.0277546846358    
1000000000.0        -0.000988727648859  -0.03083018247      0.999004425664      -0.03113541304      0.999004425664      -0.03113541304      -0.000988727648859  -0.03083018247      
1100000000.0        -0.00119313700137   -0.0339032283929    0.998799990357      -0.0342390959535    0.998799990357      -0.0342390959535    -0.00119313700137   -0.0339032283929    
1200000000.0        -0.00141656090759   -0.0369736225641    0.998576540138      -0.0373401530135    0.998576540138      -0.0373401530135    -0.00141656090759   -0.0369736225641    
1300000000.0        -0.00165895985293   -0.0400411684292    0.998334114424      -0.0404383885174    0.998334114424      -0.0404383885174    -0.00165895985294   -0.0400411684292    
1400000000.0        -0.00192029188336   -0.043105672516     0.998072755093      -0.0435336097504    0.998072755093      -0.0435336097504    -0.00192029188336   -0.043105672516     
1500000000.0        -0.00220051267104   -0.0461669442653    0.997792506409      -0.0466256268242    0.997792506409      -0.0466256268242    -0.00220051267104   -0.0461669442653    
1600000000.0        -0.002499575576     -0.0492247958836    0.99749341496       -0.049714252537     0.99749341496       -0.049714252537     -0.002499575576     -0.0492247958836    
1700000000.0        -0.00281743170478   -0.052279042219     0.997175529594      -0.0527993022558    0.997175529594      -0.0527993022558    -0.00281743170478   -0.052279042219     
1800000000.0        -0.00315402996579   -0.0553295006515    0.996838901365      -0.0558805938116    0.996838901365      -0.0558805938116    -0.00315402996579   -0.0553295006515    
1900000000.0        -0.00350931712161   -0.0583759909934    0.996483583478      -0.058957947406     0.996483583478      -0.058957947406     -0.00350931712161   -0.0583759909934    
2000000000.0        -0.00388323783914   -0.0614183354057    0.996109631238      -0.0620311855312    0.996109631238      -0.0620311855312    -0.00388323783914   -0.0614183354057    
2100000000.0        -0.00427573473674   -0.0644563583176    0.995717101999      -0.0651001328941    0.995717101999      -0.0651001328941    -0.00427573473674   -0.0644563583176    
2200000000.0        -0.00468674842944   -0.0674898863566    0.995306055126      -0.0681646163502    0.995306055126      -0.0681646163502    -0.00468674842944   -0.0674898863566    
2300000000.0        -0.00511621757229   -0.0705187482866    0.994876551944      -0.0712244648454    0.994876551944      -0.0712244648454    -0.00511621757229   -0.0705187482866    
2400000000.0        -0.00556407890122   -0.0735427749471    0.994428655699      -0.0742795093581    0.994428655699      -0.0742795093581    -0.00556407890122   -0.0735427749471    
2500000000.0        -0.00603026727269   -0.0765617992024    0.993962431517      -0.077329582852     0.993962431517      -0.077329582852     -0.00603026727269   -0.0765617992024    
2600000000.0        -0.00651471570141   -0.0795756558925    0.993477946371      -0.0803745202293    0.993477946371      -0.0803745202293    -0.00651471570141   -0.0795756558925    
2700000000.0        -0.00701735539641   -0.0825841817868    0.992975269038      -0.0834141582877    0.992975269038      -0.0834141582877    -0.00701735539641   -0.0825841817868    
2800000000.0        -0.00753811579667   -0.0855872155487    0.992454470066      -0.0864483356869    0.992454470066      -0.0864483356869    -0.00753811579667   -0.0855872155487    
2900000000.0        -0.00807692460354   -0.0885845976911    0.991915621744      -0.0894768929068    0.991915621744      -0.0894768929068    -0.00807692460354   -0.0885845976911    
3000000000.0        -0.00863370781446   -0.0915761705492    0.991358798063      -0.0924996722224    0.991358798063      -0.0924996722224    -0.00863370781446   -0.0915761705492    
3100000000.0        -0.00920838975339   -0.0945617782446    0.990784074691      -0.0955165176698    0.990784074691      -0.0955165176698    -0.00920838975339   -0.0945617782446    
3200000000.0        -0.00980089310184   -0.0975412666598    0.990191528936      -0.0985272750231    0.990191528936      -0.0985272750231    -0.00980089310184   -0.0975412666598    
3300000000.0        -0.0104111389279    -0.10051448341      0.989581239722      -0.101531791768     0.989581239722      -0.101531791768     -0.0104111389279    -0.10051448341      
3400000000.0        -0.0110390467153    -0.103481277822     0.988953287559      -0.10452991708      0.988953287559      -0.10452991708      -0.0110390467153    -0.103481277822     
3500000000.0        -0.0116845343909    -0.106441500909     0.988307754511      -0.107521501806     0.988307754511      -0.107521501806     -0.0116845343909    -0.106441500909     
3600000000.0        -0.0123475183523    -0.109395005355     0.987644724175      -0.110506398444     0.987644724175      -0.110506398444     -0.0123475183523    -0.109395005355     
3700000000.0        -0.0130279134943    -0.112341645495     0.986964281649      -0.113484461131     0.986964281649      -0.113484461131     -0.0130279134943    -0.112341645495     
3800000000.0        -0.013725633235     -0.115281277299     0.98626651351       -0.116455545624     0.98626651351       -0.116455545624     -0.013725633235     -0.115281277299     
3900000000.0        -0.0144405895416    -0.11821375836      0.985551507784      -0.119419509288     0.985551507784      -0.119419509288     -0.0144405895416    -0.11821375836      
4000000000.0        -0.0151726929548    -0.121138947877     0.984819353925      -0.122376211086     0.984819353925      -0.122376211086     -0.0151726929548    -0.121138947877     
4100000000.0        -0.0159218526146    -0.12405670665      0.984070142789      -0.12532551157      0.984070142789      -0.12532551157      -0.0159218526146    -0.12405670665      
4200000000.0        -0.0166879762838    -0.126966897065     0.983303966607      -0.128267272868     0.983303966607      -0.128267272868     -0.0166879762838    -0.126966897065     
4300000000.0        -0.0174709703726    -0.129869383087     0.982520918965      -0.131201358681     0.982520918965      -0.131201358681     -0.0174709703726    -0.129869383087     
4400000000.0        -0.0182707399623    -0.132764030253     0.981721094778      -0.134127634273     0.981721094778      -0.134127634273     -0.0182707399623    -0.132764030253     
4500000000.0        -0.0190871888287    -0.135650705667     0.980904590264      -0.137045966468     0.980904590264      -0.137045966468     -0.0190871888287    -0.135650705667     
4600000000.0        -0.0199202194657    -0.138529277992     0.980071502927      -0.139956223643     0.980071502927      -0.139956223643     -0.0199202194657    -0.138529277992     
4700000000.0        -0.0207697331083    -0.141399617445     0.979221931527      -0.142858275727     0.979221931527      -0.142858275727     -0.0207697331083    -0.141399617445     
4800000000.0        -0.0216356297561    -0.144261595799     0.978355976062      -0.145751994197     0.978355976062      -0.145751994197     -0.0216356297561    -0.144261595799     
4900000000.0        -0.0225178081957    -0.147115086373     0.977473737741      -0.148637252074     0.977473737741      -0.148637252074     -0.0225178081957    -0.147115086373     
5000000000.0        -0.0234161660241    -0.149959964036     0.976575318963      -0.151513923925     0.976575318963      -0.151513923925     -0.0234161660241    -0.149959964036     
5100000000.0        -0.024330599671     -0.152796105201     0.975660823297      -0.154381885862     0.975660823297      -0.154381885862     -0.024330599671     -0.152796105201     
5200000000.0        -0.0252610044221    -0.155623387828     0.974730355453      -0.157241015537     0.974730355453      -0.157241015537     -0.0252610044221    -0.155623387828     
5300000000.0        -0.0262072744412    -0.158441691423     0.973784021264      -0.160091192148     0.973784021264      -0.160091192148     -0.0262072744412    -0.158441691423     
5400000000.0        -0.0271693027933    -0.161250897035     0.972821927663      -0.162932296438     0.972821927663      -0.162932296438     -0.0271693027933    -0.161250897035     
5500000000.0        -0.0281469814673    -0.164050887263     0.971844182657      -0.165764210695     0.971844182657      -0.165764210695     -0.0281469814673    -0.164050887263     
5600000000.0        -0.0291402013983    -0.166841546249     0.97085089531       -0.168586818754     0.97085089531       -0.168586818754     -0.0291402013983    -0.166841546249     
5700000000.0        -0.0301488524906    -0.169622759687     0.969842175714      -0.171400006        0.969842175714      -0.171400006        -0.0301488524906    -0.169622759687     
5800000000.0        -0.0311728236405    -0.172394414822     0.968818134971      -0.174203659368     0.968818134971      -0.174203659368     -0.0311728236405    -0.172394414822     
5900000000.0        -0.0322120027586    -0.175156400451     0.967778885168      -0.176997667348     0.967778885168      -0.176997667348     -0.0322120027586    -0.175156400451     
6000000000.0        -0.0332662767931    -0.177908606927     0.966724539354      -0.179781919986     0.966724539354      -0.179781919986     -0.0332662767931    -0.177908606927     
6100000000.0        -0.0343355317521    -0.180650926158     0.965655211519      -0.182556308887     0.965655211519      -0.182556308887     -0.0343355317521    -0.180650926158     
6200000000.0        -0.0354196527266    -0.183383251617     0.96457101657       -0.185320727217     0.96457101657       -0.185320727217     -0.0354196527266    -0.183383251617     
6300000000.0        -0.0365185239138    -0.186105478335     0.963472070307      -0.18807506971      0.963472070307      -0.18807506971      -0.0365185239138    -0.186105478335     
6400000000.0        -0.0376320286394    -0.188817502913     0.962358489404      -0.190819232663     0.962358489404      -0.190819232663     -0.0376320286394    -0.188817502913     
6500000000.0        -0.0387600493809    -0.191519223518     0.96123039138       -0.193553113948     0.96123039138       -0.193553113948     -0.0387600493809    -0.191519223518     
6600000000.0        -0.0399024677905    -0.19421053989      0.960087894581      -0.196276613009     0.960087894581      -0.196276613009     -0.0399024677905    -0.19421053989      
6700000000.0        -0.0410591647183    -0.196891353344     0.958931118156      -0.198989630869     0.958931118156      -0.198989630869     -0.0410591647183    -0.196891353344     
6800000000.0        -0.0422300202353    -0.199561566769     0.957760182032      -0.201692070128     0.957760182032      -0.201692070128     -0.0422300202353    -0.199561566769     
6900000000.0        -0.0434149136564    -0.20222108464      0.956575206893      -0.204383834971     0.956575206893      -0.204383834971     -0.0434149136564    -0.20222108464      
7000000000.0        -0.0446137235638    -0.204869813008     0.955376314154      -0.207064831169     0.955376314154      -0.207064831169     -0.0446137235638    -0.204869813008     
7100000000.0        -0.0458263278299    -0.207507659515     0.954163625941      -0.209734966079     0.954163625941      -0.209734966079     -0.0458263278299    -0.207507659515     
7200000000.0        -0.047052603641     -0.210134533388     0.952937265068      -0.212394148653     0.952937265068      -0.212394148653     -0.047052603641     -0.210134533388     
7300000000.0        -0.0482924275199    -0.212750345444     0.951697355009      -0.215042289433     0.951697355009      -0.215042289433     -0.0482924275199    -0.212750345444     
7400000000.0        -0.0495456753496    -0.215355008094     0.95044401988       -0.217679300558     0.95044401988       -0.217679300558     -0.0495456753496    -0.215355008094     
7500000000.0        -0.0508122223964    -0.217948435342     0.949177384413      -0.220305095764     0.949177384413      -0.220305095764     -0.0508122223964    -0.217948435342     
7600000000.0        -0.0520919433335    -0.22053054279      0.947897573935      -0.222919590388     0.947897573935      -0.222919590388     -0.0520919433335    -0.22053054279      
7700000000.0        -0.0533847122634    -0.223101247636     0.94660471434       -0.225522701367     0.94660471434       -0.225522701367     -0.0533847122634    -0.223101247636     
7800000000.0        -0.0546904027421    -0.225660468677     0.945298932072      -0.22811434724      0.945298932072      -0.22811434724      -0.0546904027421    -0.225660468677     
7900000000.0        -0.0560088878021    -0.228208126312     0.943980354098      -0.230694448152     0.943980354098      -0.230694448152     -0.0560088878021    -0.228208126312     
8000000000.0        -0.0573400399753    -0.23074414254      0.942649107884      -0.233262925851     0.942649107884      -0.233262925851     -0.0573400399753    -0.23074414254      
8100000000.0        -0.0586837313163    -0.233268440961     0.941305321373      -0.235819703691     0.941305321373      -0.235819703691     -0.0586837313163    -0.233268440961     
8200000000.0        -0.0600398334258    -0.235780946781     0.939949122966      -0.238364706631     0.939949122966      -0.238364706631     -0.0600398334258    -0.235780946781     
8300000000.0        -0.0614082174737    -0.238281586804     0.93858064149       -0.240897861238     0.93858064149       -0.240897861238     -0.0614082174737    -0.238281586804     
8400000000.0        -0.0627887542217    -0.240770289438     0.937200006182      -0.243419095683     0.937200006182      -0.243419095683     -0.0627887542217    -0.240770289438     
8500000000.0        -0.0641813140471    -0.243246984695     0.935807346666      -0.245928339744     0.935807346666      -0.245928339744     -0.0641813140471    -0.243246984695     
8600000000.0        -0.0655857669648    -0.245711604185     0.934402792923      -0.248425524801     0.934402792923      -0.248425524801     -0.0655857669648    -0.245711604185     
8700000000.0        -0.0670019826511    -0.248164081119     0.932986475278      -0.250910583841     0.932986475278      -0.250910583841     -0.0670019826511    -0.248164081119     
8800000000.0        -0.068429830466     -0.250604350308     0.93155852437       -0.253383451451     0.93155852437       -0.253383451451     -0.068429830466     -0.250604350308     
8900000000.0        -0.0698691794758    -0.25303234816      0.93011907113       -0.25584406382      0.93011907113       -0.25584406382      -0.0698691794758    -0.25303234816      
9000000000.0        -0.0713198984762    -0.255448012677     0.928668246763      -0.258292358736     0.928668246763      -0.258292358736     -0.0713198984762    -0.255448012677     
9100000000.0        -0.0727818560142    -0.257851283455     0.927206182721      -0.260728275581     0.927206182721      -0.260728275581     -0.0727818560142    -0.257851283455     
9200000000.0        -0.0742549204114    -0.260242101682     0.925733010681      -0.263151755335     0.925733010681      -0.263151755335     -0.0742549204114    -0.260242101682     
9300000000.0        -0.0757389597851    -0.262620410131     0.924248862525      -0.265562740567     0.924248862525      -0.265562740567     -0.0757389597851    -0.262620410131     
9400000000.0        -0.0772338420717    -0.264986153162     0.922753870316      -0.267961175434     0.922753870316      -0.267961175434     -0.0772338420717    -0.264986153162     
9500000000.0        -0.0787394350478    -0.267339276715     0.921248166276      -0.270347005677     0.921248166276      -0.270347005677     -0.0787394350478    -0.267339276715     
9600000000.0        -0.0802556063529    -0.269679728307     0.919731882766      -0.27272017862      0.919731882766      -0.27272017862      -0.0802556063529    -0.269679728307     
9700000000.0        -0.0817822235101    -0.27200745703      0.918205152261      -0.275080643161     0.918205152261      -0.275080643161     -0.0817822235101    -0.27200745703      
9800000000.0        -0.0833191539492    -0.274322413544     0.916668107331      -0.277428349772     0.916668107331      -0.277428349772     -0.0833191539492    -0.274322413544     
9900000000.0        -0.0848662650268    -0.276624550072     0.915120880619      -0.279763250492     0.915120880619      -0.279763250492     -0.0848662650268    -0.276624550072     
10000000000.0       -0.0864234240484    -0.278913820399     0.913563604818      -0.282085298921     0.913563604818      -0.282085298921     -0.0864234240484    -0.278913820399     
