# Hz S RI R 50.00 
100000000.0         4.97707336986e-05   -0.00132889183873   0.999941461592      -0.00175726494939   0.999941461592      -0.00175726494939   4.97707336986e-05   -0.00132889183873   
200000000.0         4.16273988215e-05   -0.00265789402818   0.999932310618      -0.00351466830938   0.999932310618      -0.00351466830938   4.16273988213e-05   -0.00265789402818   
300000000.0         2.87164538924e-05   -0.00398705549664   0.999918396633      -0.00527227406674   0.999918396633      -0.00527227406674   2.87164538921e-05   -0.00398705549664   
400000000.0         1.10820730665e-05   -0.00531640751445   0.999899670333      -0.00703012505609   0.999899670333      -0.00703012505609   1.1082073067e-05    -0.00531640751445   
500000000.0         -1.12607616569e-05  -0.00664597206369   0.999876110753      -0.00878825311756   0.999876110753      -0.00878825311756   -1.1260761657e-05   -0.00664597206369   
600000000.0         -3.83062102053e-05  -0.00797576483327   0.999847705402      -0.0105466826964    0.999847705402      -0.0105466826964    -3.83062102051e-05  -0.00797576483327   
700000000.0         -7.00524423013e-05  -0.00930579677044   0.999814445258      -0.0123054326992    0.999814445258      -0.0123054326992    -7.00524423012e-05  -0.00930579677044   
800000000.0         -0.000106499739562  -0.010636075027     0.999776322981      -0.014064517621     0.999776322981      -0.014064517621     -0.000106499739562  -0.010636075027     
900000000.0         -0.000147649632147  -0.0119666035924    0.99973333213       -0.0158239482978    0.99973333213       -0.0158239482978    -0.000147649632147  -0.0119666035924    
1000000000.0        -0.000193504447267  -0.0132973837493    0.999685466784      -0.0175837324446    0.999685466784      -0.0175837324446    -0.000193504447267  -0.0132973837493    
1100000000.0        -0.000244067047363  -0.0146284144156    0.99963272135       -0.0193438750594    0.99963272135       -0.0193438750594    -0.000244067047363  -0.0146284144156    
1200000000.0        -0.000299340665389  -0.0159596924122    0.999575090444      -0.0211043787372    0.999575090444      -0.0211043787372    -0.000299340665389  -0.0159596924122    
1300000000.0        -0.000359328794106  -0.0172912126771    0.999512568836      -0.0228652439212    0.999512568836      -0.0228652439212    -0.000359328794106  -0.0172912126771    
1400000000.0        -0.000424035107444  -0.0186229684441    0.999445151416      -0.0246264691106    0.999445151416      -0.0246264691106    -0.000424035107444  -0.0186229684441    
1500000000.0        -0.000493463401986  -0.0199549513904    0.999372833172      -0.0263880510329    0.999372833172      -0.0263880510329    -0.000493463401986  -0.0199549513904    
1600000000.0        -0.000567617551702  -0.0212871517641    0.999295609184      -0.0281499847912    0.999295609184      -0.0281499847912    -0.000567617551702  -0.0212871517641    
1700000000.0        -0.000646501471771  -0.0226195584947    0.999213474622      -0.0299122639919    0.999213474622      -0.0299122639919    -0.000646501471771  -0.0226195584947    
1800000000.0        -0.000730119088853  -0.0239521592891    0.999126424745      -0.0316748808556    0.999126424745      -0.0316748808556    -0.000730119088853  -0.0239521592891    
1900000000.0        -0.000818474316113  -0.0252849407174    0.999034454909      -0.033437826315     0.999034454909      -0.033437826315     -0.000818474316113  -0.0252849407174    
2000000000.0        -0.000911571031819  -0.0266178882889    0.998937560567      -0.0352010901026    0.998937560567      -0.0352010901026    -0.000911571031819  -0.0266178882889    
2100000000.0        -0.00100941306074   -0.0279509865214    0.99883573728       -0.0369646608291    0.99883573728       -0.0369646608291    -0.00100941306074   -0.0279509865214    
2200000000.0        -0.00111200415775   -0.0292842190031    0.99872898072       -0.0387285260544    0.99872898072       -0.0387285260544    -0.00111200415775   -0.0292842190031    
2300000000.0        -0.00121934799325   -0.03061756845      0.998617286679      -0.0404926723525    0.998617286679      -0.0404926723525    -0.00121934799325   -0.03061756845      
2400000000.0        -0.00133144814004   -0.0319510167574    0.998500651076      -0.0422570853701    0.998500651076      -0.0422570853701    -0.00133144814004   -0.0319510167574    
2500000000.0        -0.00144830806151   -0.0332845450487    0.998379069961      -0.0440217498814    0.998379069961      -0.0440217498814    -0.00144830806151   -0.0332845450487    
2600000000.0        -0.00156993110081   -0.0346181337197    0.998252539525      -0.0457866498382    0.998252539525      -0.0457866498382    -0.00156993110081   -0.0346181337197    
2700000000.0        -0.00169632047104   -0.0359517624797    0.998121056106      -0.0475517684165    0.998121056106      -0.0475517684165    -0.00169632047104   -0.0359517624797    
2800000000.0        -0.00182747924622   -0.0372854103905    0.997984616193      -0.0493170880595    0.997984616193      -0.0493170880595    -0.00182747924622   -0.0372854103905    
2900000000.0        -0.00196341035297   -0.0386190559022    0.997843216436      -0.0510825905188    0.997843216436      -0.0510825905188    -0.00196341035297   -0.0386190559022    
3000000000.0        -0.00210411656283   -0.0399526768871    0.997696853647      -0.0528482568913    0.997696853647      -0.0528482568913    -0.00210411656283   -0.0399526768871    
3100000000.0        -0.00224960048522   -0.0412862506715    0.997545524808      -0.0546140676553    0.997545524808      -0.0546140676553    -0.00224960048522   -0.0412862506715    
3200000000.0        -0.00239986456083   -0.0426197540655    0.997389227078      -0.056380002704     0.997389227078      -0.056380002704     -0.00239986456083   -0.0426197540655    
3300000000.0        -0.0025549110556    -0.0439531633919    0.997227957794      -0.0581460413765    0.997227957794      -0.0581460413765    -0.0025549110556    -0.0439531633919    
3400000000.0        -0.00271474205505   -0.0452864545119    0.997061714479      -0.0599121624882    0.997061714479      -0.0599121624882    -0.00271474205505   -0.0452864545119    
3500000000.0        -0.00287935945908   -0.0466196028517    0.996890494842      -0.0616783443583    0.996890494842      -0.0616783443583    -0.00287935945908   -0.0466196028517    
3600000000.0        -0.00304876497713   -0.0479525834255    0.996714296789      -0.063444564837     0.996714296789      -0.063444564837     -0.00304876497713   -0.0479525834255    
3700000000.0        -0.00322296012365   -0.049285370859     0.996533118421      -0.0652108013308    0.996533118421      -0.0652108013308    -0.00322296012365   -0.049285370859     
3800000000.0        -0.00340194621398   -0.0506179394111    0.996346958038      -0.0669770308261    0.996346958038      -0.0669770308261    -0.00340194621398   -0.0506179394111    
3900000000.0        -0.00358572436047   -0.0519502629942    0.996155814146      -0.0687432299127    0.996155814146      -0.0687432299127    -0.00358572436047   -0.0519502629942    
4000000000.0        -0.00377429546892   -0.0532823151946    0.995959685458      -0.0705093748055    0.995959685458      -0.0705093748055    -0.00377429546892   -0.0532823151946    
4100000000.0        -0.00396766023526   -0.0546140692911    0.995758570896      -0.0722754413649    0.995758570896      -0.0722754413649    -0.00396766023526   -0.0546140692911    
4200000000.0        -0.0041658191425    -0.0559454982729    0.995552469596      -0.0740414051175    0.995552469596      -0.0740414051175    -0.0041658191425    -0.0559454982729    
4300000000.0        -0.00436877245795   -0.0572765748572    0.995341380906      -0.0758072412742    0.995341380906      -0.0758072412742    -0.00436877245795   -0.0572765748572    
4400000000.0        -0.00457652023061   -0.0586072715056    0.995125304396      -0.0775729247491    0.995125304396      -0.0775729247491    -0.00457652023061   -0.0586072715056    
4500000000.0        -0.00478906228883   -0.0599375604399    0.994904239853      -0.0793384301767    0.994904239853      -0.0793384301767    -0.00478906228883   -0.0599375604399    
4600000000.0        -0.00500639823809   -0.0612674136572    0.994678187286      -0.0811037319284    0.994678187286      -0.0811037319284    -0.00500639823809   -0.0612674136572    
4700000000.0        -0.0052285274591    -0.0625968029447    0.994447146929      -0.0828688041286    0.994447146929      -0.0828688041286    -0.0052285274591    -0.0625968029447    
4800000000.0        -0.00545544910593   -0.0639256998936    0.994211119239      -0.0846336206702    0.994211119239      -0.0846336206702    -0.00545544910593   -0.0639256998936    
4900000000.0        -0.00568716210445   -0.0652540759126    0.993970104901      -0.0863981552291    0.993970104901      -0.0863981552291    -0.00568716210445   -0.0652540759126    
5000000000.0        -0.00592366515084   -0.0665819022408    0.993724104827      -0.0881623812783    0.993724104827      -0.0881623812783    -0.00592366515084   -0.0665819022408    
5100000000.0        -0.00616495671033   -0.0679091499599    0.993473120161      -0.089926272102     0.993473120161      -0.089926272102     -0.00616495671033   -0.0679091499599    
5200000000.0        -0.00641103501599   -0.0692357900065    0.993217152273      -0.0916898008078    0.993217152273      -0.0916898008078    -0.00641103501599   -0.0692357900065    
5300000000.0        -0.00666189806777   -0.0705617931834    0.992956202767      -0.0934529403402    0.992956202767      -0.0934529403402    -0.00666189806777   -0.0705617931834    
5400000000.0        -0.00691754363161   -0.0718871301709    0.992690273478      -0.095215663492     0.992690273478      -0.095215663492     -0.00691754363161   -0.0718871301709    
5500000000.0        -0.00717796923869   -0.0732117715371    0.992419366475      -0.0969779429163    0.992419366475      -0.0969779429163    -0.00717796923869   -0.0732117715371    
5600000000.0        -0.00744317218484   -0.0745356877487    0.992143484058      -0.0987397511375    0.992143484058      -0.0987397511375    -0.00744317218484   -0.0745356877487    
5700000000.0        -0.00771314952997   -0.0758588491803    0.991862628762      -0.100501060562     0.991862628762      -0.100501060562     -0.00771314952997   -0.0758588491803    
5800000000.0        -0.00798789809774   -0.0771812261247    0.991576803356      -0.10226184349      0.991576803356      -0.10226184349      -0.00798789809774   -0.0771812261247    
5900000000.0        -0.00826741447525   -0.0785027888013    0.991286010843      -0.104022072123     0.991286010843      -0.104022072123     -0.00826741447525   -0.0785027888013    
6000000000.0        -0.00855169501285   -0.0798235073659    0.990990254461      -0.105781718575     0.990990254461      -0.105781718575     -0.00855169501285   -0.0798235073659    
6100000000.0        -0.00884073582407   -0.0811433519187    0.990689537682      -0.107540754883     0.990689537682      -0.107540754883     -0.00884073582407   -0.0811433519187    
6200000000.0        -0.0091345327856    -0.0824622925126    0.990383864211      -0.109299153013     0.990383864211      -0.109299153013     -0.0091345327856    -0.0824622925126    
6300000000.0        -0.00943308153742   -0.0837802991617    0.99007323799       -0.111056884872     0.99007323799       -0.111056884872     -0.00943308153742   -0.0837802991617    
6400000000.0        -0.00973637748297   -0.0850973418486    0.989757663194      -0.112813922314     0.989757663194      -0.112813922314     -0.00973637748297   -0.0850973418486    
6500000000.0        -0.0100444157894    -0.086413390532     0.98943714423       -0.114570237149     0.98943714423       -0.114570237149     -0.0100444157894    -0.086413390532     
6600000000.0        -0.0103571913879    -0.0877284151541    0.989111685742      -0.116325801151     0.989111685742      -0.116325801151     -0.0103571913879    -0.0877284151541    
6700000000.0        -0.0106746989742    -0.0890423856476    0.988781292604      -0.118080586066     0.988781292604      -0.118080586066     -0.0106746989742    -0.0890423856476    
6800000000.0        -0.0109969330089    -0.0903552719423    0.988445969923      -0.119834563617     0.988445969923      -0.119834563617     -0.0109969330089    -0.0903552719423    
6900000000.0        -0.0113238877183    -0.0916670439718    0.98810572304       -0.121587705515     0.98810572304       -0.121587705515     -0.0113238877183    -0.0916670439718    
7000000000.0        -0.0116555570946    -0.0929776716798    0.987760557524      -0.123339983463     0.987760557524      -0.123339983463     -0.0116555570946    -0.0929776716798    
7100000000.0        -0.011991934897     -0.0942871250262    0.987410479179      -0.125091369162     0.987410479179      -0.125091369162     -0.011991934897     -0.0942871250262    
7200000000.0        -0.0123330146522    -0.0955953739932    0.987055494034      -0.126841834321     0.987055494034      -0.126841834321     -0.0123330146522    -0.0955953739932    
7300000000.0        -0.0126787896554    -0.096902388591     0.98669560835       -0.12859135066      0.98669560835       -0.12859135066      -0.0126787896554    -0.096902388591     
7400000000.0        -0.0130292529709    -0.0982081388632    0.986330828617      -0.130339889915     0.986330828617      -0.130339889915     -0.0130292529709    -0.0982081388632    
7500000000.0        -0.0133843974333    -0.0995125948926    0.985961161549      -0.13208742385      0.985961161549      -0.13208742385      -0.0133843974333    -0.0995125948926    
7600000000.0        -0.0137442156482    -0.100815726806     0.985586614088      -0.133833924255     0.985586614088      -0.133833924255     -0.0137442156482    -0.100815726806     
7700000000.0        -0.0141086999934    -0.10211750478      0.985207193403      -0.135579362956     0.985207193403      -0.135579362956     -0.0141086999934    -0.10211750478      
7800000000.0        -0.0144778426198    -0.103417899044     0.984822906885      -0.137323711819     0.984822906885      -0.137323711819     -0.0144778426198    -0.103417899044     
7900000000.0        -0.0148516354528    -0.104716879888     0.984433762148      -0.139066942756     0.984433762148      -0.139066942756     -0.0148516354528    -0.104716879888     
8000000000.0        -0.0152300701929    -0.106014417664     0.984039767029      -0.140809027729     0.984039767029      -0.140809027729     -0.0152300701929    -0.106014417664     
8100000000.0        -0.0156131383177    -0.107310482795     0.983640929586      -0.142549938754     0.983640929586      -0.142549938754     -0.0156131383177    -0.107310482795     
8200000000.0        -0.0160008310824    -0.108605045773     0.983237258096      -0.144289647909     0.983237258096      -0.144289647909     -0.0160008310824    -0.108605045773     
8300000000.0        -0.0163931395212    -0.109898077169     0.982828761053      -0.146028127333     0.982828761053      -0.146028127333     -0.0163931395212    -0.109898077169     
8400000000.0        -0.0167900544489    -0.111189547632     0.98241544717       -0.147765349238     0.98241544717       -0.147765349238     -0.0167900544489    -0.111189547632     
8500000000.0        -0.0171915664623    -0.1124794279       0.981997325375      -0.149501285905     0.981997325375      -0.149501285905     -0.0171915664623    -0.1124794279       
8600000000.0        -0.0175976659409    -0.113767688796     0.98157440481       -0.151235909693     0.98157440481       -0.151235909693     -0.0175976659409    -0.113767688796     
8700000000.0        -0.0180083430492    -0.115054301236     0.98114669483       -0.152969193044     0.98114669483       -0.152969193044     -0.0180083430492    -0.115054301236     
8800000000.0        -0.0184235877374    -0.116339236234     0.980714205001      -0.154701108483     0.980714205001      -0.154701108483     -0.0184235877374    -0.116339236234     
8900000000.0        -0.0188433897432    -0.117622464901     0.980276945099      -0.156431628623     0.980276945099      -0.156431628623     -0.0188433897432    -0.117622464901     
9000000000.0        -0.0192677385934    -0.118903958452     0.979834925109      -0.158160726171     0.979834925109      -0.158160726171     -0.0192677385934    -0.118903958452     
9100000000.0        -0.0196966236051    -0.120183688208     0.979388155223      -0.15988837393      0.979388155223      -0.15988837393      -0.0196966236051    -0.120183688208     
9200000000.0        -0.0201300338877    -0.121461625601     0.978936645837      -0.161614544799     0.978936645837      -0.161614544799     -0.0201300338877    -0.121461625601     
9300000000.0        -0.0205679583439    -0.122737742172     0.978480407553      -0.163339211785     0.978480407553      -0.163339211785     -0.0205679583439    -0.122737742172     
9400000000.0        -0.0210103856719    -0.124012009582     0.978019451174      -0.165062347996     0.978019451174      -0.165062347996     -0.0210103856719    -0.124012009582     
9500000000.0        -0.0214573043664    -0.125284399607     0.977553787702      -0.166783926651     0.977553787702      -0.166783926651     -0.0214573043664    -0.125284399607     
9600000000.0        -0.0219087027209    -0.126554884147     0.977083428341      -0.16850392108      0.977083428341      -0.16850392108      -0.0219087027209    -0.126554884147     
9700000000.0        -0.0223645688288    -0.127823435224     0.976608384491      -0.170222304731     0.976608384491      -0.170222304731     -0.0223645688288    -0.127823435224     
9800000000.0        -0.0228248905856    -0.12909002499      0.976128667746      -0.171939051166     0.976128667746      -0.171939051166     -0.0228248905856    -0.12909002499      
9900000000.0        -0.02328965569      -0.130354625724     0.975644289896      -0.173654134068     0.975644289896      -0.173654134068     -0.02328965569      -0.130354625724     
10000000000.0       -0.0237588516463    -0.131617209839     0.975155262923      -0.175367527247     0.975155262923      -0.175367527247     -0.0237588516463    -0.131617209839     
