# Hz S RI R 50.00 
100000000.0         4.56748305313e-05   -7.3791644302e-05   0.999952919303      -0.000282832443954  0.999952919303      -0.000282832443954  4.56748305311e-05   -7.3791644302e-05   
200000000.0         4.57530048075e-05   -0.000147590177849  0.999952308041      -0.000565677723305  0.999952308041      -0.000565677723305  4.57530048077e-05   -0.000147590177849  
300000000.0         4.57082154448e-05   -0.000221398966724  0.99995169248       -0.000848542517231  0.99995169248       -0.000848542517231  4.57082154448e-05   -0.000221398966724  
400000000.0         4.55805656048e-05   -0.000295220537553  0.999951032464      -0.00113143188974   0.999951032464      -0.00113143188974   4.55805656048e-05   -0.000295220537553  
500000000.0         4.53854538329e-05   -0.000369056962727  0.999950312536      -0.00141435008652   0.999950312536      -0.00141435008652   4.53854538325e-05   -0.000369056962727  
600000000.0         4.51307039653e-05   -0.000442910006117  0.999949524806      -0.0016973008152    0.999949524806      -0.0016973008152    4.51307039653e-05   -0.000442910006117  
700000000.0         4.48209156012e-05   -0.000516781200017  0.999948664605      -0.0019802873892    0.999948664605      -0.0019802873892    4.48209156017e-05   -0.000516781200017  
800000000.0         4.44590506083e-05   -0.000590671889051  0.999947728895      -0.00226331281106   0.999947728895      -0.00226331281106   4.44590506081e-05   -0.000590671889051  
900000000.0         4.40471391054e-05   -0.000664583262942  0.999946715565      -0.00254637983094   0.999946715565      -0.00254637983094   4.4047139105e-05    -0.000664583262942  
1000000000.0        4.35866370252e-05   -0.000738516378115  0.999945623076      -0.00282949098603   0.999945623076      -0.00282949098603   4.35866370254e-05   -0.000738516378115  
1100000000.0        4.30786248242e-05   -0.00081247217461   0.999944450258      -0.0031126486305    0.999944450258      -0.0031126486305    4.30786248242e-05   -0.00081247217461   
1200000000.0        4.25239257393e-05   -0.000886451488932  0.999943196197      -0.00339585495824   0.999943196197      -0.00339585495824   4.25239257391e-05   -0.000886451488932  
1300000000.0        4.19231802566e-05   -0.000960455065179  0.999941860159      -0.00367911202166   0.999941860159      -0.00367911202166   4.19231802566e-05   -0.000960455065179  
1400000000.0        4.12768950013e-05   -0.00103448356304   0.999940441539      -0.00396242174582   0.999940441539      -0.00396242174582   4.12768950013e-05   -0.00103448356304   
1500000000.0        4.05854760632e-05   -0.00110853756532   0.999938939832      -0.00424578594096   0.999938939832      -0.00424578594096   4.05854760632e-05   -0.00110853756532   
1600000000.0        3.98492524016e-05   -0.00118261758418   0.999937354607      -0.00452920631283   0.999937354607      -0.00452920631283   3.98492524016e-05   -0.00118261758418   
1700000000.0        3.90684927232e-05   -0.00125672406628   0.999935685492      -0.00481268447128   0.999935685492      -0.00481268447128   3.90684927234e-05   -0.00125672406628   
1800000000.0        3.82434179202e-05   -0.00133085739752   0.999933932158      -0.00509622193799   0.999933932158      -0.00509622193799   3.82434179198e-05   -0.00133085739752   
1900000000.0        3.73742104118e-05   -0.00140501790675   0.999932094317      -0.00537982015258   0.999932094317      -0.00537982015258   3.73742104118e-05   -0.00140501790675   
2000000000.0        3.64610213157e-05   -0.00147920587022   0.999930171708      -0.00566348047929   0.999930171708      -0.00566348047929   3.64610213155e-05   -0.00147920587022   
2100000000.0        3.55039759827e-05   -0.00155342151382   0.999928164095      -0.0059472042111    0.999928164095      -0.0059472042111    3.55039759827e-05   -0.00155342151382   
2200000000.0        3.45031783808e-05   -0.00162766501672   0.999926071262      -0.006230992575     0.999926071262      -0.006230992575     3.45031783808e-05   -0.00162766501672   
2300000000.0        3.34587145729e-05   -0.00170193651384   0.999923893011      -0.00651484673594   0.999923893011      -0.00651484673594   3.34587145732e-05   -0.00170193651384   
2400000000.0        3.23706555379e-05   -0.001776236098     0.999921629157      -0.00679876780026   0.999921629157      -0.00679876780026   3.23706555379e-05   -0.001776236098     
2500000000.0        3.12390594379e-05   -0.00185056382256   0.999919279526      -0.00708275681949   0.999919279526      -0.00708275681949   3.12390594379e-05   -0.00185056382256   
2600000000.0        3.00639735265e-05   -0.00192491970312   0.999916843956      -0.00736681479312   0.999916843956      -0.00736681479312   3.00639735265e-05   -0.00192491970312   
2700000000.0        2.88454356825e-05   -0.00199930371961   0.999914322294      -0.00765094267157   0.999914322294      -0.00765094267157   2.88454356825e-05   -0.00199930371961   
2800000000.0        2.75834757246e-05   -0.00207371581789   0.999911714392      -0.00793514135869   0.999911714392      -0.00793514135869   2.75834757244e-05   -0.00207371581789   
2900000000.0        2.62781165055e-05   -0.00214815591147   0.999909020111      -0.0082194117142    0.999909020111      -0.0082194117142    2.62781165057e-05   -0.00214815591147   
3000000000.0        2.4929374842e-05    -0.00222262388299   0.999906239317      -0.00850375455593   0.999906239317      -0.00850375455593   2.49293748422e-05   -0.00222262388299   
3100000000.0        2.35372623059e-05   -0.00229711958559   0.999903371881      -0.00878817066177   0.999903371881      -0.00878817066177   2.35372623061e-05   -0.00229711958559   
3200000000.0        2.21017859077e-05   -0.00237164284428   0.999900417678      -0.00907266077168   0.999900417678      -0.00907266077168   2.21017859074e-05   -0.00237164284428   
3300000000.0        2.06229486737e-05   -0.00244619345712   0.999897376587      -0.00935722558935   0.999897376587      -0.00935722558935   2.06229486739e-05   -0.00244619345712   
3400000000.0        1.91007501673e-05   -0.00252077119658   0.99989424849       -0.00964186578414   0.99989424849       -0.00964186578414   1.91007501673e-05   -0.00252077119658   
3500000000.0        1.75351869203e-05   -0.00259537581028   0.999891033274      -0.00992658199222   0.999891033274      -0.00992658199222   1.753518692e-05     -0.00259537581028   
3600000000.0        1.59262528303e-05   -0.00267000702253   0.999887730828      -0.0102113748185    0.999887730828      -0.0102113748185    1.59262528303e-05   -0.00267000702253   
3700000000.0        1.42739394962e-05   -0.00274466453467   0.999884341041      -0.0104962448376    0.999884341041      -0.0104962448376    1.42739394959e-05   -0.00274466453467   
3800000000.0        1.25782365195e-05   -0.0028193480267    0.999880863807      -0.0107811925954    0.999880863807      -0.0107811925954    1.25782365197e-05   -0.0028193480267    
3900000000.0        1.08391317764e-05   -0.00289405715756   0.999877299023      -0.0110662186101    0.999877299023      -0.0110662186101    1.08391317761e-05   -0.00289405715756   
4000000000.0        9.05661164685e-06   -0.00296879156635   0.999873646584      -0.0113513233736    0.999873646584      -0.0113513233736    9.05661164685e-06   -0.00296879156635   
4100000000.0        7.2306612322e-06    -0.00304355087304   0.999869906389      -0.0116365073524    0.999869906389      -0.0116365073524    7.2306612322e-06    -0.00304355087304   
4200000000.0        5.3612645452e-06    -0.00311833467902   0.99986607834       -0.0119217709888    0.99986607834       -0.0119217709888    5.36126454542e-06   -0.00311833467902   
4300000000.0        3.44840467625e-06   -0.00319314256815   0.999862162337      -0.0122071147015    0.999862162337      -0.0122071147015    3.44840467625e-06   -0.00319314256815   
4400000000.0        1.49206395106e-06   -0.00326797410717   0.999858158285      -0.0124925388871    0.999858158285      -0.0124925388871    1.49206395106e-06   -0.00326797410717   
4500000000.0        -5.07775934855e-07  -0.00334282884663   0.999854066088      -0.0127780439206    0.999854066088      -0.0127780439206    -5.07775935077e-07  -0.00334282884663   
4600000000.0        -2.55113378511e-06  -0.00341770632104   0.999849885651      -0.0130636301564    0.999849885651      -0.0130636301564    -2.55113378522e-06  -0.00341770632104   
4700000000.0        -4.6380287928e-06   -0.00349260605007   0.999845616881      -0.0133492979288    0.999845616881      -0.0133492979288    -4.6380287928e-06   -0.00349260605007   
4800000000.0        -6.7684804369e-06   -0.00356752753875   0.999841259686      -0.0136350475536    0.999841259686      -0.0136350475536    -6.76848043701e-06  -0.00356752753875   
4900000000.0        -8.94250838124e-06  -0.00364247027797   0.999836813974      -0.0139208793275    0.999836813974      -0.0139208793275    -8.94250838124e-06  -0.00364247027797   
5000000000.0        -1.11601323969e-05  -0.00371743374522   0.999832279656      -0.01420679353      0.999832279656      -0.01420679353      -1.11601323969e-05  -0.00371743374522   
5100000000.0        -1.34213722761e-05  -0.00379241740508   0.999827656642      -0.0144927904236    0.999827656642      -0.0144927904236    -1.3421372276e-05   -0.00379241740508   
5200000000.0        -1.57262477614e-05  -0.0038674207094    0.999822944842      -0.0147788702543    0.999822944842      -0.0147788702543    -1.57262477615e-05  -0.0038674207094    
5300000000.0        -1.80747784811e-05  -0.0039424430982    0.99981814417       -0.0150650332526    0.99981814417       -0.0150650332526    -1.80747784811e-05  -0.0039424430982    
5400000000.0        -2.04669838804e-05  -0.00401748399968   0.999813254538      -0.0153512796334    0.999813254538      -0.0153512796334    -2.04669838808e-05  -0.00401748399968   
5500000000.0        -2.29028831736e-05  -0.00409254283096   0.999808275859      -0.0156376095973    0.999808275859      -0.0156376095973    -2.2902883174e-05   -0.00409254283096   
5600000000.0        -2.53824952839e-05  -0.00416761899836   0.999803208049      -0.0159240233309    0.999803208049      -0.0159240233309    -2.53824952838e-05  -0.00416761899836   
5700000000.0        -2.7905838798e-05   -0.00424271189777   0.999798051022      -0.0162105210071    0.999798051022      -0.0162105210071    -2.7905838798e-05   -0.00424271189777   
5800000000.0        -3.04729319194e-05  -0.00431782091508   0.999792804693      -0.0164971027856    0.999792804693      -0.0164971027856    -3.04729319193e-05  -0.00431782091508   
5900000000.0        -3.30837924286e-05  -0.00439294542649   0.99978746898       -0.0167837688137    0.99978746898       -0.0167837688137    -3.30837924286e-05  -0.00439294542649   
6000000000.0        -3.57384376409e-05  -0.00446808479892   0.999782043798      -0.0170705192265    0.999782043798      -0.0170705192265    -3.5738437641e-05   -0.00446808479892   
6100000000.0        -3.84368843716e-05  -0.00454323839028   0.999776529066      -0.0173573541473    0.999776529066      -0.0173573541473    -3.84368843714e-05  -0.00454323839028   
6200000000.0        -4.11791489014e-05  -0.00461840554975   0.999770924701      -0.0176442736883    0.999770924701      -0.0176442736883    -4.11791489012e-05  -0.00461840554975   
6300000000.0        -4.39652469468e-05  -0.00469358561829   0.999765230623      -0.0179312779505    0.999765230623      -0.0179312779505    -4.39652469468e-05  -0.00469358561829   
6400000000.0        -4.67951936256e-05  -0.00476877792866   0.999759446751      -0.0182183670246    0.999759446751      -0.0182183670246    -4.67951936254e-05  -0.00476877792866   
6500000000.0        -4.96690034338e-05  -0.00484398180593   0.999753573004      -0.0185055409911    0.999753573004      -0.0185055409911    -4.96690034336e-05  -0.00484398180593   
6600000000.0        -5.25866902186e-05  -0.00491919656765   0.999747609303      -0.0187927999206    0.999747609303      -0.0187927999206    -5.25866902186e-05  -0.00491919656765   
6700000000.0        -5.55482671519e-05  -0.00499442152411   0.999741555569      -0.0190801438745    0.999741555569      -0.0190801438745    -5.55482671522e-05  -0.00499442152411   
6800000000.0        -5.85537467107e-05  -0.00506965597863   0.999735411724      -0.0193675729046    0.999735411724      -0.0193675729046    -5.85537467108e-05  -0.00506965597863   
6900000000.0        -6.16031406513e-05  -0.00514489922781   0.999729177689      -0.0196550870544    0.999729177689      -0.0196550870544    -6.16031406513e-05  -0.00514489922781   
7000000000.0        -6.46964599933e-05  -0.00522015056172   0.999722853387      -0.0199426863586    0.999722853387      -0.0199426863586    -6.46964599934e-05  -0.00522015056172   
7100000000.0        -6.78337149996e-05  -0.00529540926417   0.999716438742      -0.0202303708437    0.999716438742      -0.0202303708437    -6.78337149999e-05  -0.00529540926417   
7200000000.0        -7.10149151574e-05  -0.00537067461299   0.999709933676      -0.0205181405284    0.999709933676      -0.0205181405284    -7.10149151575e-05  -0.00537067461299   
7300000000.0        -7.42400691612e-05  -0.00544594588009   0.999703338115      -0.0208059954235    0.999703338115      -0.0208059954235    -7.42400691609e-05  -0.00544594588009   
7400000000.0        -7.75091848968e-05  -0.00552122233175   0.999696651982      -0.0210939355327    0.999696651982      -0.0210939355327    -7.75091848967e-05  -0.00552122233175   
7500000000.0        -8.08222694291e-05  -0.00559650322887   0.999689875203      -0.0213819608522    0.999689875203      -0.0213819608522    -8.08222694288e-05  -0.00559650322887   
7600000000.0        -8.41793289845e-05  -0.00567178782706   0.999683007704      -0.0216700713716    0.999683007704      -0.0216700713716    -8.41793289847e-05  -0.00567178782706   
7700000000.0        -8.75803689414e-05  -0.00574707537694   0.99967604941       -0.0219582670736    0.99967604941       -0.0219582670736    -8.75803689414e-05  -0.00574707537694   
7800000000.0        -9.10253938123e-05  -0.00582236512417   0.999669000249      -0.0222465479346    0.999669000249      -0.0222465479346    -9.10253938123e-05  -0.00582236512417   
7900000000.0        -9.45144072364e-05  -0.00589765630978   0.999661860148      -0.0225349139246    0.999661860148      -0.0225349139246    -9.45144072363e-05  -0.00589765630978   
8000000000.0        -9.80474119665e-05  -0.00597294817024   0.999654629034      -0.0228233650077    0.999654629034      -0.0228233650077    -9.80474119663e-05  -0.00597294817024   
8100000000.0        -0.000101624409857  -0.0060482399376    0.999647306835      -0.0231119011421    0.999647306835      -0.0231119011421    -0.000101624409857  -0.0060482399376    
8200000000.0        -0.000105245401858  -0.00612353083973   0.999639893481      -0.0234005222804    0.999639893481      -0.0234005222804    -0.000105245401858  -0.00612353083973   
8300000000.0        -0.000108910388002  -0.00619882010042   0.9996323889        -0.0236892283698    0.9996323889        -0.0236892283698    -0.000108910388002  -0.00619882010042   
8400000000.0        -0.000112619367395  -0.00627410693955   0.999624793022      -0.0239780193521    0.999624793022      -0.0239780193521    -0.000112619367395  -0.00627410693955   
8500000000.0        -0.000116372338211  -0.00634939057321   0.999617105777      -0.0242668951641    0.999617105777      -0.0242668951641    -0.000116372338211  -0.00634939057321   
8600000000.0        -0.000120169297678  -0.00642467021381   0.999609327096      -0.0245558557377    0.999609327096      -0.0245558557377    -0.000120169297678  -0.00642467021381   
8700000000.0        -0.000124010242077  -0.00649994507026   0.99960145691       -0.0248449009999    0.99960145691       -0.0248449009999    -0.000124010242077  -0.00649994507026   
8800000000.0        -0.000127895166732  -0.00657521434813   0.999593495151      -0.0251340308734    0.999593495151      -0.0251340308734    -0.000127895166731  -0.00657521434813   
8900000000.0        -0.000131824065998  -0.00665047724964   0.99958544175       -0.025423245276     0.99958544175       -0.025423245276     -0.000131824065998  -0.00665047724964   
9000000000.0        -0.000135796933266  -0.00672573297391   0.99957729664       -0.0257125441216    0.99957729664       -0.0257125441216    -0.000135796933266  -0.00672573297391   
9100000000.0        -0.000139813760944  -0.00680098071703   0.999569059755      -0.0260019273197    0.999569059755      -0.0260019273197    -0.000139813760944  -0.00680098071703   
9200000000.0        -0.00014387454046   -0.00687621967216   0.999560731028      -0.0262913947757    0.999560731028      -0.0262913947757    -0.00014387454046   -0.00687621967216   
9300000000.0        -0.000147979262252  -0.00695144902965   0.999552310393      -0.0265809463915    0.999552310393      -0.0265809463915    -0.000147979262251  -0.00695144902965   
9400000000.0        -0.000152127915761  -0.00702666797712   0.999543797784      -0.0268705820647    0.999543797784      -0.0268705820647    -0.000152127915761  -0.00702666797712   
9500000000.0        -0.000156320489435  -0.00710187569963   0.999535193137      -0.0271603016896    0.999535193137      -0.0271603016896    -0.000156320489435  -0.00710187569963   
9600000000.0        -0.000160556970713  -0.00717707137972   0.999526496386      -0.0274501051568    0.999526496386      -0.0274501051568    -0.000160556970712  -0.00717707137972   
9700000000.0        -0.000164837346025  -0.00725225419748   0.999517707469      -0.0277399923536    0.999517707469      -0.0277399923536    -0.000164837346025  -0.00725225419748   
9800000000.0        -0.000169161600792  -0.00732742333072   0.999508826321      -0.0280299631639    0.999508826321      -0.0280299631639    -0.000169161600792  -0.00732742333072   
9900000000.0        -0.000173529719415  -0.00740257795503   0.99949985288       -0.0283200174685    0.99949985288       -0.0283200174685    -0.000173529719415  -0.00740257795503   
10000000000.0       -0.000177941685273  -0.00747771724384   0.999490787082      -0.0286101551448    0.999490787082      -0.0286101551448    -0.000177941685273  -0.00747771724384   
