# Hz S RI R 50.00 
100000000.0         0.00361011598969    4.83584021787e-05   0.996381660932      -0.00301092062853   0.996381660932      -0.00301092062853   0.00361011598969    4.83584021788e-05   
200000000.0         0.00363319263686    9.65713742816e-05   0.996342573619      -0.00602167068208   0.996342573619      -0.00602167068208   0.00363319263686    9.65713742815e-05   
300000000.0         0.00365022346127    0.0001446934606     0.996300744365      -0.00903228800784   0.996300744365      -0.00903228800784   0.00365022346127    0.0001446934606     
400000000.0         0.00366433397747    0.000192741265199   0.996253047509      -0.0120427705129    0.996253047509      -0.0120427705129    0.00366433397747    0.000192741265199   
500000000.0         0.0036767275265     0.000240722752779   0.996198279587      -0.0150531064643    0.996198279587      -0.0150531064643    0.0036767275265     0.000240722752779   
600000000.0         0.00368801755117    0.000288642134585   0.996135827057      -0.0180632797252    0.996135827057      -0.0180632797252    0.00368801755117    0.000288642134586   
700000000.0         0.00369856622461    0.000336501604677   0.996065327675      -0.0210732716687    0.996065327675      -0.0210732716687    0.00369856622461    0.000336501604677   
800000000.0         0.00370860802001    0.000384302136979   0.995986546925      -0.0240830620814    0.995986546925      -0.0240830620814    0.00370860802001    0.000384302136979   
900000000.0         0.00371830472185    0.000432043908636   0.99589932301       -0.0270926296564    0.99589932301       -0.0270926296564    0.00371830472185    0.000432043908636   
1000000000.0        0.00372777330538    0.000479726547922   0.995803538976      -0.0301019522908    0.995803538976      -0.0301019522908    0.00372777330538    0.000479726547922   
1100000000.0        0.00373710143201    0.000527349289988   0.99569910722       -0.0331110072765    0.99569910722       -0.0331110072765    0.00373710143201    0.000527349289988   
1200000000.0        0.00374635668111    0.00057491107978    0.995585960255      -0.0361197714316    0.995585960255      -0.0361197714316    0.00374635668111    0.00057491107978    
1300000000.0        0.00375559235717    0.000622410643136   0.995464044908      -0.0391282211924    0.995464044908      -0.0391282211924    0.00375559235717    0.000622410643136   
1400000000.0        0.0037648513062     0.00066984653747    0.995333318505      -0.0421363326814    0.995333318505      -0.0421363326814    0.0037648513062     0.00066984653747    
1500000000.0        0.00377416851591    0.000717217188894   0.99519374627       -0.0451440817589    0.99519374627       -0.0451440817589    0.00377416851591    0.000717217188894   
1600000000.0        0.00378357294159    0.000764520920051   0.995045299503      -0.0481514440625    0.995045299503      -0.0481514440625    0.00378357294159    0.000764520920051   
1700000000.0        0.0037930888217     0.000811755971447   0.994887954262      -0.0511583950381    0.994887954262      -0.0511583950381    0.0037930888217     0.000811755971447   
1800000000.0        0.00380273664702    0.000858920518027   0.994721690398      -0.0541649099653    0.994721690398      -0.0541649099653    0.00380273664702    0.000858920518027   
1900000000.0        0.00381253388867    0.000906012682223   0.994546490828      -0.0571709639775    0.994546490828      -0.0571709639775    0.00381253388867    0.000906012682223   
2000000000.0        0.0038224955541     0.000953030544418   0.994362340977      -0.0601765320791    0.994362340977      -0.0601765320791    0.0038224955541     0.000953030544418   
2100000000.0        0.00383263461842    0.000999972151409   0.994169228349      -0.0631815891592    0.994169228349      -0.0631815891592    0.00383263461842    0.000999972151409   
2200000000.0        0.00384296236337    0.0010468355233     0.993967142191      -0.0661861100033    0.993967142191      -0.0661861100033    0.00384296236337    0.0010468355233     
2300000000.0        0.00385348864702    0.00109361865919    0.99375607322       -0.0691900693039    0.99375607322       -0.0691900693039    0.00385348864702    0.00109361865919    
2400000000.0        0.00386422212066    0.0011403195419     0.993536013411      -0.072193441669     0.993536013411      -0.072193441669     0.00386422212066    0.0011403195419     
2500000000.0        0.00387517040503    0.00118693614191    0.993306955818      -0.0751962016294    0.993306955818      -0.0751962016294    0.00387517040503    0.00118693614191    
2600000000.0        0.00388634023477    0.00123346642072    0.993068894432      -0.0781983236453    0.993068894432      -0.0781983236453    0.00388634023477    0.00123346642072    
2700000000.0        0.00389773757774    0.00127990833363    0.992821824063      -0.0811997821124    0.992821824063      -0.0811997821124    0.00389773757774    0.00127990833363    
2800000000.0        0.00390936773447    0.00132625983218    0.99256574024       -0.0842005513665    0.99256574024       -0.0842005513665    0.00390936773447    0.00132625983218    
2900000000.0        0.00392123542155    0.00137251886618    0.992300639126      -0.0872006056883    0.992300639126      -0.0872006056883    0.00392123542155    0.00137251886618    
3000000000.0        0.00393334484199    0.00141868338551    0.992026517453      -0.0901999193076    0.992026517453      -0.0901999193076    0.00393334484199    0.00141868338551    
3100000000.0        0.003945699745      0.0014647513416     0.991743372461      -0.0931984664065    0.991743372461      -0.0931984664065    0.003945699745      0.0014647513416     
3200000000.0        0.00395830347704    0.0015107206888     0.991451201843      -0.096196221123     0.991451201843      -0.096196221123     0.00395830347704    0.0015107206888     
3300000000.0        0.00397115902566    0.00155658938552    0.99115000371       -0.0991931575538    0.99115000371       -0.0991931575538    0.00397115902566    0.00155658938552    
3400000000.0        0.00398426905733    0.00160235539521    0.990839776547      -0.102189249757     0.990839776547      -0.102189249757     0.00398426905733    0.00160235539521    
3500000000.0        0.00399763595016    0.00164801668727    0.990520519182      -0.105184471755     0.990520519182      -0.105184471755     0.00399763595016    0.00164801668727    
3600000000.0        0.00401126182252    0.00169357123782    0.99019223076       -0.108178797536     0.99019223076       -0.108178797536     0.00401126182252    0.00169357123782    
3700000000.0        0.0040251485579     0.00173901703036    0.989854910717      -0.111172201057     0.989854910717      -0.111172201057     0.0040251485579     0.00173901703036    
3800000000.0        0.00403929782684    0.00178435205637    0.989508558759      -0.114164656244     0.989508558759      -0.114164656244     0.00403929782684    0.00178435205637    
3900000000.0        0.00405371110622    0.00182957431587    0.989153174843      -0.117156136997     0.989153174843      -0.117156136997     0.00405371110622    0.00182957431587    
4000000000.0        0.00406838969626    0.00187468181785    0.988788759161      -0.120146617187     0.988788759161      -0.120146617187     0.00406838969626    0.00187468181785    
4100000000.0        0.00408333473562    0.0019196725807     0.988415312122      -0.123136070663     0.988415312122      -0.123136070663     0.00408333473562    0.0019196725807     
4200000000.0        0.00409854721487    0.00196454463258    0.988032834344      -0.126124471249     0.988032834344      -0.126124471249     0.00409854721487    0.00196454463258    
4300000000.0        0.00411402798846    0.00200929601174    0.987641326641      -0.129111792747     0.987641326641      -0.129111792747     0.00411402798846    0.00200929601174    
4400000000.0        0.00412977778541    0.00205392476682    0.987240790008      -0.132098008938     0.987240790008      -0.132098008938     0.00412977778541    0.00205392476682    
4500000000.0        0.00414579721897    0.0020984289571     0.986831225619      -0.135083093585     0.986831225619      -0.135083093585     0.00414579721897    0.0020984289571     
4600000000.0        0.00416208679526    0.00214280665272    0.986412634813      -0.138067020431     0.986412634813      -0.138067020431     0.00416208679526    0.00214280665272    
4700000000.0        0.00417864692103    0.00218705593492    0.985985019089      -0.141049763201     0.985985019089      -0.141049763201     0.00417864692103    0.00218705593492    
4800000000.0        0.00419547791077    0.00223117489617    0.985548380099      -0.144031295607     0.985548380099      -0.144031295607     0.00419547791077    0.00223117489617    
4900000000.0        0.00421257999303    0.00227516164039    0.985102719643      -0.147011591342     0.985102719643      -0.147011591342     0.00421257999303    0.00227516164039    
5000000000.0        0.00422995331628    0.00231901428304    0.984648039661      -0.149990624086     0.984648039661      -0.149990624086     0.00422995331628    0.00231901428304    
5100000000.0        0.00424759795411    0.00236273095129    0.984184342229      -0.152968367506     0.984184342229      -0.152968367506     0.00424759795411    0.00236273095129    
5200000000.0        0.00426551391011    0.00240630978411    0.983711629558      -0.155944795254     0.983711629558      -0.155944795254     0.00426551391011    0.00240630978411    
5300000000.0        0.0042837011222     0.00244974893238    0.983229903982      -0.158919880973     0.983229903982      -0.158919880973     0.0042837011222     0.00244974893238    
5400000000.0        0.00430215946668    0.00249304655897    0.982739167963      -0.161893598293     0.982739167963      -0.161893598293     0.00430215946668    0.00249304655897    
5500000000.0        0.00432088876191    0.00253620083883    0.982239424083      -0.164865920833     0.982239424083      -0.164865920833     0.00432088876191    0.00253620083883    
5600000000.0        0.00433988877168    0.00257920995907    0.981730675041      -0.167836822204     0.981730675041      -0.167836822204     0.00433988877168    0.00257920995907    
5700000000.0        0.00435915920832    0.00262207211897    0.981212923651      -0.170806276006     0.981212923651      -0.170806276006     0.00435915920832    0.00262207211897    
5800000000.0        0.0043786997356     0.0026647855301     0.980686172838      -0.173774255833     0.980686172838      -0.173774255833     0.0043786997356     0.0026647855301     
5900000000.0        0.00439850997134    0.00270734841633    0.980150425639      -0.176740735269     0.980150425639      -0.176740735269     0.00439850997134    0.00270734841633    
6000000000.0        0.00441858948986    0.00274975901386    0.979605685198      -0.17970568789      0.979605685198      -0.17970568789      0.00441858948986    0.00274975901386    
6100000000.0        0.00443893782429    0.00279201557127    0.979051954764      -0.182669087269     0.979051954764      -0.182669087269     0.00443893782429    0.00279201557127    
6200000000.0        0.00445955446861    0.00283411634956    0.97848923769       -0.185630906971     0.97848923769       -0.185630906971     0.00445955446861    0.00283411634956    
6300000000.0        0.00448043887963    0.00287605962213    0.977917537431      -0.188591120553     0.977917537431      -0.188591120553     0.00448043887963    0.00287605962213    
6400000000.0        0.00450159047883    0.00291784367486    0.977336857542      -0.191549701572     0.977336857542      -0.191549701572     0.00450159047883    0.00291784367486    
6500000000.0        0.004523008654      0.00295946680607    0.976747201679      -0.194506623577     0.976747201679      -0.194506623577     0.004523008654      0.00295946680607    
6600000000.0        0.00454469276085    0.00300092732655    0.976148573593      -0.197461860114     0.976148573593      -0.197461860114     0.00454469276085    0.00300092732656    
6700000000.0        0.00456664212448    0.0030422235596     0.975540977134      -0.200415384726     0.975540977134      -0.200415384726     0.00456664212448    0.0030422235596     
6800000000.0        0.00458885604073    0.00308335384097    0.974924416246      -0.203367170954     0.974924416246      -0.203367170954     0.00458885604073    0.00308335384097    
6900000000.0        0.0046113337775     0.00312431651891    0.974298894967      -0.206317192334     0.974298894967      -0.206317192334     0.0046113337775     0.00312431651891    
7000000000.0        0.00463407457594    0.00316510995417    0.973664417428      -0.209265422402     0.973664417428      -0.209265422402     0.00463407457594    0.00316510995417    
7100000000.0        0.00465707765157    0.00320573251996    0.973020987855      -0.212211834693     0.973020987855      -0.212211834693     0.00465707765157    0.00320573251996    
7200000000.0        0.00468034219537    0.00324618260199    0.972368610562      -0.215156402739     0.972368610562      -0.215156402739     0.00468034219537    0.00324618260199    
7300000000.0        0.00470386737478    0.00328645859841    0.971707289955      -0.218099100073     0.971707289955      -0.218099100073     0.00470386737478    0.00328645859841    
7400000000.0        0.0047276523346     0.00332655891986    0.971037030532      -0.221039900227     0.971037030532      -0.221039900227     0.0047276523346     0.00332655891986    
7500000000.0        0.00475169619795    0.0033664819894     0.970357836876      -0.223978776735     0.970357836876      -0.223978776735     0.00475169619795    0.0033664819894     
7600000000.0        0.00477599806702    0.00340622624256    0.969669713662      -0.226915703128     0.969669713662      -0.226915703128     0.00477599806702    0.00340622624256    
7700000000.0        0.00480055702395    0.00344579012725    0.968972665652      -0.229850652941     0.968972665652      -0.229850652941     0.00480055702395    0.00344579012725    
7800000000.0        0.00482537213152    0.00348517210382    0.968266697697      -0.232783599711     0.968266697697      -0.232783599711     0.00482537213152    0.00348517210382    
7900000000.0        0.00485044243387    0.00352437064498    0.967551814731      -0.235714516976     0.967551814731      -0.235714516976     0.00485044243387    0.00352437064498    
8000000000.0        0.00487576695717    0.00356338423583    0.966828021778      -0.238643378274     0.966828021778      -0.238643378274     0.00487576695717    0.00356338423583    
8100000000.0        0.0049013447103     0.0036022113738     0.966095323947      -0.241570157149     0.966095323947      -0.241570157149     0.0049013447103     0.0036022113738     
8200000000.0        0.00492717468539    0.00364085056867    0.965353726433      -0.244494827146     0.965353726433      -0.244494827146     0.00492717468539    0.00364085056867    
8300000000.0        0.00495325585842    0.0036793003425     0.964603234514      -0.247417361815     0.964603234514      -0.247417361815     0.00495325585842    0.0036793003425     
8400000000.0        0.00497958718978    0.00371755922966    0.963843853556      -0.250337734709     0.963843853556      -0.250337734709     0.00497958718978    0.00371755922966    
8500000000.0        0.00500616762479    0.00375562577677    0.963075589007      -0.253255919384     0.963075589007      -0.253255919384     0.00500616762479    0.00375562577677    
8600000000.0        0.00503299609416    0.00379349854267    0.9622984464        -0.256171889403     0.9622984464        -0.256171889403     0.00503299609416    0.00379349854267    
8700000000.0        0.00506007151451    0.00383117609843    0.961512431351      -0.259085618331     0.961512431351      -0.259085618331     0.00506007151451    0.00383117609843    
8800000000.0        0.0050873927888     0.00386865702732    0.960717549562      -0.261997079741     0.960717549562      -0.261997079741     0.0050873927888     0.00386865702732    
8900000000.0        0.00511495880675    0.00390593992473    0.959913806816      -0.26490624721      0.959913806816      -0.26490624721      0.00511495880675    0.00390593992473    
9000000000.0        0.00514276844526    0.0039430233982     0.959101208978      -0.26781309432      0.959101208978      -0.26781309432      0.00514276844526    0.0039430233982     
9100000000.0        0.00517082056884    0.0039799060674     0.958279761998      -0.270717594662     0.958279761998      -0.270717594662     0.00517082056884    0.0039799060674     
9200000000.0        0.00519911402991    0.00401658656403    0.957449471908      -0.273619721831     0.957449471908      -0.273619721831     0.00519911402991    0.00401658656403    
9300000000.0        0.00522764766925    0.00405306353186    0.956610344821      -0.276519449431     0.956610344821      -0.276519449431     0.00522764766925    0.00405306353186    
9400000000.0        0.00525642031628    0.00408933562669    0.955762386934      -0.279416751071     0.955762386934      -0.279416751071     0.00525642031628    0.00408933562669    
9500000000.0        0.00528543078943    0.0041254015163     0.954905604524      -0.28231160037      0.954905604524      -0.28231160037      0.00528543078943    0.0041254015163     
9600000000.0        0.00531467789645    0.00416125988041    0.954040003951      -0.285203970954     0.954040003951      -0.285203970954     0.00531467789645    0.00416125988041    
9700000000.0        0.00534416043472    0.00419690941069    0.953165591656      -0.288093836455     0.953165591656      -0.288093836455     0.00534416043472    0.00419690941069    
9800000000.0        0.00537387719153    0.00423234881069    0.952282374161      -0.290981170518     0.952282374161      -0.290981170518     0.00537387719153    0.00423234881069    
9900000000.0        0.00540382694441    0.00426757679585    0.951390358069      -0.293865946793     0.951390358069      -0.293865946793     0.00540382694441    0.00426757679585    
10000000000.0       0.00543400846134    0.00430259209343    0.950489550067      -0.296748138941     0.950489550067      -0.296748138941     0.00543400846134    0.00430259209343    
