# Hz S RI R 50.00 
100000000.0         -0.00134468728142   -0.0364702099814    0.998584990016      -0.0367708406152    0.998584990016      -0.0367708406152    -0.00134468728142   -0.0364702099814    
200000000.0         -0.00538717520982   -0.0726393279024    0.994541886491      -0.0732406683029    0.994541886491      -0.0732406683029    -0.00538717520982   -0.0726393279024    
300000000.0         -0.0120279142051    -0.108220830778     0.987900562001      -0.109123001905     0.987900562001      -0.109123001905     -0.0120279142051    -0.108220830778     
400000000.0         -0.0211619093332    -0.142943972512     0.978765950881      -0.144147127605     0.978765950881      -0.144147127605     -0.0211619093332    -0.142943972512     
500000000.0         -0.0326485401539    -0.176560181804     0.967278650221      -0.178064501375     0.967278650221      -0.178064501375     -0.0326485401539    -0.176560181804     
600000000.0         -0.0463168159418    -0.208848382744     0.953609638781      -0.210654071164     0.953609638781      -0.210654071164     -0.0463168159418    -0.208848382744     
700000000.0         -0.0619714571805    -0.23961896505      0.937954188932      -0.241726247949     0.937954188932      -0.241726247949     -0.0619714571805    -0.23961896505      
800000000.0         -0.0793994177197    -0.268716293105     0.920525342117      -0.271125415279     0.920525342117      -0.271125415279     -0.0793994177197    -0.268716293105     
900000000.0         -0.0983764738522    -0.29601976076      0.901547318706      -0.298730984405     0.901547318706      -0.298730984405     -0.0983764738522    -0.29601976076      
1000000000.0        -0.118673545507     -0.321443496707     0.881249196278      -0.3244570999       0.881249196278      -0.3244570999       -0.118673545507     -0.321443496707     
1100000000.0        -0.140062475903     -0.344934899696     0.859859129663      -0.348251175052     0.859859129663      -0.348251175052     -0.140062475903     -0.344934899696     
1200000000.0        -0.162321069929     -0.366472230802     0.837599312389      -0.370091484285     0.837599312389      -0.370091484285     -0.162321069929     -0.366472230802     
1300000000.0        -0.185237268694     -0.3860615118       0.814681802024      -0.389984061644     0.814681802024      -0.389984061644     -0.185237268694     -0.3860615118       
1400000000.0        -0.208612410099     -0.403732977294     0.791305259527      -0.40795915303      0.791305259527      -0.40795915303      -0.208612410099     -0.403732977294     
1500000000.0        -0.232263587203     -0.419537308815     0.767652590838      -0.424067450378     0.767652590838      -0.424067450378     -0.232263587203     -0.419537308815     
1600000000.0        -0.256025164329     -0.433541847194     0.74388943074       -0.438376304108     0.74388943074       -0.438376304108     -0.256025164329     -0.433541847194     
1700000000.0        -0.27974954429      -0.445826940963     0.720163375601      -0.450966071587     0.720163375601      -0.450966071587     -0.27974954429      -0.445826940963     
1800000000.0        -0.30330729967      -0.456482548189     0.696603852082      -0.461926719024     0.696603852082      -0.461926719024     -0.30330729967      -0.456482548189     
1900000000.0        -0.326586788602     -0.465605170699     0.673322501346      -0.47135475575      0.673322501346      -0.47135475575      -0.326586788602     -0.465605170699     
2000000000.0        -0.349493373621     -0.473295165686     0.650413960192      -0.479350545867     0.650413960192      -0.479350545867     -0.349493373621     -0.473295165686     
2100000000.0        -0.371948353585     -0.479654451516     0.627956929126      -0.486016014098     0.627956929126      -0.486016014098     -0.371948353585     -0.479654451516     
2200000000.0        -0.393887705842     -0.484784602654     0.606015430192      -0.491452740764     0.606015430192      -0.491452740764     -0.393887705842     -0.484784602654     
2300000000.0        -0.415260720858     -0.488785312784     0.584640172339      -0.495760424926     0.584640172339      -0.495760424926     -0.415260720858     -0.488785312784     
2400000000.0        -0.436028596114     -0.491753194648     0.563869957515      -0.499035684269     0.563869957515      -0.499035684269     -0.436028596114     -0.491753194648     
2500000000.0        -0.456163041302     -0.493780879183     0.543733075474      -0.501371154269     0.543733075474      -0.501371154269     -0.456163041302     -0.493780879183     
2600000000.0        -0.475644933473     -0.494956374006     0.524248648625      -0.502854846707     0.524248648625      -0.502854846707     -0.475644933473     -0.494956374006     
2700000000.0        -0.49446304923      -0.495362641482     0.505427899832      -0.503569727764     0.505427899832      -0.503569727764     -0.49446304923      -0.495362641482     
2800000000.0        -0.512612891423     -0.49507735858      0.487275325726      -0.503593477905     0.487275325726      -0.503593477905     -0.512612891423     -0.49507735858      
2900000000.0        -0.530095620046     -0.494172823866     0.469789765797      -0.502998398897     0.469789765797      -0.502998398897     -0.530095620046     -0.494172823866     
3000000000.0        -0.54691709106      -0.492715980761     0.452965363577      -0.501851437089     0.452965363577      -0.501851437089     -0.54691709106      -0.492715980761     
3100000000.0        -0.563087002361     -0.490768530219     0.436792420672      -0.500214296112     0.436792420672      -0.500214296112     -0.563087002361     -0.490768530219     
3200000000.0        -0.578618142931     -0.488387109943     0.421258147601      -0.498143616115     0.421258147601      -0.498143616115     -0.578618142931     -0.488387109943     
3300000000.0        -0.593525739089     -0.485623521054     0.406347317555      -0.495691200453     0.406347317555      -0.495691200453     -0.593525739089     -0.485623521054     
3400000000.0        -0.607826890402     -0.482524986533     0.392042830481      -0.492904274149     0.392042830481      -0.492904274149     -0.607826890402     -0.482524986533     
3500000000.0        -0.621540087187     -0.479134428817     0.378326195576      -0.489825761506     0.378326195576      -0.489825761506     -0.621540087187     -0.479134428817     
3600000000.0        -0.634684801297     -0.475490756583     0.365177940508      -0.486494572903     0.365177940508      -0.486494572903     -0.634684801297     -0.475490756583     
3700000000.0        -0.647281142042     -0.471629152977     0.352577955488      -0.482945893046     0.352577955488      -0.482945893046     -0.647281142042     -0.471629152977     
3800000000.0        -0.659349569451     -0.467581359464     0.340505780012      -0.479211464824     0.340505780012      -0.479211464824     -0.659349569451     -0.467581359464     
3900000000.0        -0.670910657588     -0.463375951        0.328940839543      -0.475319864504     0.328940839543      -0.475319864504     -0.670910657588     -0.463375951        
4000000000.0        -0.681984901251     -0.459038599503     0.317862638811      -0.471296765206     0.317862638811      -0.471296765206     -0.681984901251     -0.459038599503     
4100000000.0        -0.692592559992     -0.454592323605     0.307250917792      -0.467165186669     0.307250917792      -0.467165186669     -0.692592559992     -0.454592323605     
4200000000.0        -0.702753534055     -0.450057723456     0.297085775776      -0.462945730068     0.297085775776      -0.462945730068     -0.702753534055     -0.450057723456     
4300000000.0        -0.712487267409     -0.44545319998      0.287347768324      -0.458656797279     0.287347768324      -0.458656797279     -0.712487267409     -0.44545319998      
4400000000.0        -0.721812673688     -0.440795158436     0.278017981336      -0.454314794451     0.278017981336      -0.454314794451     -0.721812673688     -0.440795158436     
4500000000.0        -0.730748081329     -0.43609819651      0.269078085907      -0.4499343201       0.269078085907      -0.4499343201       -0.730748081329     -0.43609819651      
4600000000.0        -0.739311194735     -0.43137527738      0.26051037717       -0.445528338195     0.26051037717       -0.445528338195     -0.739311194735     -0.43137527738      
4700000000.0        -0.7475190687       -0.426637888415     0.252297799864      -0.441108336855     0.252297799864      -0.441108336855     -0.7475190687       -0.426637888415     
4800000000.0        -0.755388093741     -0.421896186256     0.244423963009      -0.436684473439     0.244423963009      -0.436684473439     -0.755388093741     -0.421896186256     
4900000000.0        -0.762933990326     -0.417159129095     0.236873145668      -0.432265706835     0.236873145668      -0.432265706835     -0.762933990326     -0.417159129095     
5000000000.0        -0.770171810287     -0.412434597026     0.229630295545      -0.427859917816     0.229630295545      -0.427859917816     -0.770171810287     -0.412434597026     
5100000000.0        -0.77711594397      -0.40772950132      0.222681021828      -0.423474018322     0.222681021828      -0.423474018322     -0.77711594397      -0.40772950132      
5200000000.0        -0.783780131906     -0.403049883484     0.21601158352       -0.41911405052      0.21601158352       -0.41911405052      -0.783780131906     -0.403049883484     
5300000000.0        -0.790177479986     -0.398401004917     0.20960887426       -0.414785276472     0.20960887426       -0.414785276472     -0.790177479986     -0.398401004917     
5400000000.0        -0.796320477295     -0.393787427964     0.203460404496      -0.410492259189     0.203460404496      -0.410492259189     -0.796320477295     -0.393787427964     
5500000000.0        -0.802221015883     -0.389213089107     0.197554281711      -0.40623893583      0.197554281711      -0.40623893583      -0.802221015883     -0.389213089107     
5600000000.0        -0.807890411906     -0.384681364989     0.191879189276      -0.402028683727     0.191879189276      -0.402028683727     -0.807890411906     -0.384681364989     
5700000000.0        -0.813339427656     -0.380195131922     0.186424364426      -0.397864379899     0.186424364426      -0.397864379899     -0.813339427656     -0.380195131922     
5800000000.0        -0.81857829409      -0.375756819487     0.181179575735      -0.393748454657     0.181179575735      -0.393748454657     -0.81857829409      -0.375756819487     
5900000000.0        -0.82361673353      -0.371368458777     0.176135100403      -0.389682939843     0.176135100403      -0.389682939843     -0.82361673353      -0.371368458777     
6000000000.0        -0.828463982314     -0.367031725788     0.171281701617      -0.385669512235     0.171281701617      -0.385669512235     -0.828463982314     -0.367031725788     
6100000000.0        -0.833128813157     -0.362747980432     0.166610606183      -0.381709532557     0.166610606183      -0.381709532557     -0.833128813157     -0.362747980432     
6200000000.0        -0.837619557101     -0.358518301596     0.16211348258       -0.377804080539     0.16211348258       -0.377804080539     -0.837619557101     -0.358518301596     
6300000000.0        -0.841944124909     -0.354343518632     0.157782419559      -0.373953986411     0.157782419559      -0.373953986411     -0.841944124909     -0.354343518632     
6400000000.0        -0.846110027835     -0.350224239623     0.153609905386      -0.370159859177     0.153609905386      -0.370159859177     -0.846110027835     -0.350224239623     
6500000000.0        -0.850124397679     -0.346160876761     0.149588807769      -0.366422111983     0.149588807769      -0.366422111983     -0.850124397679     -0.346160876761     
6600000000.0        -0.853994006112     -0.342153669107     0.145712354551      -0.362740984892     0.145712354551      -0.362740984892     -0.853994006112     -0.342153669107     
6700000000.0        -0.857725283214     -0.338202703006     0.141974115159      -0.359116565292     0.141974115159      -0.359116565292     -0.857725283214     -0.338202703006     
6800000000.0        -0.861324335233     -0.334307930389     0.138367982848      -0.355548806201     0.138367982848      -0.355548806201     -0.861324335233     -0.334307930389     
6900000000.0        -0.864796961546     -0.33046918517      0.134888157743      -0.352037542668     0.134888157743      -0.352037542668     -0.864796961546     -0.33046918517      
7000000000.0        -0.868148670841     -0.326686197935     0.131529130657      -0.348582506462     0.131529130657      -0.348582506462     -0.868148670841     -0.326686197935     
7100000000.0        -0.871384696508     -0.3229586091       0.128285667694      -0.345183339232     0.128285667694      -0.345183339232     -0.871384696508     -0.3229586091       
7200000000.0        -0.874510011286     -0.319285980681     0.125152795606      -0.341839604275     0.125152795606      -0.341839604275     -0.874510011286     -0.319285980681     
7300000000.0        -0.877529341163     -0.315667806822     0.122125787896      -0.338550797069     0.122125787896      -0.338550797069     -0.877529341163     -0.315667806822     
7400000000.0        -0.880447178559     -0.312103523216     0.119200151627      -0.335316354692     0.119200151627      -0.335316354692     -0.880447178559     -0.312103523216     
7500000000.0        -0.883267794826     -0.308592515514     0.116371614931      -0.332135664235     0.116371614931      -0.332135664235     -0.883267794826     -0.308592515514     
7600000000.0        -0.885995252076     -0.30513412684      0.11363611517       -0.329008070312     0.11363611517       -0.329008070312     -0.885995252076     -0.30513412684      
7700000000.0        -0.888633414386     -0.301727664497     0.110989787745      -0.325932881772     0.110989787745      -0.325932881772     -0.888633414386     -0.301727664497     
7800000000.0        -0.89118595838      -0.298372405942     0.108428955497      -0.322909377673     0.108428955497      -0.322909377673     -0.89118595838      -0.298372405942     
7900000000.0        -0.893656383252     -0.295067604112     0.105950118701      -0.319936812607     0.105950118701      -0.319936812607     -0.893656383252     -0.295067604112     
8000000000.0        -0.896048020218     -0.291812492166     0.103549945601      -0.317014421445     0.103549945601      -0.317014421445     -0.896048020218     -0.291812492166     
8100000000.0        -0.898364041462     -0.288606287698     0.101225263468      -0.314141423546     0.101225263468      -0.314141423546     -0.898364041462     -0.288606287698     
8200000000.0        -0.900607468574     -0.285448196475     0.0989730501671     -0.311317026501     0.0989730501671     -0.311317026501     -0.900607468574     -0.285448196475     
8300000000.0        -0.902781180521     -0.282337415758     0.0967904261752     -0.30854042945      0.0967904261752     -0.30854042945      -0.902781180521     -0.282337415758     
8400000000.0        -0.904887921179     -0.279273137237     0.0946746470615     -0.305810826018     0.0946746470615     -0.305810826018     -0.904887921179     -0.279273137237     
8500000000.0        -0.906930306431     -0.276254549625     0.0926230963798     -0.30312740691      0.0926230963798     -0.30312740691      -0.906930306431     -0.276254549625     
8600000000.0        -0.908910830879     -0.273280840948     0.0906332789616     -0.3004893622       0.0906332789616     -0.3004893622       -0.908910830879     -0.273280840948     
8700000000.0        -0.91083187417      -0.270351200556     0.0887028145856     -0.297895883344     0.0887028145856     -0.297895883344     -0.91083187417      -0.270351200556     
8800000000.0        -0.912695706978     -0.267464820894     0.0868294320009     -0.295346164949     0.0868294320009     -0.295346164949     -0.912695706978     -0.267464820894     
8900000000.0        -0.914504496642     -0.26462089904      0.085010963286      -0.292839406311     0.085010963286      -0.292839406311     -0.914504496642     -0.26462089904      
9000000000.0        -0.916260312492     -0.261818638061     0.0832453385229     -0.290374812773     0.0832453385229     -0.290374812773     -0.916260312492     -0.261818638061     
9100000000.0        -0.917965130874     -0.259057248175     0.0815305807691     -0.287951596885     0.0815305807691     -0.287951596885     -0.917965130874     -0.259057248175     
9200000000.0        -0.919620839905     -0.25633594777      0.07986480131       -0.285568979423     0.07986480131       -0.285568979423     -0.919620839905     -0.25633594777      
9300000000.0        -0.921229243949     -0.253653964264     0.0782461951758     -0.283226190251     0.0782461951758     -0.283226190251     -0.921229243949     -0.253653964264     
9400000000.0        -0.922792067853     -0.251010534852     0.0766730369068     -0.280922469064     0.0766730369068     -0.280922469064     -0.922792067853     -0.251010534852     
9500000000.0        -0.924310960949     -0.248404907131     0.0751436765542     -0.278657066018     0.0751436765542     -0.278657066018     -0.924310960949     -0.248404907131     
9600000000.0        -0.92578750083      -0.245836339628     0.0736565359007     -0.276429242252     0.0736565359007     -0.276429242252     -0.92578750083      -0.245836339628     
9700000000.0        -0.927223196923     -0.243304102233     0.0722101048899     -0.274238270324     0.0722101048899     -0.274238270324     -0.927223196923     -0.243304102233     
9800000000.0        -0.928619493863     -0.240807476552     0.0708029382511     -0.272083434568     0.0708029382511     -0.272083434568     -0.928619493863     -0.240807476552     
9900000000.0        -0.929977774681     -0.238345756192     0.0694336523093     -0.269964031372     0.0694336523093     -0.269964031372     -0.929977774681     -0.238345756192     
10000000000.0       -0.931299363825     -0.235918246981     0.068100921968      -0.267879369396     0.068100921968      -0.267879369396     -0.931299363825     -0.235918246981     
