# Hz S RI R 50.00 
100000000.0         0.00183810081429    0.000474772699929   0.998159931209      -0.00121024524022   0.998159931209      -0.00121024524022   0.00183810081429    0.000474772699929   
200000000.0         0.00185170255331    0.000949502254781   0.998144820211      -0.00242045557884   0.998144820211      -0.00242045557884   0.00185170255331    0.000949502254781   
300000000.0         0.00186320683907    0.00142420248732    0.998131265346      -0.00363064952279   0.998131265346      -0.00363064952279   0.00186320683908    0.00142420248732    
400000000.0         0.00187420895456    0.00189887640398    0.998117671279      -0.0048408336519    0.998117671279      -0.0048408336519    0.00187420895456    0.00189887640398    
500000000.0         0.00188532349026    0.00237352450611    0.998103423362      -0.00605101147998   0.998103423362      -0.00605101147998   0.00188532349026    0.00237352450611    
600000000.0         0.00189686398031    0.00284814619413    0.998088207997      -0.00726118505235   0.998088207997      -0.00726118505235   0.00189686398031    0.00284814619413    
700000000.0         0.00190901568745    0.00332274027165    0.998071839847      -0.0084713555484    0.998071839847      -0.0084713555484    0.00190901568745    0.00332274027165    
800000000.0         0.00192189866797    0.0037973051788     0.99805419878       -0.00968152357448   0.99805419878       -0.00968152357448   0.00192189866797    0.0037973051788     
900000000.0         0.00193559585296    0.00427183911756    0.998035201779      -0.0108916893278    0.998035201779      -0.0108916893278    0.00193559585296    0.00427183911756    
1000000000.0        0.00195016728286    0.00474634012547    0.998014788715      -0.0121018526981    0.998014788715      -0.0121018526981    0.00195016728286    0.00474634012547    
1100000000.0        0.00196565802049    0.00522080612259    0.997992914431      -0.0133120133343    0.997992914431      -0.0133120133343    0.00196565802049    0.00522080612259    
1200000000.0        0.00198210286645    0.00569523494249    0.997969544025      -0.0145221706918    0.997969544025      -0.0145221706918    0.00198210286645    0.00569523494249    
1300000000.0        0.00199952932584    0.00616962435402    0.997944649889      -0.0157323240657    0.997944649889      -0.0157323240657    0.00199952932584    0.00616962435402    
1400000000.0        0.00201795955841    0.0066439720768     0.997918209755      -0.0169424726166    0.997918209755      -0.0169424726166    0.00201795955841    0.0066439720768     
1500000000.0        0.00203741170733    0.00711827579272    0.997890205367      -0.0181526153902    0.997890205367      -0.0181526153902    0.00203741170733    0.00711827579272    
1600000000.0        0.00205790083257    0.00759253315441    0.997860621548      -0.0193627513324    0.997860621548      -0.0193627513324    0.00205790083257    0.00759253315441    
1700000000.0        0.00207943958348    0.00806674179209    0.997829445529      -0.0205728793019    0.997829445529      -0.0205728793019    0.00207943958348    0.00806674179209    
1800000000.0        0.00210203869437    0.00854089931857    0.997796666451      -0.0217829980802    0.997796666451      -0.0217829980802    0.00210203869437    0.00854089931857    
1900000000.0        0.00212570735676    0.00901500333343    0.997762274996      -0.0229931063798    0.997762274996      -0.0229931063798    0.00212570735676    0.00901500333343    
2000000000.0        0.00215045350385    0.00948905142625    0.997726263098      -0.0242032028516    0.997726263098      -0.0242032028516    0.00215045350385    0.00948905142625    
2100000000.0        0.00217628403108    0.00996304117925    0.997688623729      -0.0254132860902    0.997688623729      -0.0254132860902    0.00217628403108    0.00996304117925    
2200000000.0        0.0022032049696     0.0104369701695     0.997649350721      -0.0266233546396    0.997649350721      -0.0266233546396    0.0022032049696     0.0104369701695     
2300000000.0        0.00223122162427    0.0109108359707     0.997608438628      -0.0278334069971    0.997608438628      -0.0278334069971    0.00223122162427    0.0109108359707     
2400000000.0        0.00226033868462    0.0113846361544     0.997565882618      -0.0290434416173    0.997565882618      -0.0290434416173    0.00226033868462    0.0113846361544     
2500000000.0        0.00229056031504    0.0118583682918     0.997521678381      -0.0302534569155    0.997521678381      -0.0302534569155    0.00229056031504    0.0118583682918     
2600000000.0        0.0023218902287     0.0123320299542     0.997475822056      -0.0314634512702    0.997475822056      -0.0314634512702    0.0023218902287     0.0123320299542     
2700000000.0        0.00235433174864    0.0128056187139     0.997428310167      -0.0326734230265    0.997428310167      -0.0326734230265    0.00235433174864    0.0128056187139     
2800000000.0        0.00238788785864    0.0132791321455     0.99737913958       -0.0338833704975    0.99737913958       -0.0338833704975    0.00238788785864    0.0132791321455     
2900000000.0        0.0024225612459     0.0137525678257     0.997328307449      -0.0350932919671    0.997328307449      -0.0350932919671    0.0024225612459     0.0137525678257     
3000000000.0        0.00245835433705    0.0142259233346     0.997275811192      -0.0363031856913    0.997275811192      -0.0363031856913    0.00245835433705    0.0142259233346     
3100000000.0        0.00249526932875    0.0146991962555     0.99722164845       -0.0375130499005    0.99722164845       -0.0375130499005    0.00249526932875    0.0146991962555     
3200000000.0        0.0025333082138     0.0151723841756     0.997165817069      -0.0387228828004    0.997165817069      -0.0387228828004    0.0025333082138     0.0151723841756     
3300000000.0        0.00257247280356    0.0156454846864     0.997108315074      -0.0399326825739    0.997108315074      -0.0399326825739    0.00257247280356    0.0156454846864     
3400000000.0        0.0026127647473     0.0161184953837     0.997049140648      -0.0411424473819    0.997049140648      -0.0411424473819    0.0026127647473     0.0161184953837     
3500000000.0        0.00265418554895    0.016591413868      0.99698829212       -0.0423521753649    0.99698829212       -0.0423521753649    0.00265418554896    0.016591413868      
3600000000.0        0.00269673658172    0.0170642377445     0.996925767946      -0.0435618646439    0.996925767946      -0.0435618646439    0.00269673658172    0.0170642377445     
3700000000.0        0.00274041910079    0.0175369646238     0.996861566699      -0.0447715133214    0.996861566699      -0.0447715133214    0.00274041910079    0.0175369646238     
3800000000.0        0.00278523425454    0.0180095921212     0.996795687057      -0.045981119482     0.996795687057      -0.045981119482     0.00278523425454    0.0180095921212     
3900000000.0        0.00283118309439    0.0184821178577     0.996728127794      -0.0471906811939    0.996728127794      -0.0471906811939    0.00283118309439    0.0184821178577     
4000000000.0        0.00287826658346    0.0189545394592     0.99665888777       -0.048400196509     0.99665888777       -0.048400196509     0.00287826658346    0.0189545394592     
4100000000.0        0.00292648560433    0.0194268545575     0.996587965923      -0.0496096634642    0.996587965923      -0.0496096634642    0.00292648560433    0.0194268545575     
4200000000.0        0.00297584096583    0.0198990607895     0.996515361266      -0.0508190800816    0.996515361266      -0.0508190800816    0.00297584096583    0.0198990607895     
4300000000.0        0.0030263334092     0.0203711557979     0.996441072876      -0.0520284443695    0.996441072876      -0.0520284443695    0.0030263334092     0.0203711557979     
4400000000.0        0.0030779636135     0.0208431372308     0.99636509989       -0.0532377543226    0.99636509989       -0.0532377543226    0.0030779636135     0.0208431372308     
4500000000.0        0.00313073220057    0.0213150027421     0.996287441504      -0.0544470079232    0.996287441504      -0.0544470079232    0.00313073220057    0.0213150027421     
4600000000.0        0.00318463973934    0.0217867499913     0.996208096964      -0.0556562031409    0.996208096964      -0.0556562031409    0.00318463973934    0.0217867499913     
4700000000.0        0.00323968674988    0.0222583766433     0.996127065562      -0.0568653379337    0.996127065562      -0.0568653379337    0.00323968674987    0.0222583766433     
4800000000.0        0.0032958737069     0.0227298803688     0.996044346636      -0.0580744102483    0.996044346636      -0.0580744102483    0.0032958737069     0.0227298803688     
4900000000.0        0.00335320104305    0.0232012588442     0.995959939566      -0.0592834180203    0.995959939566      -0.0592834180203    0.00335320104305    0.0232012588442     
5000000000.0        0.00341166915181    0.0236725097515     0.995873843767      -0.060492359175     0.995873843767      -0.060492359175     0.00341166915181    0.0236725097515     
5100000000.0        0.00347127839017    0.0241436307781     0.995786058692      -0.0617012316275    0.995786058692      -0.0617012316275    0.00347127839017    0.0241436307781     
5200000000.0        0.00353202908107    0.0246146196172     0.995696583826      -0.0629100332831    0.995696583826      -0.0629100332831    0.00353202908107    0.0246146196172     
5300000000.0        0.0035939215156     0.0250854739674     0.995605418686      -0.0641187620378    0.995605418686      -0.0641187620378    0.0035939215156     0.0250854739674     
5400000000.0        0.00365695595501    0.0255561915332     0.995512562815      -0.0653274157784    0.995512562815      -0.0653274157784    0.00365695595501    0.0255561915332     
5500000000.0        0.0037211326326     0.0260267700241     0.995418015786      -0.0665359923831    0.995418015786      -0.0665359923831    0.0037211326326     0.0260267700241     
5600000000.0        0.00378645175537    0.0264972071554     0.995321777198      -0.0677444897215    0.995321777198      -0.0677444897215    0.00378645175537    0.0264972071554     
5700000000.0        0.00385291350563    0.0269675006479     0.99522384667       -0.0689529056551    0.99522384667       -0.0689529056551    0.00385291350563    0.0269675006479     
5800000000.0        0.00392051804239    0.0274376482275     0.995124223847      -0.0701612380374    0.995124223847      -0.0701612380374    0.00392051804239    0.0274376482275     
5900000000.0        0.0039892655027     0.0279076476258     0.995022908394      -0.0713694847143    0.995022908394      -0.0713694847143    0.0039892655027     0.0279076476258     
6000000000.0        0.00405915600286    0.0283774965795     0.994919899995      -0.0725776435241    0.994919899995      -0.0725776435241    0.00405915600286    0.0283774965795     
6100000000.0        0.00413018963957    0.0288471928308     0.994815198357      -0.0737857122982    0.994815198357      -0.0737857122982    0.00413018963957    0.0288471928308     
6200000000.0        0.00420236649093    0.0293167341269     0.994708803199      -0.0749936888608    0.994708803199      -0.0749936888608    0.00420236649093    0.0293167341269     
6300000000.0        0.00427568661745    0.0297861182205     0.994600714261      -0.0762015710294    0.994600714261      -0.0762015710294    0.00427568661745    0.0297861182205     
6400000000.0        0.00435015006289    0.0302553428693     0.994490931299      -0.077409356615     0.994490931299      -0.077409356615     0.00435015006289    0.0302553428693     
6500000000.0        0.00442575685514    0.0307244058362     0.994379454082      -0.0786170434222    0.994379454082      -0.0786170434222    0.00442575685514    0.0307244058362     
6600000000.0        0.00450250700698    0.031193304889      0.994266282396      -0.0798246292492    0.994266282396      -0.0798246292492    0.00450250700698    0.031193304889      
6700000000.0        0.00458040051677    0.0316620378008     0.994151416041      -0.0810321118886    0.994151416041      -0.0810321118886    0.00458040051677    0.0316620378008     
6800000000.0        0.00465943736916    0.0321306023496     0.994034854827      -0.0822394891269    0.994034854827      -0.0822394891269    0.00465943736916    0.0321306023496     
6900000000.0        0.00473961753566    0.0325989963182     0.99391659858       -0.0834467587449    0.99391659858       -0.0834467587449    0.00473961753567    0.0325989963182     
7000000000.0        0.00482094097531    0.0330672174945     0.993796647137      -0.0846539185179    0.993796647137      -0.0846539185179    0.00482094097531    0.0330672174945     
7100000000.0        0.00490340763513    0.0335352636712     0.993675000347      -0.085860966216     0.993675000347      -0.085860966216     0.00490340763513    0.0335352636712     
7200000000.0        0.00498701745068    0.0340031326457     0.99355165807       -0.0870678996039    0.99355165807       -0.0870678996039    0.00498701745068    0.0340031326457     
7300000000.0        0.00507177034653    0.0344708222203     0.993426620175      -0.0882747164412    0.993426620175      -0.0882747164412    0.00507177034653    0.0344708222203     
7400000000.0        0.00515766623673    0.034938330202      0.993299886544      -0.0894814144826    0.993299886544      -0.0894814144826    0.00515766623673    0.034938330202      
7500000000.0        0.00524470502518    0.0354056544024     0.993171457067      -0.0906879914779    0.993171457067      -0.0906879914779    0.00524470502518    0.0354056544024     
7600000000.0        0.00533288660606    0.0358727926378     0.993041331644      -0.0918944451724    0.993041331644      -0.0918944451724    0.00533288660606    0.0358727926378     
7700000000.0        0.0054222108642     0.036339742729      0.992909510184      -0.0931007733065    0.992909510184      -0.0931007733065    0.0054222108642     0.036339742729      
7800000000.0        0.0055126776754     0.0368065025014     0.992775992605      -0.0943069736164    0.992775992605      -0.0943069736164    0.0055126776754     0.0368065025014     
7900000000.0        0.00560428690682    0.0372730697849     0.992640778834      -0.0955130438337    0.992640778834      -0.0955130438337    0.00560428690682    0.0372730697849     
8000000000.0        0.00569703841721    0.0377394424138     0.992503868805      -0.0967189816858    0.992503868805      -0.0967189816858    0.00569703841721    0.0377394424138     
8100000000.0        0.00579093205727    0.0382056182268     0.99236526246       -0.097924784896     0.99236526246       -0.097924784896     0.00579093205727    0.0382056182268     
8200000000.0        0.00588596766989    0.038671595067      0.992224959751      -0.0991304511836    0.992224959751      -0.0991304511836    0.00588596766989    0.038671595067      
8300000000.0        0.00598214509041    0.0391373707818     0.992082960634      -0.100335978264     0.992082960634      -0.100335978264     0.00598214509041    0.0391373707818     
8400000000.0        0.00607946414688    0.0396029432227     0.991939265075      -0.101541363848     0.991939265075      -0.101541363848     0.00607946414688    0.0396029432227     
8500000000.0        0.00617792466029    0.0400683102457     0.991793873045      -0.102746605643     0.991793873045      -0.102746605643     0.00617792466029    0.0400683102457     
8600000000.0        0.00627752644479    0.0405334697107     0.991646784523      -0.103951701354     0.991646784523      -0.103951701354     0.00627752644479    0.0405334697107     
8700000000.0        0.00637826930789    0.040998419482      0.991497999495      -0.10515664868      0.991497999495      -0.10515664868      0.00637826930789    0.040998419482      
8800000000.0        0.00648015305068    0.0414631574277     0.991347517952      -0.106361445318     0.991347517952      -0.106361445318     0.00648015305068    0.0414631574277     
8900000000.0        0.00658317746797    0.0419276814202     0.991195339893      -0.107566088961     0.991195339893      -0.107566088961     0.00658317746797    0.0419276814202     
9000000000.0        0.00668734234855    0.0423919893358     0.991041465322      -0.1087705773       0.991041465322      -0.1087705773       0.00668734234855    0.0423919893358     
9100000000.0        0.00679264747526    0.0428560790547     0.990885894248      -0.10997490802      0.990885894248      -0.10997490802      0.00679264747526    0.0428560790547     
9200000000.0        0.00689909262524    0.043319948461      0.990728626688      -0.111179078804     0.990728626688      -0.111179078804     0.00689909262524    0.043319948461      
9300000000.0        0.00700667757002    0.0437835954429     0.990569662664      -0.112383087334     0.990569662664      -0.112383087334     0.00700667757002    0.0437835954429     
9400000000.0        0.00711540207569    0.0442470178923     0.990409002202      -0.113586931284     0.990409002202      -0.113586931284     0.00711540207569    0.0442470178923     
9500000000.0        0.00722526590306    0.0447102137047     0.990246645336      -0.11479060833      0.990246645336      -0.11479060833      0.00722526590306    0.0447102137047     
9600000000.0        0.00733626880774    0.0451731807796     0.990082592104      -0.115994116142     0.990082592104      -0.115994116142     0.00733626880774    0.0451731807796     
9700000000.0        0.00744841054032    0.0456359170201     0.989916842548      -0.117197452388     0.989916842548      -0.117197452388     0.00744841054032    0.0456359170201     
9800000000.0        0.00756169084645    0.0460984203331     0.989749396717      -0.118400614732     0.989749396717      -0.118400614732     0.00756169084645    0.0460984203331     
9900000000.0        0.00767610946698    0.0465606886289     0.989580254664      -0.119603600837     0.989580254664      -0.119603600837     0.00767610946698    0.0465606886289     
10000000000.0       0.00779166613806    0.0470227198216     0.989409416448      -0.120806408362     0.989409416448      -0.120806408362     0.00779166613806    0.0470227198216     
