# Hz S RI R 50.00 
100000000.0         0.00290805317063    0.000936490594696   0.997077407933      -0.00528332792141   0.997077407933      -0.00528332792141   0.00290805317063    0.000936490594696   
200000000.0         0.00294036207297    0.00187263715185    0.997012645792      -0.0105662896642    0.997012645792      -0.0105662896642    0.00294036207297    0.00187263715185    
300000000.0         0.00297753327821    0.00280842178712    0.996924105509      -0.0158488426438    0.996924105509      -0.0158488426438    0.00297753327821    0.00280842178712    
400000000.0         0.00302207553152    0.00374376551933    0.996809276436      -0.0211308738712    0.996809276436      -0.0211308738712    0.00302207553152    0.00374376551933    
500000000.0         0.00307495072345    0.00467857579331    0.996667194432      -0.0264122520386    0.996667194432      -0.0264122520386    0.00307495072345    0.00467857579331    
600000000.0         0.00313664548767    0.0056127543368     0.996497370318      -0.0316928369823    0.996497370318      -0.0316928369823    0.00313664548767    0.0056127543368     
700000000.0         0.00320744347015    0.00654619993573    0.996299517637      -0.0369724832775    0.996299517637      -0.0369724832775    0.00320744347015    0.00654619993573    
800000000.0         0.00328752464828    0.00747880970205    0.996073453369      -0.0422510419968    0.996073453369      -0.0422510419968    0.00328752464828    0.00747880970205    
900000000.0         0.00337700953093    0.00841047974588    0.995819053752      -0.0475283617065    0.995819053752      -0.0475283617065    0.00337700953093    0.00841047974588    
1000000000.0        0.00347598155186    0.00934110556931    0.995536231907      -0.0528042890877    0.995536231907      -0.0528042890877    0.00347598155186    0.00934110556931    
1100000000.0        0.0035844995124     0.010270582315      0.995224925419      -0.0580786693526    0.995224925419      -0.0580786693526    0.0035844995124     0.010270582315      
1200000000.0        0.00370260499296    0.0111988049322     0.994885088934      -0.0633513465387    0.994885088934      -0.0633513465387    0.00370260499296    0.0111988049322     
1300000000.0        0.00383032701445    0.0121256682934     0.994516689516      -0.0686221637255    0.994516689516      -0.0686221637255    0.00383032701445    0.0121256682934     
1400000000.0        0.00396768510177    0.0130510672792     0.994119703593      -0.073890963201     0.994119703593      -0.073890963201     0.00396768510177    0.0130510672792     
1500000000.0        0.00411469137122    0.013974896843      0.993694114885      -0.0791575865916    0.993694114885      -0.0791575865916    0.00411469137122    0.013974896843      
1600000000.0        0.00427135199688    0.0148970520612     0.993239912944      -0.0844218749677    0.993239912944      -0.0844218749677    0.00427135199688    0.0148970520612     
1700000000.0        0.00443766826781    0.0158174281737     0.99275709211       -0.0896836689307    0.99275709211       -0.0896836689307    0.00443766826781    0.0158174281737     
1800000000.0        0.00461363736762    0.0167359206172     0.992245650736      -0.0949428086855    0.992245650736      -0.0949428086855    0.00461363736762    0.0167359206172     
1900000000.0        0.00479925296077    0.0176524250537     0.991705590617      -0.100199134103     0.991705590617      -0.100199134103     0.00479925296077    0.0176524250537     
2000000000.0        0.00499450564131    0.018566837395      0.991136916542      -0.105452484774     0.991136916542      -0.105452484774     0.00499450564131    0.018566837395      
2100000000.0        0.00519938328171    0.0194790538241     0.990539635959      -0.110702700057     0.990539635959      -0.110702700057     0.00519938328171    0.0194790538241     
2200000000.0        0.00541387130797    0.0203889708144     0.989913758701      -0.115949619119     0.989913758701      -0.115949619119     0.00541387130797    0.0203889708144     
2300000000.0        0.0056379529193     0.0212964851478     0.989259296779      -0.121193080975     0.989259296779      -0.121193080975     0.0056379529193     0.0212964851478     
2400000000.0        0.00587160926569    0.0222014939304     0.988576264206      -0.126432924522     0.988576264206      -0.126432924522     0.00587160926569    0.0222014939304     
2500000000.0        0.00611481959309    0.0231038946081     0.987864676862      -0.131668988569     0.987864676862      -0.131668988569     0.00611481959309    0.0231038946081     
2600000000.0        0.0063675613632     0.0240035849806     0.987124552376      -0.136901111866     0.987124552376      -0.136901111866     0.0063675613632     0.0240035849806     
2700000000.0        0.00662981035339    0.0249004632152     0.986355910037      -0.142129133131     0.986355910037      -0.142129133131     0.00662981035339    0.0249004632152     
2800000000.0        0.00690154074075    0.0257944278597     0.985558770709      -0.147352891077     0.985558770709      -0.147352891077     0.00690154074075    0.0257944278597     
2900000000.0        0.00718272517346    0.026685377855      0.98473315677       -0.152572224432     0.98473315677       -0.152572224432     0.00718272517346    0.026685377855      
3000000000.0        0.00747333483187    0.0275732125472     0.983879092054      -0.157786971962     0.983879092054      -0.157786971962     0.00747333483187    0.0275732125472     
3100000000.0        0.00777333948123    0.0284578316992     0.982996601803      -0.162996972494     0.982996601803      -0.162996972494     0.00777333948123    0.0284578316992     
3200000000.0        0.00808270751754    0.0293391355029     0.982085712627      -0.168202064933     0.982085712627      -0.168202064933     0.00808270751754    0.0293391355029     
3300000000.0        0.00840140600778    0.0302170245896     0.981146452467      -0.17340208828      0.981146452467      -0.17340208828      0.00840140600778    0.0302170245896     
3400000000.0        0.00872940072544    0.0310914000414     0.980178850563      -0.178596881656     0.980178850563      -0.178596881656     0.00872940072544    0.0310914000414     
3500000000.0        0.00906665618207    0.0319621634023     0.979182937431      -0.183786284312     0.979182937431      -0.183786284312     0.00906665618207    0.0319621634023     
3600000000.0        0.00941313565569    0.0328292166886     0.978158744835      -0.18897013565      0.978158744835      -0.18897013565      0.0094131356557     0.0328292166886     
3700000000.0        0.00976880121631    0.0336924623994     0.977106305765      -0.194148275238     0.977106305765      -0.194148275238     0.00976880121631    0.0336924623994     
3800000000.0        0.0101336137492     0.0345518035272     0.97602565442       -0.199320542827     0.97602565442       -0.199320542827     0.0101336137492     0.0345518035272     
3900000000.0        0.010507532976      0.0354071435679     0.974916826192      -0.204486778361     0.974916826192      -0.204486778361     0.010507532976      0.0354071435679     
4000000000.0        0.0108905174746     0.0362583865312     0.973779857645      -0.209646822        0.973779857645      -0.209646822        0.0108905174746     0.0362583865312     
4100000000.0        0.011282524697      0.0371054369505     0.972614786506      -0.214800514126     0.972614786506      -0.214800514126     0.011282524697      0.0371054369505     
4200000000.0        0.0116835109865     0.037948199893      0.971421651648      -0.219947695361     0.971421651648      -0.219947695361     0.0116835109865     0.037948199893      
4300000000.0        0.0120934315931     0.0387865809692     0.970200493079      -0.22508820658      0.970200493079      -0.22508820658      0.0120934315931     0.0387865809692     
4400000000.0        0.0125122406891     0.0396204863429     0.968951351932      -0.230221888925     0.968951351932      -0.230221888925     0.0125122406891     0.0396204863429     
4500000000.0        0.0129398913827     0.0404498227407     0.967674270452      -0.235348583814     0.967674270452      -0.235348583814     0.0129398913827     0.0404498227407     
4600000000.0        0.0133763357318     0.0412744974619     0.966369291984      -0.240468132958     0.966369291984      -0.240468132958     0.0133763357318     0.0412744974619     
4700000000.0        0.0138215247569     0.0420944183874     0.965036460972      -0.245580378371     0.965036460972      -0.245580378371     0.0138215247569     0.0420944183874     
4800000000.0        0.0142754084534     0.0429094939894     0.963675822937      -0.250685162382     0.963675822937      -0.250685162382     0.0142754084534     0.0429094939894     
4900000000.0        0.0147379358038     0.0437196333408     0.96228742448       -0.255782327647     0.96228742448       -0.255782327647     0.0147379358038     0.0437196333408     
5000000000.0        0.0152090547892     0.0445247461242     0.960871313266      -0.260871717162     0.960871313266      -0.260871717162     0.0152090547892     0.0445247461242     
5100000000.0        0.0156887124004     0.0453247426411     0.959427538018      -0.26595317427      0.959427538018      -0.26595317427      0.0156887124004     0.0453247426411     
5200000000.0        0.0161768546493     0.0461195338207     0.957956148512      -0.271026542677     0.957956148512      -0.271026542677     0.0161768546493     0.0461195338207     
5300000000.0        0.0166734265794     0.0469090312295     0.956457195563      -0.27609166646      0.956457195563      -0.27609166646      0.0166734265794     0.0469090312295     
5400000000.0        0.0171783722766     0.0476931470793     0.954930731023      -0.281148390079     0.954930731023      -0.281148390079     0.0171783722766     0.0476931470793     
5500000000.0        0.0176916348793     0.0484717942367     0.95337680777       -0.286196558385     0.95337680777       -0.286196558385     0.0176916348793     0.0484717942367     
5600000000.0        0.0182131565888     0.0492448862314     0.951795479704      -0.291236016634     0.951795479704      -0.291236016634     0.0182131565888     0.0492448862314     
5700000000.0        0.0187428786796     0.0500123372648     0.950186801735      -0.296266610493     0.950186801735      -0.296266610493     0.0187428786796     0.0500123372648     
5800000000.0        0.0192807415089     0.0507740622188     0.948550829781      -0.301288186053     0.948550829781      -0.301288186053     0.0192807415089     0.0507740622188     
5900000000.0        0.0198266845273     0.0515299766639     0.946887620757      -0.306300589838     0.946887620757      -0.306300589838     0.0198266845273     0.0515299766639     
6000000000.0        0.0203806462878     0.052279996868      0.945197232568      -0.311303668813     0.945197232568      -0.311303668813     0.0203806462878     0.052279996868      
6100000000.0        0.0209425644561     0.0530240398039     0.943479724107      -0.316297270397     0.943479724107      -0.316297270397     0.0209425644561     0.0530240398039     
6200000000.0        0.0215123758203     0.0537620231582     0.94173515524       -0.321281242465     0.94173515524       -0.321281242465     0.0215123758203     0.0537620231582     
6300000000.0        0.0220900163005     0.0544938653391     0.939963586806      -0.326255433368     0.939963586806      -0.326255433368     0.0220900163005     0.0544938653391     
6400000000.0        0.0226754209581     0.0552194854843     0.938165080606      -0.331219691929     0.938165080606      -0.331219691929     0.0226754209581     0.0552194854843     
6500000000.0        0.0232685240064     0.0559388034689     0.936339699396      -0.336173867465     0.936339699396      -0.336173867465     0.0232685240064     0.0559388034689     
6600000000.0        0.0238692588191     0.0566517399134     0.934487506884      -0.341117809784     0.934487506884      -0.341117809784     0.0238692588191     0.0566517399134     
6700000000.0        0.0244775579407     0.057358216191      0.932608567718      -0.3460513692       0.932608567718      -0.3460513692       0.0244775579407     0.057358216191      
6800000000.0        0.0250933530959     0.0580581544356     0.930702947481      -0.350974396542     0.930702947481      -0.350974396542     0.0250933530959     0.0580581544356     
6900000000.0        0.0257165751991     0.0587514775492     0.928770712684      -0.355886743156     0.928770712684      -0.355886743156     0.0257165751991     0.0587514775492     
7000000000.0        0.0263471543639     0.0594381092093     0.926811930761      -0.360788260919     0.926811930761      -0.360788260919     0.0263471543639     0.0594381092093     
7100000000.0        0.0269850199134     0.0601179738759     0.924826670056      -0.365678802246     0.924826670056      -0.365678802246     0.0269850199134     0.0601179738759     
7200000000.0        0.027630100389      0.0607909967993     0.922814999822      -0.370558220094     0.922814999822      -0.370558220094     0.027630100389      0.0607909967993     
7300000000.0        0.0282823235606     0.0614571040268     0.920776990213      -0.375426367974     0.920776990213      -0.375426367974     0.0282823235606     0.0614571040268     
7400000000.0        0.0289416164362     0.0621162224098     0.918712712271      -0.380283099954     0.918712712271      -0.380283099954     0.0289416164362     0.0621162224098     
7500000000.0        0.0296079052714     0.0627682796109     0.916622237928      -0.385128270672     0.916622237928      -0.385128270672     0.0296079052714     0.0627682796109     
7600000000.0        0.0302811155793     0.0634132041102     0.91450563999       -0.389961735338     0.91450563999       -0.389961735338     0.0302811155793     0.0634132041102     
7700000000.0        0.0309611721405     0.0640509252128     0.912362992136      -0.394783349743     0.912362992136      -0.394783349743     0.0309611721405     0.0640509252128     
7800000000.0        0.0316479990121     0.0646813730548     0.910194368906      -0.399592970267     0.910194368906      -0.399592970267     0.0316479990121     0.0646813730548     
7900000000.0        0.0323415195386     0.0653044786098     0.907999845697      -0.404390453884     0.907999845697      -0.404390453884     0.0323415195386     0.0653044786098     
8000000000.0        0.0330416563607     0.0659201736958     0.905779498756      -0.409175658168     0.905779498756      -0.409175658168     0.0330416563607     0.0659201736958     
8100000000.0        0.0337483314257     0.066528390981      0.903533405168      -0.413948441303     0.903533405168      -0.413948441303     0.0337483314257     0.066528390981      
8200000000.0        0.0344614659976     0.0671290639903     0.901261642854      -0.418708662087     0.901261642854      -0.418708662087     0.0344614659976     0.0671290639903     
8300000000.0        0.0351809806663     0.0677221271111     0.898964290561      -0.423456179936     0.898964290561      -0.423456179936     0.0351809806663     0.0677221271111     
8400000000.0        0.0359067953583     0.0683075155997     0.896641427853      -0.428190854895     0.896641427853      -0.428190854895     0.0359067953583     0.0683075155997     
8500000000.0        0.0366388293461     0.0688851655865     0.894293135105      -0.43291254764      0.894293135105      -0.43291254764      0.0366388293461     0.0688851655865     
8600000000.0        0.0373770012588     0.0694550140827     0.891919493499      -0.437621119486     0.891919493499      -0.437621119486     0.0373770012588     0.0694550140827     
8700000000.0        0.0381212290913     0.0700169989851     0.889520585009      -0.442316432393     0.889520585009      -0.442316432393     0.0381212290913     0.0700169989851     
8800000000.0        0.0388714302154     0.0705710590821     0.887096492398      -0.446998348967     0.887096492398      -0.446998348967     0.0388714302154     0.0705710590821     
8900000000.0        0.039627521389      0.0711171340591     0.88464729921       -0.451666732474     0.88464729921       -0.451666732474     0.039627521389      0.0711171340591     
9000000000.0        0.0403894187667     0.0716551645036     0.882173089764      -0.456321446837     0.882173089764      -0.456321446837     0.0403894187667     0.0716551645036     
9100000000.0        0.0411570379098     0.0721850919109     0.87967394914       -0.460962356645     0.87967394914       -0.460962356645     0.0411570379098     0.0721850919109     
9200000000.0        0.0419302937965     0.0727068586885     0.877149963178      -0.46558932716      0.877149963178      -0.46558932716      0.0419302937965     0.0727068586885     
9300000000.0        0.0427091008322     0.0732204081619     0.874601218468      -0.470202224316     0.874601218468      -0.470202224316     0.0427091008322     0.0732204081619     
9400000000.0        0.0434933728595     0.0737256845789     0.872027802341      -0.47480091473      0.872027802341      -0.47480091473      0.0434933728595     0.0737256845789     
9500000000.0        0.0442830231687     0.0742226331147     0.869429802861      -0.479385265705     0.869429802861      -0.479385265705     0.0442830231687     0.0742226331147     
9600000000.0        0.0450779645079     0.0747111998764     0.866807308819      -0.483955145231     0.866807308819      -0.483955145231     0.0450779645079     0.0747111998764     
9700000000.0        0.0458781090934     0.0751913319077     0.864160409726      -0.488510421995     0.864160409726      -0.488510421995     0.0458781090934     0.0751913319077     
9800000000.0        0.04668336862       0.0756629771932     0.861489195801      -0.49305096538      0.861489195801      -0.49305096538      0.04668336862       0.0756629771932     
9900000000.0        0.0474936542712     0.076126084663      0.858793757967      -0.497576645474     0.858793757967      -0.497576645474     0.0474936542712     0.076126084663      
10000000000.0       0.0483088767299     0.0765806041967     0.856074187841      -0.50208733307      0.856074187841      -0.50208733307      0.0483088767299     0.0765806041967     
