# Hz S RI R 50.00 
100000000.0         0.0130500504944     0.00124235339542    0.986947327735      -0.00233874049562   0.986947327735      -0.00233874049562   0.0130500504944     0.00124235339542    
200000000.0         0.0131437105643     0.00248405656947    0.986850838451      -0.00467683081854   0.986850838451      -0.00467683081854   0.0131437105643     0.00248405656947    
300000000.0         0.0132203274239     0.0037253279721     0.986770184854      -0.00701449070743   0.986770184854      -0.00701449070743   0.0132203274239     0.0037253279721     
400000000.0         0.0132911250476     0.00496622282769    0.986694142898      -0.00935177643617   0.986694142898      -0.00935177643617   0.0132911250476     0.00496622282769    
500000000.0         0.0133604314569     0.006206758466      0.986618384493      -0.011688706265     0.986618384493      -0.011688706265     0.0133604314569     0.006206758466      
600000000.0         0.0134304561881     0.00744693546367    0.986540700032      -0.0140252816238    0.986540700032      -0.0140252816238    0.0134304561881     0.00744693546367    
700000000.0         0.0135025054823     0.00868674522923    0.986459783195      -0.0163614947189    0.986459783195      -0.0163614947189    0.0135025054823     0.00868674522923    
800000000.0         0.0135774260248     0.00992617351732    0.986374787219      -0.0186973320595    0.986374787219      -0.0186973320595    0.0135774260248     0.00992617351732    
900000000.0         0.0136558026192     0.011165202314      0.986285127213      -0.0210327763519    0.986285127213      -0.0210327763519    0.0136558026192     0.011165202314      
1000000000.0        0.0137380584327     0.0124038109522     0.986190379919      -0.02336780762      0.986190379919      -0.02336780762      0.0137380584327     0.0124038109522     
1100000000.0        0.013824510748      0.0136419768189     0.986090227956      -0.0257024039177    0.986090227956      -0.0257024039177    0.013824510748      0.0136419768189     
1200000000.0        0.0139154041993     0.0148796758288     0.985984426586      -0.0280365418053    0.985984426586      -0.0280365418053    0.0139154041993     0.0148796758288     
1300000000.0        0.0140109316924     0.0161168827548     0.985872782795      -0.0303701966827    0.985872782795      -0.0303701966827    0.0140109316924     0.0161168827548     
1400000000.0        0.0141112481614     0.0173535714664     0.985755141532      -0.0327033430297    0.985755141532      -0.0327033430297    0.0141112481614     0.0173535714664     
1500000000.0        0.0142164799475     0.0185897151071     0.985631376335      -0.0350359545851    0.985631376335      -0.0350359545851    0.0142164799475     0.0185897151071     
1600000000.0        0.0143267313882     0.0198252862288     0.985501382737      -0.0373680044829    0.985501382737      -0.0373680044829    0.0143267313882     0.0198252862288     
1700000000.0        0.0144420895687     0.0210602568966     0.985365073519      -0.0396994653576    0.985365073519      -0.0396994653576    0.0144420895687     0.0210602568966     
1800000000.0        0.0145626278236     0.0222945987715     0.985222375205      -0.0420303094282    0.985222375205      -0.0420303094282    0.0145626278236     0.0222945987715     
1900000000.0        0.0146884083691     0.0235282831765     0.985073225432      -0.0443605085654    0.985073225432      -0.0443605085654    0.0146884083691     0.0235282831765     
2000000000.0        0.0148194843142     0.0247612811505     0.984917570938      -0.0466900343459    0.984917570938      -0.0466900343459    0.0148194843142     0.0247612811505     
2100000000.0        0.0149559012224     0.0259935634931     0.984755365999      -0.049018858098     0.984755365999      -0.049018858098     0.0149559012224     0.0259935634931     
2200000000.0        0.0150976983389     0.0272251008014     0.984586571204      -0.0513469509387    0.984586571204      -0.0513469509387    0.0150976983389     0.0272251008014     
2300000000.0        0.0152449095684     0.0284558635014     0.984411152475      -0.053674283806     0.984411152475      -0.053674283806     0.0152449095684     0.0284558635014     
2400000000.0        0.0153975642613     0.0296858218739     0.984229080283      -0.0560008274853    0.984229080283      -0.0560008274853    0.0153975642613     0.0296858218739     
2500000000.0        0.0155556878534     0.0309149460783     0.984040329008      -0.0583265526328    0.984040329008      -0.0583265526328    0.0155556878534     0.0309149460783     
2600000000.0        0.0157193023898     0.0321432061712     0.983844876413      -0.0606514297955    0.983844876413      -0.0606514297955    0.0157193023898     0.0321432061712     
2700000000.0        0.0158884269588     0.0333705721241     0.983642703212      -0.0629754294286    0.983642703212      -0.0629754294286    0.0158884269588     0.0333705721241     
2800000000.0        0.016063078053      0.0345970138382     0.983433792707      -0.0652985219107    0.983433792707      -0.0652985219107    0.016063078053      0.0345970138382     
2900000000.0        0.0162432698728     0.0358225011577     0.983218130489      -0.0676206775575    0.983218130489      -0.0676206775575    0.0162432698728     0.0358225011577     
3000000000.0        0.0164290145825     0.0370470038815     0.982995704176      -0.0699418666336    0.982995704176      -0.0699418666336    0.0164290145825     0.0370470038815     
3100000000.0        0.0166203225275     0.0382704917739     0.9827665032        -0.0722620593634    0.9827665032        -0.0722620593634    0.0166203225275     0.0382704917739     
3200000000.0        0.016817202421      0.0394929345738     0.982530518618      -0.0745812259408    0.982530518618      -0.0745812259408    0.016817202421      0.0394929345738     
3300000000.0        0.0170196615034     0.0407143020033     0.982287742955      -0.0768993365377    0.982287742955      -0.0768993365377    0.0170196615034     0.0407143020033     
3400000000.0        0.0172277056805     0.0419345637757     0.982038170063      -0.079216361312     0.982038170063      -0.079216361312     0.0172277056805     0.0419345637757     
3500000000.0        0.0174413396428     0.043153689602      0.981781795004      -0.081532270415     0.981781795004      -0.081532270415     0.0174413396428     0.043153689602      
3600000000.0        0.0176605669702     0.0443716491981     0.981518613943      -0.0838470339979    0.981518613943      -0.0838470339979    0.0176605669702     0.0443716491981     
3700000000.0        0.0178853902234     0.0455884122903     0.98124862406       -0.0861606222179    0.98124862406       -0.0861606222179    0.0178853902234     0.0455884122903     
3800000000.0        0.0181158110232     0.0468039486209     0.980971823466      -0.0884730052437    0.980971823466      -0.0884730052437    0.0181158110232     0.0468039486209     
3900000000.0        0.0183518301221     0.0480182279533     0.980688211137      -0.0907841532612    0.980688211137      -0.0907841532612    0.0183518301221     0.0480182279533     
4000000000.0        0.0185934474661     0.0492312200769     0.980397786848      -0.0930940364779    0.980397786848      -0.0930940364779    0.0185934474661     0.0492312200769     
4100000000.0        0.0188406622508     0.0504428948114     0.980100551118      -0.0954026251275    0.980100551118      -0.0954026251275    0.0188406622508     0.0504428948114     
4200000000.0        0.01909347297       0.0516532220112     0.979796505161      -0.0977098894747    0.979796505161      -0.0977098894747    0.01909347297       0.0516532220112     
4300000000.0        0.0193518774608     0.0528621715689     0.979485650844      -0.100015799818     0.979485650844      -0.100015799818     0.0193518774608     0.0528621715689     
4400000000.0        0.0196158729421     0.0540697134196     0.979167990643      -0.102320326496     0.979167990643      -0.102320326496     0.0196158729421     0.0540697134196     
4500000000.0        0.0198854560512     0.055275817544      0.978843527611      -0.104623439888     0.978843527611      -0.104623439888     0.0198854560512     0.055275817544      
4600000000.0        0.0201606228749     0.0564804539716     0.978512265345      -0.106925110419     0.978512265345      -0.106925110419     0.0201606228749     0.0564804539716     
4700000000.0        0.020441368979      0.0576835927846     0.978174207958      -0.109225308562     0.978174207958      -0.109225308562     0.020441368979      0.0576835927846     
4800000000.0        0.0207276894343     0.05888520412       0.977829360051      -0.111524004843     0.977829360051      -0.111524004843     0.0207276894343     0.05888520412       
4900000000.0        0.0210195788402     0.0600852581733     0.977477726689      -0.113821169843     0.977477726689      -0.113821169843     0.0210195788402     0.0600852581733     
5000000000.0        0.0213170313469     0.0612837252006     0.977119313382      -0.116116774199     0.977119313382      -0.116116774199     0.0213170313469     0.0612837252006     
5100000000.0        0.0216200406745     0.0624805755218     0.976754126063      -0.11841078861      0.976754126063      -0.11841078861      0.0216200406745     0.0624805755218     
5200000000.0        0.0219286001313     0.0636757795228     0.976382171072      -0.120703183836     0.976382171072      -0.120703183836     0.0219286001313     0.0636757795228     
5300000000.0        0.0222427026306     0.0648693076583     0.976003455136      -0.122993930705     0.976003455136      -0.122993930705     0.0222427026306     0.0648693076583     
5400000000.0        0.0225623407054     0.0660611304539     0.975617985357      -0.12528300011      0.975617985357      -0.12528300011      0.0225623407054     0.0660611304539     
5500000000.0        0.022887506523      0.0672512185084     0.975225769197      -0.127570363017     0.975225769197      -0.127570363017     0.022887506523      0.0672512185084     
5600000000.0        0.0232181918974     0.0684395424963     0.974826814465      -0.129855990463     0.974826814465      -0.129855990463     0.0232181918974     0.0684395424963     
5700000000.0        0.0235543883013     0.0696260731696     0.974421129306      -0.132139853559     0.974421129306      -0.132139853559     0.0235543883013     0.0696260731696     
5800000000.0        0.0238960868775     0.0708107813603     0.974008722187      -0.134421923495     0.974008722187      -0.134421923495     0.0238960868775     0.0708107813603     
5900000000.0        0.0242432784486     0.0719936379821     0.973589601891      -0.136702171537     0.973589601891      -0.136702171537     0.0242432784486     0.0719936379821     
6000000000.0        0.0245959535271     0.0731746140326     0.973163777504      -0.138980569035     0.973163777504      -0.138980569035     0.0245959535271     0.0731746140326     
6100000000.0        0.0249541023238     0.0743536805952     0.972731258407      -0.14125708742      0.972731258407      -0.14125708742      0.0249541023238     0.0743536805952     
6200000000.0        0.0253177147563     0.0755308088407     0.97229205427       -0.143531698209     0.97229205427       -0.143531698209     0.0253177147563     0.0755308088407     
6300000000.0        0.0256867804568     0.0767059700297     0.971846175042      -0.145804373004     0.971846175042      -0.145804373004     0.0256867804568     0.0767059700297     
6400000000.0        0.0260612887793     0.0778791355137     0.971393630943      -0.148075083497     0.971393630943      -0.148075083497     0.0260612887793     0.0778791355137     
6500000000.0        0.0264412288063     0.0790502767377     0.970934432459      -0.15034380147      0.970934432459      -0.15034380147      0.0264412288063     0.0790502767377     
6600000000.0        0.0268265893556     0.0802193652411     0.970468590334      -0.152610498798     0.970468590334      -0.152610498798     0.0268265893556     0.0802193652411     
6700000000.0        0.0272173589856     0.0813863726599     0.969996115568      -0.154875147447     0.969996115568      -0.154875147447     0.0272173589856     0.0813863726599     
6800000000.0        0.0276135260019     0.082551270728      0.969517019406      -0.157137719481     0.969517019406      -0.157137719481     0.0276135260019     0.082551270728      
6900000000.0        0.028015078462      0.0837140312792     0.969031313333      -0.15939818706      0.969031313333      -0.15939818706      0.028015078462      0.0837140312792     
7000000000.0        0.0284220041807     0.0848746262484     0.968539009075      -0.161656522443     0.968539009075      -0.161656522443     0.0284220041807     0.0848746262484     
7100000000.0        0.0288342907348     0.0860330276734     0.968040118587      -0.163912697989     0.968040118587      -0.163912697989     0.0288342907348     0.0860330276734     
7200000000.0        0.029251925468      0.0871892076965     0.967534654051      -0.166166686159     0.967534654051      -0.166166686159     0.029251925468      0.0871892076965     
7300000000.0        0.0296748954949     0.0883431385654     0.967022627874      -0.168418459517     0.967022627874      -0.168418459517     0.0296748954949     0.0883431385654     
7400000000.0        0.0301031877055     0.0894947926356     0.966504052682      -0.170667990732     0.966504052682      -0.170667990732     0.0301031877055     0.0894947926356     
7500000000.0        0.0305367887689     0.090644142371      0.965978941312      -0.172915252579     0.965978941312      -0.172915252579     0.0305367887689     0.090644142371      
7600000000.0        0.0309756851372     0.0917911603458     0.965447306816      -0.175160217941     0.965447306816      -0.175160217941     0.0309756851372     0.0917911603458     
7700000000.0        0.0314198630496     0.0929358192456     0.964909162451      -0.17740285981      0.964909162451      -0.17740285981      0.0314198630496     0.0929358192456     
7800000000.0        0.0318693085351     0.0940780918691     0.96436452168       -0.179643151287     0.96436452168       -0.179643151287     0.0318693085351     0.0940780918691     
7900000000.0        0.0323240074165     0.0952179511292     0.963813398163      -0.181881065588     0.963813398163      -0.181881065588     0.0323240074165     0.0952179511292     
8000000000.0        0.0327839453136     0.0963553700543     0.963255805762      -0.18411657604      0.963255805762      -0.18411657604      0.0327839453136     0.0963553700543     
8100000000.0        0.0332491076459     0.0974903217896     0.962691758527      -0.186349656083     0.962691758527      -0.186349656083     0.0332491076459     0.0974903217896     
8200000000.0        0.0337194796363     0.0986227795986     0.962121270705      -0.188580279275     0.962121270705      -0.188580279275     0.0337194796363     0.0986227795986     
8300000000.0        0.0341950463132     0.0997527168641     0.961544356727      -0.190808419292     0.961544356727      -0.190808419292     0.0341950463132     0.0997527168641     
8400000000.0        0.0346757925142     0.10088010709       0.960961031211      -0.193034049924     0.960961031211      -0.193034049924     0.0346757925142     0.10088010709       
8500000000.0        0.0351617028883     0.102004923901      0.960371308957      -0.195257145085     0.960371308957      -0.195257145085     0.0351617028883     0.102004923901      
8600000000.0        0.0356527618986     0.103127141045      0.959775204945      -0.197477678807     0.959775204945      -0.197477678807     0.0356527618986     0.103127141045      
8700000000.0        0.0361489538251     0.104246732396      0.959172734332      -0.199695625244     0.959172734332      -0.199695625244     0.0361489538251     0.104246732396      
8800000000.0        0.0366502627672     0.105363671951      0.958563912451      -0.201910958674     0.958563912451      -0.201910958674     0.0366502627672     0.105363671951      
8900000000.0        0.0371566726459     0.106477933835      0.957948754806      -0.204123653499     0.957948754806      -0.204123653499     0.0371566726459     0.106477933835      
9000000000.0        0.0376681672065     0.1075894923        0.95732727707       -0.206333684246     0.95732727707       -0.206333684246     0.0376681672065     0.1075894923        
9100000000.0        0.0381847300208     0.108698321726      0.956699495086      -0.208541025568     0.956699495086      -0.208541025568     0.0381847300208     0.108698321726      
9200000000.0        0.0387063444895     0.109804396625      0.95606542486       -0.210745652245     0.95606542486       -0.210745652245     0.0387063444895     0.109804396625      
9300000000.0        0.0392329938443     0.110907691637      0.955425082562      -0.212947539188     0.955425082562      -0.212947539188     0.0392329938443     0.110907691637      
9400000000.0        0.0397646611501     0.112008181537      0.954778484524      -0.215146661435     0.954778484524      -0.215146661435     0.0397646611501     0.112008181537      
9500000000.0        0.0403013293074     0.113105841231      0.954125647235      -0.217342994157     0.954125647235      -0.217342994157     0.0403013293074     0.113105841231      
9600000000.0        0.040842981054      0.114200645759      0.95346658734       -0.219536512653     0.95346658734       -0.219536512653     0.040842981054      0.114200645759      
9700000000.0        0.0413895989676     0.115292570297      0.95280132164       -0.221727192358     0.95280132164       -0.221727192358     0.0413895989676     0.115292570297      
9800000000.0        0.0419411654673     0.116381590156      0.952129867087      -0.22391500884      0.952129867087      -0.22391500884      0.0419411654673     0.116381590156      
9900000000.0        0.0424976628162     0.117467680784      0.951452240786      -0.226099937802     0.951452240786      -0.226099937802     0.0424976628162     0.117467680784      
10000000000.0       0.0430590731226     0.118550817768      0.950768459988      -0.228281955079     0.950768459988      -0.228281955079     0.0430590731226     0.118550817768      
