# Hz S RI R 50.00 
100000000.0         0.0430015054556     0.00271936231222    0.956996740968      -0.0033370615078    0.956996740968      -0.0033370615078    0.0430015054556     0.00271936231222    
200000000.0         0.0433005379151     0.00543512552098    0.956696567573      -0.00667052965213   0.956696567573      -0.00667052965213   0.0433005379151     0.00543512552098    
300000000.0         0.043544667197      0.00814852345757    0.956450909907      -0.0100016420118    0.956450909907      -0.0100016420118    0.043544667197      0.00814852345757    
400000000.0         0.0437698677193     0.0108598761404     0.956223793473      -0.0133307217017    0.956223793473      -0.0133307217017    0.0437698677193     0.0108598761404     
500000000.0         0.0439900210314     0.013569290892      0.956001336649      -0.0166578788121    0.956001336649      -0.0166578788121    0.0439900210314     0.013569290892      
600000000.0         0.0442122161805     0.0162767808622     0.955776450313      -0.0199831290458    0.955776450313      -0.0199831290458    0.0442122161805     0.0162767808622     
700000000.0         0.0444406434797     0.0189823076288     0.955544944075      -0.0233064363757    0.955544944075      -0.0233064363757    0.0444406434797     0.0189823076288     
800000000.0         0.0446780170076     0.0216858009718     0.955304103777      -0.0266277328545    0.955304103777      -0.0266277328545    0.0446780170076     0.0216858009718     
900000000.0         0.0449262085678     0.0243871695078     0.955052057534      -0.0299469292711    0.955052057534      -0.0299469292711    0.0449262085678     0.0243871695078     
1000000000.0        0.0451865693175     0.0270863069956     0.954787454103      -0.0332639214727    0.954787454103      -0.0332639214727    0.0451865693175     0.0270863069956     
1100000000.0        0.0454601087129     0.0297830963496     0.954509283939      -0.0365785943897    0.954509283939      -0.0365785943897    0.0454601087129     0.0297830963496     
1200000000.0        0.0457476012304     0.0324774123359     0.954216772472      -0.0398908247412    0.954216772472      -0.0398908247412    0.0457476012304     0.0324774123359     
1300000000.0        0.0460496535661     0.0351691234625     0.95390931291       -0.0432004829316    0.95390931291       -0.0432004829316    0.0460496535661     0.0351691234625     
1400000000.0        0.046366748845      0.0378580933504     0.953586422026      -0.0465074344284    0.953586422026      -0.0465074344284    0.046366748845      0.0378580933504     
1500000000.0        0.0466992767709     0.0405441817593     0.953247710013      -0.0498115407918    0.953247710013      -0.0498115407918    0.0466992767709     0.0405441817593     
1600000000.0        0.047047554821      0.0432272453726     0.952892859285      -0.0531126604638    0.952892859285      -0.0531126604638    0.047047554821      0.0432272453726     
1700000000.0        0.0474118435343     0.045907138412      0.952521609191      -0.0564106493864    0.952521609191      -0.0564106493864    0.0474118435343     0.045907138412      
1800000000.0        0.0477923577861     0.0485837131279     0.952133744739      -0.0597053614946    0.952133744739      -0.0597053614946    0.0477923577861     0.0485837131279     
1900000000.0        0.0481892752669     0.0512568201972     0.951729088119      -0.0629966491164    0.951729088119      -0.0629966491164    0.0481892752669     0.0512568201972     
2000000000.0        0.0486027429675     0.0539263090506     0.951307492216      -0.0662843633028    0.951307492216      -0.0662843633028    0.0486027429675     0.0539263090506     
2100000000.0        0.0490328822155     0.0565920281465     0.950868835576      -0.069568354103     0.950868835576      -0.069568354103     0.0490328822155     0.0565920281465     
2200000000.0        0.04947979264       0.0592538252014     0.950413018438      -0.0728484707971    0.950413018438      -0.0728484707971    0.04947979264       0.0592538252014     
2300000000.0        0.0499435553314     0.0619115473887     0.949939959576      -0.0761245620957    0.949939959576      -0.0761245620957    0.0499435553314     0.0619115473887     
2400000000.0        0.0504242353869     0.0645650415084     0.949449593755      -0.0793964763115    0.949449593755      -0.0793964763115    0.0504242353869     0.0645650415084     
2500000000.0        0.0509218839831     0.0672141541371     0.948941869655      -0.08266406151      0.948941869655      -0.08266406151      0.0509218839831     0.0672141541371     
2600000000.0        0.0514365400789     0.0698587317588     0.948416748172      -0.0859271656419    0.948416748172      -0.0859271656419    0.0514365400789     0.0698587317588     
2700000000.0        0.0519682318257     0.0724986208815     0.947874201004      -0.0891856366602    0.947874201004      -0.0891856366602    0.0519682318257     0.0724986208815     
2800000000.0        0.0525169777468     0.0751336681416     0.947314209475      -0.092439322626     0.947314209475      -0.092439322626     0.0525169777468     0.0751336681416     
2900000000.0        0.0530827877285     0.0777637203977     0.946736763542      -0.0956880718028    0.946736763542      -0.0956880718028    0.0530827877285     0.0777637203977     
3000000000.0        0.0536656638607     0.0803886248161     0.946141860954      -0.0989317327429    0.946141860954      -0.0989317327429    0.0536656638607     0.0803886248161     
3100000000.0        0.0542656011542     0.0830082289484     0.945529506537      -0.102170154365     0.945529506537      -0.102170154365     0.0542656011542     0.0830082289484     
3200000000.0        0.054882588155      0.0856223808031     0.944899711578      -0.105403186029     0.944899711578      -0.105403186029     0.054882588155      0.0856223808031     
3300000000.0        0.0555166074763     0.0882309289111     0.944252493291      -0.108630677598     0.944252493291      -0.108630677598     0.0555166074763     0.0882309289111     
3400000000.0        0.0561676362591     0.0908337223873     0.943587874363      -0.111852479504     0.943587874363      -0.111852479504     0.0561676362591     0.0908337223873     
3500000000.0        0.0568356465749     0.0934306109871     0.942905882545      -0.115068442803     0.942905882545      -0.115068442803     0.0568356465749     0.0934306109871     
3600000000.0        0.0575206057786     0.0960214451596     0.942206550299      -0.11827841923      0.942206550299      -0.11827841923      0.0575206057786     0.0960214451596     
3700000000.0        0.0582224768201     0.0986060760973     0.941489914493      -0.121482261247     0.941489914493      -0.121482261247     0.0582224768201     0.0986060760973     
3800000000.0        0.0589412185203     0.101184355784      0.940756016117      -0.124679822096     0.940756016117      -0.124679822096     0.0589412185203     0.101184355784      
3900000000.0        0.0596767858162     0.103756137036      0.940004900044      -0.127870955834     0.940004900044      -0.127870955834     0.0596767858162     0.103756137036      
4000000000.0        0.0604291299809     0.106321273549      0.939236614807      -0.131055517386     0.939236614807      -0.131055517386     0.0604291299809     0.106321273549      
4100000000.0        0.0611981988208     0.108879619935      0.938451212401      -0.134233362578     0.938451212401      -0.134233362578     0.0611981988208     0.108879619935      
4200000000.0        0.0619839368538     0.111431031757      0.937648748109      -0.137404348177     0.937648748109      -0.137404348177     0.0619839368538     0.111431031757      
4300000000.0        0.0627862854699     0.113975365572      0.936829280337      -0.140568331929     0.936829280337      -0.140568331929     0.0627862854699     0.113975365572      
4400000000.0        0.0636051830788     0.116512478959      0.935992870468      -0.14372517259      0.935992870468      -0.14372517259      0.0636051830788     0.116512478959      
4500000000.0        0.0644405652432     0.119042230556      0.935139582729      -0.146874729964     0.935139582729      -0.146874729964     0.0644405652432     0.119042230556      
4600000000.0        0.0652923648021     0.121564480089      0.934269484069      -0.150016864931     0.934269484069      -0.150016864931     0.0652923648021     0.121564480089      
4700000000.0        0.0661605119839     0.124079088404      0.933382644043      -0.153151439478     0.933382644043      -0.153151439478     0.0661605119839     0.124079088404      
4800000000.0        0.067044934511      0.126585917493      0.93247913471       -0.15627831673      0.93247913471       -0.15627831673      0.067044934511      0.126585917493      
4900000000.0        0.0679455576969     0.129084830524      0.931559030532      -0.159397360975     0.931559030532      -0.159397360975     0.0679455576969     0.129084830524      
5000000000.0        0.0688623045369     0.131575691868      0.930622408291      -0.162508437693     0.930622408291      -0.162508437693     0.0688623045369     0.131575691868      
5100000000.0        0.0697950957919     0.134058367122      0.929669346997      -0.165611413582     0.929669346997      -0.165611413582     0.0697950957919     0.134058367122      
5200000000.0        0.0707438500684     0.136532723138      0.928699927811      -0.16870615658      0.928699927811      -0.16870615658      0.0707438500684     0.136532723138      
5300000000.0        0.0717084838925     0.13899862804       0.927714233975      -0.171792535893     0.927714233975      -0.171792535893     0.0717084838925     0.13899862804       
5400000000.0        0.0726889117805     0.141455951252      0.926712350734      -0.174870422013     0.926712350734      -0.174870422013     0.0726889117805     0.141455951252      
5500000000.0        0.0736850463054     0.143904563518      0.925694365275      -0.177939686745     0.925694365275      -0.177939686745     0.0736850463054     0.143904563518      
5600000000.0        0.0746967981606     0.146344336925      0.924660366663      -0.181000203223     0.924660366663      -0.181000203223     0.0746967981606     0.146344336925      
5700000000.0        0.0757240762195     0.148775144917      0.923610445777      -0.184051845937     0.923610445777      -0.184051845937     0.0757240762195     0.148775144917      
5800000000.0        0.0767667875939     0.151196862322      0.922544695257      -0.187094490744     0.922544695257      -0.187094490744     0.0767667875939     0.151196862322      
5900000000.0        0.0778248376885     0.153609365367      0.921463209448      -0.190128014894     0.921463209448      -0.190128014894     0.0778248376885     0.153609365367      
6000000000.0        0.0788981302542     0.156012531694      0.920366084344      -0.193152297044     0.920366084344      -0.193152297044     0.0788981302542     0.156012531694      
6100000000.0        0.0799865674388     0.158406240381      0.91925341754       -0.196167217279     0.91925341754       -0.196167217279     0.0799865674388     0.158406240381      
6200000000.0        0.0810900498366     0.160790371955      0.918125308182      -0.199172657123     0.918125308182      -0.199172657123     0.0810900498366     0.160790371955      
6300000000.0        0.0822084765357     0.163164808411      0.91698185692       -0.202168499559     0.91698185692       -0.202168499559     0.0822084765357     0.163164808411      
6400000000.0        0.0833417451637     0.165529433223      0.915823165859      -0.205154629044     0.915823165859      -0.205154629044     0.0833417451637     0.165529433223      
6500000000.0        0.0844897519331     0.167884131362      0.91464933852       -0.208130931523     0.91464933852       -0.208130931523     0.0844897519331     0.167884131362      
6600000000.0        0.085652391684      0.170228789309      0.913460479792      -0.21109729444      0.913460479792      -0.21109729444      0.085652391684      0.170228789309      
6700000000.0        0.086829557927      0.172563295067      0.91225669589       -0.214053606757     0.91225669589       -0.214053606757     0.086829557927      0.172563295067      
6800000000.0        0.0880211428837     0.174887538173      0.911038094317      -0.21699975896      0.911038094317      -0.21699975896      0.0880211428837     0.174887538173      
6900000000.0        0.089227037528      0.17720140971       0.909804783819      -0.219935643078     0.909804783819      -0.219935643078     0.089227037528      0.17720140971       
7000000000.0        0.0904471316245     0.179504802322      0.908556874351      -0.222861152687     0.908556874351      -0.222861152687     0.0904471316245     0.179504802322      
7100000000.0        0.0916813137676     0.18179761022       0.907294477035      -0.225776182927     0.907294477035      -0.225776182927     0.0916813137676     0.18179761022       
7200000000.0        0.0929294714192     0.184079729192      0.90601770412       -0.228680630508     0.90601770412       -0.228680630508     0.0929294714192     0.184079729192      
7300000000.0        0.0941914909456     0.186351056617      0.904726668952      -0.231574393723     0.904726668952      -0.231574393723     0.0941914909456     0.186351056617      
7400000000.0        0.0954672576542     0.188611491469      0.903421485931      -0.234457372452     0.903421485931      -0.234457372452     0.0954672576542     0.188611491469      
7500000000.0        0.096756655829      0.190860934328      0.902102270478      -0.237329468177     0.902102270478      -0.237329468177     0.096756655829      0.190860934328      
7600000000.0        0.0980595687661     0.193099287387      0.900769139001      -0.240190583984     0.900769139001      -0.240190583984     0.0980595687661     0.193099287387      
7700000000.0        0.0993758788081     0.19532645446       0.899422208856      -0.243040624574     0.899422208856      -0.243040624574     0.0993758788081     0.19532645446       
7800000000.0        0.100705467378      0.197542340986      0.898061598319      -0.245879496269     0.898061598319      -0.245879496269     0.100705467378      0.197542340986      
7900000000.0        0.102048215015      0.19974685404       0.896687426545      -0.248707107015     0.896687426545      -0.248707107015     0.102048215015      0.19974685404       
8000000000.0        0.103404001402      0.201939902334      0.895299813544      -0.251523366394     0.895299813544      -0.251523366394     0.103404001402      0.201939902334      
8100000000.0        0.104772705407      0.204121396223      0.893898880139      -0.254328185623     0.893898880139      -0.254328185623     0.104772705407      0.204121396223      
8200000000.0        0.106154205106      0.206291247712      0.89248474794       -0.257121477563     0.89248474794       -0.257121477563     0.106154205106      0.206291247712      
8300000000.0        0.107548377824      0.208449370459      0.891057539308      -0.25990315672      0.891057539308      -0.25990315672      0.107548377824      0.208449370459      
8400000000.0        0.108955100158      0.210595679775      0.889617377329      -0.262673139252     0.889617377329      -0.262673139252     0.108955100158      0.210595679775      
8500000000.0        0.110374248014      0.212730092634      0.888164385777      -0.265431342969     0.888164385777      -0.265431342969     0.110374248014      0.212730092634      
8600000000.0        0.111805696636      0.214852527669      0.886698689086      -0.268177687336     0.886698689086      -0.268177687336     0.111805696636      0.214852527669      
8700000000.0        0.113249320635      0.216962905178      0.885220412318      -0.270912093478     0.885220412318      -0.270912093478     0.113249320635      0.216962905178      
8800000000.0        0.114704994023      0.219061147123      0.883729681138      -0.273634484179     0.883729681138      -0.273634484179     0.114704994023      0.219061147123      
8900000000.0        0.116172590236      0.221147177135      0.882226621778      -0.276344783883     0.882226621778      -0.276344783883     0.116172590236      0.221147177135      
9000000000.0        0.11765198217       0.22322092051       0.88071136101       -0.279042918698     0.88071136101       -0.279042918698     0.11765198217       0.22322092051       
9100000000.0        0.119143042206      0.225282304212      0.879184026118      -0.281728816392     0.879184026118      -0.281728816392     0.119143042206      0.225282304212      
9200000000.0        0.120645642242      0.227331256872      0.877644744869      -0.284402406395     0.877644744869      -0.284402406395     0.120645642242      0.227331256872      
9300000000.0        0.122159653718      0.22936770879       0.876093645483      -0.287063619801     0.876093645483      -0.287063619801     0.122159653718      0.22936770879       
9400000000.0        0.123684947645      0.231391591928      0.874530856608      -0.289712389362     0.874530856608      -0.289712389362     0.123684947645      0.231391591928      
9500000000.0        0.125221394633      0.233402839914      0.872956507289      -0.292348649487     0.872956507289      -0.292348649487     0.125221394633      0.233402839914      
9600000000.0        0.126768864922      0.235401388038      0.871370726942      -0.294972336247     0.871370726942      -0.294972336247     0.126768864922      0.235401388038      
9700000000.0        0.128327228401      0.237387173249      0.869773645327      -0.297583387363     0.869773645327      -0.297583387363     0.128327228401      0.237387173249      
9800000000.0        0.129896354644      0.239360134153      0.86816539252       -0.300181742211     0.86816539252       -0.300181742211     0.129896354644      0.239360134153      
9900000000.0        0.13147611293       0.241320211009      0.866546098891      -0.302767341814     0.866546098891      -0.302767341814     0.13147611293       0.241320211009      
10000000000.0       0.133066372271      0.243267345728      0.864915895069      -0.30534012884      0.864915895069      -0.30534012884      0.133066372271      0.243267345728      
