# Hz S RI R 50.00 
100000000.0         0.00170562728111    9.62121849952e-05   0.998279988543      -0.0044142756057    0.998279988543      -0.0044142756057    0.00170562728111    9.62121849952e-05   
200000000.0         0.00171634840686    0.000192311108006   0.99823722619       -0.0088284045326    0.99823722619       -0.0088284045326    0.00171634840686    0.000192311108006   
300000000.0         0.00172494667185    0.000288319780247   0.998177928629      -0.0132423720573    0.998177928629      -0.0132423720573    0.00172494667185    0.000288319780247   
400000000.0         0.00173289826869    0.000384236961183   0.998100618472      -0.0176561295886    0.998100618472      -0.0176561295886    0.00173289826869    0.000384236961183   
500000000.0         0.00174077029162    0.000480056539135   0.998004727332      -0.0220696187679    0.998004727332      -0.0220696187679    0.00174077029162    0.000480056539135   
600000000.0         0.00174885097136    0.000575770569079   0.997889965639      -0.026482776169     0.997889965639      -0.026482776169     0.00174885097136    0.000575770569079   
700000000.0         0.00175730977955    0.000671370293888   0.997756162577      -0.0308955351693    0.997756162577      -0.0308955351693    0.00175730977955    0.000671370293888   
800000000.0         0.00176625582593    0.000766846585568   0.997603207717      -0.0353078269006    0.997603207717      -0.0353078269006    0.00176625582593    0.000766846585568   
900000000.0         0.00177576384535    0.000862190164219   0.997431025054      -0.039719580806     0.997431025054      -0.039719580806     0.00177576384535    0.000862190164219   
1000000000.0        0.00178588736338    0.000957391716882   0.997239559868      -0.0441307249957    0.997239559868      -0.0441307249957    0.00178588736338    0.000957391716882   
1100000000.0        0.00179666601192    0.00105244196569    0.997028771418      -0.0485411864918    0.997028771418      -0.0485411864918    0.00179666601192    0.00105244196569    
1200000000.0        0.00180812988685    0.00114733170851    0.996798628608      -0.0529508914035    0.996798628608      -0.0529508914035    0.00180812988685    0.00114733170851    
1300000000.0        0.00182030228914    0.00124205184365    0.99654910726       -0.0573597650588    0.99654910726       -0.0573597650588    0.00182030228914    0.00124205184365    
1400000000.0        0.00183320152639    0.00133659338506    0.99628018832       -0.0617677321056    0.99628018832       -0.0617677321056    0.00183320152639    0.00133659338506    
1500000000.0        0.00184684214052    0.00143094747132    0.995991856647      -0.0661747165924    0.995991856647      -0.0661747165924    0.00184684214052    0.00143094747132    
1600000000.0        0.00186123577037    0.00152510537096    0.995684100161      -0.0705806420324    0.995684100161      -0.0705806420324    0.00186123577037    0.00152510537096    
1700000000.0        0.00187639177346    0.00161905848513    0.995356909227      -0.0749854314575    0.995356909227      -0.0749854314575    0.00187639177346    0.00161905848513    
1800000000.0        0.00189231768462    0.00171279834862    0.995010276213      -0.079389007463     0.995010276213      -0.079389007463     0.00189231768462    0.00171279834862    
1900000000.0        0.00190901956069    0.00180631662979    0.994644195146      -0.083791292245     0.994644195146      -0.083791292245     0.00190901956069    0.00180631662979    
2000000000.0        0.00192650224439    0.00189960512962    0.994258661463      -0.0881922076332    0.994258661463      -0.0881922076332    0.00192650224439    0.00189960512962    
2100000000.0        0.00194476956916    0.00199265578035    0.993853671809      -0.0925916751193    0.993853671809      -0.0925916751193    0.00194476956916    0.00199265578035    
2200000000.0        0.00196382452067    0.00208546064374    0.993429223884      -0.0969896158814    0.993429223884      -0.0969896158814    0.00196382452067    0.00208546064374    
2300000000.0        0.00198366936551    0.00217801190907    0.992985316324      -0.101385950806     0.992985316324      -0.101385950806     0.00198366936551    0.00217801190907    
2400000000.0        0.00200430575508    0.00227030189104    0.992521948599      -0.105780600506     0.992521948599      -0.105780600506     0.00200430575508    0.00227030189104    
2500000000.0        0.00202573481021    0.00236232302757    0.992039120938      -0.110173485343     0.992039120938      -0.110173485343     0.00202573481021    0.00236232302757    
2600000000.0        0.00204795719084    0.00245406787756    0.991536834262      -0.114564525435     0.991536834262      -0.114564525435     0.00204795719084    0.00245406787756    
2700000000.0        0.00207097315381    0.00254552911861    0.991015090135      -0.118953640678     0.991015090135      -0.118953640678     0.00207097315381    0.00254552911861    
2800000000.0        0.00209478260125    0.00263669954477    0.99047389072       -0.123340750755     0.99047389072       -0.123340750755     0.00209478260125    0.00263669954477    
2900000000.0        0.00211938512136    0.00272757206434    0.98991323874       -0.127725775149     0.98991323874       -0.127725775149     0.00211938512136    0.00272757206434    
3000000000.0        0.00214478002307    0.00281813969762    0.989333137453      -0.132108633155     0.989333137453      -0.132108633155     0.00214478002307    0.00281813969762    
3100000000.0        0.00217096636563    0.00290839557479    0.988733590624      -0.136489243889     0.988733590624      -0.136489243889     0.00217096636563    0.00290839557479    
3200000000.0        0.00219794298406    0.00299833293375    0.988114602507      -0.140867526297     0.988114602507      -0.140867526297     0.00219794298406    0.00299833293375    
3300000000.0        0.00222570851121    0.00308794511808    0.987476177821      -0.145243399165     0.987476177821      -0.145243399165     0.00222570851121    0.00308794511808    
3400000000.0        0.00225426139691    0.00317722557498    0.986818321744      -0.149616781126     0.986818321744      -0.149616781126     0.00225426139691    0.00317722557498    
3500000000.0        0.00228359992471    0.00326616785328    0.986141039891      -0.153987590671     0.986141039891      -0.153987590671     0.00228359992471    0.00326616785328    
3600000000.0        0.00231372222664    0.00335476560154    0.98544433831       -0.158355746151     0.98544433831       -0.158355746151     0.00231372222664    0.00335476560154    
3700000000.0        0.00234462629619    0.00344301256612    0.984728223469      -0.16272116579      0.984728223469      -0.16272116579      0.00234462629619    0.00344301256612    
3800000000.0        0.00237630999983    0.00353090258935    0.983992702249      -0.167083767685     0.983992702249      -0.167083767685     0.00237630999983    0.00353090258935    
3900000000.0        0.00240877108729    0.00361842960772    0.983237781939      -0.171443469819     0.983237781939      -0.171443469819     0.00240877108729    0.00361842960772    
4000000000.0        0.00244200720077    0.0037055876501     0.982463470224      -0.175800190061     0.982463470224      -0.175800190061     0.00244200720077    0.0037055876501     
4100000000.0        0.00247601588313    0.00379237083603    0.981669775189      -0.180153846177     0.981669775189      -0.180153846177     0.00247601588313    0.00379237083603    
4200000000.0        0.00251079458533    0.00387877337406    0.980856705308      -0.184504355829     0.980856705308      -0.184504355829     0.00251079458533    0.00387877337406    
4300000000.0        0.00254634067319    0.00396478956007    0.980024269441      -0.188851636587     0.980024269441      -0.188851636587     0.00254634067319    0.00396478956007    
4400000000.0        0.00258265143342    0.00405041377565    0.979172476833      -0.193195605931     0.979172476833      -0.193195605931     0.00258265143342    0.00405041377565    
4500000000.0        0.00261972407917    0.00413564048657    0.978301337111      -0.197536181254     0.978301337111      -0.197536181254     0.00261972407917    0.00413564048658    
4600000000.0        0.00265755575513    0.00422046424122    0.977410860279      -0.20187327987      0.977410860279      -0.20187327987      0.00265755575513    0.00422046424122    
4700000000.0        0.0026961435421     0.00430487966905    0.976501056718      -0.206206819016     0.976501056718      -0.206206819016     0.0026961435421     0.00430487966905    
4800000000.0        0.00273548446128    0.00438888147917    0.975571937185      -0.210536715858     0.975571937185      -0.210536715858     0.00273548446128    0.00438888147917    
4900000000.0        0.00277557547818    0.00447246445885    0.97462351281       -0.214862887493     0.97462351281       -0.214862887493     0.00277557547818    0.00447246445885    
5000000000.0        0.00281641350616    0.0045556234721     0.973655795096      -0.219185250957     0.973655795096      -0.219185250957     0.00281641350616    0.0045556234721     
5100000000.0        0.00285799540986    0.00463835345831    0.972668795914      -0.223503723223     0.972668795914      -0.223503723223     0.00285799540986    0.00463835345831    
5200000000.0        0.00290031800822    0.00472064943083    0.97166252751       -0.227818221212     0.97166252751       -0.227818221212     0.00290031800822    0.00472064943083    
5300000000.0        0.00294337807736    0.00480250647566    0.970637002495      -0.232128661792     0.970637002495      -0.232128661792     0.00294337807736    0.00480250647566    
5400000000.0        0.00298717235327    0.00488391975013    0.969592233853      -0.236434961781     0.969592233853      -0.236434961781     0.00298717235327    0.00488391975013    
5500000000.0        0.00303169753427    0.00496488448159    0.968528234932      -0.240737037954     0.968528234932      -0.240737037954     0.00303169753427    0.00496488448159    
5600000000.0        0.00307695028335    0.00504539596614    0.967445019452      -0.245034807045     0.967445019452      -0.245034807045     0.00307695028335    0.00504539596614    
5700000000.0        0.00312292723034    0.00512544956739    0.966342601498      -0.24932818575      0.966342601498      -0.24932818575      0.00312292723034    0.00512544956739    
5800000000.0        0.0031696249739     0.00520504071519    0.965220995524      -0.253617090729     0.965220995524      -0.253617090729     0.0031696249739     0.00520504071519    
5900000000.0        0.0032170400835     0.00528416490448    0.96408021635       -0.257901438613     0.96408021635       -0.257901438613     0.0032170400835     0.00528416490448    
6000000000.0        0.00326516910117    0.00536281769405    0.962920279164      -0.262181146005     0.962920279164      -0.262181146005     0.00326516910117    0.00536281769405    
6100000000.0        0.00331400854317    0.00544099470537    0.961741199521      -0.266456129482     0.961741199521      -0.266456129482     0.00331400854317    0.00544099470537    
6200000000.0        0.00336355490159    0.00551869162146    0.960542993343      -0.270726305599     0.960542993343      -0.270726305599     0.00336355490159    0.00551869162146    
6300000000.0        0.00341380464587    0.00559590418572    0.959325676918      -0.274991590894     0.959325676918      -0.274991590894     0.00341380464587    0.00559590418572    
6400000000.0        0.00346475422417    0.00567262820085    0.958089266903      -0.279251901888     0.958089266903      -0.279251901888     0.00346475422417    0.00567262820085    
6500000000.0        0.00351640006469    0.0057488595277     0.95683378032       -0.28350715509      0.95683378032       -0.28350715509      0.00351640006469    0.0057488595277     
6600000000.0        0.00356873857698    0.00582459408423    0.955559234561      -0.287757266998     0.955559234561      -0.287757266998     0.00356873857698    0.00582459408423    
6700000000.0        0.00362176615309    0.00589982784438    0.954265647383      -0.292002154105     0.954265647383      -0.292002154105     0.00362176615309    0.00589982784438    
6800000000.0        0.00367547916869    0.00597455683709    0.952953036911      -0.296241732898     0.952953036911      -0.296241732898     0.00367547916869    0.00597455683709    
6900000000.0        0.00372987398415    0.00604877714518    0.95162142164       -0.300475919864     0.95162142164       -0.300475919864     0.00372987398415    0.00604877714518    
7000000000.0        0.00378494694552    0.00612248490436    0.950270820429      -0.304704631489     0.950270820429      -0.304704631489     0.00378494694552    0.00612248490436    
7100000000.0        0.00384069438552    0.00619567630224    0.948901252508      -0.308927784265     0.948901252508      -0.308927784265     0.00384069438552    0.00619567630224    
7200000000.0        0.00389711262441    0.00626834757729    0.947512737474      -0.313145294692     0.947512737474      -0.313145294692     0.00389711262441    0.00626834757729    
7300000000.0        0.00395419797084    0.00634049501786    0.946105295293      -0.317357079275     0.946105295293      -0.317357079275     0.00395419797084    0.00634049501786    
7400000000.0        0.0040119467227     0.00641211496125    0.944678946299      -0.321563054535     0.944678946299      -0.321563054535     0.0040119467227     0.00641211496125    
7500000000.0        0.00407035516786    0.00648320379269    0.943233711195      -0.325763137005     0.943233711195      -0.325763137005     0.00407035516786    0.00648320379269    
7600000000.0        0.00412941958486    0.00655375794443    0.941769611053      -0.329957243237     0.941769611053      -0.329957243237     0.00412941958486    0.00655375794443    
7700000000.0        0.00418913624368    0.00662377389482    0.940286667315      -0.3341452898       0.940286667315      -0.3341452898       0.00418913624368    0.00662377389482    
7800000000.0        0.00424950140629    0.00669324816734    0.93878490179       -0.338327193289     0.93878490179       -0.338327193289     0.00424950140629    0.00669324816734    
7900000000.0        0.00431051132738    0.00676217732974    0.93726433666       -0.342502870318     0.93726433666       -0.342502870318     0.00431051132738    0.00676217732974    
8000000000.0        0.00437216225484    0.00683055799312    0.935724994473      -0.346672237533     0.935724994473      -0.346672237533     0.00437216225484    0.00683055799312    
8100000000.0        0.00443445043035    0.00689838681104    0.934166898149      -0.350835211607     0.934166898149      -0.350835211607     0.00443445043035    0.00689838681104    
8200000000.0        0.00449737208991    0.00696566047867    0.932590070979      -0.354991709245     0.932590070979      -0.354991709245     0.00449737208991    0.00696566047867    
8300000000.0        0.00456092346432    0.00703237573189    0.930994536621      -0.359141647187     0.930994536621      -0.359141647187     0.00456092346432    0.00703237573189    
8400000000.0        0.00462510077964    0.00709852934647    0.929380319107      -0.363284942208     0.929380319107      -0.363284942208     0.00462510077964    0.00709852934647    
8500000000.0        0.0046899002576     0.00716411813723    0.927747442837      -0.367421511123     0.927747442837      -0.367421511123     0.0046899002576     0.00716411813723    
8600000000.0        0.00475531811607    0.0072291389572     0.926095932583      -0.371551270789     0.926095932583      -0.371551270789     0.00475531811607    0.0072291389572     
8700000000.0        0.00482135056936    0.0072935886968     0.924425813487      -0.375674138105     0.924425813487      -0.375674138105     0.00482135056936    0.0072935886968     
8800000000.0        0.00488799382865    0.00735746428303    0.922737111063      -0.379790030016     0.922737111063      -0.379790030016     0.00488799382865    0.00735746428303    
8900000000.0        0.00495524410229    0.00742076267871    0.921029851195      -0.383898863516     0.921029851195      -0.383898863516     0.00495524410229    0.00742076267871    
9000000000.0        0.00502309759611    0.00748348088164    0.919304060138      -0.388000555648     0.919304060138      -0.388000555648     0.00502309759611    0.00748348088164    
9100000000.0        0.00509155051371    0.00754561592387    0.917559764521      -0.39209502351      0.917559764521      -0.39209502351      0.00509155051371    0.00754561592387    
9200000000.0        0.00516059905674    0.0076071648709     0.91579699134       -0.396182184253     0.91579699134       -0.396182184253     0.00516059905674    0.0076071648709     
9300000000.0        0.00523023942516    0.00766812482096    0.914015767967      -0.400261955085     0.914015767967      -0.400261955085     0.00523023942516    0.00766812482096    
9400000000.0        0.00530046781742    0.00772849290424    0.912216122142      -0.404334253274     0.912216122142      -0.404334253274     0.00530046781742    0.00772849290424    
9500000000.0        0.0053712804307     0.00778826628219    0.910398081979      -0.408398996149     0.910398081979      -0.408398996149     0.0053712804307     0.00778826628219    
9600000000.0        0.00544267346112    0.00784744214673    0.908561675962      -0.412456101102     0.908561675962      -0.412456101102     0.00544267346112    0.00784744214673    
9700000000.0        0.00551464310387    0.00790601771962    0.906706932948      -0.416505485594     0.906706932948      -0.416505485594     0.00551464310387    0.00790601771962    
9800000000.0        0.00558718555338    0.00796399025171    0.904833882166      -0.420547067149     0.904833882166      -0.420547067149     0.00558718555338    0.00796399025171    
9900000000.0        0.00566029700347    0.00802135702223    0.902942553216      -0.424580763366     0.902942553216      -0.424580763366     0.00566029700347    0.00802135702223    
10000000000.0       0.00573397364741    0.00807811533817    0.90103297607       -0.428606491913     0.90103297607       -0.428606491913     0.00573397364741    0.00807811533817    
