# Hz S RI R 50.00 
100000000.0         0.00235124221626    0.00118467269532    0.997646409731      -0.00214539595924   0.997646409731      -0.00214539595924   0.00235124221626    0.00118467269532    
200000000.0         0.00237408457643    0.00236922147657    0.997621295543      -0.00429068237589   0.997621295543      -0.00429068237589   0.00237408457643    0.00236922147657    
300000000.0         0.00239788045925    0.00355366527605    0.997594303964      -0.00643588646984   0.997594303964      -0.00643588646984   0.00239788045925    0.00355366527605    
400000000.0         0.00242466589803    0.00473799536536    0.997563398847      -0.00858100589277   0.997563398847      -0.00858100589277   0.00242466589803    0.00473799536536    
500000000.0         0.00245522468764    0.00592219652899    0.997527796264      -0.010726030836     0.997527796264      -0.010726030836     0.00245522468764    0.00592219652899    
600000000.0         0.00248995623282    0.00710625067371    0.997487096657      -0.01287094797      0.997487096657      -0.01287094797      0.00248995623282    0.00710625067371    
700000000.0         0.00252909614014    0.00829013813362    0.997441064251      -0.0150157419185    0.997441064251      -0.0150157419185    0.00252909614014    0.00829013813362    
800000000.0         0.00257279671702    0.00947383827889    0.997389546555      -0.0171603959691    0.997389546555      -0.0171603959691    0.00257279671702    0.00947383827889    
900000000.0         0.00262116280899    0.0106573298445     0.997332438523      -0.0193048924694    0.997332438523      -0.0193048924694    0.00262116280899    0.0106573298445     
1000000000.0        0.00267426996226    0.0118405911257     0.997269664398      -0.0214492130704    0.997269664398      -0.0214492130704    0.00267426996226    0.0118405911257     
1100000000.0        0.00273217451833    0.0130236001029     0.997201167612      -0.0235933388864    0.997201167612      -0.0235933388864    0.00273217451833    0.0130236001029     
1200000000.0        0.00279491962809    0.0142063345252     0.997126904779      -0.0257372506063    0.997126904779      -0.0257372506063    0.00279491962809    0.0142063345252     
1300000000.0        0.00286253903492    0.0153887719696     0.997046841905      -0.0278809285738    0.997046841905      -0.0278809285738    0.00286253903492    0.0153887719696     
1400000000.0        0.00293505956088    0.0165708898831     0.99696095191       -0.0300243528475    0.99696095191       -0.0300243528475    0.00293505956088    0.0165708898831     
1500000000.0        0.00301250280045    0.0177526656152     0.99686921293       -0.0321675032471    0.99686921293       -0.0321675032471    0.00301250280045    0.0177526656152     
1600000000.0        0.00309488630996    0.0189340764412     0.996771607127      -0.0343103593897    0.996771607127      -0.0343103593897    0.00309488630996    0.0189340764412     
1700000000.0        0.0031822244646     0.020115099582      0.996668119839      -0.0364529007191    0.996668119839      -0.0364529007191    0.0031822244646     0.020115099582      
1800000000.0        0.00327452908968    0.0212957122183     0.996558738941      -0.0385951065292    0.996558738941      -0.0385951065292    0.00327452908968    0.0212957122183     
1900000000.0        0.00337180993485    0.0224758915032     0.996443454377      -0.0407369559842    0.996443454377      -0.0407369559842    0.00337180993485    0.0224758915032     
2000000000.0        0.0034740750363     0.0236556145716     0.996322257795      -0.0428784281351    0.996322257795      -0.0428784281351    0.0034740750363     0.0236556145716     
2100000000.0        0.00358133099774    0.0248348585487     0.996195142268      -0.0450195019335    0.996195142268      -0.0450195019335    0.00358133099774    0.0248348585487     
2200000000.0        0.00369358321122    0.0260136005565     0.996062102072      -0.047160156244     0.996062102072      -0.047160156244     0.00369358321122    0.0260136005565     
2300000000.0        0.00381083603285    0.0271918177197     0.995923132513      -0.0493003698544    0.995923132513      -0.0493003698544    0.00381083603285    0.0271918177197     
2400000000.0        0.00393309292417    0.0283694871705     0.995778229783      -0.0514401214853    0.995778229783      -0.0514401214853    0.00393309292417    0.0283694871705     
2500000000.0        0.00406035656698    0.0295465860527     0.995627390847      -0.0535793897978    0.995627390847      -0.0535793897978    0.00406035656698    0.0295465860527     
2600000000.0        0.00419262895752    0.0307230915257     0.99547061335       -0.0557181534011    0.99547061335       -0.0557181534011    0.00419262895752    0.0307230915257     
2700000000.0        0.00432991148433    0.0318989807673     0.995307895536      -0.0578563908586    0.995307895536      -0.0578563908586    0.00432991148433    0.0318989807673     
2800000000.0        0.00447220499308    0.0330742309769     0.995139236188      -0.0599940806936    0.995139236188      -0.0599940806936    0.00447220499308    0.0330742309769     
2900000000.0        0.00461950984106    0.0342488193775     0.99496463457       -0.062131201395     0.99496463457       -0.062131201395     0.00461950984106    0.0342488193775     
3000000000.0        0.00477182594314    0.0354227232184     0.994784090382      -0.0642677314217    0.994784090382      -0.0642677314217    0.00477182594314    0.0354227232184     
3100000000.0        0.00492915281083    0.036595919777      0.994597603723      -0.0664036492071    0.994597603723      -0.0664036492071    0.00492915281083    0.036595919777      
3200000000.0        0.00509148958572    0.0377683863606     0.994405175055      -0.0685389331629    0.994405175055      -0.0685389331629    0.00509148958572    0.0377683863606     
3300000000.0        0.00525883506819    0.0389401003082     0.994206805178      -0.0706735616832    0.994206805178      -0.0706735616832    0.00525883506819    0.0389401003082     
3400000000.0        0.00543118774221    0.0401110389919     0.994002495202      -0.0728075131474    0.994002495202      -0.0728075131474    0.00543118774221    0.0401110389919     
3500000000.0        0.0056085457969     0.0412811798181     0.993792246526      -0.0749407659238    0.993792246526      -0.0749407659238    0.0056085457969     0.0412811798181     
3600000000.0        0.00579090714527    0.0424505002292     0.993576060821      -0.0770732983724    0.993576060821      -0.0770732983724    0.00579090714527    0.0424505002292     
3700000000.0        0.00597826944074    0.0436189777046     0.993353940013      -0.0792050888474    0.993353940013      -0.0792050888474    0.00597826944074    0.0436189777046     
3800000000.0        0.00617063009152    0.0447865897617     0.993125886269      -0.0813361157003    0.993125886269      -0.0813361157003    0.00617063009152    0.0447865897617     
3900000000.0        0.00636798627348    0.0459533139573     0.992891901984      -0.0834663572821    0.992891901984      -0.0834663572821    0.00636798627348    0.0459533139573     
4000000000.0        0.00657033494141    0.0471191278881     0.992651989769      -0.0855957919454    0.992651989769      -0.0855957919454    0.00657033494141    0.0471191278881     
4100000000.0        0.0067776728391     0.048284009192      0.992406152442      -0.0877243980471    0.992406152442      -0.0877243980471    0.0067776728391     0.048284009192      
4200000000.0        0.00698999650836    0.0494479355489     0.99215439302       -0.0898521539498    0.99215439302       -0.0898521539498    0.00698999650836    0.0494479355489     
4300000000.0        0.00720730229707    0.0506108846816     0.991896714708      -0.0919790380243    0.991896714708      -0.0919790380243    0.00720730229707    0.0506108846816     
4400000000.0        0.00742958636639    0.0517728343565     0.991633120897      -0.0941050286514    0.991633120897      -0.0941050286514    0.00742958636639    0.0517728343565     
4500000000.0        0.00765684469732    0.0529337623844     0.99136361515       -0.0962301042233    0.99136361515       -0.0962301042233    0.00765684469732    0.0529337623844     
4600000000.0        0.00788907309659    0.0540936466214     0.991088201206      -0.0983542431459    0.991088201206      -0.0983542431459    0.00788907309659    0.0540936466214     
4700000000.0        0.00812626720201    0.0552524649694     0.990806882965      -0.10047742384      0.990806882965      -0.10047742384      0.00812626720202    0.0552524649694     
4800000000.0        0.00836842248736    0.0564101953768     0.990519664491      -0.102599624742     0.990519664491      -0.102599624742     0.00836842248736    0.0564101953768     
4900000000.0        0.00861553426679    0.0575668158395     0.990226550001      -0.104720824309     0.990226550001      -0.104720824309     0.00861553426679    0.0575668158395     
5000000000.0        0.00886759769895    0.0587223044011     0.989927543868      -0.106841001016     0.989927543868      -0.106841001016     0.00886759769895    0.0587223044011     
5100000000.0        0.00912460779067    0.0598766391541     0.98962265061       -0.108960133357     0.98962265061       -0.108960133357     0.00912460779067    0.0598766391541     
5200000000.0        0.0093865594004     0.0610297982397     0.989311874895      -0.111078199852     0.989311874895      -0.111078199852     0.0093865594004     0.0610297982397     
5300000000.0        0.00965344724141    0.0621817598494     0.988995221528      -0.113195179042     0.988995221528      -0.113195179042     0.00965344724141    0.0621817598494     
5400000000.0        0.00992526588467    0.0633325022247     0.988672695457      -0.115311049495     0.988672695457      -0.115311049495     0.00992526588467    0.0633325022247     
5500000000.0        0.0102020097616     0.0644820036582     0.988344301767      -0.117425789802     0.988344301767      -0.117425789802     0.0102020097616     0.0644820036582     
5600000000.0        0.0104836731666     0.0656302424941     0.988010045675      -0.119539378585     0.988010045675      -0.119539378585     0.0104836731666     0.0656302424941     
5700000000.0        0.0107702502594     0.0667771971287     0.987669932532      -0.121651794492     0.987669932532      -0.121651794492     0.0107702502594     0.0667771971287     
5800000000.0        0.0110617350671     0.0679228460108     0.987323967818      -0.1237630162       0.987323967818      -0.1237630162       0.0110617350671     0.0679228460108     
5900000000.0        0.0113581214866     0.0690671676424     0.986972157142      -0.12587302242      0.986972157142      -0.12587302242      0.0113581214866     0.0690671676424     
6000000000.0        0.0116594032862     0.0702101405794     0.986614506239      -0.12798179189      0.986614506239      -0.12798179189      0.0116594032862     0.0702101405794     
6100000000.0        0.0119655741074     0.0713517434317     0.986251020966      -0.130089303386     0.986251020966      -0.130089303386     0.0119655741074     0.0713517434317     
6200000000.0        0.0122766274669     0.072491954864      0.985881707307      -0.132195535712     0.985881707307      -0.132195535712     0.0122766274669     0.072491954864      
6300000000.0        0.0125925567581     0.0736307535963     0.985506571364      -0.134300467712     0.985506571364      -0.134300467712     0.0125925567581     0.0736307535963     
6400000000.0        0.0129133552524     0.0747681184043     0.98512561936       -0.136404078262     0.98512561936       -0.136404078262     0.0129133552524     0.0747681184043     
6500000000.0        0.013239016101      0.07590402812       0.984738857635      -0.138506346276     0.984738857635      -0.138506346276     0.013239016101      0.07590402812       
6600000000.0        0.0135695323361     0.0770384616322     0.984346292649      -0.140607250706     0.984346292649      -0.140607250706     0.0135695323361     0.0770384616322     
6700000000.0        0.0139048968722     0.0781713978865     0.983947930973      -0.142706770541     0.983947930973      -0.142706770541     0.0139048968722     0.0781713978865     
6800000000.0        0.0142451025076     0.0793028158868     0.983543779298      -0.144804884811     0.983543779298      -0.144804884811     0.0142451025076     0.0793028158868     
6900000000.0        0.0145901419253     0.0804326946946     0.983133844425      -0.146901572584     0.983133844425      -0.146901572584     0.0145901419253     0.0804326946946     
7000000000.0        0.0149400076942     0.0815610134304     0.982718133267      -0.148996812971     0.982718133267      -0.148996812971     0.0149400076942     0.0815610134304     
7100000000.0        0.0152946922706     0.0826877512735     0.98229665285       -0.151090585124     0.98229665285       -0.151090585124     0.0152946922706     0.0826877512735     
7200000000.0        0.0156541879987     0.0838128874631     0.98186941031       -0.153182868237     0.98186941031       -0.153182868237     0.0156541879987     0.0838128874631     
7300000000.0        0.0160184871122     0.0849364012979     0.98143641289       -0.155273641548     0.98143641289       -0.155273641548     0.0160184871122     0.0849364012979     
7400000000.0        0.0163875817347     0.0860582721374     0.980997667945      -0.157362884338     0.980997667945      -0.157362884338     0.0163875817347     0.0860582721374     
7500000000.0        0.0167614638814     0.0871784794019     0.980553182934      -0.159450575936     0.980553182934      -0.159450575936     0.0167614638814     0.0871784794019     
7600000000.0        0.0171401254592     0.088297002573      0.980102965424      -0.161536695712     0.980102965424      -0.161536695712     0.0171401254592     0.088297002573      
7700000000.0        0.0175235582684     0.0894138211938     0.979647023088      -0.163621223086     0.979647023088      -0.163621223086     0.0175235582684     0.0894138211938     
7800000000.0        0.0179117540029     0.0905289148701     0.979185363702      -0.165704137524     0.979185363702      -0.165704137524     0.0179117540029     0.0905289148701     
7900000000.0        0.0183047042518     0.0916422632697     0.978717995148      -0.167785418539     0.978717995148      -0.167785418539     0.0183047042518     0.0916422632697     
8000000000.0        0.0187024004996     0.0927538461239     0.97824492541       -0.169865045693     0.97824492541       -0.169865045693     0.0187024004996     0.0927538461239     
8100000000.0        0.0191048341271     0.0938636432271     0.977766162575      -0.171942998598     0.977766162575      -0.171942998598     0.0191048341271     0.0938636432271     
8200000000.0        0.0195119964127     0.0949716344378     0.97728171483       -0.174019256915     0.97728171483       -0.174019256915     0.0195119964127     0.0949716344378     
8300000000.0        0.0199238785326     0.0960777996785     0.976791590466      -0.176093800354     0.976791590466      -0.176093800354     0.0199238785326     0.0960777996785     
8400000000.0        0.020340471562      0.0971821189366     0.976295797871      -0.178166608679     0.976295797871      -0.178166608679     0.020340471562      0.0971821189366     
8500000000.0        0.0207617664755     0.0982845722645     0.975794345533      -0.180237661703     0.975794345533      -0.180237661703     0.0207617664755     0.0982845722645     
8600000000.0        0.0211877541482     0.09938513978       0.975287242042      -0.182306939294     0.975287242042      -0.182306939294     0.0211877541482     0.09938513978       
8700000000.0        0.0216184253561     0.100483801667      0.97477449608       -0.184374421371     0.97477449608       -0.184374421371     0.0216184253561     0.100483801667      
8800000000.0        0.022053770777      0.101580538175      0.974256116433      -0.186440087907     0.974256116433      -0.186440087907     0.022053770777      0.101580538175      
8900000000.0        0.0224937809912     0.10267532962       0.973732111979      -0.188503918929     0.973732111979      -0.188503918929     0.0224937809912     0.10267532962       
9000000000.0        0.0229384464822     0.103768156387      0.973202491693      -0.19056589452      0.973202491693      -0.19056589452      0.0229384464822     0.103768156387      
9100000000.0        0.0233877576374     0.104858998926      0.972667264647      -0.192625994817     0.972667264647      -0.192625994817     0.0233877576374     0.104858998926      
9200000000.0        0.0238417047484     0.105947837756      0.972126440006      -0.194684200013     0.972126440006      -0.194684200013     0.0238417047484     0.105947837756      
9300000000.0        0.0243002780125     0.107034653464      0.97158002703       -0.196740490358     0.97158002703       -0.196740490358     0.0243002780125     0.107034653464      
9400000000.0        0.0247634675326     0.108119426706      0.971028035072      -0.198794846158     0.971028035072      -0.198794846158     0.0247634675326     0.108119426706      
9500000000.0        0.0252312633181     0.109202138205      0.970470473578      -0.200847247779     0.970470473578      -0.200847247779     0.0252312633181     0.109202138205      
9600000000.0        0.0257036552857     0.110282768754      0.969907352087      -0.202897675642     0.969907352087      -0.202897675642     0.0257036552857     0.110282768754      
9700000000.0        0.0261806332598     0.111361299218      0.969338680229      -0.204946110229     0.969338680229      -0.204946110229     0.0261806332598     0.111361299218      
9800000000.0        0.0266621869733     0.11243771053       0.968764467723      -0.206992532079     0.968764467723      -0.206992532079     0.0266621869733     0.11243771053       
9900000000.0        0.0271483060683     0.113511983691      0.968184724383      -0.209036921792     0.968184724383      -0.209036921792     0.0271483060683     0.113511983691      
10000000000.0       0.0276389800964     0.114584099777      0.967599460109      -0.211079260028     0.967599460109      -0.211079260028     0.0276389800964     0.114584099777      
