# Hz S RI R 50.00 
100000000.0         0.000189484948856   -0.00152560008951   0.9997983101        -0.00233802137073   0.9997983101        -0.00233802137073   0.000189484948856   -0.00152560008951   
200000000.0         0.000178232370437   -0.00305120749142   0.999783428309      -0.00467606389585   0.999783428309      -0.00467606389585   0.000178232370437   -0.00305120749142   
300000000.0         0.000159503946247   -0.00457681146889   0.999761091542      -0.00701412809133   0.999761091542      -0.00701412809133   0.000159503946247   -0.00457681146889   
400000000.0         0.000133467726056   -0.00610239458196   0.999731130111      -0.0093522046357    0.999731130111      -0.0093522046357    0.000133467726056   -0.00610239458196   
500000000.0         0.000100187748274   -0.00762793580267   0.999693478261      -0.0116902793554    0.999693478261      -0.0116902793554    0.000100187748274   -0.00762793580267   
600000000.0         5.96962058612e-05   -0.00915341169359   0.99964810209       -0.014028334904     0.99964810209       -0.014028334904     5.96962058612e-05   -0.00915341169359   
700000000.0         1.20117886702e-05   -0.0106787970212    0.999594981279      -0.0163663516081    0.999594981279      -0.0163663516081    1.20117886702e-05   -0.0106787970212    
800000000.0         -4.28536171098e-05  -0.0122040651299    0.99953410244       -0.0187043079739    0.99953410244       -0.0187043079739    -4.28536171101e-05  -0.0122040651299    
900000000.0         -0.000104891940494  -0.0137291881908    0.999465456171      -0.0210421810197    0.999465456171      -0.0210421810197    -0.000104891940495  -0.0137291881908    
1000000000.0        -0.000174097405914  -0.0152541373791    0.999389035568      -0.0233799465104    0.999389035568      -0.0233799465104    -0.000174097405914  -0.0152541373791    
1100000000.0        -0.000250465684234  -0.0167788830058    0.999304835411      -0.0257175791314    0.999304835411      -0.0257175791314    -0.000250465684234  -0.0167788830058    
1200000000.0        -0.000333993383323  -0.0183033946203    0.999212851675      -0.0280550526212    0.999212851675      -0.0280550526212    -0.000333993383323  -0.0183033946203    
1300000000.0        -0.000424677724611  -0.0198276410918    0.999113081233      -0.0303923398775    0.999113081233      -0.0303923398775    -0.000424677724611  -0.0198276410918    
1400000000.0        -0.000522516327951  -0.0213515906754    0.999005521664      -0.0327294130425    0.999005521664      -0.0327294130425    -0.000522516327951  -0.0213515906754    
1500000000.0        -0.000627507062887  -0.0228752110674    0.998890171117      -0.0350662435735    0.998890171117      -0.0350662435735    -0.000627507062887  -0.0228752110674    
1600000000.0        -0.00073964794232   -0.0243984694523    0.998767028227      -0.0374028023022    0.998767028227      -0.0374028023022    -0.00073964794232   -0.0243984694523    
1700000000.0        -0.000858937044281  -0.0259213325427    0.998636092054      -0.0397390594862    0.998636092054      -0.0397390594862    -0.000858937044281  -0.0259213325427    
1800000000.0        -0.000985372452864  -0.0274437666144    0.998497362032      -0.0420749848524    0.998497362032      -0.0420749848524    -0.000985372452863  -0.0274437666144    
1900000000.0        -0.00111895221264   -0.028965737537     0.998350837944      -0.0444105476357    0.998350837944      -0.0444105476357    -0.00111895221263   -0.028965737537     
2000000000.0        -0.00125967429267   -0.030487210801     0.998196519895      -0.0467457166131    0.998196519895      -0.0467457166131    -0.00125967429267   -0.030487210801     
2100000000.0        -0.00140753655775   -0.0320081515431    0.998034408299      -0.0490804601337    0.998034408299      -0.0490804601337    -0.00140753655775   -0.0320081515431    
2200000000.0        -0.00156253674473   -0.0335285245674    0.99786450386       -0.0514147461468    0.99786450386       -0.0514147461468    -0.00156253674473   -0.0335285245674    
2300000000.0        -0.00172467244313   -0.0350482943662    0.99768680757       -0.0537485422257    0.99768680757       -0.0537485422257    -0.00172467244313   -0.0350482943662    
2400000000.0        -0.00189394107867   -0.0365674251383    0.997501320698      -0.0560818155909    0.997501320698      -0.0560818155909    -0.00189394107867   -0.0365674251383    
2500000000.0        -0.00207033989935   -0.0380858808059    0.997308044787      -0.0584145331304    0.997308044787      -0.0584145331304    -0.00207033989935   -0.0380858808059    
2600000000.0        -0.00225386596347   -0.039603625031     0.997106981654      -0.0607466614193    0.997106981654      -0.0607466614193    -0.00225386596347   -0.039603625031     
2700000000.0        -0.00244451612923   -0.0411206212294    0.99689813338       -0.0630781667369    0.99689813338       -0.0630781667369    -0.00244451612923   -0.0411206212294    
2800000000.0        -0.00264228704558   -0.0426368325851    0.996681502317      -0.0654090150837    0.996681502317      -0.0654090150837    -0.00264228704558   -0.0426368325851    
2900000000.0        -0.00284717514415   -0.044152222063     0.996457091082      -0.0677391721966    0.996457091082      -0.0677391721966    -0.00284717514415   -0.044152222063     
3000000000.0        -0.00305917663208   -0.0456667524213    0.996224902562      -0.0700686035634    0.996224902562      -0.0700686035634    -0.00305917663208   -0.0456667524213    
3100000000.0        -0.00327828748562   -0.047180386223     0.995984939906      -0.0723972744367    0.995984939906      -0.0723972744367    -0.00327828748562   -0.047180386223     
3200000000.0        -0.00350450344429   -0.0486930858472    0.995737206536      -0.0747251498467    0.995737206536      -0.0747251498467    -0.00350450344429   -0.0486930858472    
3300000000.0        -0.00373782000564   -0.0502048134993    0.995481706139      -0.0770521946133    0.995481706139      -0.0770521946133    -0.00373782000564   -0.0502048134993    
3400000000.0        -0.00397823242053   -0.0517155312213    0.995218442673      -0.0793783733581    0.995218442673      -0.0793783733581    -0.00397823242053   -0.0517155312213    
3500000000.0        -0.00422573568872   -0.0532252009015    0.994947420365      -0.0817036505155    0.994947420365      -0.0817036505155    -0.00422573568872   -0.0532252009015    
3600000000.0        -0.00448032455495   -0.0547337842836    0.994668643716      -0.0840279903432    0.994668643716      -0.0840279903432    -0.00448032455495   -0.0547337842836    
3700000000.0        -0.00474199350523   -0.0562412429756    0.994382117496      -0.0863513569327    0.994382117496      -0.0863513569327    -0.00474199350523   -0.0562412429756    
3800000000.0        -0.00501073676354   -0.0577475384588    0.994087846752      -0.0886737142189    0.994087846752      -0.0886737142189    -0.00501073676354   -0.0577475384588    
3900000000.0        -0.00528654828869   -0.0592526320957    0.993785836805      -0.0909950259897    0.993785836805      -0.0909950259897    -0.00528654828869   -0.0592526320957    
4000000000.0        -0.00556942177151   -0.0607564851381    0.993476093251      -0.0933152558951    0.993476093251      -0.0933152558951    -0.00556942177151   -0.0607564851381    
4100000000.0        -0.00585935063219   -0.0622590587353    0.993158621965      -0.0956343674562    0.993158621965      -0.0956343674562    -0.00585935063219   -0.0622590587353    
4200000000.0        -0.00615632801787   -0.0637603139415    0.992833429098      -0.0979523240734    0.992833429098      -0.0979523240734    -0.00615632801787   -0.0637603139415    
4300000000.0        -0.00646034680041   -0.0652602117228    0.992500521084      -0.100269089035     0.992500521084      -0.100269089035     -0.00646034680041   -0.0652602117228    
4400000000.0        -0.00677139957432   -0.0667587129652    0.992159904634      -0.102584625525     0.992159904634      -0.102584625525     -0.00677139957432   -0.0667587129652    
4500000000.0        -0.00708947865485   -0.0682557784808    0.991811586743      -0.104898896632     0.991811586743      -0.104898896632     -0.00708947865485   -0.0682557784808    
4600000000.0        -0.00741457607627   -0.0697513690153    0.991455574687      -0.107211865354     0.991455574687      -0.107211865354     -0.00741457607627   -0.0697513690153    
4700000000.0        -0.00774668359022   -0.0712454452542    0.991091876025      -0.10952349461      0.991091876025      -0.10952349461      -0.00774668359022   -0.0712454452542    
4800000000.0        -0.00808579266429   -0.0727379678297    0.990720498601      -0.111833747242     0.990720498601      -0.111833747242     -0.00808579266429   -0.0727379678297    
4900000000.0        -0.00843189448067   -0.0742288973269    0.990341450544      -0.114142586028     0.990341450544      -0.114142586028     -0.00843189448067   -0.0742288973269    
5000000000.0        -0.00878497993492   -0.0757181942902    0.989954740267      -0.116449973685     0.989954740267      -0.116449973685     -0.00878497993492   -0.0757181942902    
5100000000.0        -0.00914503963487   -0.0772058192292    0.989560376471      -0.118755872874     0.989560376471      -0.118755872874     -0.00914503963487   -0.0772058192292    
5200000000.0        -0.00951206389965   -0.0786917326251    0.989158368143      -0.121060246213     0.989158368143      -0.121060246213     -0.00951206389965   -0.0786917326251    
5300000000.0        -0.0098860427588    -0.0801758949364    0.988748724556      -0.123363056278     0.988748724556      -0.123363056278     -0.0098860427588    -0.0801758949364    
5400000000.0        -0.0102669659515    -0.0816582666047    0.988331455272      -0.12566426561      0.988331455272      -0.12566426561      -0.0102669659515    -0.0816582666047    
5500000000.0        -0.0106548229258    -0.0831388080604    0.987906570141      -0.127963836723     0.987906570141      -0.127963836723     -0.0106548229258    -0.0831388080604    
5600000000.0        -0.0110496028384    -0.0846174797284    0.9874740793        -0.13026173211      0.9874740793        -0.13026173211      -0.0110496028384    -0.0846174797284    
5700000000.0        -0.0114512945534    -0.0860942420337    0.987033993175      -0.132557914248     0.987033993175      -0.132557914248     -0.0114512945534    -0.0860942420337    
5800000000.0        -0.0118598866429    -0.0875690554065    0.98658632248       -0.134852345602     0.98658632248       -0.134852345602     -0.0118598866429    -0.0875690554065    
5900000000.0        -0.0122753673857    -0.0890418802877    0.986131078221      -0.137144988635     0.986131078221      -0.137144988635     -0.0122753673857    -0.0890418802877    
6000000000.0        -0.012697724768     -0.0905126771346    0.985668271688      -0.139435805811     0.985668271688      -0.139435805811     -0.012697724768     -0.0905126771346    
6100000000.0        -0.0131269464823    -0.0919814064251    0.985197914462      -0.141724759601     0.985197914462      -0.141724759601     -0.0131269464823    -0.0919814064251    
6200000000.0        -0.0135630199282    -0.0934480286639    0.984720018413      -0.144011812488     0.984720018413      -0.144011812488     -0.0135630199282    -0.0934480286639    
6300000000.0        -0.0140059322117    -0.0949125043867    0.984234595699      -0.146296926973     0.984234595699      -0.146296926973     -0.0140059322117    -0.0949125043867    
6400000000.0        -0.0144556701459    -0.0963747941655    0.983741658766      -0.148580065582     0.983741658766      -0.148580065582     -0.0144556701459    -0.0963747941655    
6500000000.0        -0.0149122202507    -0.0978348586134    0.983241220347      -0.150861190866     0.983241220347      -0.150861190866     -0.0149122202507    -0.0978348586134    
6600000000.0        -0.0153755687531    -0.0992926583897    0.982733293465      -0.153140265411     0.982733293465      -0.153140265411     -0.0153755687531    -0.0992926583897    
6700000000.0        -0.0158457015878    -0.100748154204     0.982217891429      -0.155417251843     0.982217891429      -0.155417251843     -0.0158457015878    -0.100748154204     
6800000000.0        -0.0163226043971    -0.102201306822     0.981695027833      -0.157692112831     0.981695027833      -0.157692112831     -0.0163226043971    -0.102201306822     
6900000000.0        -0.0168062625316    -0.103652077067     0.98116471656       -0.159964811089     0.98116471656       -0.159964811089     -0.0168062625316    -0.103652077067     
7000000000.0        -0.0172966610508    -0.105100425831     0.980626971776      -0.16223530939      0.980626971776      -0.16223530939      -0.0172966610508    -0.105100425831     
7100000000.0        -0.0177937847235    -0.106546314072     0.980081807935      -0.16450357056      0.980081807935      -0.16450357056      -0.0177937847235    -0.106546314072     
7200000000.0        -0.0182976180283    -0.107989702822     0.979529239772      -0.16676955749      0.979529239772      -0.16676955749      -0.0182976180283    -0.107989702822     
7300000000.0        -0.0188081451545    -0.10943055319      0.978969282308      -0.169033233138     0.978969282308      -0.169033233138     -0.0188081451545    -0.10943055319      
7400000000.0        -0.0193253500028    -0.11086882637      0.978401950844      -0.171294560534     0.978401950844      -0.171294560534     -0.0193253500028    -0.11086882637      
7500000000.0        -0.019849216186     -0.112304483639     0.977827260967      -0.173553502783     0.977827260967      -0.173553502783     -0.019849216186     -0.112304483639     
7600000000.0        -0.0203797270299    -0.113737486367     0.977245228541      -0.175810023074     0.977245228541      -0.175810023074     -0.0203797270299    -0.113737486367     
7700000000.0        -0.0209168655743    -0.115167796017     0.976655869713      -0.178064084676     0.976655869713      -0.178064084676     -0.0209168655743    -0.115167796017     
7800000000.0        -0.0214606145739    -0.116595374152     0.976059200905      -0.180315650953     0.976059200905      -0.180315650953     -0.0214606145739    -0.116595374152     
7900000000.0        -0.0220109564991    -0.118020182438     0.975455238822      -0.182564685359     0.975455238822      -0.182564685359     -0.0220109564991    -0.118020182438     
8000000000.0        -0.0225678735377    -0.119442182647     0.974844000442      -0.184811151446     0.974844000442      -0.184811151446     -0.0225678735377    -0.119442182647     
8100000000.0        -0.0231313475952    -0.120861336662     0.97422550302       -0.18705501287      0.97422550302       -0.18705501287      -0.0231313475952    -0.120861336662     
8200000000.0        -0.0237013602966    -0.122277606482     0.973599764085      -0.18929623339      0.973599764085      -0.18929623339      -0.0237013602966    -0.122277606482     
8300000000.0        -0.0242778929873    -0.123690954221     0.972966801439      -0.191534776879     0.972966801439      -0.191534776879     -0.0242778929873    -0.123690954221     
8400000000.0        -0.0248609267346    -0.12510134212      0.972326633158      -0.193770607319     0.972326633158      -0.193770607319     -0.0248609267346    -0.12510134212      
8500000000.0        -0.0254504423289    -0.126508732542     0.971679277585      -0.196003688815     0.971679277585      -0.196003688815     -0.0254504423289    -0.126508732542     
8600000000.0        -0.026046420285     -0.127913087981     0.971024753334      -0.19823398559      0.971024753334      -0.19823398559      -0.026046420285     -0.127913087981     
8700000000.0        -0.0266488408435    -0.129314371065     0.970363079288      -0.200461461993     0.970363079288      -0.200461461993     -0.0266488408435    -0.129314371065     
8800000000.0        -0.0272576839726    -0.130712544558     0.969694274594      -0.202686082504     0.969694274594      -0.202686082504     -0.0272576839726    -0.130712544558     
8900000000.0        -0.0278729293691    -0.132107571365     0.969018358663      -0.204907811733     0.969018358663      -0.204907811733     -0.0278729293691    -0.132107571365     
9000000000.0        -0.0284945564604    -0.133499414535     0.968335351172      -0.20712661443      0.968335351172      -0.20712661443      -0.0284945564604    -0.133499414535     
9100000000.0        -0.0291225444056    -0.134888037262     0.967645272058      -0.209342455482     0.967645272058      -0.209342455482     -0.0291225444056    -0.134888037262     
9200000000.0        -0.0297568720978    -0.136273402894     0.966948141517      -0.211555299922     0.966948141517      -0.211555299922     -0.0297568720978    -0.136273402894     
9300000000.0        -0.0303975181649    -0.13765547493      0.966243980005      -0.213765112927     0.966243980005      -0.213765112927     -0.0303975181649    -0.13765547493      
9400000000.0        -0.0310444609722    -0.139034217029     0.965532808232      -0.215971859826     0.965532808232      -0.215971859826     -0.0310444609722    -0.139034217029     
9500000000.0        -0.0316976786236    -0.140409593008     0.964814647165      -0.218175506104     0.964814647165      -0.218175506104     -0.0316976786236    -0.140409593008     
9600000000.0        -0.0323571489633    -0.141781566849     0.964089518022      -0.220376017399     0.964089518022      -0.220376017399     -0.0323571489633    -0.141781566849     
9700000000.0        -0.0330228495782    -0.143150102701     0.963357442274      -0.222573359512     0.963357442274      -0.222573359512     -0.0330228495782    -0.143150102701     
9800000000.0        -0.0336947577991    -0.144515164882     0.962618441639      -0.224767498408     0.962618441639      -0.224767498408     -0.0336947577991    -0.144515164882     
9900000000.0        -0.0343728507031    -0.145876717884     0.961872538084      -0.226958400215     0.961872538084      -0.226958400215     -0.0343728507031    -0.145876717884     
10000000000.0       -0.0350571051151    -0.147234726374     0.961119753821      -0.229146031236     0.961119753821      -0.229146031236     -0.0350571051151    -0.147234726374     
