# Hz S RI R 50.00 
100000000.0         0.0132668019123     0.000950010360583   0.986731611373      -0.00144854325348   0.986731611373      -0.00144854325348   0.0132668019123     0.000950010360583   
200000000.0         0.013357189714      0.0018995911927     0.986640387189      -0.00289665783724   0.986640387189      -0.00289665783724   0.013357189714      0.0018995911927     
300000000.0         0.0134269606624     0.00284890381892    0.986569530175      -0.00434450581455   0.986569530175      -0.00434450581455   0.0134269606624     0.00284890381892    
400000000.0         0.0134875420135     0.00379799824054    0.98650761306       -0.00579213778874   0.98650761306       -0.00579213778874   0.0134875420135     0.00379799824054    
500000000.0         0.0135433442858     0.00474689855877    0.986450225312      -0.00723957839405   0.986450225312      -0.00723957839405   0.0135433442858     0.00474689855877    
600000000.0         0.0135966214912     0.00569561740189    0.986395112905      -0.00868684074711   0.986395112905      -0.00868684074711   0.0135966214912     0.00569561740189    
700000000.0         0.0136487078049     0.0066441611061     0.986340941652      -0.0101339316401    0.986340941652      -0.0101339316401    0.0136487078049     0.0066441611061     
800000000.0         0.0137004692959     0.00759253211763    0.986286845468      -0.0115808539505    0.986286845468      -0.0115808539505    0.0137004692959     0.00759253211763    
900000000.0         0.0137525052267     0.00854073028255    0.986232225076      -0.0130276079353    0.986232225076      -0.0130276079353    0.0137525052267     0.00854073028255    
1000000000.0        0.01380525017       0.00948875360987    0.98617664589       -0.0144741919979    0.98617664589       -0.0144741919979    0.01380525017       0.00948875360987    
1100000000.0        0.0138590308196     0.010436598756      0.986119781199      -0.015920603175     0.986119781199      -0.015920603175     0.0138590308196     0.010436598756      
1200000000.0        0.0139140998687     0.0113842613489     0.986061378293      -0.0173668374622    0.986061378293      -0.0173668374622    0.0139140998687     0.0113842613489     
1300000000.0        0.0139706573419     0.0123317362143     0.986001237132      -0.0188128900426    0.986001237132      -0.0188128900426    0.0139706573419     0.0123317362143     
1400000000.0        0.014028864627      0.013279017539      0.985939196309      -0.0202587554504    0.985939196309      -0.0202587554504    0.014028864627      0.013279017539      
1500000000.0        0.0140888540444     0.0142260989919     0.985875123487      -0.0217044276933    0.985875123487      -0.0217044276933    0.0140888540444     0.0142260989919     
1600000000.0        0.0141507355728     0.015172973816      0.985808908666      -0.0231499003456    0.985808908666      -0.0231499003456    0.0141507355728     0.015172973816      
1700000000.0        0.0142146017005     0.0161196348999     0.98574045934       -0.0245951666195    0.98574045934       -0.0245951666195    0.0142146017005     0.0161196348999     
1800000000.0        0.0142805310018     0.0170660748335     0.985669696913      -0.0260402194226    0.985669696913      -0.0260402194226    0.0142805310018     0.0170660748335     
1900000000.0        0.0143485908262     0.0180122859537     0.985596554015      -0.0274850514029    0.985596554015      -0.0274850514029    0.0143485908262     0.0180122859537     
2000000000.0        0.0144188393542     0.0189582603802     0.985520972444      -0.0289296549861    0.985520972444      -0.0289296549861    0.0144188393542     0.0189582603802     
2100000000.0        0.0144913271935     0.0199039900458     0.985442901569      -0.0303740224053    0.985442901569      -0.0303740224053    0.0144913271935     0.0199039900458     
2200000000.0        0.0145660986346     0.0208494667214     0.985362297077      -0.031818145727     0.985362297077      -0.031818145727     0.0145660986346     0.0208494667214     
2300000000.0        0.0146431926504     0.0217946820362     0.985279119972      -0.0332620168715    0.985279119972      -0.0332620168715    0.0146431926504     0.0217946820362     
2400000000.0        0.014722643701      0.0227396274958     0.985193335768      -0.034705627631     0.985193335768      -0.034705627631     0.014722643701      0.0227396274958     
2500000000.0        0.0148044823884     0.023684294497      0.985104913839      -0.0361489696849    0.985104913839      -0.0361489696849    0.0148044823884     0.023684294497      
2600000000.0        0.0148887359928     0.0246286743404     0.985013826878      -0.0375920346125    0.985013826878      -0.0375920346125    0.0148887359928     0.0246286743404     
2700000000.0        0.014975428917      0.0255727582419     0.984920050457      -0.0390348139046    0.984920050457      -0.0390348139046    0.014975428917      0.0255727582419     
2800000000.0        0.0150645830561     0.026516537342      0.984823562652      -0.0404772989732    0.984823562652      -0.0404772989732    0.0150645830561     0.026516537342      
2900000000.0        0.0151562181083     0.0274600027139     0.984724343739      -0.0419194811598    0.984724343739      -0.0419194811598    0.0151562181083     0.0274600027139     
3000000000.0        0.0152503518374     0.0284031453718     0.984622375924      -0.0433613517434    0.984622375924      -0.0433613517434    0.0152503518374     0.0284031453718     
3100000000.0        0.0153470002955     0.0293459562763     0.984517643127      -0.0448029019466    0.984517643127      -0.0448029019466    0.0153470002955     0.0293459562763     
3200000000.0        0.0154461780135     0.030288426341      0.984410130787      -0.0462441229419    0.984410130787      -0.0462441229419    0.0154461780135     0.030288426341      
3300000000.0        0.0155478981652     0.0312305464373     0.9842998257        -0.0476850058568    0.9842998257        -0.0476850058568    0.0155478981652     0.0312305464373     
3400000000.0        0.0156521727083     0.0321723073988     0.984186715877      -0.0491255417785    0.984186715877      -0.0491255417785    0.0156521727083     0.0321723073988     
3500000000.0        0.0157590125071     0.033113700026      0.984070790421      -0.0505657217582    0.984070790421      -0.0505657217582    0.0157590125071     0.033113700026      
3600000000.0        0.0158684274391     0.0340547150894     0.983952039424      -0.0520055368146    0.983952039424      -0.0520055368146    0.0158684274391     0.0340547150894     
3700000000.0        0.0159804264885     0.0349953433331     0.983830453868      -0.053444977938     0.983830453868      -0.053444977938     0.0159804264885     0.0349953433331     
3800000000.0        0.0160950178281     0.0359355754782     0.983706025546      -0.0548840360926    0.983706025546      -0.0548840360926    0.0160950178281     0.0359355754782     
3900000000.0        0.0162122088915     0.0368754022248     0.983578746992      -0.0563227022201    0.983578746992      -0.0563227022201    0.0162122088915     0.0368754022248     
4000000000.0        0.0163320064369     0.0378148142553     0.98344861141       -0.0577609672419    0.98344861141       -0.0577609672419    0.0163320064369     0.0378148142553     
4100000000.0        0.0164544166035     0.0387538022363     0.983315612628      -0.0591988220615    0.983315612628      -0.0591988220615    0.0164544166035     0.0387538022363     
4200000000.0        0.0165794449624     0.0396923568209     0.983179745038      -0.0606362575668    0.983179745038      -0.0606362575668    0.0165794449624     0.0396923568209     
4300000000.0        0.0167070965608     0.0406304686504     0.983041003555      -0.0620732646321    0.983041003555      -0.0620732646321    0.0167070965608     0.0406304686504     
4400000000.0        0.0168373759628     0.0415681283567     0.982899383579      -0.06350983412      0.982899383579      -0.06350983412      0.0168373759628     0.0415681283567     
4500000000.0        0.0169702872851     0.0425053265631     0.982754880954      -0.0649459568832    0.982754880954      -0.0649459568832    0.0169702872851     0.0425053265631     
4600000000.0        0.0171058342294     0.0434420538869     0.982607491942      -0.0663816237658    0.982607491942      -0.0663816237658    0.0171058342294     0.0434420538869     
4700000000.0        0.017244020112      0.0443783009398     0.982457213185      -0.0678168256051    0.982457213185      -0.0678168256051    0.017244020112      0.0443783009398     
4800000000.0        0.0173848478897     0.04531405833       0.982304041687      -0.0692515532328    0.982304041687      -0.0692515532328    0.0173848478897     0.04531405833       
4900000000.0        0.0175283201841     0.0462493166633     0.982147974788      -0.0706857974767    0.982147974788      -0.0706857974767    0.0175283201841     0.0462493166633     
5000000000.0        0.0176744393029     0.047184066544      0.981989010137      -0.0721195491614    0.981989010137      -0.0721195491614    0.0176744393029     0.047184066544      
5100000000.0        0.0178232072601     0.0481182985764     0.981827145679      -0.0735527991097    0.981827145679      -0.0735527991097    0.0178232072601     0.0481182985764     
5200000000.0        0.0179746257938     0.0490520033654     0.981662379634      -0.0749855381438    0.981662379634      -0.0749855381438    0.0179746257938     0.0490520033654     
5300000000.0        0.0181286963823     0.049985171518      0.981494710482      -0.076417757086     0.981494710482      -0.076417757086     0.0181286963823     0.049985171518      
5400000000.0        0.0182854202594     0.0509177936439     0.981324136944      -0.0778494467599    0.981324136944      -0.0778494467599    0.0182854202594     0.0509177936439     
5500000000.0        0.0184447984284     0.0518498603562     0.981150657974      -0.0792805979914    0.981150657974      -0.0792805979914    0.0184447984284     0.0518498603562     
5600000000.0        0.0186068316739     0.0527813622729     0.980974272742      -0.0807112016092    0.980974272742      -0.0807112016092    0.0186068316739     0.0527813622729     
5700000000.0        0.0187715205743     0.0537122900168     0.980794980625      -0.0821412484462    0.980794980625      -0.0821412484462    0.0187715205743     0.0537122900168     
5800000000.0        0.018938865512      0.0546426342171     0.980612781195      -0.0835707293394    0.980612781195      -0.0835707293394    0.018938865512      0.0546426342171     
5900000000.0        0.019108866683      0.0555723855095     0.98042767421       -0.0849996351317    0.98042767421       -0.0849996351317    0.019108866683      0.0555723855095     
6000000000.0        0.0192815241067     0.0565015345371     0.980239659603      -0.0864279566716    0.980239659603      -0.0864279566716    0.0192815241067     0.0565015345371     
6100000000.0        0.0194568376337     0.0574300719513     0.980048737476      -0.0878556848147    0.980048737476      -0.0878556848147    0.0194568376337     0.0574300719513     
6200000000.0        0.0196348069536     0.0583579884118     0.979854908093      -0.0892828104238    0.979854908093      -0.0892828104238    0.0196348069536     0.0583579884118     
6300000000.0        0.0198154316025     0.0592852745878     0.979658171867      -0.0907093243698    0.979658171867      -0.0907093243698    0.0198154316025     0.0592852745878     
6400000000.0        0.0199987109698     0.0602119211584     0.979458529361      -0.0921352175321    0.979458529361      -0.0921352175321    0.0199987109698     0.0602119211584     
6500000000.0        0.0201846443036     0.0611379188129     0.979255981277      -0.0935604807994    0.979255981277      -0.0935604807994    0.0201846443036     0.0611379188129     
6600000000.0        0.0203732307177     0.0620632582517     0.979050528451      -0.0949851050701    0.979050528451      -0.0949851050701    0.0203732307177     0.0620632582517     
6700000000.0        0.020564469196      0.0629879301865     0.978842171849      -0.0964090812528    0.978842171849      -0.0964090812528    0.020564469196      0.0629879301865     
6800000000.0        0.0207583585979     0.0639119253409     0.978630912558      -0.0978324002669    0.978630912558      -0.0978324002669    0.0207583585979     0.0639119253409     
6900000000.0        0.0209548976631     0.064835234451      0.978416751789      -0.0992550530431    0.978416751789      -0.0992550530431    0.0209548976631     0.064835234451      
7000000000.0        0.021154085016      0.0657578482657     0.978199690863      -0.100677030524     0.978199690863      -0.100677030524     0.021154085016      0.0657578482657     
7100000000.0        0.0213559191694     0.066679757547      0.977979731215      -0.102098323663     0.977979731215      -0.102098323663     0.0213559191694     0.066679757547      
7200000000.0        0.0215603985291     0.067600953071      0.977756874386      -0.103518923429     0.977756874386      -0.103518923429     0.0215603985291     0.067600953071      
7300000000.0        0.0217675213968     0.0685214256276     0.97753112202       -0.104938820801     0.97753112202       -0.104938820801     0.0217675213968     0.0685214256276     
7400000000.0        0.0219772859738     0.0694411660213     0.977302475861      -0.106358006773     0.977302475861      -0.106358006773     0.0219772859738     0.0694411660213     
7500000000.0        0.0221896903643     0.0703601650716     0.977070937749      -0.107776472354     0.977070937749      -0.107776472354     0.0221896903643     0.0703601650716     
7600000000.0        0.0224047325784     0.0712784136131     0.976836509619      -0.109194208563     0.976836509619      -0.109194208563     0.0224047325784     0.0712784136131     
7700000000.0        0.0226224105346     0.0721959024963     0.976599193496      -0.11061120644      0.976599193496      -0.11061120644      0.0226224105346     0.0721959024963     
7800000000.0        0.0228427220629     0.0731126225877     0.976358991493      -0.112027457034     0.976358991493      -0.112027457034     0.0228427220629     0.0731126225877     
7900000000.0        0.0230656649069     0.0740285647699     0.976115905808      -0.113442951413     0.976115905808      -0.113442951413     0.0230656649069     0.0740285647699     
8000000000.0        0.0232912367267     0.0749437199426     0.975869938725      -0.11485768066      0.975869938725      -0.11485768066      0.0232912367267     0.0749437199426     
8100000000.0        0.0235194351008     0.0758580790222     0.975621092605      -0.116271635874     0.975621092605      -0.116271635874     0.0235194351008     0.0758580790222     
8200000000.0        0.023750257528      0.0767716329426     0.975369369892      -0.11768480817      0.975369369892      -0.11768480817      0.023750257528      0.0767716329426     
8300000000.0        0.0239837014302     0.0776843726555     0.975114773103      -0.119097188679     0.975114773103      -0.119097188679     0.0239837014302     0.0776843726555     
8400000000.0        0.0242197641534     0.0785962891304     0.974857304833      -0.120508768553     0.974857304833      -0.120508768553     0.0242197641534     0.0785962891304     
8500000000.0        0.0244584429703     0.0795073733552     0.974596967748      -0.121919538956     0.974596967748      -0.121919538956     0.0244584429703     0.0795073733552     
8600000000.0        0.0246997350815     0.0804176163365     0.974333764587      -0.123329491073     0.974333764587      -0.123329491073     0.0246997350815     0.0804176163365     
8700000000.0        0.0249436376173     0.0813270090996     0.974067698157      -0.124738616107     0.974067698157      -0.124738616107     0.0249436376173     0.0813270090996     
8800000000.0        0.0251901476393     0.0822355426889     0.973798771336      -0.126146905278     0.973798771336      -0.126146905278     0.0251901476393     0.0822355426889     
8900000000.0        0.0254392621421     0.0831432081686     0.973526987064      -0.127554349826     0.973526987064      -0.127554349826     0.0254392621421     0.0831432081686     
9000000000.0        0.0256909780542     0.0840499966224     0.973252348352      -0.128960941009     0.973252348352      -0.128960941009     0.0256909780542     0.0840499966224     
9100000000.0        0.0259452922398     0.0849558991538     0.972974858271      -0.130366670104     0.972974858271      -0.130366670104     0.0259452922398     0.0849558991538     
9200000000.0        0.0262022014999     0.0858609068869     0.972694519955      -0.131771528408     0.972694519955      -0.131771528408     0.0262022014999     0.0858609068869     
9300000000.0        0.0264617025737     0.0867650109662     0.9724113366        -0.133175507237     0.9724113366        -0.133175507237     0.0264617025737     0.0867650109662     
9400000000.0        0.0267237921394     0.0876682025569     0.972125311464      -0.134578597927     0.972125311464      -0.134578597927     0.0267237921394     0.0876682025569     
9500000000.0        0.0269884668159     0.0885704728453     0.971836447861      -0.135980791837     0.971836447861      -0.135980791837     0.0269884668159     0.0885704728453     
9600000000.0        0.0272557231632     0.0894718130388     0.971544749165      -0.137382080342     0.971544749165      -0.137382080342     0.0272557231632     0.0894718130388     
9700000000.0        0.0275255576843     0.0903722143666     0.971250218806      -0.13878245484      0.971250218806      -0.13878245484      0.0275255576843     0.0903722143666     
9800000000.0        0.0277979668253     0.0912716680793     0.970952860271      -0.140181906752     0.970952860271      -0.140181906752     0.0277979668253     0.0912716680793     
9900000000.0        0.0280729469769     0.0921701654497     0.970652677101      -0.141580427516     0.970652677101      -0.141580427516     0.0280729469769     0.0921701654497     
10000000000.0       0.0283504944753     0.0930676977727     0.970349672892      -0.142978008594     0.970349672892      -0.142978008594     0.0283504944753     0.0930676977727     
