# Hz S RI R 50.00 
100000000.0         0.00403621867351    0.000967689878097   0.99596221956       -0.00144780295181   0.99596221956       -0.00144780295181   0.00403621867351    0.000967689878097   
200000000.0         0.00406690972162    0.00193524534066    0.995930735906      -0.00289547808272   0.995930735906      -0.00289547808272   0.00406690972162    0.00193524534066    
300000000.0         0.00409327405625    0.00290271097567    0.995903348103      -0.00434307362956   0.995903348103      -0.00434307362956   0.00409327405625    0.00290271097567    
400000000.0         0.0041188104802     0.00387009692134    0.995876557321      -0.00579060255807   0.995876557321      -0.00579060255807   0.0041188104802     0.00387009692134    
500000000.0         0.00414486771239    0.00483740521985    0.995849014809      -0.00723806932102   0.995849014809      -0.00723806932102   0.00414486771239    0.00483740521985    
600000000.0         0.00417213416823    0.00580463430589    0.99582003212       -0.00868547448919   0.99582003212       -0.00868547448919   0.00417213416823    0.00580463430589    
700000000.0         0.00420101681521    0.00677178062865    0.995789202247      -0.0101328164463    0.995789202247      -0.0101328164463    0.00420101681521    0.00677178062865    
800000000.0         0.00423177948795    0.00773883940843    0.995756261317      -0.0115800921891    0.995756261317      -0.0115800921891    0.00423177948795    0.00773883940843    
900000000.0         0.00426460449213    0.00870580504488    0.995721026981      -0.0130272977646    0.995721026981      -0.0130272977646    0.00426460449213    0.00870580504488    
1000000000.0        0.00429962383939    0.00967267135984    0.995683367182      -0.0144744285333    0.995683367182      -0.0144744285333    0.00429962383939    0.00967267135984    
1100000000.0        0.00433693661536    0.0106394317523     0.995643182785      -0.015921479339     0.995643182785      -0.015921479339     0.00433693661536    0.0106394317523     
1200000000.0        0.00437661933181    0.0116060793025     0.99560039723       -0.0173684446248    0.99560039723       -0.0173684446248    0.00437661933181    0.0116060793025     
1300000000.0        0.00441873244128    0.0125726068446     0.995554950011      -0.0188153185147    0.995554950011      -0.0188153185147    0.00441873244128    0.0125726068446     
1400000000.0        0.00446332462047    0.01353900702       0.995506792397      -0.0202620948737    0.995506792397      -0.0202620948737    0.00446332462047    0.01353900702       
1500000000.0        0.00451043568968    0.014505272316      0.995455884511      -0.0217087673538    0.995455884511      -0.0217087673538    0.00451043568968    0.014505272316      
1600000000.0        0.00456009866381    0.0154713950962     0.99540219328       -0.0231553294283    0.99540219328       -0.0231553294283    0.00456009866381    0.0154713950962     
1700000000.0        0.00461234123081    0.0164373676238     0.995345690956      -0.0246017744197    0.995345690956      -0.0246017744197    0.00461234123081    0.0164373676238     
1800000000.0        0.00466718684125    0.0174031820795     0.995286354026      -0.0260480955216    0.995286354026      -0.0260480955216    0.00466718684125    0.0174031820795     
1900000000.0        0.00472465552703    0.0183688305765     0.995224162395      -0.0274942858166    0.995224162395      -0.0274942858166    0.00472465552703    0.0183688305765     
2000000000.0        0.00478476452705    0.0193343051726     0.995159098759      -0.0289403382914    0.995159098759      -0.0289403382914    0.00478476452705    0.0193343051726     
2100000000.0        0.00484752877264    0.0202995978798     0.995091148119      -0.0303862458484    0.995091148119      -0.0303862458484    0.00484752877264    0.0202995978798     
2200000000.0        0.0049129612693     0.0212647006723     0.995020297402      -0.0318320013165    0.995020297402      -0.0318320013165    0.0049129612693     0.0212647006723     
2300000000.0        0.00498107340045    0.0222296054936     0.994946535155      -0.0332775974599    0.994946535155      -0.0332775974599    0.00498107340045    0.0222296054936     
2400000000.0        0.00505187517194    0.0231943042619     0.994869851302      -0.0347230269851    0.994869851302      -0.0347230269851    0.00505187517193    0.0231943042619     
2500000000.0        0.0051253754106     0.0241587888754     0.994790236943      -0.0361682825478    0.994790236943      -0.0361682825478    0.0051253754106     0.0241587888754     
2600000000.0        0.00520158192719    0.0251230512161     0.994707684195      -0.0376133567587    0.994707684195      -0.0376133567587    0.00520158192719    0.0251230512161     
2700000000.0        0.00528050165103    0.0260870831534     0.994622186053      -0.0390582421876    0.994622186053      -0.0390582421876    0.00528050165104    0.0260870831534     
2800000000.0        0.00536214074221    0.0270508765474     0.994533736282      -0.0405029313684    0.994533736282      -0.0405029313684    0.00536214074221    0.0270508765474     
2900000000.0        0.00544650468566    0.0280144232514     0.99444232932       -0.0419474168029    0.99444232932       -0.0419474168029    0.00544650468567    0.0280144232514     
3000000000.0        0.00553359837072    0.0289777151146     0.9943479602        -0.0433916909637    0.9943479602        -0.0433916909637    0.00553359837072    0.0289777151146     
3100000000.0        0.00562342615858    0.0299407439836     0.994250624482      -0.0448357462976    0.994250624482      -0.0448357462976    0.00562342615858    0.0299407439836     
3200000000.0        0.00571599194       0.0309035017046     0.994150318195      -0.0462795752282    0.994150318195      -0.0462795752282    0.00571599194       0.0309035017046     
3300000000.0        0.00581129918486    0.031865980125      0.99404703779       -0.0477231701583    0.99404703779       -0.0477231701583    0.00581129918486    0.031865980125      
3400000000.0        0.00590935098487    0.0328281710946     0.993940780092      -0.0491665234719    0.993940780092      -0.0491665234719    0.00590935098487    0.0328281710946     
3500000000.0        0.00601015009069    0.0337900664673     0.99383154227       -0.0506096275368    0.99383154227       -0.0506096275368    0.00601015009069    0.0337900664673     
3600000000.0        0.00611369894419    0.0347516581016     0.993719321797      -0.0520524747055    0.993719321797      -0.0520524747055    0.00611369894419    0.0347516581016     
3700000000.0        0.00621999970666    0.0357129378621     0.993604116429      -0.0534950573176    0.993604116429      -0.0534950573176    0.00621999970666    0.0357129378621     
3800000000.0        0.00632905428358    0.0366738976202     0.993485924175      -0.0549373677011    0.993485924175      -0.0549373677011    0.00632905428358    0.0366738976202     
3900000000.0        0.00644086434645    0.0376345292552     0.993364743279      -0.0563793981732    0.993364743279      -0.0563793981732    0.00644086434645    0.0376345292552     
4000000000.0        0.00655543135207    0.0385948246544     0.993240572198      -0.0578211410426    0.993240572198      -0.0578211410426    0.00655543135207    0.0385948246544     
4100000000.0        0.00667275655965    0.0395547757146     0.993113409587      -0.0592625886097    0.993113409587      -0.0592625886097    0.00667275655965    0.0395547757146     
4200000000.0        0.00679284104604    0.0405143743417     0.99298325428       -0.0607037331683    0.99298325428       -0.0607037331683    0.00679284104604    0.0405143743417     
4300000000.0        0.00691568571926    0.0414736124524     0.992850105282      -0.0621445670061    0.992850105282      -0.0621445670061    0.00691568571926    0.0414736124524     
4400000000.0        0.00704129133068    0.0424324819737     0.992713961754      -0.0635850824062    0.992713961754      -0.0635850824062    0.00704129133068    0.0424324819737     
4500000000.0        0.00716965848594    0.0433909748438     0.992574823001      -0.0650252716473    0.992574823001      -0.0650252716473    0.00716965848594    0.0433909748438     
4600000000.0        0.0073007876547     0.0443490830125     0.992432688464      -0.0664651270049    0.992432688464      -0.0664651270049    0.0073007876547     0.0443490830125     
4700000000.0        0.00743467917951    0.0453067984415     0.992287557711      -0.0679046407521    0.992287557711      -0.0679046407521    0.0074346791795     0.0453067984415     
4800000000.0        0.00757133328379    0.0462641131046     0.992139430427      -0.0693438051599    0.992139430427      -0.0693438051599    0.00757133328379    0.0462641131046     
4900000000.0        0.0077107500791     0.0472210189885     0.991988306412      -0.0707826124982    0.991988306412      -0.0707826124982    0.0077107500791     0.0472210189885     
5000000000.0        0.00785292957165    0.0481775080923     0.991834185566      -0.0722210550363    0.991834185566      -0.0722210550363    0.00785292957165    0.0481775080923     
5100000000.0        0.00799787166832    0.0491335724284     0.991677067893      -0.0736591250432    0.991677067893      -0.0736591250432    0.00799787166832    0.0491335724284     
5200000000.0        0.0081455761821     0.0500892040226     0.991516953487      -0.0750968147887    0.991516953487      -0.0750968147887    0.0081455761821     0.0500892040226     
5300000000.0        0.00829604283706    0.0510443949141     0.991353842532      -0.0765341165433    0.991353842532      -0.0765341165433    0.00829604283706    0.0510443949141     
5400000000.0        0.00844927127291    0.0519991371559     0.991187735296      -0.0779710225791    0.991187735296      -0.0779710225791    0.00844927127291    0.0519991371559     
5500000000.0        0.0086052610492     0.052953422815      0.991018632128      -0.0794075251698    0.991018632128      -0.0794075251698    0.0086052610492     0.052953422815      
5600000000.0        0.0087640116491     0.0539072439722     0.990846533449      -0.0808436165917    0.990846533449      -0.0808436165917    0.0087640116491     0.0539072439722     
5700000000.0        0.00892552248298    0.0548605927228     0.990671439759      -0.0822792891235    0.990671439759      -0.0822792891235    0.00892552248298    0.0548605927228     
5800000000.0        0.00908979289163    0.0558134611764     0.990493351621      -0.0837145350471    0.990493351621      -0.0837145350471    0.00908979289163    0.0558134611764     
5900000000.0        0.00925682214928    0.0567658414571     0.990312269669      -0.0851493466477    0.990312269669      -0.0851493466477    0.00925682214928    0.0567658414571     
6000000000.0        0.00942660946636    0.0577177257037     0.990128194598      -0.0865837162144    0.990128194598      -0.0865837162144    0.00942660946636    0.0577177257037     
6100000000.0        0.00959915399208    0.0586691060696     0.989941127165      -0.0880176360401    0.989941127165      -0.0880176360401    0.00959915399208    0.0586691060696     
6200000000.0        0.00977445481679    0.0596199747232     0.989751068186      -0.0894510984222    0.989751068186      -0.0894510984222    0.00977445481679    0.0596199747232     
6300000000.0        0.00995251097422    0.0605703238475     0.989558018533      -0.0908840956626    0.989558018533      -0.0908840956626    0.00995251097422    0.0605703238475     
6400000000.0        0.0101333214435     0.061520145641      0.989361979133      -0.0923166200681    0.989361979133      -0.0923166200681    0.0101333214435     0.061520145641      
6500000000.0        0.0103168851512     0.0624694323169     0.989162950964      -0.0937486639508    0.989162950964      -0.0937486639508    0.0103168851512     0.0624694323169     
6600000000.0        0.0105032009728     0.0634181761036     0.988960935058      -0.0951802196281    0.988960935058      -0.0951802196281    0.0105032009728     0.0634181761036     
6700000000.0        0.0106922677347     0.064366369245      0.988755932493      -0.0966112794229    0.988755932493      -0.0966112794229    0.0106922677347     0.064366369245      
6800000000.0        0.0108840842157     0.065314004         0.988547944397      -0.098041835664     0.988547944397      -0.098041835664     0.0108840842157     0.065314004         
6900000000.0        0.0110786491482     0.0662610726429     0.988336971941      -0.0994718806865    0.988336971941      -0.0994718806865    0.0110786491482     0.0662610726429     
7000000000.0        0.01127596122       0.0672075674635     0.988123016345      -0.100901406831     0.988123016345      -0.100901406831     0.01127596122       0.0672075674635     
7100000000.0        0.0114760190752     0.068153480767      0.98790607887       -0.102330406446     0.98790607887       -0.102330406446     0.0114760190752     0.068153480767      
7200000000.0        0.0116788213156     0.069098804874      0.987686160819      -0.103758871886     0.987686160819      -0.103758871886     0.0116788213156     0.069098804874      
7300000000.0        0.0118843665016     0.0700435321207     0.987463263539      -0.105186795511     0.987463263539      -0.105186795511     0.0118843665016     0.0700435321207     
7400000000.0        0.0120926531536     0.0709876548588     0.987237388414      -0.106614169689     0.987237388414      -0.106614169689     0.0120926531536     0.0709876548588     
7500000000.0        0.012303679753      0.0719311654558     0.98700853687       -0.108040986795     0.98700853687       -0.108040986795     0.012303679753      0.0719311654558     
7600000000.0        0.0125174447426     0.0728740562944     0.986776710368      -0.109467239213     0.986776710368      -0.109467239213     0.0125174447426     0.0728740562944     
7700000000.0        0.0127339465282     0.0738163197734     0.986541910411      -0.110892919332     0.986541910411      -0.110892919332     0.0127339465282     0.0738163197734     
7800000000.0        0.012953183479      0.074757948307      0.986304138535      -0.11231801955      0.986304138535      -0.11231801955      0.012953183479      0.074757948307      
7900000000.0        0.0131751539286     0.0756989343252     0.986063396312      -0.113742532272     0.986063396312      -0.113742532272     0.0131751539286     0.0756989343252     
8000000000.0        0.0133998561754     0.0766392702736     0.985819685352      -0.11516644991      0.985819685352      -0.11516644991      0.0133998561754     0.0766392702736     
8100000000.0        0.013627288484      0.0775789486136     0.985573007296      -0.116589764887     0.985573007296      -0.116589764887     0.013627288484      0.0775789486136     
8200000000.0        0.0138574490853     0.0785179618225     0.98532336382       -0.118012469631     0.98532336382       -0.118012469631     0.0138574490853     0.0785179618225     
8300000000.0        0.0140903361771     0.0794563023932     0.985070756634      -0.11943455658      0.985070756634      -0.11943455658      0.0140903361771     0.0794563023932     
8400000000.0        0.0143259479253     0.0803939628343     0.98481518748       -0.12085601818      0.98481518748       -0.12085601818      0.0143259479253     0.0803939628343     
8500000000.0        0.014564282464      0.0813309356704     0.984556658132      -0.122276846884     0.984556658132      -0.122276846884     0.014564282464      0.0813309356704     
8600000000.0        0.014805337896      0.0822672134418     0.984295170393      -0.123697035157     0.984295170393      -0.123697035157     0.014805337896      0.0822672134418     
8700000000.0        0.0150491122938     0.0832027887046     0.984030726101      -0.125116575468     0.984030726101      -0.125116575468     0.0150491122938     0.0832027887046     
8800000000.0        0.0152956036996     0.0841376540307     0.983763327121      -0.1265354603       0.983763327121      -0.1265354603       0.0152956036996     0.0841376540307     
8900000000.0        0.0155448101261     0.0850718020078     0.98349297535       -0.12795368214      0.98349297535       -0.12795368214      0.0155448101261     0.0850718020078     
9000000000.0        0.0157967295567     0.0860052252397     0.983219672713      -0.129371233486     0.983219672713      -0.129371233486     0.0157967295567     0.0860052252397     
9100000000.0        0.0160513599465     0.0869379163456     0.982943421165      -0.130788106847     0.982943421165      -0.130788106847     0.0160513599465     0.0869379163456     
9200000000.0        0.0163086992218     0.0878698679609     0.982664222689      -0.132204294737     0.982664222689      -0.132204294737     0.0163086992218     0.0878698679609     
9300000000.0        0.0165687452815     0.0888010727367     0.982382079297      -0.133619789683     0.982382079297      -0.133619789683     0.0165687452815     0.0888010727367     
9400000000.0        0.0168314959966     0.0897315233399     0.982096993027      -0.135034584219     0.982096993027      -0.135034584219     0.0168314959966     0.0897315233399     
9500000000.0        0.0170969492115     0.0906612124534     0.981808965947      -0.136448670889     0.981808965947      -0.136448670889     0.0170969492115     0.0906612124534     
9600000000.0        0.0173651027434     0.0915901327758     0.981518000151      -0.137862042247     0.981518000151      -0.137862042247     0.0173651027434     0.0915901327758     
9700000000.0        0.0176359543833     0.0925182770217     0.981224097758      -0.139274690855     0.981224097758      -0.139274690855     0.0176359543833     0.0925182770217     
9800000000.0        0.0179095018961     0.0934456379215     0.980927260917      -0.140686609286     0.980927260917      -0.140686609286     0.0179095018961     0.0934456379215     
9900000000.0        0.018185743021      0.0943722082213     0.9806274918        -0.142097790123     0.9806274918        -0.142097790123     0.018185743021      0.0943722082213     
10000000000.0       0.0184646754716     0.0952979806833     0.980324792608      -0.143508225958     0.980324792608      -0.143508225958     0.0184646754716     0.0952979806833     
