# Hz S RI R 50.00 
100000000.0         0.00298213233186    0.00127969046168    0.997011754241      -0.00366638901436   0.997011754241      -0.00366638901436   0.00298213233186    0.00127969046168    
200000000.0         0.00301497554172    0.00255911666164    0.996968095131      -0.00733255980975   0.996968095131      -0.00733255980975   0.00301497554172    0.00255911666164    
300000000.0         0.00305199907173    0.00383828398778    0.996914552415      -0.0109985435842    0.996914552415      -0.0109985435842    0.00305199907173    0.00383828398778    
400000000.0         0.00309578049489    0.00511714684904    0.996848547465      -0.0146643129294    0.996848547465      -0.0146643129294    0.00309578049489    0.00511714684904    
500000000.0         0.00314731080264    0.0063956480373     0.996769088022      -0.0183298249176    0.996769088022      -0.0183298249176    0.00314731080264    0.0063956480373     
600000000.0         0.00320709378476    0.00767372534131    0.996675668843      -0.0219950290321    0.996675668843      -0.0219950290321    0.00320709378476    0.00767372534131    
700000000.0         0.00327542543843    0.00895131390984    0.996567992301      -0.0256598702044    0.996567992301      -0.0256598702044    0.00327542543843    0.00895131390984    
800000000.0         0.00335249591866    0.0102283473417     0.996445866456      -0.0293242903115    0.996445866456      -0.0293242903115    0.00335249591866    0.0102283473417     
900000000.0         0.00343843492007    0.0115047582673     0.996309159679      -0.0329882290264    0.996309159679      -0.0329882290264    0.00343843492007    0.0115047582673     
1000000000.0        0.00353333467385    0.0127804786914     0.996157777667      -0.0366516243514    0.996157777667      -0.0366516243514    0.00353333467385    0.0127804786914     
1100000000.0        0.00363726272799    0.0140554402089     0.99599165067       -0.0403144129755    0.99599165067       -0.0403144129755    0.00363726272799    0.0140554402089     
1200000000.0        0.00375026956073    0.0153295741489     0.995810725886      -0.0439765305273    0.995810725886      -0.0439765305273    0.00375026956073    0.0153295741489     
1300000000.0        0.00387239336933    0.0166028116746     0.995614962676      -0.0476379117611    0.995614962676      -0.0476379117611    0.00387239336933    0.0166028116746     
1400000000.0        0.0040036632171     0.0178750838556     0.995404329423      -0.0512984906985    0.995404329423      -0.0512984906985    0.0040036632171     0.0178750838556     
1500000000.0        0.00414410117739    0.0191463217208     0.995178801398      -0.0549582007397    0.995178801398      -0.0549582007397    0.00414410117739    0.0191463217208     
1600000000.0        0.0042937238394     0.0204164562994     0.994938359252      -0.0586169747521    0.994938359252      -0.0586169747521    0.0042937238394     0.0204164562994     
1700000000.0        0.00445254339314    0.0216854186523     0.99468298794       -0.0622747451432    0.99468298794       -0.0622747451432    0.00445254339314    0.0216854186523     
1800000000.0        0.00462056842908    0.022953139897      0.994412675924      -0.0659314439211    0.994412675924      -0.0659314439211    0.00462056842908    0.022953139897      
1900000000.0        0.00479780453887    0.0242195512285     0.994127414577      -0.0695870027453    0.994127414577      -0.0695870027453    0.00479780453887    0.0242195512285     
2000000000.0        0.00498425477457    0.025484583935      0.993827197725      -0.0732413529708    0.993827197725      -0.0732413529708    0.00498425477457    0.025484583935      
2100000000.0        0.00517992000504    0.026748169413      0.993512021296      -0.0768944256855    0.993512021296      -0.0768944256855    0.00517992000504    0.026748169413      
2200000000.0        0.00538479919638    0.0280102391781     0.993181883042      -0.0805461517437    0.993181883042      -0.0805461517437    0.00538479919638    0.0280102391781     
2300000000.0        0.00559888963535    0.029270724876      0.992836782318      -0.0841964617951    0.992836782318      -0.0841964617951    0.00559888963535    0.029270724876      
2400000000.0        0.00582218710927    0.0305295582909     0.992476719906      -0.0878452863113    0.992476719906      -0.0878452863113    0.00582218710927    0.0305295582909     
2500000000.0        0.00605468605258    0.0317866713539     0.99210169787       -0.0914925556086    0.99210169787       -0.0914925556086    0.00605468605258    0.0317866713539     
2600000000.0        0.0062963796672     0.0330419961493     0.991711719437      -0.0951381998699    0.991711719437      -0.0951381998699    0.0062963796672     0.0330419961493     
2700000000.0        0.00654726002227    0.0342954649218     0.991306788904      -0.0987821491637    0.991306788904      -0.0987821491637    0.00654726002227    0.0342954649218     
2800000000.0        0.00680731813756    0.0355470100817     0.990886911551      -0.102424333462     0.990886911551      -0.102424333462     0.00680731813756    0.0355470100817     
2900000000.0        0.00707654405373    0.0367965642105     0.990452093577      -0.106064682656     0.990452093577      -0.106064682656     0.00707654405373    0.0367965642105     
3000000000.0        0.00735492689187    0.0380440600662     0.99000234204       -0.109703126572     0.99000234204       -0.109703126572     0.00735492689188    0.0380440600662     
3100000000.0        0.00764245490442    0.0392894305873     0.989537664811      -0.113339594985     0.989537664811      -0.113339594985     0.00764245490442    0.0392894305873     
3200000000.0        0.00793911551886    0.040532608898      0.989058070527      -0.116974017634     0.989058070527      -0.116974017634     0.00793911551886    0.040532608898      
3300000000.0        0.00824489537558    0.0417735283119     0.988563568562      -0.120606324229     0.988563568562      -0.120606324229     0.00824489537558    0.0417735283119     
3400000000.0        0.00855978036083    0.0430121223362     0.988054168988      -0.124236444469     0.988054168988      -0.124236444469     0.00855978036083    0.0430121223362     
3500000000.0        0.00888375563547    0.0442483246757     0.987529882555      -0.127864308047     0.987529882555      -0.127864308047     0.00888375563547    0.0442483246757     
3600000000.0        0.00921680566038    0.0454820692363     0.986990720662      -0.131489844666     0.986990720662      -0.131489844666     0.00921680566038    0.0454820692363     
3700000000.0        0.00955891421886    0.0467132901288     0.986436695337      -0.135112984046     0.986436695337      -0.135112984046     0.00955891421886    0.0467132901288     
3800000000.0        0.00991006443663    0.0479419216723     0.98586781922       -0.138733655933     0.98586781922       -0.138733655933     0.00991006443663    0.0479419216723     
3900000000.0        0.0102702387996     0.0491678983978     0.985284105548      -0.142351790107     0.985284105548      -0.142351790107     0.0102702387996     0.0491678983978     
4000000000.0        0.01063941917       0.0503911550517     0.984685568136      -0.145967316396     0.984685568136      -0.145967316396     0.01063941917       0.0503911550517     
4100000000.0        0.0110175868006     0.0516116265985     0.984072221365      -0.149580164677     0.984072221365      -0.149580164677     0.0110175868007     0.0516116265985     
4200000000.0        0.0114047223484     0.0528292482247     0.983444080173      -0.153190264889     0.983444080173      -0.153190264889     0.0114047223484     0.0528292482247     
4300000000.0        0.0118008058858     0.0540439553418     0.982801160042      -0.15679754704      0.982801160042      -0.15679754704      0.0118008058858     0.0540439553418     
4400000000.0        0.0122058169122     0.0552556835892     0.982143476987      -0.160401941212     0.982143476987      -0.160401941212     0.0122058169122     0.0552556835892     
4500000000.0        0.0126197343638     0.0564643688377     0.981471047549      -0.164003377569     0.981471047549      -0.164003377569     0.0126197343638     0.0564643688377     
4600000000.0        0.0130425366229     0.0576699471923     0.980783888787      -0.167601786367     0.980783888787      -0.167601786367     0.0130425366229     0.0576699471923     
4700000000.0        0.0134742015266     0.0588723549951     0.980082018269      -0.171197097955     0.980082018269      -0.171197097955     0.0134742015266     0.0588723549951     
4800000000.0        0.0139147063749     0.0600715288289     0.979365454065      -0.174789242788     0.979365454065      -0.174789242788     0.0139147063749     0.0600715288289     
4900000000.0        0.0143640279382     0.0612674055194     0.978634214741      -0.178378151427     0.978634214741      -0.178378151427     0.0143640279382     0.0612674055194     
5000000000.0        0.014822142464      0.0624599221389     0.977888319354      -0.181963754548     0.977888319354      -0.181963754548     0.014822142464      0.0624599221389     
5100000000.0        0.0152890256843     0.0636490160086     0.977127787444      -0.185545982951     0.977127787444      -0.185545982951     0.0152890256843     0.0636490160086     
5200000000.0        0.0157646528212     0.0648346247018     0.976352639028      -0.18912476756      0.976352639028      -0.18912476756      0.0157646528212     0.0648346247018     
5300000000.0        0.0162489985932     0.0660166860467     0.9755628946        -0.19270003943      0.9755628946        -0.19270003943      0.0162489985932     0.0660166860467     
5400000000.0        0.0167420372211     0.0671951381293     0.974758575119      -0.196271729758     0.974758575119      -0.196271729758     0.0167420372211     0.0671951381293     
5500000000.0        0.0172437424329     0.0683699192962     0.97393970201       -0.19983976988      0.97393970201       -0.19983976988      0.0172437424329     0.0683699192962     
5600000000.0        0.0177540874697     0.0695409681574     0.973106297156      -0.203404091284     0.973106297156      -0.203404091284     0.0177540874697     0.0695409681574     
5700000000.0        0.0182730450902     0.0707082235891     0.972258382896      -0.206964625607     0.972258382896      -0.206964625607     0.0182730450902     0.0707082235891     
5800000000.0        0.0188005875758     0.0718716247364     0.971395982019      -0.210521304649     0.971395982019      -0.210521304649     0.0188005875758     0.0718716247364     
5900000000.0        0.0193366867353     0.0730311110159     0.970519117762      -0.214074060371     0.970519117762      -0.214074060371     0.0193366867353     0.0730311110159     
6000000000.0        0.0198813139092     0.074186622119      0.969627813804      -0.217622824902     0.969627813804      -0.217622824902     0.0198813139092     0.074186622119      
6100000000.0        0.0204344399746     0.0753380980139     0.968722094264      -0.221167530545     0.968722094264      -0.221167530545     0.0204344399746     0.0753380980139     
6200000000.0        0.0209960353491     0.0764854789487     0.967801983695      -0.224708109779     0.967801983695      -0.224708109779     0.0209960353491     0.0764854789487     
6300000000.0        0.0215660699951     0.0776287054538     0.966867507085      -0.228244495266     0.966867507085      -0.228244495266     0.0215660699951     0.0776287054538     
6400000000.0        0.0221445134242     0.0787677183449     0.965918689846      -0.231776619854     0.965918689846      -0.231776619854     0.0221445134242     0.0787677183449     
6500000000.0        0.0227313347007     0.0799024587251     0.96495555782       -0.235304416581     0.96495555782       -0.235304416581     0.0227313347007     0.0799024587251     
6600000000.0        0.0233265024462     0.0810328679882     0.963978137266      -0.238827818681     0.963978137266      -0.238827818681     0.0233265024462     0.0810328679882     
6700000000.0        0.0239299848429     0.0821588878205     0.962986454864      -0.242346759585     0.962986454864      -0.242346759585     0.0239299848429     0.0821588878205     
6800000000.0        0.0245417496378     0.0832804602038     0.961980537708      -0.24586117293      0.961980537708      -0.24586117293      0.0245417496378     0.0832804602038     
6900000000.0        0.0251617641464     0.084397527418      0.960960413304      -0.249370992558     0.960960413304      -0.249370992558     0.0251617641464     0.084397527418      
7000000000.0        0.0257899952564     0.0855100320433     0.959926109566      -0.252876152522     0.959926109566      -0.252876152522     0.0257899952564     0.0855100320433     
7100000000.0        0.0264264094315     0.0866179169629     0.958877654813      -0.25637658709      0.958877654813      -0.25637658709      0.0264264094315     0.0866179169629     
7200000000.0        0.0270709727149     0.0877211253655     0.957815077767      -0.25987223075      0.957815077767      -0.25987223075      0.0270709727149     0.0877211253655     
7300000000.0        0.0277236507331     0.0888196007476     0.956738407547      -0.263363018211     0.956738407547      -0.263363018211     0.0277236507331     0.0888196007476     
7400000000.0        0.0283844086992     0.0899132869158     0.955647673671      -0.266848884408     0.955647673671      -0.266848884408     0.0283844086992     0.0899132869158     
7500000000.0        0.0290532114167     0.0910021279898     0.954542906045      -0.270329764506     0.954542906045      -0.270329764506     0.0290532114167     0.0910021279898     
7600000000.0        0.0297300232832     0.092086068404      0.953424134968      -0.273805593903     0.953424134968      -0.273805593903     0.0297300232832     0.092086068404      
7700000000.0        0.0304148082936     0.0931650529104     0.952291391125      -0.277276308234     0.952291391125      -0.277276308234     0.0304148082936     0.0931650529104     
7800000000.0        0.0311075300434     0.0942390265807     0.951144705583      -0.280741843373     0.951144705583      -0.280741843373     0.0311075300434     0.0942390265807     
7900000000.0        0.031808151733      0.0953079348086     0.94998410979       -0.284202135438     0.94998410979       -0.284202135438     0.031808151733      0.0953079348086     
8000000000.0        0.0325166361703     0.0963717233121     0.94880963557       -0.287657120793     0.94880963557       -0.287657120793     0.0325166361703     0.0963717233121     
8100000000.0        0.0332329457745     0.097430338136      0.947621315123      -0.291106736054     0.947621315123      -0.291106736054     0.0332329457745     0.097430338136      
8200000000.0        0.0339570425798     0.0984837256537     0.946419181019      -0.294550918087     0.946419181019      -0.294550918087     0.0339570425798     0.0984837256537     
8300000000.0        0.0346888882382     0.0995318325699     0.945203266194      -0.297989604016     0.945203266194      -0.297989604016     0.0346888882382     0.0995318325699     
8400000000.0        0.0354284440237     0.100574605922      0.943973603953      -0.301422731224     0.943973603953      -0.301422731224     0.0354284440237     0.100574605922      
8500000000.0        0.0361756708349     0.101611993084      0.942730227958      -0.304850237356     0.942730227958      -0.304850237356     0.0361756708349     0.101611993084      
8600000000.0        0.036930529199      0.102643941765      0.941473172234      -0.308272060322     0.941473172234      -0.308272060322     0.036930529199      0.102643941765      
8700000000.0        0.0376929792751     0.103670400016      0.940202471158      -0.311688138299     0.940202471158      -0.311688138299     0.0376929792751     0.103670400016      
8800000000.0        0.0384629808574     0.10469131623       0.938918159461      -0.315098409738     0.938918159461      -0.315098409738     0.0384629808574     0.10469131623       
8900000000.0        0.0392404933784     0.105706639141      0.937620272224      -0.318502813361     0.937620272224      -0.318502813361     0.0392404933784     0.105706639141      
9000000000.0        0.0400254759131     0.106716317832      0.936308844874      -0.321901288168     0.936308844874      -0.321901288168     0.0400254759131     0.106716317832      
9100000000.0        0.0408178871816     0.107720301732      0.934983913181      -0.325293773436     0.934983913181      -0.325293773436     0.0408178871816     0.107720301732      
9200000000.0        0.0416176855525     0.108718540619      0.933645513254      -0.328680208727     0.933645513254      -0.328680208727     0.0416176855525     0.108718540619      
9300000000.0        0.0424248290469     0.109710984625      0.932293681541      -0.332060533885     0.932293681541      -0.332060533885     0.0424248290469     0.109710984625      
9400000000.0        0.0432392753411     0.110697584234      0.930928454823      -0.335434689043     0.930928454823      -0.335434689043     0.0432392753411     0.110697584234      
9500000000.0        0.0440609817706     0.111678290287      0.929549870211      -0.338802614622     0.929549870211      -0.338802614622     0.0440609817706     0.111678290287      
9600000000.0        0.0448899053327     0.11265305398       0.928157965146      -0.342164251335     0.928157965146      -0.342164251335     0.0448899053327     0.11265305398       
9700000000.0        0.0457260026907     0.113621826871      0.926752777391      -0.345519540191     0.926752777391      -0.345519540191     0.0457260026907     0.113621826871      
9800000000.0        0.0465692301765     0.114584560877      0.925334345031      -0.348868422494     0.925334345031      -0.348868422494     0.0465692301765     0.114584560877      
9900000000.0        0.0474195437948     0.115541208279      0.923902706471      -0.352210839849     0.923902706471      -0.352210839849     0.0474195437948     0.115541208279      
10000000000.0       0.0482768992258     0.116491721723      0.922457900429      -0.355546734161     0.922457900429      -0.355546734161     0.0482768992258     0.116491721723      
