# Hz S RI R 50.00 
100000000.0         0.0119924034565     0.00367782409105    0.988001837889      -0.00596757434078   0.988001837889      -0.00596757434078   0.0119924034565     0.00367782409105    
200000000.0         0.0121368033131     0.00735349078682    0.987847414673      -0.0119330219487    0.987847414673      -0.0119330219487    0.0121368033131     0.00735349078682    
300000000.0         0.0123046992562     0.0110269837545     0.98766422982       -0.0178963509448    0.98766422982       -0.0178963509448    0.0123046992562     0.0110269837545     
400000000.0         0.0125063432254     0.0146978834324     0.987442030356      -0.0238571623251    0.987442030356      -0.0238571623251    0.0125063432254     0.0146978834324     
500000000.0         0.0127456528731     0.0183656772368     0.987176897382      -0.0298149620841    0.987176897382      -0.0298149620841    0.0127456528731     0.0183656772368     
600000000.0         0.0130245941712     0.0220298121414     0.986866863465      -0.0357692144693    0.986866863465      -0.0357692144693    0.0130245941712     0.0220298121414     
700000000.0         0.0133442954948     0.0256897137041     0.986510798556      -0.0417193613537    0.986510798556      -0.0417193613537    0.0133442954948     0.0256897137041     
800000000.0         0.013705454205      0.0293447950134     0.98610800341       -0.0476648313883    0.98610800341       -0.0476648313883    0.013705454205      0.0293447950134     
900000000.0         0.0141085176738     0.0329944615968     0.985658028568      -0.0536050450485    0.985658028568      -0.0536050450485    0.0141085176738     0.0329944615968     
1000000000.0        0.0145537750478     0.0366381144202     0.985160582588      -0.0595394177289    0.985160582588      -0.0595394177289    0.0145537750478     0.0366381144202     
1100000000.0        0.0150414082711     0.0402751518749     0.984615481035      -0.0654673618022    0.984615481035      -0.0654673618022    0.0150414082711     0.0402751518749     
1200000000.0        0.0155715225068     0.043904971182      0.984022616051      -0.0713882880785    0.984022616051      -0.0713882880785    0.0155715225068     0.043904971182      
1300000000.0        0.0161441652978     0.0475269694414     0.983381937207      -0.0773016068967    0.983381937207      -0.0773016068967    0.0161441652978     0.0475269694414     
1400000000.0        0.0167593391857     0.0511405444498     0.982693438878      -0.0832067289773    0.982693438878      -0.0832067289773    0.0167593391857     0.0511405444498     
1500000000.0        0.0174170103342     0.0547450953641     0.981957151626      -0.0891030661153    0.981957151626      -0.0891030661153    0.0174170103342     0.0547450953641     
1600000000.0        0.0181171146129     0.0583400232581     0.981173136116      -0.0949900317594    0.981173136116      -0.0949900317594    0.0181171146129     0.0583400232581     
1700000000.0        0.0188595620085     0.0619247316009     0.980341478707      -0.100867041511     0.980341478707      -0.100867041511     0.0188595620085     0.0619247316009     
1800000000.0        0.0196442399041     0.0654986266781     0.979462288174      -0.106733513565     0.979462288174      -0.106733513565     0.0196442399041     0.0654986266781     
1900000000.0        0.0204710155692     0.0690611179701     0.978535693222      -0.112588869097     0.978535693222      -0.112588869097     0.0204710155692     0.0690611179701     
2000000000.0        0.021339738093      0.0726116184957     0.977561840548      -0.118432532628     0.977561840548      -0.118432532628     0.021339738093      0.0726116184957     
2100000000.0        0.0222502399113     0.0761495451299     0.976540893321      -0.124263932347     0.976540893321      -0.124263932347     0.0222502399113     0.0761495451299     
2200000000.0        0.0232023380364     0.0796743188989     0.975473029952      -0.130082500419     0.975473029952      -0.130082500419     0.0232023380364     0.0796743188989     
2300000000.0        0.0241958350648     0.0831853652574     0.974358443084      -0.135887673271     0.974358443084      -0.135887673271     0.0241958350648     0.0831853652574     
2400000000.0        0.0252305200165     0.0866821143504     0.973197338759      -0.141678891865     0.973197338759      -0.141678891865     0.0252305200165     0.0866821143504     
2500000000.0        0.0263061690455     0.0901640012614     0.971989935702      -0.147455601945     0.971989935702      -0.147455601945     0.0263061690455     0.0901640012614     
2600000000.0        0.0274225460518     0.0936304662497     0.970736464716      -0.153217254291     0.970736464716      -0.153217254291     0.0274225460518     0.0936304662497     
2700000000.0        0.0285794032144     0.097080954976      0.969437168147      -0.158963304944     0.969437168147      -0.158963304944     0.0285794032144     0.097080954976      
2800000000.0        0.0297764814647     0.100514918719      0.968092299412      -0.164693215431     0.968092299412      -0.164693215431     0.0297764814647     0.100514918719      
2900000000.0        0.031013510911      0.103931814586      0.966702122572      -0.170406452977     0.966702122572      -0.170406452977     0.031013510911      0.103931814586      
3000000000.0        0.032290211225      0.107331105705      0.96526691195       -0.176102490708     0.96526691195       -0.176102490708     0.032290211225      0.107331105705      
3100000000.0        0.0336062919971     0.110712261427      0.963786951778      -0.181780807852     0.963786951778      -0.181780807852     0.0336062919971     0.110712261427      
3200000000.0        0.0349614530677     0.114074757502      0.962262535858      -0.18744088992      0.962262535858      -0.18744088992      0.0349614530677     0.114074757502      
3300000000.0        0.036355384838      0.11741807626       0.960693967262      -0.193082228893     0.960693967262      -0.193082228893     0.036355384838      0.11741807626       
3400000000.0        0.0377877685647     0.12074170678       0.959081558029      -0.198704323391     0.959081558029      -0.198704323391     0.0377877685647     0.12074170678       
3500000000.0        0.0392582766422     0.124045145054      0.957425628889      -0.204306678845     0.957425628889      -0.204306678845     0.0392582766422     0.124045145054      
3600000000.0        0.0407665728729     0.127327894146      0.95572650899       -0.209888807649     0.95572650899       -0.209888807649     0.0407665728729     0.127327894146      
3700000000.0        0.0423123127305     0.130589464338      0.953984535636      -0.215450229323     0.953984535636      -0.215450229323     0.0423123127305     0.130589464338      
3800000000.0        0.0438951436144     0.133829373277      0.952200054034      -0.22099047065      0.952200054034      -0.22099047065      0.0438951436144     0.133829373277      
3900000000.0        0.0455147050993     0.137047146114      0.950373417043      -0.226509065823     0.950373417043      -0.226509065823     0.0455147050993     0.137047146114      
4000000000.0        0.0471706291797     0.140242315633      0.94850498493       -0.232005556576     0.94850498493       -0.232005556576     0.0471706291797     0.140242315633      
4100000000.0        0.0488625405105     0.143414422376      0.94659512513       -0.23747949231      0.94659512513       -0.23747949231      0.0488625405105     0.143414422376      
4200000000.0        0.0505900566438     0.146563014766      0.944644212011      -0.242930430216     0.944644212011      -0.242930430216     0.0505900566438     0.146563014766      
4300000000.0        0.0523527882638     0.149687649216      0.942652626634      -0.248357935392     0.942652626634      -0.248357935392     0.0523527882638     0.149687649216      
4400000000.0        0.0541503394182     0.152787890236      0.940620756529      -0.253761580947     0.940620756529      -0.253761580947     0.0541503394182     0.152787890236      
4500000000.0        0.0559823077491     0.15586331054       0.93854899546       -0.259140948105     0.93854899546       -0.259140948105     0.0559823077491     0.15586331054       
4600000000.0        0.0578482847203     0.158913491133      0.936437743196      -0.264495626304     0.936437743196      -0.264495626304     0.0578482847203     0.158913491133      
4700000000.0        0.0597478558449     0.161938021404      0.934287405287      -0.269825213284     0.934287405287      -0.269825213284     0.0597478558449     0.161938021404      
4800000000.0        0.0616806009103     0.16493649921       0.93209839284       -0.275129315171     0.93209839284       -0.275129315171     0.0616806009103     0.16493649921       
4900000000.0        0.0636460942022     0.16790853095       0.929871122289      -0.280407546559     0.929871122289      -0.280407546559     0.0636460942022     0.16790853095       
5000000000.0        0.065643904728      0.170853731642      0.927606015178      -0.285659530578     0.927606015178      -0.285659530578     0.065643904728      0.170853731642      
5100000000.0        0.067673596438      0.173771724981      0.925303497938      -0.290884898963     0.925303497938      -0.290884898963     0.067673596438      0.173771724981      
5200000000.0        0.0697347284463     0.176662143405      0.922964001661      -0.296083292115     0.922964001661      -0.296083292115     0.0697347284463     0.176662143405      
5300000000.0        0.0718268552505     0.179524628145      0.920587961889      -0.301254359155     0.920587961889      -0.301254359155     0.0718268552505     0.179524628145      
5400000000.0        0.0739495269497     0.182358829279      0.918175818389      -0.306397757974     0.918175818389      -0.306397757974     0.0739495269497     0.182358829279      
5500000000.0        0.0761022894618     0.185164405768      0.915728014938      -0.311513155278     0.915728014938      -0.311513155278     0.0761022894618     0.185164405768      
5600000000.0        0.0782846847392     0.187941025498      0.913244999108      -0.316600226623     0.913244999108      -0.316600226623     0.0782846847392     0.187941025498      
5700000000.0        0.080496250984      0.19068836531       0.910727222049      -0.321658656449     0.910727222049      -0.321658656449     0.080496250984      0.19068836531       
5800000000.0        0.0827365228602     0.193406111028      0.908175138278      -0.32668813811      0.908175138278      -0.32668813811      0.0827365228602     0.193406111028      
5900000000.0        0.0850050317065     0.196093957476      0.905589205463      -0.33168837389      0.905589205463      -0.33168837389      0.0850050317065     0.196093957476      
6000000000.0        0.087301305746      0.198751608501      0.902969884219      -0.336659075025     0.902969884219      -0.336659075025     0.087301305746      0.198751608501      
6100000000.0        0.0896248702949     0.201378776976      0.900317637894      -0.34159996171      0.900317637894      -0.34159996171      0.0896248702949     0.201378776976      
6200000000.0        0.0919752479696     0.203975184811      0.897632932361      -0.346510763107     0.897632932361      -0.346510763107     0.0919752479696     0.203975184811      
6300000000.0        0.0943519588919     0.20654056295       0.894916235818      -0.351391217346     0.894916235818      -0.351391217346     0.0943519588919     0.20654056295       
6400000000.0        0.096754520892      0.209074651369      0.892168018578      -0.356241071519     0.892168018578      -0.356241071519     0.096754520892      0.209074651369      
6500000000.0        0.0991824497105     0.211577199063      0.889388752875      -0.361060081674     0.889388752875      -0.361060081674     0.0991824497105     0.211577199063      
6600000000.0        0.101635259197      0.214047964037      0.886578912654      -0.365848012799     0.886578912654      -0.365848012799     0.101635259197      0.214047964037      
6700000000.0        0.104112461508      0.216486713283      0.883738973383      -0.370604638803     0.883738973383      -0.370604638803     0.104112461508      0.216486713283      
6800000000.0        0.106613567301      0.218893222757      0.880869411854      -0.375329742495     0.880869411854      -0.375329742495     0.106613567301      0.218893222757      
6900000000.0        0.109138085928      0.221267277355      0.877970705988      -0.380023115554     0.877970705988      -0.380023115554     0.109138085928      0.221267277355      
7000000000.0        0.111685525625      0.223608670873      0.875043334648      -0.384684558499     0.875043334648      -0.384684558499     0.111685525625      0.223608670873      
7100000000.0        0.114255393701      0.225917205979      0.872087777448      -0.389313880651     0.872087777448      -0.389313880651     0.114255393701      0.225917205979      
7200000000.0        0.116847196723      0.228192694165      0.869104514569      -0.393910900091     0.869104514569      -0.393910900091     0.116847196723      0.228192694165      
7300000000.0        0.119460440695      0.230434955708      0.866094026575      -0.398475443621     0.866094026575      -0.398475443621     0.119460440695      0.230434955708      
7400000000.0        0.122094631244      0.232643819615      0.863056794233      -0.403007346707     0.863056794233      -0.403007346707     0.122094631244      0.232643819615      
7500000000.0        0.124749273792      0.234819123577      0.859993298337      -0.407506453433     0.859993298337      -0.407506453433     0.124749273792      0.234819123577      
7600000000.0        0.127423873735      0.236960713905      0.856904019529      -0.411972616441     0.856904019529      -0.411972616441     0.127423873735      0.236960713905      
7700000000.0        0.130117936609      0.239068445478      0.853789438132      -0.416405696872     0.853789438132      -0.416405696872     0.130117936609      0.239068445478      
7800000000.0        0.132830968262      0.241142181672      0.850650033978      -0.420805564304     0.850650033978      -0.420805564304     0.132830968262      0.241142181672      
7900000000.0        0.135562475017      0.243181794297      0.847486286245      -0.425172096681     0.847486286245      -0.425172096681     0.135562475017      0.243181794297      
8000000000.0        0.138311963838      0.245187163526      0.84429867329       -0.429505180244     0.84429867329       -0.429505180244     0.138311963838      0.245187163526      
8100000000.0        0.141078942484      0.24715817782       0.841087672494      -0.433804709462     0.841087672494      -0.433804709462     0.141078942484      0.24715817782       
8200000000.0        0.14386291967       0.249094733855      0.837853760102      -0.438070586947     0.837853760102      -0.438070586947     0.14386291967       0.249094733855      
8300000000.0        0.146663405215      0.250996736436      0.834597411072      -0.44230272338      0.834597411072      -0.44230272338      0.146663405215      0.250996736436      
8400000000.0        0.149479910194      0.252864098421      0.831319098923      -0.446501037429     0.831319098923      -0.446501037429     0.149479910194      0.252864098421      
8500000000.0        0.152311947085      0.254696740634      0.828019295591      -0.45066545566      0.828019295591      -0.45066545566      0.152311947085      0.254696740634      
8600000000.0        0.155159029907      0.256494591773      0.824698471283      -0.45479591245      0.824698471283      -0.45479591245      0.155159029907      0.256494591773      
8700000000.0        0.158020674366      0.258257588326      0.82135709434       -0.458892349899     0.82135709434       -0.458892349899     0.158020674366      0.258257588326      
8800000000.0        0.160896397985      0.259985674475      0.817995631097      -0.462954717735     0.817995631097      -0.462954717735     0.160896397985      0.259985674475      
8900000000.0        0.163785720241      0.261678802001      0.814614545752      -0.46698297322      0.814614545752      -0.46698297322      0.163785720241      0.261678802001      
9000000000.0        0.166688162689      0.26333693019       0.811214300237      -0.47097708105      0.811214300237      -0.47097708105      0.166688162689      0.26333693019       
9100000000.0        0.169603249092      0.264960025728      0.80779535409       -0.474937013262     0.80779535409       -0.474937013262     0.169603249092      0.264960025728      
9200000000.0        0.172530505542      0.266548062608      0.804358164333      -0.478862749124     0.804358164333      -0.478862749124     0.172530505542      0.266548062608      
9300000000.0        0.175469460578      0.268101022019      0.800903185353      -0.482754275041     0.800903185353      -0.482754275041     0.175469460578      0.268101022019      
9400000000.0        0.178419645299      0.269618892249      0.797430868785      -0.486611584443     0.797430868785      -0.486611584443     0.178419645299      0.269618892249      
9500000000.0        0.181380593479      0.271101668574      0.793941663401      -0.490434677681     0.793941663401      -0.490434677681     0.181380593479      0.271101668574      
9600000000.0        0.184351841675      0.272549353152      0.790436015001      -0.494223561923     0.790436015001      -0.494223561923     0.184351841675      0.272549353152      
9700000000.0        0.187332929328      0.273961954915      0.786914366309      -0.497978251039     0.786914366309      -0.497978251039     0.187332929328      0.273961954915      
9800000000.0        0.190323398867      0.275339489457      0.783377156867      -0.501698765493     0.783377156867      -0.501698765493     0.190323398867      0.275339489457      
9900000000.0        0.193322795807      0.276681978925      0.77982482294       -0.505385132232     0.77982482294       -0.505385132232     0.193322795807      0.276681978925      
10000000000.0       0.19633066884       0.277989451906      0.77625779742       -0.509037384571     0.77625779742       -0.509037384571     0.19633066884       0.277989451906      
