# Hz S RI R 50.00 
100000000.0         -0.000462352425534  -0.0215912344921    0.99947117637       -0.0219194688387    0.99947117637       -0.0219194688387    -0.000462352425534  -0.0215912344921    
200000000.0         -0.00190133895082   -0.0431182080335    0.998031575131      -0.0437747549416    0.998031575131      -0.0437747549416    -0.00190133895082   -0.0431182080335    
300000000.0         -0.00427621815886   -0.064519556051     0.995656087581      -0.065504534568     0.995656087581      -0.065504534568     -0.00427621815886   -0.064519556051     
400000000.0         -0.0075734053603    -0.0857352061289    0.992358241103      -0.0870487665709    0.992358241103      -0.0870487665709    -0.0075734053603    -0.0857352061289    
500000000.0         -0.0117742953367    -0.106706878538     0.98815661882       -0.108349197487     0.98815661882       -0.108349197487     -0.0117742953367    -0.106706878538     
600000000.0         -0.0168555144914    -0.127378582911     0.983074582991      -0.129349859814     0.983074582991      -0.129349859814     -0.0168555144914    -0.127378582911     
700000000.0         -0.0227892406129    -0.14769707931      0.977139949045      -0.149997533906     0.977139949045      -0.149997533906     -0.0227892406129    -0.14769707931      
800000000.0         -0.0295435758411    -0.16761229129      0.970384610362      -0.170242161535     0.970384610362      -0.170242161535     -0.0295435758411    -0.16761229129      
900000000.0         -0.0370829627985    -0.187077663231     0.962844121136      -0.19003720356      0.962844121136      -0.19003720356      -0.0370829627985    -0.187077663231     
1000000000.0        -0.0453686339714    -0.206050456855     0.954557246492      -0.209339936692     0.954557246492      -0.209339936692     -0.0453686339714    -0.206050456855     
1100000000.0        -0.0543590842643    -0.224491983958     0.945565489651      -0.2281116864       0.945565489651      -0.2281116864       -0.0543590842643    -0.224491983958     
1200000000.0        -0.0640105566991    -0.242367774275     0.93591260606       -0.246317994932     0.93591260606       -0.246317994932     -0.0640105566991    -0.242367774275     
1300000000.0        -0.0742775315634    -0.259647679175     0.925644114147      -0.263928725119     0.925644114147      -0.263928725119     -0.0742775315634    -0.259647679175     
1400000000.0        -0.0851132099105    -0.276305913375     0.914806811749      -0.280918102192     0.914806811749      -0.280918102192     -0.0851132099105    -0.276305913375     
1500000000.0        -0.0964699831467    -0.29232103823      0.903448306479      -0.297264697156     0.903448306479      -0.297264697156     -0.0964699831467    -0.29232103823      
1600000000.0        -0.108299881445     -0.307675891258     0.891616567283      -0.312951356385     0.891616567283      -0.312951356385     -0.108299881445     -0.307675891258     
1700000000.0        -0.120554994854     -0.322357467382     0.879359503305      -0.327965082931     0.879359503305      -0.327965082931     -0.120554994854     -0.322357467382     
1800000000.0        -0.133187862169     -0.336356758008     0.866724575001      -0.342296875659     0.866724575001      -0.342296875659     -0.133187862169     -0.336356758008     
1900000000.0        -0.146151823838     -0.349668554389     0.853758441223      -0.355941532657     0.853758441223      -0.355941532657     -0.146151823838     -0.349668554389     
2000000000.0        -0.159401336359     -0.362291221861     0.840506644807      -0.368897425523     0.840506644807      -0.368897425523     -0.159401336359     -0.362291221861     
2100000000.0        -0.172892246756     -0.374226451479     0.827013338095      -0.381166251044     0.827013338095      -0.381166251044     -0.172892246756     -0.374226451479     
2200000000.0        -0.186582026702     -0.385478995331     0.813321048805      -0.392752766543     0.813321048805      -0.392752766543     -0.186582026702     -0.385478995331     
2300000000.0        -0.200429966801     -0.396056391413     0.799470485744      -0.403664514796     0.799470485744      -0.403664514796     -0.200429966801     -0.396056391413     
2400000000.0        -0.21439733228      -0.405968683487     0.785500383113      -0.413911543916     0.785500383113      -0.413911543916     -0.21439733228      -0.405968683487     
2500000000.0        -0.228447481981     -0.415228140744     0.771447381512      -0.423506127056     0.771447381512      -0.423506127056     -0.228447481981     -0.415228140744     
2600000000.0        -0.242545953046     -0.423848981528     0.757345943255      -0.432462486148     0.757345943255      -0.432462486148     -0.242545953046     -0.423848981528     
2700000000.0        -0.256660514027     -0.431847104684     0.743228299255      -0.440796523291     0.743228299255      -0.440796523291     -0.256660514027     -0.431847104684     
2800000000.0        -0.270761189439     -0.439239831535     0.729124424472      -0.448525562745     0.729124424472      -0.448525562745     -0.270761189439     -0.439239831535     
2900000000.0        -0.284820258847     -0.446045660843     0.715062038823      -0.455668105913     0.715062038823      -0.455668105913     -0.284820258847     -0.446045660843     
3000000000.0        -0.298812233674     -0.452284038538     0.701066630376      -0.462243601102     0.701066630376      -0.462243601102     -0.298812233674     -0.452284038538     
3100000000.0        -0.312713814837     -0.457975143523     0.687161497708      -0.468272229335     0.687161497708      -0.468272229335     -0.312713814837     -0.457975143523     
3200000000.0        -0.326503834229     -0.463139690332     0.673367808431      -0.473774707038     0.673367808431      -0.473774707038     -0.326503834229     -0.463139690332     
3300000000.0        -0.340163182896     -0.467798749052     0.659704671001      -0.478772105976     0.659704671001      -0.478772105976     -0.340163182896     -0.467798749052     
3400000000.0        -0.35367472859      -0.471973582553     0.646189217181      -0.483285690499     0.646189217181      -0.483285690499     -0.35367472859      -0.471973582553     
3500000000.0        -0.367023225115     -0.475685500768     0.632836692679      -0.487336771838     0.632836692679      -0.487336771838     -0.367023225115     -0.475685500768     
3600000000.0        -0.380195215705     -0.47895573153      0.619660553783      -0.490946578962     0.619660553783      -0.490946578962     -0.380195215705     -0.47895573153      
3700000000.0        -0.393178932372     -0.48180530729      0.606672568002      -0.494136145299     0.606672568002      -0.494136145299     -0.393178932372     -0.48180530729      
3800000000.0        -0.405964192987     -0.484254966873     0.59388291699       -0.496926210517     0.59388291699       -0.496926210517     -0.405964192987     -0.484254966873     
3900000000.0        -0.418542297564     -0.486325071358     0.581300300261      -0.499337136409     0.581300300261      -0.499337136409     -0.418542297564     -0.486325071358     
4000000000.0        -0.430905925046     -0.488035533069     0.568932038404      -0.501388835896     0.568932038404      -0.501388835896     -0.430905925046     -0.488035533069     
4100000000.0        -0.443049031644     -0.489405756652     0.55678417474       -0.503100714119     0.55678417474       -0.503100714119     -0.443049031644     -0.489405756652     
4200000000.0        -0.454966751627     -0.490454591188     0.544861574537      -0.504491620557     0.544861574537      -0.504491620557     -0.454966751627     -0.490454591188     
4300000000.0        -0.466655301254     -0.491200292298     0.533168021074      -0.505579811146     0.533168021074      -0.505579811146     -0.466655301254     -0.491200292298     
4400000000.0        -0.478111886408     -0.491660493244     0.521706308005      -0.506382919386     0.521706308005      -0.506382919386     -0.478111886408     -0.491660493244     
4500000000.0        -0.489334614347     -0.491852184047     0.510478327617      -0.506917935468     0.510478327617      -0.506917935468     -0.489334614347     -0.491852184047     
4600000000.0        -0.500322409857     -0.491791697689     0.499485154664      -0.507201192487     0.499485154664      -0.507201192487     -0.500322409857     -0.491791697689     
4700000000.0        -0.511074936005     -0.491494702559     0.488727125625      -0.507248358888     0.488727125625      -0.507248358888     -0.511074936005     -0.491494702559     
4800000000.0        -0.521592519592     -0.490976200301     0.478203913242      -0.507074436333     0.478203913242      -0.507074436333     -0.521592519592     -0.490976200301     
4900000000.0        -0.531876081334     -0.490250528356     0.467914596349      -0.506693762235     0.467914596349      -0.506693762235     -0.531876081334     -0.490250528356     
5000000000.0        -0.541927070729     -0.489331366476     0.457857724993      -0.506120016291     0.457857724993      -0.506120016291     -0.541927070729     -0.489331366476     
5100000000.0        -0.551747405541     -0.488231746625     0.448031380962      -0.50536623038      0.448031380962      -0.50536623038      -0.551747405541     -0.488231746625     
5200000000.0        -0.561339415758     -0.486964065678     0.438433233813      -0.504444801273     0.438433233813      -0.504444801273     -0.561339415758     -0.486964065678     
5300000000.0        -0.570705791892     -0.485540100434     0.429060592589      -0.503367505645     0.429060592589      -0.503367505645     -0.570705791892     -0.485540100434     
5400000000.0        -0.579849537415     -0.483971024476     0.419910453366      -0.502145516948     0.419910453366      -0.502145516948     -0.579849537415     -0.483971024476     
5500000000.0        -0.588773925159     -0.482267426499     0.410979542862      -0.500789423735     0.410979542862      -0.500789423735     -0.588773925159     -0.482267426499     
5600000000.0        -0.597482457465     -0.480439329745     0.402264358289      -0.499309249103     0.402264358289      -0.499309249103     -0.597482457465     -0.480439329745     
5700000000.0        -0.605978829864     -0.478496212232     0.393761203669      -0.497714470928     0.393761203669      -0.497714470928     -0.605978829864     -0.478496212232     
5800000000.0        -0.61426689808      -0.47644702753      0.385466222827      -0.496014042639     0.385466222827      -0.496014042639     -0.61426689808      -0.47644702753      
5900000000.0        -0.622350648141     -0.474300225835     0.377375429288      -0.494216414301     0.377375429288      -0.494216414301     -0.622350648141     -0.474300225835     
6000000000.0        -0.630234169386     -0.472063775157     0.369484733264      -0.492329553801     0.369484733264      -0.492329553801     -0.630234169386     -0.472063775157     
6100000000.0        -0.63792163016      -0.469745182447     0.361789965962      -0.490360967981     0.361789965962      -0.490360967981     -0.63792163016      -0.469745182447     
6200000000.0        -0.645417255998     -0.46735151453      0.354286901397      -0.488317723574     0.354286901397      -0.488317723574     -0.645417255998     -0.46735151453      
6300000000.0        -0.652725310114     -0.464889418719     0.346971275905      -0.486206467816     0.346971275905      -0.486206467816     -0.652725310114     -0.464889418719     
6400000000.0        -0.659850076003     -0.462365143019     0.339838805541      -0.48403344866      0.339838805541      -0.48403344866      -0.659850076003     -0.462365143019     
6500000000.0        -0.66679584199      -0.459784555847     0.332885201531      -0.481804534491     0.332885201531      -0.481804534491     -0.66679584199      -0.459784555847     
6600000000.0        -0.673566887559     -0.457153165196     0.326106183936      -0.479525233293     0.326106183936      -0.479525233293     -0.673566887559     -0.457153165196     
6700000000.0        -0.680167471313     -0.454476137207     0.319497493702      -0.477200711226     0.319497493702      -0.477200711226     -0.680167471313     -0.454476137207     
6800000000.0        -0.686601820422     -0.451758314101     0.313054903207      -0.474835810558     0.313054903207      -0.474835810558     -0.686601820422     -0.451758314101     
6900000000.0        -0.692874121411     -0.449004231465     0.306774225467      -0.472435066951     0.306774225467      -0.472435066951     -0.692874121411     -0.449004231465     
7000000000.0        -0.698988512195     -0.446218134852     0.300651322115      -0.470002726065     0.300651322115      -0.470002726065     -0.698988512195     -0.446218134852     
7100000000.0        -0.704949075203     -0.443403995711     0.294682110263      -0.467542759487     0.294682110263      -0.467542759487     -0.704949075203     -0.443403995711     
7200000000.0        -0.710759831527     -0.440565526625     0.28886256836       -0.46505887997      0.28886256836       -0.46505887997      -0.710759831527     -0.440565526625     
7300000000.0        -0.716424735965     -0.437706195872     0.283188741148      -0.462554556        0.283188741148      -0.462554556        -0.716424735965     -0.437706195872     
7400000000.0        -0.721947672887     -0.43482924132      0.277656743797      -0.460033025681     0.277656743797      -0.460033025681     -0.721947672887     -0.43482924132      
7500000000.0        -0.727332452829     -0.431937683652     0.272262765304      -0.457497309975     0.272262765304      -0.457497309975     -0.727332452829     -0.431937683652     
7600000000.0        -0.732582809752     -0.429034338952     0.267003071245      -0.454950225276     0.267003071245      -0.454950225276     -0.732582809752     -0.429034338952     
7700000000.0        -0.737702398879     -0.426121830663     0.261874005928      -0.452394395377     0.261874005928      -0.452394395377     -0.737702398879     -0.426121830663     
7800000000.0        -0.742694795063     -0.423202600935     0.256871994033      -0.449832262815     0.256871994033      -0.449832262815     -0.742694795063     -0.423202600935     
7900000000.0        -0.747563491613     -0.420278921379     0.251993541777      -0.447266099626     0.251993541777      -0.447266099626     -0.747563491613     -0.420278921379     
8000000000.0        -0.752311899545     -0.417352903263     0.247235237672      -0.444698017541     0.247235237672      -0.444698017541     -0.752311899545     -0.417352903263     
8100000000.0        -0.756943347183     -0.41442650715      0.242593752919      -0.442129977626     0.242593752919      -0.442129977626     -0.756943347183     -0.41442650715      
8200000000.0        -0.761461080092     -0.411501552022     0.238065841473      -0.439563799405     0.238065841473      -0.439563799405     -0.761461080092     -0.411501552022     
8300000000.0        -0.765868261293     -0.408579723896     0.233648339833      -0.437001169477     0.233648339833      -0.437001169477     -0.765868261293     -0.408579723896     
8400000000.0        -0.770167971715     -0.405662583965     0.229338166588      -0.434443649656     0.229338166588      -0.434443649656     -0.770167971715     -0.405662583965     
8500000000.0        -0.774363210873     -0.402751576277     0.225132321735      -0.431892684653     0.225132321735      -0.431892684653     -0.774363210873     -0.402751576277     
8600000000.0        -0.778456897726     -0.399848034985     0.221027885828      -0.42934960932      0.221027885828      -0.42934960932      -0.778456897726     -0.399848034985     
8700000000.0        -0.78245187169      -0.396953191174     0.217022018959      -0.426815655486     0.217022018959      -0.426815655486     -0.78245187169      -0.396953191174     
8800000000.0        -0.786350893797     -0.394068179301     0.213111959602      -0.424291958391     0.213111959602      -0.424291958391     -0.786350893797     -0.394068179301     
8900000000.0        -0.790156647961     -0.391194043261     0.209295023347      -0.42177956275      0.209295023347      -0.42177956275      -0.790156647961     -0.391194043261     
9000000000.0        -0.79387174234      -0.388331742093     0.205568601534      -0.419279428467     0.205568601534      -0.419279428467     -0.79387174234      -0.388331742093     
9100000000.0        -0.797498710786     -0.385482155357     0.201930159809      -0.416792436006     0.201930159809      -0.416792436006     -0.797498710786     -0.385482155357     
9200000000.0        -0.801040014345     -0.382646088194     0.198377236619      -0.414319391449     0.198377236619      -0.414319391449     -0.801040014345     -0.382646088194     
9300000000.0        -0.804498042822     -0.379824276074     0.194907441648      -0.411861031253     0.194907441648      -0.411861031253     -0.804498042822     -0.379824276074     
9400000000.0        -0.807875116379     -0.377017389279     0.191518454224      -0.409418026723     0.191518454224      -0.409418026723     -0.807875116379     -0.377017389279     
9500000000.0        -0.811173487156     -0.374226037102     0.188208021687      -0.406990988214     0.188208021687      -0.406990988214     -0.811173487156     -0.374226037102     
9600000000.0        -0.814395340924     -0.371450771798     0.184973957747      -0.404580469089     0.184973957747      -0.404580469089     -0.814395340924     -0.371450771798     
9700000000.0        -0.817542798739     -0.368692092305     0.181814140825      -0.402186969426     0.181814140825      -0.402186969426     -0.817542798739     -0.368692092305     
9800000000.0        -0.820617918602     -0.365950447724     0.178726512392      -0.399810939511     0.178726512392      -0.399810939511     -0.820617918602     -0.365950447724     
9900000000.0        -0.823622697121     -0.363226240601     0.175709075309      -0.397452783113     0.175709075309      -0.397452783113     -0.823622697121     -0.363226240601     
10000000000.0       -0.82655907116      -0.360519830005     0.172759892177      -0.39511286056      0.172759892177      -0.39511286056      -0.82655907116      -0.360519830005     
