# Hz S RI R 50.00 
100000000.0         0.00010371314677    -0.001856972259     0.999882367903      -0.00234571473803   0.999882367903      -0.00234571473803   0.00010371314677    -0.001856972259     
200000000.0         8.93492040226e-05   -0.00371393601332   0.999866148894      -0.00469143154698   0.999866148894      -0.00469143154698   8.93492040226e-05   -0.00371393601332   
300000000.0         6.6079824377e-05    -0.00557086869826   0.999841170272      -0.00703713479335   0.999841170272      -0.00703713479335   6.6079824377e-05    -0.00557086869826   
400000000.0         3.39999773098e-05   -0.00742774053308   0.999807336016      -0.00938279989679   0.999807336016      -0.00938279989679   3.39999773098e-05   -0.00742774053308   
500000000.0         -6.85410617729e-06  -0.00928451799934   0.999764609007      -0.0117283977765    0.999764609007      -0.0117283977765    -6.85410617707e-06  -0.00928451799934   
600000000.0         -5.64640804458e-05  -0.0111411650941    0.999712970271      -0.0140738963911    0.999712970271      -0.0140738963911    -5.64640804456e-05  -0.0111411650941    
700000000.0         -0.000114819092891  -0.0129976439737    0.999652408656      -0.0164192615206    0.999652408656      -0.0164192615206    -0.000114819092891  -0.0129976439737    
800000000.0         -0.000181911982162  -0.0148539153454    0.999582917089      -0.0187644572386    0.999582917089      -0.0187644572386    -0.000181911982162  -0.0148539153454    
900000000.0         -0.000257737577963  -0.0167099387255    0.999504490914      -0.0211094462217    0.999504490914      -0.0211094462217    -0.000257737577963  -0.0167099387255    
1000000000.0        -0.000342291833158  -0.0185656726236    0.999417127065      -0.0234541899703    0.999417127065      -0.0234541899703    -0.000342291833158  -0.0185656726236    
1100000000.0        -0.000435571336409  -0.0204210746795    0.99932082361       -0.0257986489713    0.99932082361       -0.0257986489713    -0.000435571336409  -0.0204210746795    
1200000000.0        -0.000537573017769  -0.0222761017701    0.999215579483      -0.0281427828241    0.999215579483      -0.0281427828241    -0.000537573017769  -0.0222761017701    
1300000000.0        -0.00064829396012   -0.0241307100931    0.999101394321      -0.0304865503408    0.999101394321      -0.0304865503408    -0.00064829396012   -0.0241307100931    
1400000000.0        -0.000767731272459  -0.025984855237     0.998978268358      -0.0328299096276    0.998978268358      -0.0328299096276    -0.000767731272459  -0.025984855237     
1500000000.0        -0.000895882001192  -0.0278384922381    0.99884620236       -0.0351728181524    0.99884620236       -0.0351728181524    -0.000895882001192  -0.0278384922381    
1600000000.0        -0.00103274306583   -0.0296915756304    0.998705197575      -0.0375152328023    0.998705197575      -0.0375152328023    -0.00103274306583   -0.0296915756304    
1700000000.0        -0.00117831121089   -0.0315440594869    0.998555255703      -0.0398571099329    0.998555255703      -0.0398571099329    -0.00117831121089   -0.0315440594869    
1800000000.0        -0.00133258296899   -0.0333958974573    0.998396378876      -0.0421984054107    0.998396378876      -0.0421984054107    -0.00133258296899   -0.0333958974573    
1900000000.0        -0.00149555463183   -0.0352470428003    0.998228569642      -0.0445390746515    0.998228569642      -0.0445390746515    -0.00149555463183   -0.0352470428003    
2000000000.0        -0.00166722222677   -0.0370974484129    0.998051830956      -0.0468790726537    0.998051830956      -0.0468790726537    -0.00166722222677   -0.0370974484129    
2100000000.0        -0.00184758149783   -0.038947066857     0.99786616617       -0.0492183540286    0.99786616617       -0.0492183540286    -0.00184758149783   -0.038947066857     
2200000000.0        -0.00203662788968   -0.0407958503828    0.997671579033      -0.0515568730277    0.997671579033      -0.0515568730277    -0.00203662788968   -0.0407958503828    
2300000000.0        -0.00223435653428   -0.0426437509512    0.997468073686      -0.0538945835678    0.997468073686      -0.0538945835678    -0.00223435653428   -0.0426437509512    
2400000000.0        -0.00244076223936   -0.0444907202541    0.997255654662      -0.0562314392541    0.997255654662      -0.0562314392541    -0.00244076223936   -0.0444907202541    
2500000000.0        -0.00265583947841   -0.0463367097329    0.997034326883      -0.0585673934011    0.997034326883      -0.0585673934011    -0.00265583947841   -0.0463367097329    
2600000000.0        -0.00287958238208   -0.0481816705964    0.996804095662      -0.0609023990529    0.996804095662      -0.0609023990529    -0.00287958238208   -0.0481816705964    
2700000000.0        -0.00311198473041   -0.0500255538372    0.996564966705      -0.0632364090011    0.996564966705      -0.0632364090011    -0.00311198473041   -0.0500255538372    
2800000000.0        -0.00335303994609   -0.051868310247     0.99631694611       -0.0655693758029    0.99631694611       -0.0655693758029    -0.00335303994609   -0.051868310247     
2900000000.0        -0.00360274108835   -0.0537098904319    0.996060040365      -0.0679012517966    0.996060040365      -0.0679012517966    -0.00360274108835   -0.0537098904319    
3000000000.0        -0.00386108084751   -0.0555502448259    0.995794256358      -0.0702319891181    0.995794256358      -0.0702319891181    -0.00386108084751   -0.0555502448259    
3100000000.0        -0.00412805154006   -0.0573893237043    0.99551960137       -0.072561539715     0.99551960137       -0.072561539715     -0.00412805154006   -0.0573893237043    
3200000000.0        -0.00440364510421   -0.059227077197     0.99523608308       -0.074889855361     0.99523608308       -0.074889855361     -0.00440364510421   -0.059227077197     
3300000000.0        -0.00468785309589   -0.0610634552999    0.994943709568      -0.0772168876691    0.994943709568      -0.0772168876691    -0.00468785309589   -0.0610634552999    
3400000000.0        -0.00498066668504   -0.0628984078875    0.994642489314      -0.0795425881049    0.994642489314      -0.0795425881049    -0.00498066668504   -0.0628984078875    
3500000000.0        -0.00528207665233   -0.064731884724     0.994332431199      -0.0818669079986    0.994332431199      -0.0818669079986    -0.00528207665233   -0.064731884724     
3600000000.0        -0.00559207338615   -0.0665638354741    0.994013544508      -0.0841897985575    0.994013544508      -0.0841897985575    -0.00559207338616   -0.0665638354741    
3700000000.0        -0.00591064687987   -0.0683942097138    0.993685838933      -0.0865112108771    0.993685838933      -0.0865112108771    -0.00591064687987   -0.0683942097138    
3800000000.0        -0.00623778672932   -0.0702229569411    0.993349324569      -0.0888310959526    0.993349324569      -0.0888310959526    -0.00623778672932   -0.0702229569411    
3900000000.0        -0.00657348213062   -0.0720500265854    0.993004011921      -0.0911494046895    0.993004011921      -0.0911494046895    -0.00657348213062   -0.0720500265854    
4000000000.0        -0.00691772187813   -0.0738753680177    0.9926499119        -0.0934660879145    0.9926499119        -0.0934660879145    -0.00691772187813   -0.0738753680177    
4100000000.0        -0.00727049436264   -0.0756989305602    0.992287035828      -0.0957810963854    0.992287035828      -0.0957810963854    -0.00727049436264   -0.0756989305602    
4200000000.0        -0.00763178756978   -0.0775206634953    0.991915395437      -0.0980943808013    0.991915395437      -0.0980943808013    -0.00763178756978   -0.0775206634953    
4300000000.0        -0.00800158907858   -0.079340516075     0.99153500287       -0.100405891812     0.99153500287       -0.100405891812     -0.00800158907858   -0.079340516075     
4400000000.0        -0.00837988606022   -0.0811584375294    0.99114587068       -0.102715580029     0.99114587068       -0.102715580029     -0.00837988606022   -0.0811584375294    
4500000000.0        -0.00876666527699   -0.082974377076     0.990748011833      -0.105023396032     0.990748011833      -0.105023396032     -0.00876666527699   -0.082974377076     
4600000000.0        -0.00916191308132   -0.0847882839277    0.99034143971       -0.10732929038      0.99034143971       -0.10732929038      -0.00916191308132   -0.0847882839277    
4700000000.0        -0.00956561541509   -0.0866001073014    0.989926168102      -0.10963321362      0.989926168102      -0.10963321362      -0.00956561541509   -0.0866001073014    
4800000000.0        -0.00997775780894   -0.0884097964263    0.989502211214      -0.111935116295     0.989502211214      -0.111935116295     -0.00997775780894   -0.0884097964263    
4900000000.0        -0.0103983253819    -0.0902173005517    0.989069583665      -0.114234948955     0.989069583665      -0.114234948955     -0.0103983253819    -0.0902173005517    
5000000000.0        -0.0108273028409    -0.0920225689551    0.988628300486      -0.11653266216      0.988628300486      -0.11653266216      -0.0108273028409    -0.0920225689551    
5100000000.0        -0.0112646744808    -0.09382555095      0.988178377124      -0.118828206494     0.988178377124      -0.118828206494     -0.0112646744808    -0.09382555095      
5200000000.0        -0.0117104241841    -0.0956261958936    0.987719829435      -0.121121532571     0.987719829435      -0.121121532571     -0.0117104241841    -0.0956261958936    
5300000000.0        -0.0121645354212    -0.0974244531941    0.987252673692      -0.12341259104      0.987252673692      -0.12341259104      -0.0121645354212    -0.0974244531941    
5400000000.0        -0.0126269912505    -0.0992202723183    0.986776926577      -0.125701332599     0.986776926577      -0.125701332599     -0.0126269912505    -0.0992202723183    
5500000000.0        -0.0130977743187    -0.101013602799     0.986292605186      -0.127987707995     0.986292605186      -0.127987707995     -0.0130977743187    -0.101013602799     
5600000000.0        -0.013576866861     -0.102804394242     0.985799727027      -0.130271668039     0.985799727027      -0.130271668039     -0.013576866861     -0.102804394242     
5700000000.0        -0.0140642507022    -0.104592596334     0.985298310016      -0.13255316361      0.985298310016      -0.13255316361      -0.0140642507022    -0.104592596334     
5800000000.0        -0.0145599072568    -0.106378158847     0.984788372482      -0.134832145659     0.984788372482      -0.134832145659     -0.0145599072568    -0.106378158847     
5900000000.0        -0.0150638175301    -0.108161031649     0.98426993316       -0.137108565223     0.98426993316       -0.137108565223     -0.0150638175301    -0.108161031649     
6000000000.0        -0.0155759621186    -0.109941164707     0.983743011194      -0.139382373427     0.983743011194      -0.139382373427     -0.0155759621186    -0.109941164707     
6100000000.0        -0.0160963212117    -0.111718508098     0.983207626138      -0.141653521493     0.983207626138      -0.141653521493     -0.0160963212117    -0.111718508098     
6200000000.0        -0.016624874592     -0.11349301201      0.982663797947      -0.143921960748     0.982663797947      -0.143921960748     -0.016624874592     -0.11349301201      
6300000000.0        -0.0171616016369    -0.115264626755     0.982111546984      -0.146187642626     0.982111546984      -0.146187642626     -0.0171616016369    -0.115264626755     
6400000000.0        -0.01770648132      -0.117033302768     0.981550894013      -0.14845051868      0.981550894013      -0.14845051868      -0.01770648132      -0.117033302768     
6500000000.0        -0.0182594922118    -0.118798990622     0.980981860202      -0.150710540587     0.980981860202      -0.150710540587     -0.0182594922118    -0.118798990622     
6600000000.0        -0.0188206124818    -0.120561641025     0.980404467118      -0.152967660153     0.980404467118      -0.152967660153     -0.0188206124818    -0.120561641025     
6700000000.0        -0.0193898198998    -0.122321204835     0.979818736726      -0.155221829321     0.979818736726      -0.155221829321     -0.0193898198998    -0.122321204835     
6800000000.0        -0.0199670918375    -0.124077633058     0.979224691391      -0.157473000177     0.979224691391      -0.157473000177     -0.0199670918375    -0.124077633058     
6900000000.0        -0.0205524052702    -0.12583087686      0.978622353869      -0.159721124954     0.978622353869      -0.159721124954     -0.0205524052702    -0.12583087686      
7000000000.0        -0.0211457367785    -0.127580887571     0.978011747312      -0.161966156041     0.978011747312      -0.161966156041     -0.0211457367785    -0.127580887571     
7100000000.0        -0.0217470625505    -0.129327616688     0.977392895264      -0.164208045991     0.977392895264      -0.164208045991     -0.0217470625505    -0.129327616688     
7200000000.0        -0.0223563583836    -0.131071015887     0.976765821657      -0.166446747519     0.976765821657      -0.166446747519     -0.0223563583836    -0.131071015887     
7300000000.0        -0.0229735996864    -0.132811037021     0.976130550811      -0.168682213515     0.976130550811      -0.168682213515     -0.0229735996864    -0.132811037021     
7400000000.0        -0.0235987614808    -0.134547632133     0.975487107432      -0.17091439705      0.975487107432      -0.17091439705      -0.0235987614808    -0.134547632133     
7500000000.0        -0.0242318184047    -0.136280753455     0.974835516606      -0.173143251376     0.974835516606      -0.173143251376     -0.0242318184047    -0.136280753455     
7600000000.0        -0.0248727447136    -0.138010353419     0.974175803804      -0.175368729936     0.974175803804      -0.175368729936     -0.0248727447136    -0.138010353419     
7700000000.0        -0.0255215142833    -0.139736384658     0.973507994873      -0.177590786369     0.973507994873      -0.177590786369     -0.0255215142833    -0.139736384658     
7800000000.0        -0.0261781006125    -0.141458800013     0.972832116035      -0.179809374513     0.972832116035      -0.179809374513     -0.0261781006125    -0.141458800013     
7900000000.0        -0.0268424768247    -0.143177552539     0.972148193887      -0.182024448415     0.972148193887      -0.182024448415     -0.0268424768247    -0.143177552539     
8000000000.0        -0.0275146156714    -0.144892595511     0.971456255397      -0.184235962332     0.971456255397      -0.184235962332     -0.0275146156714    -0.144892595511     
8100000000.0        -0.0281944895343    -0.146603882423     0.970756327901      -0.186443870737     0.970756327901      -0.186443870737     -0.0281944895343    -0.146603882423     
8200000000.0        -0.0288820704284    -0.148311367001     0.970048439098      -0.188648128327     0.970048439098      -0.188648128327     -0.0288820704284    -0.148311367001     
8300000000.0        -0.0295773300042    -0.150015003204     0.969332617052      -0.190848690022     0.969332617052      -0.190848690022     -0.0295773300042    -0.150015003204     
8400000000.0        -0.0302802395509    -0.151714745227     0.968608890188      -0.193045510979     0.968608890188      -0.193045510979     -0.0302802395509    -0.151714745227     
8500000000.0        -0.0309907699994    -0.153410547509     0.967877287285      -0.195238546587     0.967877287285      -0.195238546587     -0.0309907699994    -0.153410547509     
8600000000.0        -0.0317088919248    -0.155102364736     0.967137837477      -0.197427752478     0.967137837477      -0.197427752478     -0.0317088919248    -0.155102364736     
8700000000.0        -0.0324345755499    -0.156790151848     0.96639057025       -0.199613084532     0.96639057025       -0.199613084532     -0.0324345755499    -0.156790151848     
8800000000.0        -0.0331677907478    -0.158473864039     0.965635515436      -0.201794498877     0.965635515436      -0.201794498877     -0.0331677907478    -0.158473864039     
8900000000.0        -0.0339085070455    -0.160153456764     0.964872703215      -0.203971951898     0.964872703215      -0.203971951898     -0.0339085070455    -0.160153456764     
9000000000.0        -0.0346566936267    -0.161828885746     0.964102164104      -0.20614540024      0.964102164104      -0.20614540024      -0.0346566936267    -0.161828885746     
9100000000.0        -0.035412319335     -0.163500106974     0.963323928962      -0.208314800812     0.963323928962      -0.208314800812     -0.035412319335     -0.163500106974     
9200000000.0        -0.0361753526777    -0.165167076714     0.962538028981      -0.21048011079      0.962538028981      -0.21048011079      -0.0361753526777    -0.165167076714     
9300000000.0        -0.0369457618282    -0.166829751508     0.961744495687      -0.212641287625     0.961744495687      -0.212641287625     -0.0369457618282    -0.166829751508     
9400000000.0        -0.0377235146306    -0.168488088181     0.96094336093       -0.214798289044     0.96094336093       -0.214798289044     -0.0377235146306    -0.168488088181     
9500000000.0        -0.038508578602     -0.170142043844     0.96013465689       -0.216951073055     0.96013465689       -0.216951073055     -0.038508578602     -0.170142043844     
9600000000.0        -0.0393009209367    -0.171791575896     0.959318416064      -0.219099597952     0.959318416064      -0.219099597952     -0.0393009209367    -0.171791575896     
9700000000.0        -0.0401005085092    -0.173436642033     0.95849467127       -0.221243822318     0.95849467127       -0.221243822318     -0.0401005085092    -0.173436642033     
9800000000.0        -0.0409073078785    -0.175077200247     0.957663455639      -0.223383705027     0.957663455639      -0.223383705027     -0.0409073078785    -0.175077200247     
9900000000.0        -0.0417212852908    -0.176713208829     0.956824802612      -0.225519205252     0.956824802612      -0.225519205252     -0.0417212852908    -0.176713208829     
10000000000.0       -0.0425424066839    -0.17834462638      0.955978745938      -0.227650282465     0.955978745938      -0.227650282465     -0.0425424066839    -0.17834462638      
