# Hz S RI R 50.00 
100000000.0         0.0425248645758     0.00383393826794    0.957470979147      -0.00556947678406   0.957470979147      -0.00556947678406   0.0425248645758     0.00383393826794    
200000000.0         0.042860017661      0.00766195570721    0.957129612383      -0.0111330536971    0.957129612383      -0.0111330536971    0.042860017661      0.00766195570721    
300000000.0         0.0431670826408     0.011485566494      0.956813275506      -0.0166922622154    0.956813275506      -0.0166922622154    0.0431670826408     0.011485566494      
400000000.0         0.0434815425976     0.0153048834767     0.956486484651      -0.0222472302177    0.956486484651      -0.0222472302177    0.0434815425976     0.0153048834767     
500000000.0         0.0438170452148     0.0191196946518     0.956135591302      -0.0277977595869    0.956135591302      -0.0277977595869    0.0438170452148     0.0191196946518     
600000000.0         0.0441805228253     0.0229296450983     0.955753662227      -0.0333435085399    0.955753662227      -0.0333435085399    0.0441805228253     0.0229296450983     
700000000.0         0.0445760385802     0.0267343024356     0.955336633287      -0.0388840572861    0.955336633287      -0.0388840572861    0.0445760385802     0.0267343024356     
800000000.0         0.0450061909408     0.0305331872887     0.95488190495       -0.0444189386141    0.95488190495       -0.0444189386141    0.0450061909408     0.0305331872887     
900000000.0         0.0454727393389     0.0343257897484     0.95438771662       -0.0499476544309    0.95438771662       -0.0499476544309    0.0454727393389     0.0343257897484     
1000000000.0        0.0459769214632     0.0381115792051     0.95385282935       -0.0554696856522    0.95385282935       -0.0554696856522    0.0459769214632     0.0381115792051     
1100000000.0        0.0465196297251     0.0418900106751     0.953276349379      -0.0609844985688    0.953276349379      -0.0609844985688    0.0465196297251     0.0418900106751     
1200000000.0        0.047101516471      0.0456605291104     0.952657622913      -0.0664915491893    0.952657622913      -0.0664915491893    0.047101516471      0.0456605291104     
1300000000.0        0.0477230602248     0.0494225724765     0.951996169888      -0.0719902863417    0.951996169888      -0.0719902863417    0.0477230602248     0.0494225724765     
1400000000.0        0.0483846092703     0.0531755740366     0.951291640385      -0.0774801539779    0.951291640385      -0.0774801539779    0.0483846092703     0.0531755740366     
1500000000.0        0.0490864113869     0.0569189641053     0.950543784892      -0.0829605929438    0.950543784892      -0.0829605929438    0.0490864113869     0.0569189641053     
1600000000.0        0.0498286347695     0.0606521714339     0.949752433388      -0.0884310423783    0.949752433388      -0.0884310423783    0.0498286347695     0.0606521714339     
1700000000.0        0.0506113831395     0.0643746243339     0.948917480232      -0.0938909408483    0.948917480232      -0.0938909408483    0.0506113831395     0.0643746243339     
1800000000.0        0.0514347069123     0.0680857516079     0.948038872992      -0.0993397272893    0.948038872992      -0.0993397272893    0.0514347069123     0.0680857516079     
1900000000.0        0.0522986116199     0.071784983337      0.947116604027      -0.104776841801     0.947116604027      -0.104776841801     0.0522986116199     0.071784983337      
2000000000.0        0.0532030643791     0.0754717515578     0.946150704014      -0.110201726334     0.946150704014      -0.110201726334     0.0532030643791     0.0754717515578     
2100000000.0        0.0541479989425     0.0791454908545     0.945141236904      -0.115613825285     0.945141236904      -0.115613825285     0.0541479989425     0.0791454908545     
2200000000.0        0.0551333197009     0.082805638883      0.944088295913      -0.121012586029     0.944088295913      -0.121012586029     0.0551333197009     0.082805638883      
2300000000.0        0.0561589049016     0.0864516368402     0.942992000309      -0.126397459393     0.942992000309      -0.126397459393     0.0561589049016     0.0864516368402     
2400000000.0        0.0572246092693     0.0900829298891     0.941852492788      -0.131767900086     0.941852492788      -0.131767900086     0.0572246092693     0.0900829298891     
2500000000.0        0.0583302661671     0.0936989675464     0.940669937315      -0.13712336709      0.940669937315      -0.13712336709      0.0583302661671     0.0936989675464     
2600000000.0        0.0594756894006     0.0972992040397     0.939444517319      -0.142463324024     0.939444517319      -0.142463324024     0.0594756894006     0.0972992040397     
2700000000.0        0.0606606747402     0.100883098637      0.938176434173      -0.147787239472     0.938176434173      -0.147787239472     0.0606606747402     0.100883098637      
2800000000.0        0.0618850012207     0.104450115953      0.936865905891      -0.153094587296     0.936865905891      -0.153094587296     0.0618850012207     0.104450115953      
2900000000.0        0.0631484322621     0.107999726239      0.935513166011      -0.158384846929     0.935513166011      -0.158384846929     0.0631484322621     0.107999726239      
3000000000.0        0.0644507166462     0.111531405648      0.934118462617      -0.16365750364      0.934118462617      -0.16365750364      0.0644507166462     0.111531405648      
3100000000.0        0.0657915893773     0.115044636489      0.932682057478      -0.168912048793     0.932682057478      -0.168912048793     0.0657915893773     0.115044636489      
3200000000.0        0.0671707724456     0.118538907466      0.931204225284      -0.174147980088     0.931204225284      -0.174147980088     0.0671707724456     0.118538907466      
3300000000.0        0.0685879755137     0.122013713903      0.929685252964      -0.179364801787     0.929685252964      -0.179364801787     0.0685879755137     0.122013713903      
3400000000.0        0.0700428965368     0.125468557955      0.928125439059      -0.184562024929     0.928125439059      -0.184562024929     0.0700428965368     0.125468557955      
3500000000.0        0.0715352223296     0.128902948808      0.926525093162      -0.18973916753      0.926525093162      -0.18973916753      0.0715352223296     0.128902948808      
3600000000.0        0.0730646290874     0.132316402875      0.924884535393      -0.194895754779     0.924884535393      -0.194895754779     0.0730646290874     0.132316402875      
3700000000.0        0.0746307828697     0.135708443968      0.923204095916      -0.200031319218     0.923204095916      -0.200031319218     0.0746307828697     0.135708443968      
3800000000.0        0.0762333400516     0.139078603473      0.921484114488      -0.205145400913     0.921484114488      -0.205145400913     0.0762333400516     0.139078603473      
3900000000.0        0.0778719477481     0.14242642051       0.919724940036      -0.210237547613     0.919724940036      -0.210237547613     0.0778719477481     0.14242642051       
4000000000.0        0.0795462442147     0.145751442082      0.917926930256      -0.215307314911     0.917926930256      -0.215307314911     0.0795462442147     0.145751442082      
4100000000.0        0.0812558592293     0.149053223222      0.916090451227      -0.220354266378     0.916090451227      -0.220354266378     0.0812558592293     0.149053223222      
4200000000.0        0.083000414456      0.152331327123      0.914215877055      -0.225377973709     0.914215877055      -0.225377973709     0.083000414456      0.152331327123      
4300000000.0        0.0847795237949     0.155585325267      0.912303589517      -0.23037801684      0.912303589517      -0.23037801684      0.0847795237949     0.155585325267      
4400000000.0        0.0865927937186     0.158814797545      0.910353977725      -0.235353984076     0.910353977725      -0.235353984076     0.0865927937186     0.158814797545      
4500000000.0        0.088439823598      0.16201933236       0.908367437806      -0.240305472197     0.908367437806      -0.240305472197     0.088439823598      0.16201933236       
4600000000.0        0.0903202060181     0.165198526739      0.906344372578      -0.245232086562     0.906344372578      -0.245232086562     0.0903202060181     0.165198526739      
4700000000.0        0.0922335270846     0.168351986419      0.904285191248      -0.250133441208     0.904285191248      -0.250133441208     0.0922335270846     0.168351986419      
4800000000.0        0.0941793667242     0.171479325942      0.902190309113      -0.255009158934     0.902190309113      -0.255009158934     0.0941793667242     0.171479325942      
4900000000.0        0.0961572989759     0.174580168732      0.900060147265      -0.259858871389     0.900060147265      -0.259858871389     0.0961572989759     0.174580168732      
5000000000.0        0.0981668922783     0.177654147167      0.897895132305      -0.264682219137     0.897895132305      -0.264682219137     0.0981668922783     0.177654147167      
5100000000.0        0.100207709749      0.18070090265       0.895695696066      -0.269478851732     0.895695696066      -0.269478851732     0.100207709749      0.18070090265       
5200000000.0        0.102279309461      0.183720085663      0.893462275332      -0.274248427774     0.893462275332      -0.274248427774     0.102279309461      0.183720085663      
5300000000.0        0.104381244711      0.186711355823      0.891195311573      -0.278990614964     0.891195311573      -0.278990614964     0.104381244711      0.186711355823      
5400000000.0        0.106513064288      0.189674381926      0.888895250677      -0.28370509015      0.888895250677      -0.28370509015      0.106513064288      0.189674381926      
5500000000.0        0.108674312732      0.192608841989      0.886562542686      -0.288391539364     0.886562542686      -0.288391539364     0.108674312732      0.192608841989      
5600000000.0        0.110864530594      0.19551442328       0.884197641544      -0.293049657864     0.884197641544      -0.293049657864     0.110864530594      0.19551442328       
5700000000.0        0.113083254688      0.198390822348      0.881801004837      -0.297679150151     0.881801004837      -0.297679150151     0.113083254688      0.198390822348      
5800000000.0        0.11533001834       0.201237745039      0.879373093548      -0.302279729998     0.879373093548      -0.302279729998     0.11533001834       0.201237745039      
5900000000.0        0.117604351637      0.204054906514      0.876914371809      -0.306851120459     0.876914371809      -0.306851120459     0.117604351637      0.204054906514      
6000000000.0        0.119905781665      0.206842031257      0.874425306659      -0.311393053882     0.874425306659      -0.311393053882     0.119905781665      0.206842031257      
6100000000.0        0.122233832752      0.209598853076      0.871906367803      -0.315905271912     0.871906367803      -0.315905271912     0.122233832752      0.209598853076      
6200000000.0        0.124588026702      0.2123251151        0.86935802738       -0.320387525485     0.86935802738       -0.320387525485     0.124588026702      0.2123251151        
6300000000.0        0.126967883027      0.215020569773      0.866780759727      -0.324839574821     0.866780759727      -0.324839574821     0.126967883027      0.215020569773      
6400000000.0        0.129372919175      0.217684978834      0.864175041153      -0.329261189411     0.864175041153      -0.329261189411     0.129372919175      0.217684978834      
6500000000.0        0.131802650756      0.220318113303      0.861541349712      -0.333652147999     0.861541349712      -0.333652147999     0.131802650756      0.220318113303      
6600000000.0        0.134256591761      0.222919753452      0.858880164984      -0.338012238553     0.858880164984      -0.338012238553     0.134256591761      0.222919753452      
6700000000.0        0.136734254784      0.225489688779      0.856191967853      -0.34234125824      0.856191967853      -0.34234125824      0.136734254784      0.225489688779      
6800000000.0        0.139235151235      0.228027717968      0.853477240296      -0.346639013387     0.853477240296      -0.346639013387     0.139235151235      0.228027717968      
6900000000.0        0.141758791548      0.230533648853      0.850736465169      -0.350905319444     0.850736465169      -0.350905319444     0.141758791548      0.230533648853      
7000000000.0        0.144304685395      0.233007298371      0.847970126         -0.355140000942     0.847970126         -0.355140000942     0.144304685395      0.233007298371      
7100000000.0        0.146872341882      0.235448492512      0.845178706787      -0.359342891437     0.845178706787      -0.359342891437     0.146872341882      0.235448492512      
7200000000.0        0.149461269755      0.237857066271      0.842362691795      -0.363513833463     0.842362691795      -0.363513833463     0.149461269755      0.237857066271      
7300000000.0        0.152070977593      0.24023286358       0.839522565359      -0.367652678472     0.839522565359      -0.367652678472     0.152070977593      0.24023286358       
7400000000.0        0.154700974005      0.242575737256      0.836658811696      -0.371759286771     0.836658811696      -0.371759286771     0.154700974005      0.242575737256      
7500000000.0        0.157350767814      0.244885548927      0.833771914708      -0.375833527456     0.833771914708      -0.375833527456     0.157350767814      0.244885548927      
7600000000.0        0.160019868245      0.247162168965      0.830862357803      -0.379875278345     0.830862357803      -0.379875278345     0.160019868245      0.247162168965      
7700000000.0        0.162707785105      0.249405476412      0.82793062371       -0.383884425899     0.82793062371       -0.383884425899     0.162707785105      0.249405476412      
7800000000.0        0.165414028965      0.251615358902      0.824977194303      -0.38786086515      0.824977194303      -0.38786086515      0.165414028965      0.251615358902      
7900000000.0        0.168138111325      0.253791712579      0.822002550424      -0.391804499616     0.822002550424      -0.391804499616     0.168138111325      0.253791712579      
8000000000.0        0.170879544795      0.255934442012      0.819007171718      -0.395715241216     0.819007171718      -0.395715241216     0.170879544795      0.255934442012      
8100000000.0        0.173637843249      0.25804346011       0.815991536461      -0.399593010189     0.815991536461      -0.399593010189     0.173637843249      0.25804346011       
8200000000.0        0.176412521996      0.260118688027      0.812956121403      -0.403437734994     0.812956121403      -0.403437734994     0.176412521996      0.260118688027      
8300000000.0        0.179203097934      0.262160055071      0.809901401607      -0.407249352222     0.809901401607      -0.407249352222     0.179203097934      0.262160055071      
8400000000.0        0.182009089705      0.264167498607      0.806827850295      -0.4110278065       0.806827850295      -0.4110278065       0.182009089705      0.264167498607      
8500000000.0        0.184830017842      0.266140963956      0.803735938699      -0.414773050388     0.803735938699      -0.414773050388     0.184830017842      0.266140963956      
8600000000.0        0.18766540492       0.268080404295      0.800626135914      -0.41848504428      0.800626135914      -0.41848504428      0.18766540492       0.268080404295      
8700000000.0        0.190514775693      0.26998578055       0.797498908755      -0.422163756298     0.797498908755      -0.422163756298     0.190514775693      0.26998578055       
8800000000.0        0.193377657235      0.271857061292      0.794354721621      -0.425809162189     0.794354721621      -0.425809162189     0.193377657235      0.271857061292      
8900000000.0        0.196253579071      0.273694222628      0.791194036359      -0.42942124521      0.791194036359      -0.42942124521      0.196253579071      0.273694222628      
9000000000.0        0.199142073308      0.275497248088      0.788017312136      -0.432999996023     0.788017312136      -0.432999996023     0.199142073308      0.275497248088      
9100000000.0        0.202042674763      0.277266128515      0.784825005312      -0.436545412582     0.784825005312      -0.436545412582     0.202042674763      0.277266128515      
9200000000.0        0.204954921081      0.279000861947      0.781617569316      -0.440057500015     0.781617569316      -0.440057500015     0.204954921081      0.279000861947      
9300000000.0        0.207878352852      0.280701453505      0.778395454532      -0.443536270509     0.778395454532      -0.443536270509     0.207878352852      0.280701453505      
9400000000.0        0.210812513728      0.282367915272      0.775159108183      -0.446981743198     0.775159108183      -0.446981743198     0.210812513728      0.282367915272      
9500000000.0        0.213756950532      0.284000266178      0.771908974219      -0.450393944035     0.771908974219      -0.450393944035     0.213756950532      0.284000266178      
9600000000.0        0.216711213361      0.285598531874      0.768645493216      -0.453772905678     0.768645493216      -0.453772905678     0.216711213361      0.285598531874      
9700000000.0        0.21967485569       0.287162744616      0.76536910227       -0.457118667369     0.76536910227       -0.457118667369     0.21967485569       0.287162744616      
9800000000.0        0.222647434466      0.288692943139      0.762080234901      -0.460431274808     0.762080234901      -0.460431274808     0.222647434466      0.288692943139      
9900000000.0        0.225628510209      0.290189172536      0.758779320956      -0.463710780032     0.758779320956      -0.463710780032     0.225628510209      0.290189172536      
10000000000.0       0.228617647093      0.291651484132      0.755466786522      -0.46695724129      0.755466786522      -0.46695724129      0.228617647093      0.291651484132      
