# Hz S RI R 50.00 
100000000.0         -0.000107456763272  -0.0099004297114    0.999890447616      -0.00991057172851   0.999890447616      -0.00991057172851   -0.000107456763272  -0.0099004297114    
200000000.0         -0.000411524144122  -0.0197931073631    0.99958636575       -0.0198133953281    0.99958636575       -0.0198133953281    -0.000411524144122  -0.0197931073631    
300000000.0         -0.000911163915557  -0.0296714717487    0.99908671499       -0.0297019115264    0.99908671499       -0.0297019115264    -0.000911163915557  -0.0296714717487    
400000000.0         -0.00160560454383   -0.0395292060986    0.998392265072      -0.0395698049514    0.998392265072      -0.0395698049514    -0.00160560454383   -0.0395292060986    
500000000.0         -0.00249381809572   -0.0493601600721    0.997504043238      -0.0494109263579    0.997504043238      -0.0494109263579    -0.00249381809572   -0.0493601600721    
600000000.0         -0.00357453102621   -0.0591583292405    0.996423322684      -0.0592192721958    0.996423322684      -0.0592192721958    -0.00357453102621   -0.0591583292405    
700000000.0         -0.00484623413398   -0.0689178488991    0.995151612405      -0.0689889784666    0.995151612405      -0.0689889784666    -0.00484623413398   -0.0689178488991    
800000000.0         -0.00630719210375   -0.0786329935264    0.993690647584      -0.0787143202131    0.993690647584      -0.0787143202131    -0.00630719210375   -0.0786329935264    
900000000.0         -0.00795545285299   -0.0882981787691    0.992042380213      -0.0883897135254    0.992042380213      -0.0883897135254    -0.00795545285299   -0.0882981787691    
1000000000.0        -0.00978885678986   -0.0979079645855    0.990208969818      -0.0980097187008    0.990208969818      -0.0980097187008    -0.00978885678986   -0.0979079645855    
1100000000.0        -0.0118050460494    -0.107457058979     0.988192774215      -0.107569043991     0.988192774215      -0.107569043991     -0.0118050460494    -0.107457058979     
1200000000.0        -0.014001473725     -0.11694032189      0.985996340272      -0.117062549505     0.985996340272      -0.117062549505     -0.014001473725     -0.11694032189      
1300000000.0        -0.0163754131229    -0.126352769116     0.983622394654      -0.12648525114      0.983622394654      -0.12648525114      -0.0163754131229    -0.126352769116     
1400000000.0        -0.0189239670317    -0.135689576092     0.981073834548      -0.135832324371     0.981073834548      -0.135832324371     -0.0189239670317    -0.135689576092     
1500000000.0        -0.0216440770181    -0.144946081491     0.978353718369      -0.145099107856     0.978353718369      -0.145099107856     -0.0216440770181    -0.144946081491     
1600000000.0        -0.0245325327369    -0.154117790574     0.975465256445      -0.154281106796     0.975465256445      -0.154281106796     -0.0245325327369    -0.154117790574     
1700000000.0        -0.0275859812481    -0.163200378244     0.972411801702      -0.163373995996     0.972411801702      -0.163373995996     -0.0275859812481    -0.163200378244     
1800000000.0        -0.0308009363389    -0.172189691818     0.969196840343      -0.172373622638     0.969196840343      -0.172373622638     -0.0308009363389    -0.172189691818     
1900000000.0        -0.0341737878311    -0.181081753459     0.965823982535      -0.181276008724     0.965823982535      -0.181276008724     -0.0341737878311    -0.181081753459     
2000000000.0        -0.0377008108679    -0.189872762275     0.962296953128      -0.190077353174     0.962296953128      -0.190077353174     -0.0377008108679    -0.189872762275     
2100000000.0        -0.0413781751623    -0.198559096073     0.9586195824        -0.198774033589     0.9586195824        -0.198774033589     -0.0413781751623    -0.198559096073     
2200000000.0        -0.045201954196     -0.207137312758     0.954795796865      -0.207362607647     0.954795796865      -0.207362607647     -0.045201954196     -0.207137312758     
2300000000.0        -0.0491681343481    -0.215604151364     0.950829610137      -0.215839814146     0.950829610137      -0.215839814146     -0.0491681343481    -0.215604151364     
2400000000.0        -0.0532726239426    -0.223956532731     0.946725113887      -0.224202573675     0.946725113887      -0.224202573675     -0.0532726239426    -0.223956532731     
2500000000.0        -0.0575112621954    -0.232191559817     0.942486468895      -0.232447988938     0.942486468895      -0.232447988938     -0.0575112621954    -0.232191559817     
2600000000.0        -0.0618798280409    -0.240306517643     0.938117896223      -0.240573344689     0.938117896223      -0.240573344689     -0.0618798280409    -0.240306517643     
2700000000.0        -0.0663740488242    -0.248298872875     0.933623668523      -0.248576107328     0.933623668523      -0.248576107328     -0.0663740488242    -0.248298872875     
2800000000.0        -0.0709896088418    -0.256166273062     0.929008101494      -0.256453924135     0.929008101494      -0.256453924135     -0.0709896088418    -0.256166273062     
2900000000.0        -0.0757221577075    -0.263906545508     0.924275545521      -0.264204622143     0.924275545521      -0.264204622143     -0.0757221577075    -0.263906545508     
3000000000.0        -0.0805673185381    -0.271517695823     0.919430377484      -0.271826206692     0.919430377484      -0.271826206692     -0.0805673185381    -0.271517695823     
3100000000.0        -0.0855206959272    -0.278997906121     0.914476992786      -0.279316859625     0.914476992786      -0.279316859625     -0.0855206959272    -0.278997906121     
3200000000.0        -0.0905778837093    -0.286345532915     0.909419797593      -0.286674937192     0.909419797593      -0.286674937192     -0.0905778837093    -0.286345532915     
3300000000.0        -0.0957344724821    -0.293559104697     0.904263201303      -0.293898967621     0.904263201303      -0.293898967621     -0.0957344724821    -0.293559104697     
3400000000.0        -0.100986056889     -0.300637319227     0.899011609272      -0.300987648414     0.899011609272      -0.300987648414     -0.100986056889     -0.300637319227     
3500000000.0        -0.106328242636     -0.307579040542     0.893669415793      -0.307939843353     0.893669415793      -0.307939843353     -0.106328242636     -0.307579040542     
3600000000.0        -0.111756653242     -0.314383295703     0.888240997345      -0.314754579251     0.888240997345      -0.314754579251     -0.111756653242     -0.314383295703     
3700000000.0        -0.117266936509     -0.3210492713       0.882730706125      -0.321431042455     0.882730706125      -0.321431042455     -0.117266936509     -0.3210492713       
3800000000.0        -0.122854770699     -0.327576309727     0.87714286387       -0.327968575121     0.87714286387       -0.327968575121     -0.122854770699     -0.327576309727     
3900000000.0        -0.128515870418     -0.333963905246     0.871481755972      -0.33436667128      0.871481755972      -0.33436667128      -0.128515870418     -0.333963905246     
4000000000.0        -0.134245992198     -0.340211699866     0.865751625899      -0.340624972716     0.865751625899      -0.340624972716     -0.134245992198     -0.340211699866     
4100000000.0        -0.140040939767     -0.346319479043     0.859956669922      -0.346743264666     0.859956669922      -0.346743264666     -0.140040939767     -0.346319479043     
4200000000.0        -0.145896569014     -0.352287167233     0.854101032151      -0.352721471373     0.854101032151      -0.352721471373     -0.145896569014     -0.352287167233     
4300000000.0        -0.151808792642     -0.358114823306     0.848188799882      -0.358559651504     0.848188799882      -0.358559651504     -0.151808792642     -0.358114823306     
4400000000.0        -0.157773584506     -0.363802635852     0.84222399926       -0.364257993447     0.84222399926       -0.364257993447     -0.157773584506     -0.363802635852     
4500000000.0        -0.163786983637     -0.369350918381     0.836210591253      -0.36981681052      0.836210591253      -0.36981681052      -0.163786983637     -0.369350918381     
4600000000.0        -0.169845097962     -0.374760104451     0.830152467932      -0.375236536095     0.830152467932      -0.375236536095     -0.169845097962     -0.374760104451     
4700000000.0        -0.175944107715     -0.380030742734     0.824053449065      -0.380517718664     0.824053449065      -0.380517718664     -0.175944107715     -0.380030742734     
4800000000.0        -0.18208026854      -0.385163492039     0.817917279006      -0.385661016861     0.817917279006      -0.385661016861     -0.18208026854      -0.385163492039     
4900000000.0        -0.188249914304     -0.390159116303     0.811747623888      -0.390667194456     0.811747623888      -0.390667194456     -0.188249914304     -0.390159116303     
5000000000.0        -0.194449459613     -0.395018479577     0.805548069104      -0.395537115338     0.805548069104      -0.395537115338     -0.194449459613     -0.395018479577     
5100000000.0        -0.200675402046     -0.399742541016     0.799322117076      -0.400271738507     0.799322117076      -0.400271738507     -0.200675402046     -0.399742541016     
5200000000.0        -0.206924324106     -0.404332349879     0.7930731853        -0.40487211307      0.7930731853        -0.40487211307      -0.206924324106     -0.404332349879     
5300000000.0        -0.213192894911     -0.408789040573     0.786804604656      -0.409339373292     0.786804604656      -0.409339373292     -0.213192894911     -0.408789040573     
5400000000.0        -0.219477871618     -0.413113827733     0.780519617989      -0.413674733666     0.780519617989      -0.413674733666     -0.219477871618     -0.413113827733     
5500000000.0        -0.225776100594     -0.417308001361     0.774221378931      -0.417879484061     0.774221378931      -0.417879484061     -0.225776100594     -0.417308001361     
5600000000.0        -0.232084518353     -0.421372922031     0.767912950967      -0.421954984923     0.767912950967      -0.421954984923     -0.232084518353     -0.421372922031     
5700000000.0        -0.238400152258     -0.425310016179     0.761597306736      -0.425902662563     0.761597306736      -0.425902662563     -0.238400152258     -0.425310016179     
5800000000.0        -0.244720120996     -0.429120771468     0.755277327547      -0.429724004524     0.755277327547      -0.429724004524     -0.244720120996     -0.429120771468     
5900000000.0        -0.25104163486      -0.432806732259     0.748955803111      -0.433420555053     0.748955803111      -0.433420555053     -0.25104163486      -0.432806732259     
6000000000.0        -0.257361995808     -0.436369495175     0.742635431467      -0.436993910665     0.742635431467      -0.436993910665     -0.257361995808     -0.436369495175     
6100000000.0        -0.263678597353     -0.439810704786     0.736318819101      -0.440445715821     0.736318819101      -0.440445715821     -0.263678597353     -0.439810704786     
6200000000.0        -0.269988924268     -0.4431320494       0.730008481243      -0.443777658729     0.730008481243      -0.443777658729     -0.269988924268     -0.4431320494       
6300000000.0        -0.276290552122     -0.446335256977     0.723706842323      -0.44699146725      0.723706842323      -0.44699146725      -0.276290552122     -0.446335256977     
6400000000.0        -0.282581146661     -0.44942209117      0.717416236594      -0.450088904944     0.717416236594      -0.450088904944     -0.282581146661     -0.44942209117      
6500000000.0        -0.288858463046     -0.45239434749      0.711138908895      -0.453071767233     0.711138908895      -0.453071767233     -0.288858463046     -0.45239434749      
6600000000.0        -0.295120344954     -0.455253849612     0.704877015549      -0.455941877702     0.704877015549      -0.455941877702     -0.295120344954     -0.455253849612     
6700000000.0        -0.301364723555     -0.458002445797     0.698632625386      -0.458701084533     0.698632625386      -0.458701084533     -0.301364723555     -0.458002445797     
6800000000.0        -0.307589616373     -0.460642005472     0.692407720882      -0.461351257071     0.692407720882      -0.461351257071     -0.307589616373     -0.460642005472     
6900000000.0        -0.313793126042     -0.463174415927     0.686204199403      -0.463894282528     0.686204199403      -0.463894282528     -0.313793126042     -0.463174415927     
7000000000.0        -0.319973438968     -0.465601579156     0.680023874542      -0.466332062826     0.680023874542      -0.466332062826     -0.319973438968     -0.465601579156     
7100000000.0        -0.326128823904     -0.46792540884      0.673868477547      -0.468666511577     0.673868477547      -0.468666511577     -0.326128823904     -0.46792540884      
7200000000.0        -0.33225763045      -0.47014782746      0.667739658818      -0.47089955119      0.667739658818      -0.47089955119      -0.33225763045      -0.47014782746      
7300000000.0        -0.338358287476     -0.472270763545     0.661638989485      -0.473033110131     0.661638989485      -0.473033110131     -0.338358287476     -0.472270763545     
7400000000.0        -0.344429301495     -0.474296149057     0.655567963034      -0.475069120301     0.655567963034      -0.475069120301     -0.344429301495     -0.474296149057     
7500000000.0        -0.350469254976     -0.476225916913     0.649527996998      -0.477009514554     0.649527996998      -0.477009514554     -0.350469254976     -0.476225916913     
7600000000.0        -0.356476804612     -0.478061998627     0.643520434681      -0.478856224348     0.643520434681      -0.478856224348     -0.356476804612     -0.478061998627     
7700000000.0        -0.362450679556     -0.47980632209      0.637546546932      -0.480611177518     0.637546546932      -0.480611177518     -0.362450679556     -0.47980632209      
7800000000.0        -0.368389679615     -0.481460809469     0.631607533945      -0.482276296178     0.631607533945      -0.482276296178     -0.368389679615     -0.481460809469     
7900000000.0        -0.374292673425     -0.483027375238     0.625704527081      -0.483853494751     0.625704527081      -0.483853494751     -0.374292673425     -0.483027375238     
8000000000.0        -0.380158596611     -0.484507924316     0.619838590718      -0.485344678107     0.619838590718      -0.485344678107     -0.380158596611     -0.484507924316     
8100000000.0        -0.385986449919     -0.485904350338     0.614010724107      -0.486751739834     0.614010724107      -0.486751739834     -0.385986449919     -0.485904350338     
8200000000.0        -0.391775297358     -0.487218534026     0.608221863242      -0.488076560607     0.608221863242      -0.488076560607     -0.391775297358     -0.487218534026     
8300000000.0        -0.397524264319     -0.488452341676     0.602472882729      -0.489321006681     0.602472882729      -0.489321006681     -0.397524264319     -0.488452341676     
8400000000.0        -0.403232535715     -0.489607623755     0.596764597659      -0.490486928481     0.596764597659      -0.490486928481     -0.403232535715     -0.489607623755     
8500000000.0        -0.408899354105     -0.490686213598     0.591097765469      -0.4915761593       0.591097765469      -0.4915761593       -0.408899354105     -0.490686213598     
8600000000.0        -0.414524017849     -0.491689926201     0.585473087801      -0.492590514097     0.585473087801      -0.492590514097     -0.414524017849     -0.491689926201     
8700000000.0        -0.420105879254     -0.492620557119     0.579891212348      -0.49353178839      0.579891212348      -0.49353178839      -0.420105879254     -0.492620557119     
8800000000.0        -0.425644342757     -0.49347988145      0.574352734673      -0.494401757241     0.574352734673      -0.494401757241     -0.425644342757     -0.49347988145      
8900000000.0        -0.431138863107     -0.494269652909     0.568858200025      -0.495202174331     0.568858200025      -0.495202174331     -0.431138863107     -0.494269652909     
9000000000.0        -0.436588943587     -0.494991602988     0.563408105124      -0.495934771118     0.563408105124      -0.495934771118     -0.436588943587     -0.494991602988     
9100000000.0        -0.441994134247     -0.495647440194     0.55800289992       -0.49660125608      0.55800289992       -0.49660125608      -0.441994134247     -0.495647440194     
9200000000.0        -0.447354030166     -0.496238849373     0.552642989332      -0.497203314032     0.552642989332      -0.497203314032     -0.447354030166     -0.496238849373     
9300000000.0        -0.452668269752     -0.4967674911       0.547328734953      -0.497742605519     0.547328734953      -0.497742605519     -0.452668269752     -0.4967674911       
9400000000.0        -0.457936533057     -0.49723500114      0.54206045673       -0.498220766278     0.54206045673       -0.498220766278     -0.457936533057     -0.49723500114      
9500000000.0        -0.463158540138     -0.497642989984     0.536838434608      -0.498639406773     0.536838434608      -0.498639406773     -0.463158540138     -0.497642989984     
9600000000.0        -0.46833404944      -0.497993042439     0.53166291014       -0.499000111786     0.53166291014       -0.499000111786     -0.46833404944      -0.497993042439     
9700000000.0        -0.473462856221     -0.498286717285     0.52653408807       -0.499304440073     0.52653408807       -0.499304440073     -0.473462856221     -0.498286717285     
9800000000.0        -0.478544791008     -0.498525546989     0.521452137871      -0.499553924075     0.521452137871      -0.499553924075     -0.478544791008     -0.498525546989     
9900000000.0        -0.483579718089     -0.498711037468     0.516417195253      -0.499750069687     0.516417195253      -0.499750069687     -0.483579718089     -0.498711037468     
10000000000.0       -0.488567534046     -0.49884466791      0.511429363635      -0.499894356076     0.511429363635      -0.499894356076     -0.488567534046     -0.49884466791      
