# Hz S RI R 50.00 
100000000.0         0.000777736317396   7.82160548424e-05   0.999212910718      -0.0033322762738    0.999212910718      -0.0033322762738    0.000777736317396   7.82160548424e-05   
200000000.0         0.000782233607147   0.000156370800939   0.999189467812      -0.00666457039988   0.999189467812      -0.00666457039988   0.000782233607147   0.000156370800939   
300000000.0         0.000785891804681   0.00023445909396    0.999156269548      -0.00999691044695   0.999156269548      -0.00999691044695   0.000785891804681   0.00023445909396    
400000000.0         0.000789384580602   0.000312470873003   0.999112639929      -0.0133293031879    0.999112639929      -0.0133293031879    0.000789384580602   0.000312470873003   
500000000.0         0.000792970401908   0.000390396278449   0.999058317755      -0.0166617471307    0.999058317755      -0.0166617471307    0.000792970401907   0.000390396278449   
600000000.0         0.000796780377077   0.000468226131703   0.998993168861      -0.0199942358058    0.998993168861      -0.0199942358058    0.000796780377077   0.000468226131703   
700000000.0         0.000800891377422   0.00054595198811    0.998917113046      -0.0233267592676    0.998917113046      -0.0233267592676    0.000800891377422   0.00054595198811    
800000000.0         0.000805352709466   0.000623566104307   0.998830097448      -0.0266593049374    0.998830097448      -0.0266593049374    0.000805352709466   0.000623566104307   
900000000.0         0.000810197986489   0.000701061387714   0.998732084706      -0.0299918581366    0.998732084706      -0.0299918581366    0.000810197986489   0.000701061387714   
1000000000.0        0.000815451145115   0.000778431345862   0.998623046975      -0.0333244024517    0.998623046975      -0.0333244024517    0.000815451145115   0.000778431345861   
1100000000.0        0.000821129790298   0.000855670039824   0.998502962608      -0.0366569199978    0.998502962608      -0.0366569199978    0.000821129790298   0.000855670039824   
1200000000.0        0.00082724718943    0.000932772042864   0.998371814179      -0.0399893916172    0.998371814179      -0.0399893916172    0.00082724718943    0.000932772042864   
1300000000.0        0.000833813528019   0.00100973240381    0.998229587254      -0.0433217970339    0.998229587254      -0.0433217970339    0.000833813528019   0.00100973240381    
1400000000.0        0.000840836736123   0.00108654661456    0.998076269582      -0.046654114977     0.998076269582      -0.046654114977     0.000840836736123   0.00108654661456    
1500000000.0        0.000848323052533   0.00116321058126    0.997911850541      -0.0499863232815    0.997911850541      -0.0499863232815    0.000848323052533   0.00116321058126    
1600000000.0        0.000856277421981   0.00123972059851    0.997736320763      -0.0533183989716    0.997736320763      -0.0533183989716    0.000856277421981   0.00123972059851    
1700000000.0        0.000864703782258   0.00131607332607    0.997549671858      -0.0566503183318    0.997549671858      -0.0566503183318    0.000864703782257   0.00131607332607    
1800000000.0        0.000873605276555   0.00139226576792    0.997351896212      -0.0599820569666    0.997351896212      -0.0599820569666    0.000873605276555   0.00139226576792    
1900000000.0        0.000882984413702   0.00146829525306    0.997142986842      -0.0633135898526    0.997142986842      -0.0633135898526    0.000882984413702   0.00146829525306    
2000000000.0        0.000892843191233   0.00154415941805    0.996922937281      -0.0666448913839    0.996922937281      -0.0666448913839    0.000892843191234   0.00154415941805    
2100000000.0        0.000903183191435   0.0016198561909     0.996691741495      -0.0699759354121    0.996691741495      -0.0699759354121    0.000903183191435   0.0016198561909     
2200000000.0        0.000914005657381   0.00169538377623    0.996449393814      -0.0733066952814    0.996449393814      -0.0733066952814    0.00091400565738    0.00169538377623    
2300000000.0        0.000925311553906   0.00177074064145    0.996195888879      -0.0766371438603    0.996195888879      -0.0766371438603    0.000925311553906   0.00177074064145    
2400000000.0        0.000937101617094   0.00184592550401    0.995931221605      -0.0799672535697    0.995931221605      -0.0799672535697    0.000937101617094   0.00184592550401    
2500000000.0        0.000949376394869   0.00192093731936    0.995655387145      -0.083296996409     0.995655387145      -0.083296996409     0.000949376394869   0.00192093731936    
2600000000.0        0.000962136280619   0.0019957752698     0.995368380863      -0.0866263439785    0.995368380863      -0.0866263439785    0.000962136280619   0.0019957752698     
2700000000.0        0.000975381541321   0.00207043875391    0.995070198316      -0.0899552675013    0.995070198316      -0.0899552675013    0.000975381541321   0.00207043875391    
2800000000.0        0.000989112341251   0.00214492737665    0.994760835235      -0.093283737842     0.994760835235      -0.093283737842     0.00098911234125    0.00214492737665    
2900000000.0        0.00100332876213    0.00221924093996    0.994440287509      -0.0966117255248    0.994440287509      -0.0966117255248    0.00100332876213    0.00221924093996    
3000000000.0        0.0010180308204     0.00229337943397    0.994108551178      -0.09993920075      0.994108551178      -0.09993920075      0.0010180308204     0.00229337943397    
3100000000.0        0.00103321848205    0.00236734302852    0.993765622421      -0.103266133409     0.993765622421      -0.103266133409     0.00103321848205    0.00236734302852    
3200000000.0        0.00104889167557    0.00244113206521    0.993411497548      -0.106592493097     0.993411497548      -0.106592493097     0.00104889167557    0.00244113206521    
3300000000.0        0.00106505030318    0.0025147470498     0.993046172997      -0.109918249129     0.993046172997      -0.109918249129     0.00106505030318    0.0025147470498     
3400000000.0        0.00108169425068    0.00258818864496    0.992669645323      -0.11324337055      0.992669645323      -0.11324337055      0.00108169425068    0.00258818864496    
3500000000.0        0.00109882339622    0.00266145766336    0.992281911201      -0.116567826145     0.992281911201      -0.116567826145     0.00109882339622    0.00266145766336    
3600000000.0        0.00111643761797    0.00273455506103    0.991882967415      -0.119891584452     0.991882967415      -0.119891584452     0.00111643761797    0.00273455506103    
3700000000.0        0.00113453680098    0.00280748193104    0.991472810862      -0.123214613773     0.991472810862      -0.123214613773     0.00113453680098    0.00280748193104    
3800000000.0        0.00115312084336    0.00288023949743    0.991051438547      -0.126536882179     0.991051438547      -0.126536882179     0.00115312084336    0.00288023949743    
3900000000.0        0.00117218966173    0.00295282910937    0.990618847579      -0.129858357521     0.990618847579      -0.129858357521     0.00117218966173    0.00295282910937    
4000000000.0        0.00119174319624    0.00302525223554    0.990175035173      -0.133179007442     0.990175035173      -0.133179007442     0.00119174319624    0.00302525223554    
4100000000.0        0.00121178141498    0.00309751045876    0.989719998648      -0.136498799378     0.989719998648      -0.136498799378     0.00121178141498    0.00309751045876    
4200000000.0        0.00123230431805    0.00316960547079    0.989253735425      -0.13981770057      0.989253735425      -0.13981770057      0.00123230431805    0.00316960547079    
4300000000.0        0.00125331194128    0.00324153906728    0.988776243028      -0.143135678071     0.988776243028      -0.143135678071     0.00125331194128    0.00324153906728    
4400000000.0        0.00127480435952    0.00331331314301    0.98828751908       -0.146452698749     0.98828751908       -0.146452698749     0.00127480435952    0.00331331314301    
4500000000.0        0.00129678168975    0.00338492968716    0.98778756131       -0.149768729298     0.98778756131       -0.149768729298     0.00129678168975    0.00338492968716    
4600000000.0        0.00131924409385    0.00345639077884    0.987276367544      -0.153083736242     0.987276367544      -0.153083736242     0.00131924409385    0.00345639077884    
4700000000.0        0.00134219178115    0.00352769858268    0.986753935711      -0.156397685938     0.986753935711      -0.156397685938     0.00134219178115    0.00352769858268    
4800000000.0        0.0013656250108     0.00359885534464    0.986220263842      -0.159710544588     0.986220263842      -0.159710544588     0.0013656250108     0.00359885534464    
4900000000.0        0.00138954409393    0.0036698633879     0.985675350069      -0.163022278236     0.985675350069      -0.163022278236     0.00138954409393    0.0036698633879     
5000000000.0        0.00141394939562    0.00374072510889    0.985119192624      -0.166332852779     0.985119192624      -0.166332852779     0.00141394939562    0.00374072510889    
5100000000.0        0.00143884133673    0.00381144297343    0.984551789843      -0.16964223397      0.984551789843      -0.16964223397      0.00143884133673    0.00381144297343    
5200000000.0        0.00146422039558    0.00388201951301    0.983973140163      -0.172950387421     0.983973140163      -0.172950387421     0.00146422039558    0.00388201951301    
5300000000.0        0.00149008710953    0.00395245732114    0.983383242126      -0.176257278611     0.983383242126      -0.176257278611     0.00149008710953    0.00395245732114    
5400000000.0        0.00151644207636    0.0040227590498     0.982782094372      -0.179562872884     0.982782094372      -0.179562872884     0.00151644207636    0.0040227590498     
5500000000.0        0.00154328595565    0.00409292740604    0.98216969565       -0.18286713546      0.98216969565       -0.18286713546      0.00154328595565    0.00409292740604    
5600000000.0        0.00157061946992    0.00416296514862    0.98154604481       -0.186170031434     0.98154604481       -0.186170031434     0.00157061946992    0.00416296514862    
5700000000.0        0.00159844340583    0.00423287508474    0.980911140805      -0.18947152578      0.980911140805      -0.18947152578      0.00159844340583    0.00423287508474    
5800000000.0        0.00162675861516    0.00430266006687    0.980264982696      -0.192771583356     0.980264982696      -0.192771583356     0.00162675861516    0.00430266006687    
5900000000.0        0.00165556601576    0.00437232298967    0.979607569647      -0.196070168909     0.979607569647      -0.196070168909     0.00165556601576    0.00437232298967    
6000000000.0        0.00168486659245    0.00444186678697    0.978938900927      -0.199367247072     0.978938900927      -0.199367247072     0.00168486659245    0.00444186678697    
6100000000.0        0.00171466139778    0.00451129442881    0.978258975913      -0.202662782373     0.978258975913      -0.202662782373     0.00171466139778    0.00451129442881    
6200000000.0        0.00174495155283    0.00458060891856    0.977567794089      -0.205956739237     0.977567794089      -0.205956739237     0.00174495155283    0.00458060891856    
6300000000.0        0.00177573824778    0.00464981329015    0.976865355044      -0.209249081986     0.976865355044      -0.209249081986     0.00177573824778    0.00464981329015    
6400000000.0        0.00180702274259    0.00471891060527    0.976151658477      -0.212539774844     0.976151658477      -0.212539774844     0.00180702274259    0.00471891060527    
6500000000.0        0.00183880636754    0.00478790395074    0.975426704192      -0.215828781939     0.975426704192      -0.215828781939     0.00183880636754    0.00478790395074    
6600000000.0        0.00187109052369    0.00485679643584    0.974690492105      -0.219116067306     0.974690492105      -0.219116067306     0.00187109052369    0.00485679643584    
6700000000.0        0.00190387668338    0.00492559118978    0.973943022239      -0.222401594888     0.973943022239      -0.222401594888     0.00190387668338    0.00492559118978    
6800000000.0        0.00193716639059    0.00499429135914    0.973184294728      -0.225685328542     0.973184294728      -0.225685328542     0.00193716639059    0.00499429135914    
6900000000.0        0.00197096126128    0.00506290010545    0.972414309814      -0.228967232034     0.972414309814      -0.228967232034     0.00197096126128    0.00506290010545    
7000000000.0        0.00200526298375    0.00513142060275    0.971633067852      -0.232247269051     0.971633067852      -0.232247269051     0.00200526298375    0.00513142060275    
7100000000.0        0.00204007331885    0.00519985603524    0.970840569307      -0.235525403195     0.970840569307      -0.235525403195     0.00204007331885    0.00519985603524    
7200000000.0        0.00207539410025    0.00526820959495    0.970036814755      -0.238801597987     0.970036814755      -0.238801597987     0.00207539410025    0.00526820959495    
7300000000.0        0.00211122723459    0.00533648447948    0.969221804885      -0.242075816872     0.969221804885      -0.242075816872     0.00211122723459    0.00533648447948    
7400000000.0        0.00214757470164    0.00540468388973    0.968395540497      -0.245348023218     0.968395540497      -0.245348023218     0.00214757470164    0.00540468388973    
7500000000.0        0.00218443855443    0.00547281102776    0.967558022505      -0.248618180319     0.967558022505      -0.248618180319     0.00218443855443    0.00547281102776    
7600000000.0        0.00222182091933    0.00554086909461    0.966709251937      -0.251886251395     0.966709251937      -0.251886251395     0.00222182091933    0.00554086909461    
7700000000.0        0.00225972399604    0.00560886128818    0.965849229933      -0.255152199596     0.965849229933      -0.255152199596     0.00225972399604    0.00560886128818    
7800000000.0        0.00229815005771    0.00567679080117    0.964977957748      -0.258415988004     0.964977957748      -0.258415988004     0.00229815005771    0.00567679080117    
7900000000.0        0.00233710145083    0.00574466081904    0.964095436753      -0.261677579629     0.964095436753      -0.261677579629     0.00233710145083    0.00574466081904    
8000000000.0        0.00237658059521    0.00581247451799    0.963201668432      -0.264936937421     0.963201668432      -0.264936937421     0.00237658059521    0.00581247451799    
8100000000.0        0.00241658998394    0.00588023506299    0.962296654386      -0.268194024259     0.962296654386      -0.268194024259     0.00241658998394    0.00588023506299    
8200000000.0        0.00245713218323    0.00594794560586    0.961380396332      -0.271448802963     0.961380396332      -0.271448802963     0.00245713218323    0.00594794560586    
8300000000.0        0.00249820983234    0.00601560928331    0.960452896102      -0.27470123629      0.960452896102      -0.27470123629      0.00249820983234    0.00601560928331    
8400000000.0        0.00253982564337    0.00608322921512    0.959514155646      -0.277951286936     0.959514155646      -0.277951286936     0.00253982564337    0.00608322921512    
8500000000.0        0.0025819824011     0.00615080850224    0.958564177031      -0.281198917538     0.958564177031      -0.281198917538     0.0025819824011     0.00615080850224    
8600000000.0        0.00262468296281    0.00621835022501    0.957602962442      -0.284444090675     0.957602962442      -0.284444090675     0.00262468296281    0.00621835022501    
8700000000.0        0.00266793025798    0.00628585744133    0.956630514181      -0.28768676887      0.956630514181      -0.28768676887      0.00266793025798    0.00628585744132    
8800000000.0        0.00271172728809    0.00635333318488    0.95564683467       -0.29092691459      0.95564683467       -0.29092691459      0.00271172728809    0.00635333318488    
8900000000.0        0.00275607712633    0.00642078046345    0.954651926449      -0.294164490247     0.954651926449      -0.294164490247     0.00275607712633    0.00642078046345    
9000000000.0        0.00280098291728    0.00648820225712    0.953645792177      -0.297399458202     0.953645792177      -0.297399458202     0.00280098291728    0.00648820225712    
9100000000.0        0.00284644787658    0.00655560151664    0.952628434633      -0.300631780761     0.952628434633      -0.300631780761     0.00284644787658    0.00655560151664    
9200000000.0        0.00289247529062    0.00662298116174    0.951599856715      -0.30386142018      0.951599856715      -0.30386142018      0.00289247529062    0.00662298116174    
9300000000.0        0.00293906851613    0.00669034407947    0.950560061444      -0.307088338667     0.950560061444      -0.307088338667     0.00293906851613    0.00669034407947    
9400000000.0        0.0029862309798     0.00675769312258    0.94950905196       -0.310312498379     0.94950905196       -0.310312498379     0.0029862309798     0.00675769312258    
9500000000.0        0.00303396617788    0.00682503110793    0.948446831523      -0.313533861425     0.948446831523      -0.313533861425     0.00303396617788    0.00682503110793    
9600000000.0        0.00308227767575    0.00689236081489    0.947373403518      -0.316752389867     0.947373403518      -0.316752389867     0.00308227767575    0.00689236081489    
9700000000.0        0.00313116910742    0.00695968498378    0.946288771448      -0.319968045722     0.946288771448      -0.319968045722     0.00313116910742    0.00695968498378    
9800000000.0        0.00318064417515    0.00702700631435    0.945192938943      -0.323180790961     0.945192938943      -0.323180790961     0.00318064417515    0.00702700631435    
9900000000.0        0.00323070664886    0.00709432746422    0.944085909751      -0.32639058751      0.944085909751      -0.32639058751      0.00323070664886    0.00709432746422    
10000000000.0       0.00328136036567    0.00716165104743    0.942967687746      -0.329597397253     0.942967687746      -0.329597397253     0.00328136036567    0.00716165104743    
