# Hz S RI R 50.00 
100000000.0         0.00409327115463    0.00151579083669    0.995892477746      -0.00580256199493   0.995892477746      -0.00580256199493   0.00409327115463    0.00151579083669    
200000000.0         0.00414504371705    0.00303097769161    0.995809051267      -0.0116045211544    0.995809051267      -0.0116045211544    0.00414504371705    0.00303097769161    
300000000.0         0.00420735511727    0.00454550176796    0.99569668108       -0.0174058121252    0.99569668108       -0.0174058121252    0.00420735511727    0.00454550176796    
400000000.0         0.00428372985511    0.00605920154054    0.995551840008      -0.0232062564285    0.995551840008      -0.0232062564285    0.00428372985511    0.00605920154054    
500000000.0         0.00437551719953    0.0075718922298     0.995373175539      -0.0290056470223    0.995373175539      -0.0290056470223    0.00437551719953    0.0075718922298     
600000000.0         0.00448339730891    0.00908337910039    0.995160003751      -0.0348037633915    0.995160003751      -0.0348037633915    0.00448339730891    0.00908337910039    
700000000.0         0.00460776395208    0.0105934622116     0.994911926634      -0.0406003772118    0.994911926634      -0.0406003772118    0.00460776395208    0.0105934622116     
800000000.0         0.00474886413346    0.0121019386154     0.994628692489      -0.046395255096     0.994628692489      -0.046395255096     0.00474886413346    0.0121019386154     
900000000.0         0.00490686023643    0.0136086035399     0.994310133817      -0.0521881601379    0.994310133817      -0.0521881601379    0.00490686023643    0.0136086035399     
1000000000.0        0.00508186151052    0.0151132510949     0.993956135849      -0.0579788528713    0.993956135849      -0.0579788528713    0.00508186151052    0.0151132510949     
1100000000.0        0.0052739415689     0.0166156747266     0.99356661907       -0.0637670919119    0.99356661907       -0.0637670919119    0.0052739415689     0.0166156747266     
1200000000.0        0.00548314881219    0.0181156675301     0.993141528809      -0.0695526344108    0.993141528809      -0.0695526344108    0.00548314881219    0.0181156675301     
1300000000.0        0.00570951298591    0.0196130224732     0.992680828701      -0.0753352363915    0.992680828701      -0.0753352363915    0.00570951298591    0.0196130224732     
1400000000.0        0.00595304949112    0.0211075325664     0.992184496389      -0.081114653008     0.992184496389      -0.081114653008     0.00595304949112    0.0211075325664     
1500000000.0        0.00621376232301    0.0225989909953     0.991652520593      -0.0868906387511    0.991652520593      -0.0868906387511    0.00621376232301    0.0225989909953     
1600000000.0        0.00649164613651    0.0240871912275     0.991084899063      -0.0926629476153    0.991084899063      -0.0926629476153    0.00649164613651    0.0240871912275     
1700000000.0        0.00678668773673    0.0255719271025     0.990481637096      -0.09843133324      0.990481637096      -0.09843133324      0.00678668773673    0.0255719271025     
1800000000.0        0.00709886717947    0.0270529929076     0.989842746442      -0.104195549028     0.989842746442      -0.104195549028     0.00709886717947    0.0270529929076     
1900000000.0        0.00742815860017    0.0285301834453     0.98916824449       -0.109955348251     0.98916824449       -0.109955348251     0.00742815860018    0.0285301834453     
2000000000.0        0.0077745308498     0.0300032940928     0.98845815364       -0.11571048414      0.98845815364       -0.11571048414      0.0077745308498     0.0300032940928     
2100000000.0        0.00813794799061    0.0314721208561     0.987712500809      -0.121460709967     0.987712500809      -0.121460709967     0.00813794799061    0.0314721208561     
2200000000.0        0.00851836968845    0.0329364604197     0.986931317056      -0.127205779121     0.986931317056      -0.127205779121     0.00851836968845    0.0329364604197     
2300000000.0        0.00891575152765    0.0343961101936     0.986114637267      -0.132945445174     0.986114637267      -0.132945445174     0.00891575152765    0.0343961101936     
2400000000.0        0.00933004526688    0.0358508683562     0.985262499909      -0.138679461944     0.985262499909      -0.138679461944     0.00933004526688    0.0358508683562     
2500000000.0        0.00976119904974    0.0373005338964     0.984374946826      -0.144407583556     0.984374946826      -0.144407583556     0.00976119904974    0.0373005338964     
2600000000.0        0.0102091575802     0.0387449066528     0.98345202307       -0.150129564491     0.98345202307       -0.150129564491     0.0102091575802     0.0387449066528     
2700000000.0        0.01067386227       0.0401837873517     0.982493776759      -0.155845159645     0.982493776759      -0.155845159645     0.01067386227       0.0401837873517     
2800000000.0        0.0111552513647     0.0416169776442     0.981500258958      -0.161554124369     0.981500258958      -0.161554124369     0.0111552513647     0.0416169776442     
2900000000.0        0.0116532600516     0.0430442801413     0.980471523575      -0.167256214525     0.980471523575      -0.167256214525     0.0116532600516     0.0430442801413     
3000000000.0        0.0121678205535     0.0444654984488     0.979407627273      -0.172951186521     0.979407627273      -0.172951186521     0.0121678205535     0.0444654984488     
3100000000.0        0.0126988622116     0.0458804372011     0.978308629395      -0.178638797361     0.978308629395      -0.178638797361     0.0126988622116     0.0458804372011     
3200000000.0        0.0132463115585     0.0472889020937     0.977174591893      -0.184318804682     0.977174591893      -0.184318804682     0.0132463115585     0.0472889020937     
3300000000.0        0.0138100923837     0.0486906999159     0.976005579266      -0.189990966795     0.976005579266      -0.189990966795     0.0138100923837     0.0486906999159     
3400000000.0        0.0143901257927     0.0500856385823     0.974801658512      -0.195655042722     0.974801658512      -0.195655042722     0.0143901257927     0.0500856385823     
3500000000.0        0.0149863302613     0.0514735271637     0.973562899071      -0.201310792233     0.973562899071      -0.201310792233     0.0149863302613     0.0514735271637     
3600000000.0        0.0155986216847     0.0528541759175     0.972289372785      -0.206957975883     0.972289372785      -0.206957975883     0.0155986216847     0.0528541759175     
3700000000.0        0.016226913424      0.0542273963178     0.970981153853      -0.212596355045     0.970981153853      -0.212596355045     0.016226913424      0.0542273963178     
3800000000.0        0.0168711163488     0.0555930010849     0.969638318797      -0.218225691946     0.969638318797      -0.218225691946     0.0168711163488     0.0555930010849     
3900000000.0        0.017531138878      0.0569508042137     0.96826094642       -0.223845749699     0.96826094642       -0.223845749699     0.017531138878      0.0569508042137     
4000000000.0        0.0182068870178     0.0583006210031     0.966849117774      -0.229456292333     0.966849117774      -0.229456292333     0.0182068870178     0.0583006210031     
4100000000.0        0.0188982643986     0.059642268083      0.965402916129      -0.235057084827     0.965402916129      -0.235057084827     0.0188982643986     0.059642268083      
4200000000.0        0.0196051723098     0.0609755634428     0.963922426939      -0.24064789314      0.963922426939      -0.24064789314      0.0196051723098     0.0609755634428     
4300000000.0        0.0203275097338     0.0623003264579     0.962407737815      -0.246228484238     0.962407737815      -0.246228484238     0.0203275097338     0.0623003264579     
4400000000.0        0.0210651733785     0.0636163779169     0.960858938492      -0.251798626127     0.960858938492      -0.251798626127     0.0210651733785     0.0636163779169     
4500000000.0        0.0218180577096     0.0649235400476     0.959276120806      -0.257358087879     0.959276120806      -0.257358087879     0.0218180577096     0.0649235400476     
4600000000.0        0.0225860549815     0.066221636543      0.957659378659      -0.262906639661     0.957659378659      -0.262906639661     0.0225860549815     0.066221636543      
4700000000.0        0.0233690552677     0.0675104925869     0.956008808001      -0.268444052758     0.956008808001      -0.268444052758     0.0233690552677     0.0675104925869     
4800000000.0        0.024166946491      0.0687899348788     0.954324506794      -0.273970099607     0.954324506794      -0.273970099607     0.024166946491      0.0687899348788     
4900000000.0        0.0249796144534     0.0700597916587     0.952606574995      -0.279484553816     0.952606574995      -0.279484553816     0.0249796144534     0.0700597916587     
5000000000.0        0.0258069428647     0.0713198927311     0.950855114522      -0.28498719019      0.950855114522      -0.28498719019      0.0258069428647     0.0713198927311     
5100000000.0        0.0266488133722     0.0725700694892     0.949070229232      -0.290477784759     0.949070229232      -0.290477784759     0.0266488133722     0.0725700694892     
5200000000.0        0.0275051055889     0.0738101549379     0.947252024898      -0.295956114802     0.947252024898      -0.295956114802     0.0275051055889     0.0738101549379     
5300000000.0        0.0283756971226     0.0750399837172     0.945400609177      -0.301421958864     0.945400609177      -0.301421958864     0.0283756971226     0.0750399837172     
5400000000.0        0.0292604636039     0.0762593921244     0.943516091592      -0.306875096788     0.943516091592      -0.306875096788     0.0292604636039     0.0762593921244     
5500000000.0        0.0301592787151     0.0774682181367     0.941598583499      -0.31231530973      0.941598583499      -0.31231530973      0.0301592787151     0.0774682181367     
5600000000.0        0.031072014218      0.0786663014324     0.939648198071      -0.317742380184     0.939648198071      -0.317742380184     0.031072014218      0.0786663014324     
5700000000.0        0.0319985399827     0.0798534834127     0.937665050262      -0.323156092004     0.937665050262      -0.323156092004     0.0319985399827     0.0798534834127     
5800000000.0        0.0329387240152     0.0810296072225     0.935649256793      -0.328556230423     0.935649256793      -0.328556230423     0.0329387240152     0.0810296072225     
5900000000.0        0.0338924324863     0.0821945177706     0.933600936116      -0.333942582074     0.933600936116      -0.333942582074     0.0338924324863     0.0821945177706     
6000000000.0        0.0348595297596     0.0833480617501     0.931520208398      -0.339314935007     0.931520208398      -0.339314935007     0.0348595297596     0.0833480617501     
6100000000.0        0.0358398784197     0.0844900876578     0.929407195489      -0.344673078715     0.929407195489      -0.344673078715     0.0358398784197     0.0844900876578     
6200000000.0        0.0368333393006     0.0856204458134     0.9272620209        -0.350016804143     0.9272620209        -0.350016804143     0.0368333393006     0.0856204458134     
6300000000.0        0.0378397715142     0.0867389883784     0.925084809776      -0.355345903715     0.925084809776      -0.355345903715     0.0378397715142     0.0867389883784     
6400000000.0        0.0388590324786     0.0878455693744     0.922875688873      -0.360660171346     0.922875688873      -0.360660171346     0.0388590324786     0.0878455693744     
6500000000.0        0.0398909779465     0.088940044701      0.920634786527      -0.36595940246      0.920634786527      -0.36595940246      0.0398909779465     0.088940044701      
6600000000.0        0.0409354620339     0.0900222721529     0.918362232635      -0.371243394008     0.918362232635      -0.371243394008     0.0409354620339     0.0900222721529     
6700000000.0        0.0419923372488     0.0910921114375     0.916058158625      -0.376511944484     0.916058158625      -0.376511944484     0.0419923372488     0.0910921114375     
6800000000.0        0.0430614545196     0.0921494241912     0.91372269743       -0.381764853937     0.91372269743       -0.381764853937     0.0430614545196     0.0921494241912     
6900000000.0        0.044142663224      0.0931940739955     0.911355983465      -0.38700192399      0.911355983465      -0.38700192399      0.044142663224      0.0931940739955     
7000000000.0        0.0452358112176     0.0942259263926     0.908958152598      -0.392222957854     0.908958152598      -0.392222957854     0.0452358112176     0.0942259263926     
7100000000.0        0.0463407448632     0.0952448489011     0.906529342125      -0.39742776034      0.906529342125      -0.39742776034      0.0463407448632     0.0952448489011     
7200000000.0        0.0474573090593     0.0962507110304     0.904069690747      -0.402616137871     0.904069690747      -0.402616137871     0.0474573090593     0.0962507110304     
7300000000.0        0.0485853472691     0.0972433842952     0.901579338537      -0.407787898502     0.901579338537      -0.407787898502     0.0485853472691     0.0972433842952     
7400000000.0        0.0497247015498     0.0982227422297     0.899058426921      -0.412942851925     0.899058426921      -0.412942851925     0.0497247015498     0.0982227422297     
7500000000.0        0.0508752125817     0.0991886604006     0.896507098646      -0.418080809483     0.896507098646      -0.418080809483     0.0508752125817     0.0991886604006     
7600000000.0        0.0520367196967     0.100141016421      0.893925497757      -0.423201584183     0.893925497757      -0.423201584183     0.0520367196967     0.100141016421      
7700000000.0        0.0532090609086     0.101079689961      0.891313769571      -0.428304990707     0.891313769571      -0.428304990707     0.0532090609086     0.101079689961      
7800000000.0        0.0543920729411     0.102004562763      0.888672060648      -0.43339084542      0.888672060648      -0.43339084542      0.0543920729411     0.102004562763      
7900000000.0        0.055585591258      0.102915518651      0.886000518766      -0.438458966383     0.886000518766      -0.438458966383     0.055585591258      0.102915518651      
8000000000.0        0.056789450092      0.103812443543      0.883299292894      -0.44350917336      0.883299292894      -0.44350917336      0.056789450092      0.103812443543      
8100000000.0        0.0580034824743     0.104695225461      0.880568533167      -0.448541287827     0.880568533167      -0.448541287827     0.0580034824743     0.104695225461      
8200000000.0        0.0592275202636     0.105563754542      0.877808390858      -0.453555132983     0.877808390858      -0.453555132983     0.0592275202636     0.105563754542      
8300000000.0        0.0604613941758     0.106417923049      0.875019018352      -0.458550533757     0.875019018352      -0.458550533757     0.0604613941758     0.106417923049      
8400000000.0        0.0617049338132     0.107257625378      0.87220056912       -0.463527316814     0.87220056912       -0.463527316814     0.0617049338132     0.107257625378      
8500000000.0        0.0629579676938     0.108082758069      0.86935319769       -0.468485310562     0.86935319769       -0.468485310562     0.0629579676938     0.108082758069      
8600000000.0        0.0642203232807     0.108893219814      0.866477059624      -0.473424345162     0.866477059624      -0.473424345162     0.0642203232807     0.108893219814      
8700000000.0        0.0654918270117     0.109688911467      0.863572311491      -0.478344252531     0.863572311491      -0.478344252531     0.0654918270117     0.109688911467      
8800000000.0        0.0667723043283     0.110469736049      0.860639110836      -0.483244866347     0.860639110836      -0.483244866347     0.0667723043283     0.110469736049      
8900000000.0        0.0680615797052     0.111235598756      0.857677616161      -0.488126022058     0.857677616161      -0.488126022058     0.0680615797052     0.111235598756      
9000000000.0        0.0693594766798     0.111986406968      0.854687986893      -0.492987556883     0.854687986893      -0.492987556883     0.0693594766798     0.111986406968      
9100000000.0        0.0706658178809     0.112722070254      0.851670383359      -0.497829309819     0.851670383359      -0.497829309819     0.0706658178809     0.112722070254      
9200000000.0        0.0719804250585     0.113442500378      0.84862496676       -0.502651121641     0.84862496676       -0.502651121641     0.0719804250585     0.113442500378      
9300000000.0        0.0733031191129     0.114147611305      0.845551899147      -0.50745283491      0.845551899147      -0.50745283491      0.0733031191129     0.114147611305      
9400000000.0        0.0746337201236     0.114837319206      0.842451343391      -0.512234293974     0.842451343391      -0.512234293974     0.0746337201236     0.114837319206      
9500000000.0        0.0759720473784     0.115511542464      0.839323463159      -0.516995344969     0.839323463159      -0.516995344969     0.0759720473784     0.115511542464      
9600000000.0        0.0773179194029     0.116170201676      0.836168422888      -0.521735835823     0.836168422888      -0.521735835823     0.0773179194029     0.116170201676      
9700000000.0        0.0786711539889     0.116813219661      0.832986387758      -0.526455616256     0.832986387758      -0.526455616256     0.0786711539889     0.116813219661      
9800000000.0        0.0800315682236     0.11744052146       0.82977752367       -0.531154537784     0.82977752367       -0.531154537784     0.0800315682236     0.11744052146       
9900000000.0        0.0813989785182     0.118052034341      0.826541997214      -0.535832453715     0.826541997214      -0.535832453715     0.0813989785182     0.118052034341      
10000000000.0       0.0827732006371     0.118647687799      0.823279975648      -0.540489219155     0.823279975648      -0.540489219155     0.0827732006371     0.118647687799      
