# Hz S RI R 50.00 
100000000.0         0.00641933462885    0.00203218898345    0.993576018792      -0.00395760916922   0.993576018792      -0.00395760916922   0.00641933462885    0.00203218898345    
200000000.0         0.00648520779898    0.00406372736663    0.993502783593      -0.00791458000445   0.993502783593      -0.00791458000445   0.00648520779898    0.00406372736663    
300000000.0         0.00655600821063    0.00609467541892    0.993420905375      -0.0118709828431    0.993420905375      -0.0118709828431    0.00655600821063    0.00609467541892    
400000000.0         0.00663726948402    0.00812495935258    0.993324850117      -0.0158267517601    0.993324850117      -0.0158267517601    0.00663726948402    0.00812495935258    
500000000.0         0.00673111868869    0.0101544743104     0.993212490273      -0.0197817886471    0.993212490273      -0.0197817886471    0.00673111868869    0.0101544743104     
600000000.0         0.00683863627683    0.0121831017608     0.993082744836      -0.0237359809909    0.993082744836      -0.0237359809909    0.00683863627683    0.0121831017608     
700000000.0         0.00696045599452    0.0142107157516     0.992934979432      -0.0276892083231    0.992934979432      -0.0276892083231    0.00696045599452    0.0142107157516     
800000000.0         0.00709698382006    0.0162371858174     0.992768787381      -0.0316413452447    0.992768787381      -0.0316413452447    0.00709698382006    0.0162371858174     
900000000.0         0.00724849543981    0.0182623785478     0.992583892223      -0.0355922630718    0.992583892223      -0.0355922630718    0.00724849543981    0.0182623785478     
1000000000.0        0.0074151856527     0.0202861585222     0.992380098315      -0.0395418308242    0.992380098315      -0.0395418308242    0.0074151856527     0.0202861585222     
1100000000.0        0.00759719583128    0.0223083889092     0.992157263373      -0.0434899158658    0.992157263373      -0.0434899158658    0.00759719583128    0.0223083889092     
1200000000.0        0.00779463028385    0.0243289318737     0.991915282107      -0.0474363843414    0.991915282107      -0.0474363843414    0.00779463028385    0.0243289318737     
1300000000.0        0.00800756654815    0.0263476488657     0.991654075935      -0.0513811014905    0.991654075935      -0.0513811014905    0.00800756654815    0.0263476488657     
1400000000.0        0.00823606215753    0.0283644008346     0.99137358621       -0.0553239318804    0.99137358621       -0.0553239318804    0.00823606215753    0.0283644008346     
1500000000.0        0.00848015925186    0.0303790483916     0.991073769616      -0.0592647395848    0.991073769616      -0.0592647395848    0.00848015925186    0.0303790483916     
1600000000.0        0.00873988781667    0.0323914519381     0.990754594929      -0.0632033883255    0.990754594929      -0.0632033883255    0.00873988781667    0.0323914519381     
1700000000.0        0.0090152680182     0.034401471769      0.990416040677      -0.0671397415868    0.990416040677      -0.0671397415868    0.0090152680182     0.034401471769      
1800000000.0        0.0093063119249     0.0364089681578     0.99005809343       -0.0710736627101    0.99005809343       -0.0710736627101    0.0093063119249     0.0364089681578     
1900000000.0        0.00961302480166    0.0384138014282     0.989680746495      -0.0750050149739    0.989680746495      -0.0750050149739    0.00961302480166    0.0384138014282     
2000000000.0        0.00993540609983    0.0404158320153     0.989283998934      -0.0789336616624    0.989283998934      -0.0789336616624    0.00993540609983    0.0404158320153     
2100000000.0        0.0102734502264     0.0424149205196     0.988867854793      -0.0828594661253    0.988867854793      -0.0828594661253    0.0102734502264     0.0424149205196     
2200000000.0        0.0106271471498     0.0444109277541     0.988432322498      -0.0867822918311    0.988432322498      -0.0867822918311    0.0106271471498     0.0444109277541     
2300000000.0        0.0109964828836     0.0464037147864     0.987977414371      -0.0907020024138    0.987977414371      -0.0907020024138    0.0109964828836     0.0464037147864     
2400000000.0        0.0113814398763     0.0483931429778     0.987503146238      -0.0946184617164    0.987503146238      -0.0946184617164    0.0113814398763     0.0483931429778     
2500000000.0        0.0117819973303     0.0503790740182     0.987009537116      -0.0985315338302    0.987009537116      -0.0985315338302    0.0117819973303     0.0503790740182     
2600000000.0        0.0121981314636     0.0523613699587     0.986496608949      -0.102441083131     0.986496608949      -0.102441083131     0.0121981314636     0.0523613699587     
2700000000.0        0.0126298157287     0.0543398932422     0.985964386388      -0.106346974311     0.985964386388      -0.106346974311     0.0126298157287     0.0543398932422     
2800000000.0        0.0130770209956     0.0563145067318     0.985412896611      -0.110249072416     0.985412896611      -0.110249072416     0.0130770209956     0.0563145067318     
2900000000.0        0.0135397157066     0.058285073738      0.984842169167      -0.114147242866     0.984842169167      -0.114147242866     0.0135397157066     0.058285073738      
3000000000.0        0.0140178660093     0.0602514580442     0.984252235844      -0.118041351493     0.984252235844      -0.118041351493     0.0140178660093     0.0602514580442     
3100000000.0        0.0145114358699     0.0622135239314     0.983643130557      -0.121931264561     0.983643130557      -0.121931264561     0.0145114358699     0.0622135239314     
3200000000.0        0.015020387172      0.0641711362012     0.983014889248      -0.125816848795     0.983014889248      -0.125816848795     0.015020387172      0.0641711362012     
3300000000.0        0.0155446798029     0.066124160199      0.982367549799      -0.129697971403     0.982367549799      -0.129697971403     0.0155446798029     0.066124160199      
3400000000.0        0.0160842717293     0.0680724618354     0.981701151961      -0.133574500104     0.981701151961      -0.133574500104     0.0160842717293     0.0680724618354     
3500000000.0        0.0166391190644     0.0700159076076     0.981015737282      -0.137446303145     0.981015737282      -0.137446303145     0.0166391190644     0.0700159076076     
3600000000.0        0.0172091761276     0.0719543646192     0.980311349053      -0.141313249328     0.980311349053      -0.141313249328     0.0172091761276     0.0719543646192     
3700000000.0        0.0177943954987     0.0738877006008     0.979588032247      -0.145175208027     0.979588032247      -0.145175208027     0.0177943954987     0.0738877006008     
3800000000.0        0.0183947280657     0.0758157839289     0.978845833478      -0.149032049214     0.978845833478      -0.149032049214     0.0183947280657     0.0758157839289     
3900000000.0        0.0190101230699     0.0777384836448     0.978084800955      -0.152883643474     0.978084800955      -0.152883643474     0.0190101230699     0.0777384836448     
4000000000.0        0.0196405281458     0.0796556694728     0.977304984439      -0.156729862026     0.977304984439      -0.156729862026     0.0196405281458     0.0796556694728     
4100000000.0        0.0202858893585     0.0815672118385     0.976506435207      -0.160570576745     0.976506435207      -0.160570576745     0.0202858893585     0.0815672118385     
4200000000.0        0.0209461512384     0.0834729818858     0.975689206022      -0.164405660175     0.975689206022      -0.164405660175     0.0209461512384     0.0834729818858     
4300000000.0        0.0216212568134     0.0853728514943     0.974853351094      -0.168234985554     0.974853351094      -0.168234985554     0.0216212568134     0.0853728514943     
4400000000.0        0.0223111476389     0.0872666932962     0.973998926055      -0.172058426825     0.973998926055      -0.172058426825     0.0223111476389     0.0872666932962     
4500000000.0        0.0230157638266     0.0891543806922     0.973125987929      -0.175875858658     0.973125987929      -0.175875858658     0.0230157638266     0.0891543806922     
4600000000.0        0.0237350440714     0.0910357878679     0.972234595106      -0.179687156464     0.972234595106      -0.179687156464     0.0237350440714     0.0910357878679     
4700000000.0        0.0244689256769     0.0929107898096     0.971324807314      -0.183492196412     0.971324807314      -0.183492196412     0.0244689256769     0.0929107898096     
4800000000.0        0.0252173445802     0.0947792623192     0.9703966856        -0.187290855449     0.9703966856        -0.187290855449     0.0252173445802     0.0947792623192     
4900000000.0        0.0259802353752     0.0966410820297     0.969450292298      -0.191083011308     0.969450292298      -0.191083011308     0.0259802353752     0.0966410820297     
5000000000.0        0.0267575313358     0.0984961264196     0.968485691017      -0.19486854253      0.968485691017      -0.19486854253      0.0267575313358     0.0984961264196     
5100000000.0        0.0275491644374     0.100344273828      0.967502946609      -0.198647328479     0.967502946609      -0.198647328479     0.0275491644374     0.100344273828      
5200000000.0        0.0283550653785     0.102185403468      0.966502125155      -0.202419249351     0.966502125155      -0.202419249351     0.0283550653785     0.102185403468      
5300000000.0        0.0291751636017     0.10401939544       0.965483293942      -0.206184186194     0.965483293942      -0.206184186194     0.0291751636017     0.10401939544       
5400000000.0        0.0300093873136     0.105846130747      0.964446521441      -0.20994202092      0.964446521441      -0.20994202092      0.0300093873136     0.105846130747      
5500000000.0        0.030857663505      0.107665491308      0.96339187729       -0.213692636319     0.96339187729       -0.213692636319     0.030857663505      0.107665491308      
5600000000.0        0.0317199179704     0.109477359967      0.962319432272      -0.217435916073     0.962319432272      -0.217435916073     0.0317199179704     0.109477359967      
5700000000.0        0.0325960753271     0.111281620512      0.961229258299      -0.221171744766     0.961229258299      -0.221171744766     0.0325960753271     0.111281620512      
5800000000.0        0.0334860590343     0.11307815768       0.960121428391      -0.224900007903     0.960121428391      -0.224900007903     0.0334860590343     0.11307815768       
5900000000.0        0.0343897914116     0.114866857178      0.958996016657      -0.228620591917     0.958996016657      -0.228620591917     0.0343897914116     0.114866857178      
6000000000.0        0.0353071936577     0.116647605686      0.957853098278      -0.232333384183     0.957853098278      -0.232333384183     0.0353071936577     0.116647605686      
6100000000.0        0.0362381858685     0.118420290874      0.956692749489      -0.236038273029     0.956692749489      -0.236038273029     0.0362381858685     0.118420290874      
6200000000.0        0.0371826870557     0.120184801412      0.955515047559      -0.239735147753     0.955515047559      -0.239735147753     0.0371826870557     0.120184801412      
6300000000.0        0.0381406151642     0.121941026981      0.954320070774      -0.243423898625     0.954320070774      -0.243423898625     0.0381406151642     0.121941026981      
6400000000.0        0.0391118870903     0.123688858282      0.953107898422      -0.247104416906     0.953107898422      -0.247104416906     0.0391118870903     0.123688858282      
6500000000.0        0.0400964186997     0.125428187051      0.951878610769      -0.250776594856     0.951878610769      -0.250776594856     0.0400964186997     0.125428187051      
6600000000.0        0.0410941248449     0.127158906064      0.950632289048      -0.254440325743     0.950632289048      -0.254440325743     0.0410941248449     0.127158906064      
6700000000.0        0.0421049193831     0.128880909149      0.949369015437      -0.258095503855     0.949369015437      -0.258095503855     0.0421049193831     0.128880909149      
6800000000.0        0.0431287151935     0.130594091197      0.948088873043      -0.261742024509     0.948088873043      -0.261742024509     0.0431287151935     0.130594091197      
6900000000.0        0.0441654241952     0.132298348169      0.946791945887      -0.265379784063     0.946791945887      -0.265379784063     0.0441654241952     0.132298348169      
7000000000.0        0.0452149573642     0.133993577107      0.94547831888       -0.26900867992      0.94547831888       -0.26900867992      0.0452149573642     0.133993577107      
7100000000.0        0.0462772247513     0.135679676142      0.944148077812      -0.272628610543     0.944148077812      -0.272628610543     0.0462772247513     0.135679676142      
7200000000.0        0.0473521354993     0.137356544501      0.942801309333      -0.276239475459     0.942801309333      -0.276239475459     0.0473521354993     0.137356544501      
7300000000.0        0.0484395978603     0.13902408252       0.941438100934      -0.279841175272     0.941438100934      -0.279841175272     0.0484395978603     0.13902408252       
7400000000.0        0.0495395192132     0.140682191645      0.940058540931      -0.283433611667     0.940058540931      -0.283433611667     0.0495395192132     0.140682191645      
7500000000.0        0.0506518060807     0.142330774445      0.938662718446      -0.287016687418     0.938662718446      -0.287016687418     0.0506518060807     0.142330774445      
7600000000.0        0.0517763641472     0.14396973462       0.937250723394      -0.2905903064       0.937250723394      -0.2905903064       0.0517763641472     0.14396973462       
7700000000.0        0.0529130982754     0.145598977003      0.935822646462      -0.294154373593     0.935822646462      -0.294154373593     0.0529130982754     0.145598977003      
7800000000.0        0.054061912524      0.147218407571      0.934378579091      -0.297708795086     0.934378579091      -0.297708795086     0.054061912524      0.147218407571      
7900000000.0        0.0552227101646     0.148827933451      0.932918613463      -0.301253478093     0.932918613463      -0.301253478093     0.0552227101646     0.148827933451      
8000000000.0        0.0563953936995     0.150427462927      0.93144284248       -0.304788330947     0.93144284248       -0.304788330947     0.0563953936995     0.150427462927      
8100000000.0        0.0575798648779     0.152016905442      0.929951359748      -0.308313263119     0.929951359748      -0.308313263119     0.0575798648779     0.152016905442      
8200000000.0        0.0587760247143     0.153596171609      0.928444259561      -0.311828185214     0.928444259561      -0.311828185214     0.0587760247143     0.153596171609      
8300000000.0        0.0599837735044     0.155165173215      0.926921636883      -0.315333008982     0.926921636883      -0.315333008982     0.0599837735044     0.155165173215      
8400000000.0        0.0612030108433     0.156723823225      0.925383587329      -0.31882764732      0.925383587329      -0.31882764732      0.0612030108433     0.156723823225      
8500000000.0        0.0624336356419     0.158272035786      0.923830207152      -0.322312014282     0.923830207152      -0.322312014282     0.0624336356419     0.158272035786      
8600000000.0        0.0636755461443     0.159809726236      0.922261593223      -0.325786025077     0.922261593223      -0.325786025077     0.0636755461443     0.159809726236      
8700000000.0        0.0649286399447     0.161336811104      0.920677843014      -0.32924959608      0.920677843014      -0.32924959608      0.0649286399447     0.161336811104      
8800000000.0        0.0661928140045     0.162853208119      0.919079054582      -0.332702644833     0.919079054582      -0.332702644833     0.0661928140045     0.162853208119      
8900000000.0        0.0674679646694     0.164358836208      0.91746532655       -0.336145090048     0.91746532655       -0.336145090048     0.0674679646694     0.164358836208      
9000000000.0        0.0687539876861     0.165853615504      0.915836758095      -0.339576851614     0.915836758095      -0.339576851614     0.0687539876861     0.165853615504      
9100000000.0        0.0700507782192     0.167337467349      0.914193448926      -0.342997850598     0.914193448926      -0.342997850598     0.0700507782192     0.167337467349      
9200000000.0        0.0713582308686     0.168810314296      0.912535499268      -0.34640800925      0.912535499268      -0.34640800925      0.0713582308686     0.168810314296      
9300000000.0        0.0726762396856     0.170272080112      0.910863009846      -0.349807251004     0.910863009846      -0.349807251004     0.0726762396856     0.170272080112      
9400000000.0        0.0740046981903     0.171722689782      0.909176081871      -0.35319550048      0.909176081871      -0.35319550048      0.0740046981903     0.171722689782      
9500000000.0        0.0753434993878     0.17316206951       0.907474817016      -0.356572683491     0.907474817016      -0.356572683491     0.0753434993878     0.17316206951       
9600000000.0        0.0766925357855     0.174590146721      0.905759317409      -0.359938727042     0.905759317409      -0.359938727042     0.0766925357855     0.174590146721      
9700000000.0        0.0780516994093     0.176006850065      0.904029685606      -0.36329355933      0.904029685606      -0.36329355933      0.0780516994093     0.176006850065      
9800000000.0        0.0794208818202     0.177412109418      0.902286024582      -0.366637109749     0.902286024582      -0.366637109749     0.0794208818202     0.177412109418      
9900000000.0        0.080799974131      0.17880585588       0.900528437714      -0.369969308891     0.900528437714      -0.369969308891     0.080799974131      0.17880585588       
10000000000.0       0.0821888670229     0.180188021781      0.898757028757      -0.373290088546     0.898757028757      -0.373290088546     0.0821888670229     0.180188021781      
