# Hz S RI R 50.00 
100000000.0         0.00166988445658    0.000187699785336   0.998312417132      -0.00509569453266   0.998312417132      -0.00509569453266   0.00166988445658    0.000187699785336   
200000000.0         0.00168167276523    0.000375246262307   0.998259826878      -0.0101912366659    0.998259826878      -0.0101912366659    0.00168167276523    0.000375246262307   
300000000.0         0.00169247051702    0.000562647517802   0.998184120949      -0.0152866019933    0.998184120949      -0.0152866019933    0.00169247051702    0.000562647517802   
400000000.0         0.00170372208514    0.000749885943121   0.998083851618      -0.0203817209019    0.998083851618      -0.0203817209019    0.00170372208514    0.000749885943121   
500000000.0         0.00171598159612    0.000936939514162   0.997958460961      -0.0254765093331    0.997958460961      -0.0254765093331    0.00171598159612    0.000936939514162   
600000000.0         0.00172952995947    0.00112378493286    0.997807663961      -0.0305708752742    0.997807663961      -0.0305708752742    0.00172952995947    0.00112378493286    
700000000.0         0.00174453163019    0.00131039861867    0.997631291838      -0.0356647214683    0.997631291838      -0.0356647214683    0.00174453163019    0.00131039861867    
800000000.0         0.00176109179483    0.00149675710356    0.997429234946      -0.0407579468451    0.997429234946      -0.0407579468451    0.00176109179483    0.00149675710356    
900000000.0         0.00177928182481    0.00168283720788    0.997201417377      -0.0458504473827    0.997201417377      -0.0458504473827    0.00177928182481    0.00168283720788    
1000000000.0        0.00179915217598    0.00186861612183    0.996947784115      -0.0509421166759    0.996947784115      -0.0509421166759    0.00179915217598    0.00186861612183    
1100000000.0        0.00182073955954    0.00205407144207    0.996668293912      -0.0560328463338    0.996668293912      -0.0560328463338    0.00182073955954    0.00205407144207    
1200000000.0        0.00184407121627    0.00223918118541    0.996362915053      -0.0611225262714    0.996362915053      -0.0611225262714    0.00184407121627    0.00223918118541    
1300000000.0        0.00186916760736    0.00242392379047    0.996031622701      -0.0662110449325    0.996031622701      -0.0662110449325    0.00186916760736    0.00242392379047    
1400000000.0        0.00189604418481    0.00260827811276    0.995674397157      -0.0712982894638    0.995674397157      -0.0712982894638    0.00189604418481    0.00260827811276    
1500000000.0        0.00192471259959    0.00279222341627    0.995291222682      -0.0763841458549    0.995291222682      -0.0763841458549    0.00192471259959    0.00279222341627    
1600000000.0        0.00195518155176    0.0029757393632     0.994882086676      -0.0814684990529    0.994882086676      -0.0814684990529    0.00195518155176    0.0029757393632     
1700000000.0        0.0019874574047     0.00315880600289    0.994446979084      -0.0865512330583    0.994446979084      -0.0865512330583    0.0019874574047     0.00315880600289    
1800000000.0        0.00202154463905    0.00334140376041    0.993985891968      -0.0916322310055    0.993985891968      -0.0916322310055    0.00202154463905    0.00334140376041    
1900000000.0        0.00205744619502    0.00352351342513    0.993498819187      -0.0967113752325    0.993498819187      -0.0967113752325    0.00205744619502    0.00352351342513    
2000000000.0        0.0020951637351     0.00370511613968    0.992985756149      -0.101788547341     0.992985756149      -0.101788547341     0.0020951637351     0.00370511613968    
2100000000.0        0.002134697849      0.00388619338907    0.992446699629      -0.106863628249     0.992446699629      -0.106863628249     0.002134697849      0.00388619338907    
2200000000.0        0.00217604821564    0.0040667269903     0.991881647625      -0.111936498235     0.991881647625      -0.111936498235     0.00217604821564    0.0040667269903     
2300000000.0        0.00221921373308    0.00424669908233    0.991290599241      -0.117007036986     0.991290599241      -0.117007036986     0.00221921373308    0.00424669908233    
2400000000.0        0.00226419262381    0.00442609211645    0.990673554601      -0.122075123624     0.990673554601      -0.122075123624     0.00226419262381    0.00442609211645    
2500000000.0        0.00231098252106    0.00460488884713    0.990030514775      -0.12714063675      0.990030514775      -0.12714063675      0.00231098252106    0.00460488884713    
2600000000.0        0.00235958054033    0.00478307232313    0.98936148172       -0.132203454469     0.98936148172       -0.132203454469     0.00235958054033    0.00478307232313    
2700000000.0        0.00240998333907    0.0049606258791     0.98866645824       -0.137263454417     0.98866645824       -0.137263454417     0.00240998333907    0.0049606258791     
2800000000.0        0.00246218716707    0.00513753312747    0.987945447942      -0.142320513788     0.987945447942      -0.142320513788     0.00246218716707    0.00513753312747    
2900000000.0        0.00251618790923    0.00531377795063    0.987198455206      -0.147374509361     0.987198455206      -0.147374509361     0.00251618790923    0.00531377795063    
3000000000.0        0.00257198112223    0.00548934449353    0.986425485164      -0.152425317513     0.986425485164      -0.152425317513     0.00257198112223    0.00548934449353    
3100000000.0        0.00262956206606    0.00566421715645    0.985626543674      -0.15747281425      0.985626543674      -0.15747281425      0.00262956206606    0.00566421715645    
3200000000.0        0.00268892573147    0.00583838058813    0.984801637309      -0.162516875215     0.984801637309      -0.162516875215     0.00268892573147    0.00583838058813    
3300000000.0        0.00275006686387    0.00601181967906    0.983950773337      -0.167557375717     0.983950773337      -0.167557375717     0.00275006686387    0.00601181967906    
3400000000.0        0.00281297998439    0.00618451955516    0.983073959714      -0.172594190736     0.983073959714      -0.172594190736     0.00281297998439    0.00618451955516    
3500000000.0        0.00287765940839    0.00635646557147    0.982171205071      -0.177627194948     0.982171205071      -0.177627194948     0.00287765940839    0.00635646557147    
3600000000.0        0.00294409926199    0.00652764330625    0.981242518711      -0.182656262736     0.981242518711      -0.182656262736     0.00294409926199    0.00652764330625    
3700000000.0        0.0030122934967     0.00669803855518    0.9802879106        -0.187681268202     0.9802879106        -0.187681268202     0.0030122934967     0.00669803855518    
3800000000.0        0.00308223590259    0.00686763732569    0.97930739136       -0.192702085185     0.97930739136       -0.192702085185     0.00308223590259    0.00686763732569    
3900000000.0        0.00315392012017    0.00703642583163    0.978300972268      -0.197718587271     0.978300972268      -0.197718587271     0.00315392012017    0.00703642583163    
4000000000.0        0.00322733965099    0.00720439048791    0.977268665253      -0.202730647803     0.977268665253      -0.202730647803     0.00322733965099    0.00720439048791    
4100000000.0        0.00330248786739    0.00737151790544    0.976210482892      -0.207738139898     0.976210482892      -0.207738139898     0.00330248786739    0.00737151790544    
4200000000.0        0.00337935802126    0.00753779488617    0.975126438407      -0.212740936453     0.975126438407      -0.212740936453     0.00337935802126    0.00753779488616    
4300000000.0        0.0034579432521     0.00770320841818    0.974016545666      -0.217738910158     0.974016545666      -0.217738910158     0.0034579432521     0.00770320841818    
4400000000.0        0.00353823659433    0.00786774567111    0.972880819182      -0.222731933509     0.972880819182      -0.222731933509     0.00353823659433    0.00786774567111    
4500000000.0        0.00362023098403    0.00803139399146    0.971719274109      -0.22771987881      0.971719274109      -0.22771987881      0.00362023098403    0.00803139399146    
4600000000.0        0.00370391926513    0.00819414089822    0.970531926246      -0.232702618191     0.970531926246      -0.232702618191     0.00370391926513    0.00819414089822    
4700000000.0        0.00378929419512    0.00835597407848    0.969318792035      -0.237680023613     0.969318792035      -0.237680023613     0.00378929419512    0.00835597407848    
4800000000.0        0.0038763484503     0.00851688138321    0.96807988856       -0.242651966876     0.96807988856       -0.242651966876     0.0038763484503     0.00851688138321    
4900000000.0        0.00396507463065    0.00867685082314    0.96681523355       -0.247618319632     0.96681523355       -0.247618319632     0.00396507463065    0.00867685082314    
5000000000.0        0.00405546526434    0.00883587056468    0.965524845375      -0.252578953388     0.965524845375      -0.252578953388     0.00405546526434    0.00883587056468    
5100000000.0        0.00414751281189    0.00899392892603    0.964208743053      -0.257533739519     0.964208743053      -0.257533739519     0.00414751281189    0.00899392892603    
5200000000.0        0.00424120967009    0.00915101437329    0.962866946245      -0.262482549271     0.962866946245      -0.262482549271     0.00424120967009    0.00915101437329    
5300000000.0        0.00433654817556    0.00930711551671    0.961499475259      -0.267425253774     0.961499475259      -0.267425253774     0.00433654817556    0.00930711551671    
5400000000.0        0.00443352060815    0.00946222110701    0.960106351051      -0.272361724047     0.960106351051      -0.272361724047     0.00443352060815    0.00946222110701    
5500000000.0        0.00453211919402    0.00961632003175    0.958687595222      -0.277291831003     0.958687595222      -0.277291831003     0.00453211919402    0.00961632003175    
5600000000.0        0.00463233610859    0.00976940131184    0.957243230025      -0.282215445461     0.957243230025      -0.282215445461     0.00463233610859    0.00976940131184    
5700000000.0        0.00473416347923    0.00992145409807    0.955773278361      -0.287132438149     0.955773278361      -0.287132438149     0.00473416347923    0.00992145409807    
5800000000.0        0.00483759338776    0.0100724676677     0.954277763782      -0.292042679713     0.954277763782      -0.292042679713     0.00483759338776    0.0100724676677     
5900000000.0        0.00494261787286    0.0102224314213     0.952756710494      -0.296946040723     0.952756710494      -0.296946040723     0.00494261787286    0.0102224314213     
6000000000.0        0.00504922893219    0.0103713348792     0.951210143354      -0.301842391679     0.951210143354      -0.301842391679     0.00504922893219    0.0103713348792     
6100000000.0        0.00515741852449    0.0105191676787     0.949638087874      -0.306731603021     0.949638087874      -0.306731603021     0.00515741852449    0.0105191676787     
6200000000.0        0.00526717857142    0.0106659195706     0.948040570222      -0.311613545128     0.948040570222      -0.311613545128     0.00526717857142    0.0106659195706     
6300000000.0        0.00537850095936    0.0108115804163     0.946417617221      -0.316488088333     0.946417617221      -0.316488088333     0.00537850095936    0.0108115804163     
6400000000.0        0.00549137754103    0.010956140185      0.944769256352      -0.321355102921     0.944769256352      -0.321355102921     0.00549137754103    0.010956140185      
6500000000.0        0.00560580013698    0.0110995889504     0.943095515756      -0.326214459144     0.943095515756      -0.326214459144     0.00560580013698    0.0110995889504     
6600000000.0        0.00572176053701    0.011241916888      0.941396424233      -0.331066027216     0.941396424233      -0.331066027216     0.00572176053701    0.011241916888      
6700000000.0        0.00583925050146    0.0113831142725     0.939672011243      -0.335909677329     0.939672011243      -0.335909677329     0.00583925050146    0.0113831142725     
6800000000.0        0.00595826176239    0.0115231714746     0.937922306909      -0.340745279652     0.937922306909      -0.340745279652     0.00595826176239    0.0115231714747     
6900000000.0        0.00607878602467    0.0116620789586     0.936147342016      -0.34557270434      0.936147342016      -0.34557270434      0.00607878602467    0.0116620789586     
7000000000.0        0.00620081496695    0.0117998272796     0.934347148013      -0.35039182154      0.934347148013      -0.35039182154      0.00620081496695    0.0117998272796     
7100000000.0        0.00632434024259    0.011936407081      0.932521757014      -0.355202501393     0.932521757014      -0.355202501393     0.00632434024259    0.011936407081      
7200000000.0        0.00644935348048    0.0120718090919     0.930671201799      -0.360004614043     0.930671201799      -0.360004614043     0.00644935348048    0.0120718090919     
7300000000.0        0.00657584628575    0.0122060241245     0.928795515816      -0.36479802964      0.928795515816      -0.36479802964      0.00657584628575    0.0122060241245     
7400000000.0        0.00670381024041    0.0123390430717     0.926894733179      -0.369582618348     0.926894733179      -0.369582618348     0.00670381024041    0.0123390430717     
7500000000.0        0.00683323690399    0.0124708569049     0.92496888867       -0.374358250346     0.92496888867       -0.374358250346     0.00683323690399    0.0124708569049     
7600000000.0        0.00696411781398    0.0126014566713     0.923018017744      -0.37912479584      0.923018017744      -0.37912479584      0.00696411781398    0.0126014566713     
7700000000.0        0.00709644448627    0.0127308334918     0.921042156524      -0.383882125059     0.921042156524      -0.383882125059     0.00709644448627    0.0127308334918     
7800000000.0        0.00723020841556    0.0128589785586     0.919041341803      -0.388630108269     0.919041341803      -0.388630108269     0.00723020841556    0.0128589785586     
7900000000.0        0.00736540107559    0.012985883133      0.91701561105       -0.393368615774     0.91701561105       -0.393368615774     0.00736540107559    0.012985883133      
8000000000.0        0.00750201391941    0.0131115385435     0.914965002402      -0.398097517917     0.914965002402      -0.398097517917     0.00750201391941    0.0131115385435     
8100000000.0        0.00764003837955    0.0132359361833     0.912889554674      -0.402816685095     0.912889554674      -0.402816685095     0.00764003837955    0.0132359361833     
8200000000.0        0.00777946586813    0.0133590675082     0.910789307354      -0.407525987753     0.910789307354      -0.407525987753     0.00777946586813    0.0133590675082     
8300000000.0        0.00792028777687    0.013480924035      0.908664300603      -0.412225296397     0.908664300603      -0.412225296397     0.00792028777687    0.013480924035      
8400000000.0        0.00806249547716    0.0136014973389     0.906514575261      -0.416914481595     0.906514575261      -0.416914481595     0.00806249547716    0.0136014973389     
8500000000.0        0.00820608031993    0.013720779052      0.904340172843      -0.421593413981     0.904340172843      -0.421593413981     0.00820608031993    0.013720779052      
8600000000.0        0.00835103363558    0.0138387608613     0.902141135539      -0.426261964264     0.902141135539      -0.426261964264     0.00835103363558    0.0138387608613     
8700000000.0        0.00849734673376    0.0139554345066     0.899917506221      -0.430920003228     0.899917506221      -0.430920003228     0.00849734673376    0.0139554345066     
8800000000.0        0.00864501090324    0.0140707917789     0.897669328436      -0.435567401739     0.897669328436      -0.435567401739     0.00864501090324    0.0140707917789     
8900000000.0        0.00879401741156    0.0141848245186     0.895396646411      -0.440204030751     0.895396646411      -0.440204030751     0.00879401741156    0.0141848245186     
9000000000.0        0.00894435750476    0.0142975246135     0.893099505053      -0.444829761306     0.893099505053      -0.444829761306     0.00894435750476    0.0142975246135     
9100000000.0        0.00909602240702    0.0144088839976     0.890777949947      -0.449444464545     0.890777949947      -0.449444464545     0.00909602240702    0.0144088839976     
9200000000.0        0.00924900332025    0.0145188946488     0.88843202736       -0.454048011706     0.88843202736       -0.454048011706     0.00924900332025    0.0145188946488     
9300000000.0        0.00940329142363    0.0146275485879     0.886061784239      -0.458640274134     0.886061784239      -0.458640274134     0.00940329142363    0.0146275485879     
9400000000.0        0.00955887787312    0.0147348378765     0.883667268213      -0.463221123284     0.883667268213      -0.463221123284     0.00955887787312    0.0147348378765     
9500000000.0        0.00971575380096    0.0148407546158     0.881248527592      -0.467790430722     0.881248527592      -0.467790430722     0.00971575380096    0.0148407546158     
9600000000.0        0.00987391031505    0.014945290945      0.87880561137       -0.472348068134     0.87880561137       -0.472348068134     0.00987391031505    0.014945290945      
9700000000.0        0.0100333384984     0.0150484390398     0.876338569219      -0.476893907328     0.876338569219      -0.476893907328     0.0100333384984     0.0150484390398     
9800000000.0        0.0101940294083     0.015150191111      0.873847451499      -0.481427820241     0.873847451499      -0.481427820241     0.0101940294083     0.015150191111      
9900000000.0        0.010355974076      0.0152505394034     0.87133230925       -0.48594967894      0.87133230925       -0.48594967894      0.010355974076      0.0152505394034     
10000000000.0       0.0105191635056     0.0153494761938     0.868793194196      -0.490459355628     0.868793194196      -0.490459355628     0.0105191635056     0.0153494761938     
