# Hz S RI R 50.00 
100000000.0         -0.000242720475308  -0.0168671160418    0.99962392727       -0.0173046969377    0.99962392727       -0.0173046969377    -0.000242720475308  -0.0168671160418    
200000000.0         -0.00113399383342   -0.0337032323422    0.998731458633      -0.0345784375207    0.998731458633      -0.0345784375207    -0.00113399383342   -0.0337032323422    
300000000.0         -0.00260513395015   -0.0504787118675    0.997259161166      -0.0517916091215    0.997259161166      -0.0517916091215    -0.00260513395015   -0.0504787118675    
400000000.0         -0.00465096333329   -0.0671642753418    0.995212097526      -0.0689149517609    0.995212097526      -0.0689149517609    -0.00465096333329   -0.0671642753418    
500000000.0         -0.00726439091874   -0.0837311635091    0.992597314648      -0.0859197229278    0.992597314648      -0.0859197229278    -0.00726439091874   -0.0837311635091    
600000000.0         -0.0104364481983    -0.100151295569     0.989423758534      -0.102777856884     0.989423758534      -0.102777856884     -0.0104364481983    -0.100151295569     
700000000.0         -0.0141563589367    -0.116397420191     0.985702192089      -0.119462116122     0.985702192089      -0.119462116122     -0.0141563589367    -0.116397420191     
800000000.0         -0.0184116269679    -0.132443257088     0.981445102789      -0.135946233198     0.981445102789      -0.135946233198     -0.0184116269679    -0.132443257088     
900000000.0         -0.023188138004     -0.148263627539     0.976666598859      -0.15220504143      0.976666598859      -0.15220504143      -0.023188138004     -0.148263627539     
1000000000.0        -0.0284702731571    -0.163834572561     0.971382294733      -0.168214593194     0.971382294733      -0.168214593194     -0.0284702731571    -0.163834572561     
1100000000.0        -0.0342410322322    -0.179133457678     0.965609187195      -0.183952264782     0.965609187195      -0.183952264782     -0.0342410322322    -0.179133457678     
1200000000.0        -0.0404821649208    -0.194139063484     0.959365523855      -0.199396847034     0.959365523855      -0.199396847034     -0.0404821649208    -0.194139063484     
1300000000.0        -0.0471743080309    -0.208831661489     0.9526706657        -0.21452862124      0.9526706657        -0.21452862124      -0.0471743080309    -0.208831661489     
1400000000.0        -0.0542971269067    -0.223193074939     0.945544945545      -0.229329420012     0.945544945545      -0.229329420012     -0.0542971269067    -0.223193074939     
1500000000.0        -0.0618294592229    -0.237206724605     0.938009524138      -0.243782673096     0.938009524138      -0.243782673096     -0.0618294592229    -0.237206724605     
1600000000.0        -0.0697494594064    -0.250857659696     0.930086245681      -0.25787343833      0.930086245681      -0.25787343833      -0.0697494594064    -0.250857659696     
1700000000.0        -0.078034742027     -0.264132574338     0.921797494382      -0.271588418145     0.921797494382      -0.271588418145     -0.078034742027     -0.264132574338     
1800000000.0        -0.0866625226163    -0.277019810195     0.913166053611      -0.284915962204     0.913166053611      -0.284915962204     -0.0866625226163    -0.277019810195     
1900000000.0        -0.0956097545077    -0.289509345991     0.904214969029      -0.297846056957     0.904214969029      -0.297846056957     -0.0956097545077    -0.289509345991     
2000000000.0        -0.104853260445     -0.301592774852     0.894967416963      -0.31037030299      0.894967416963      -0.31037030299      -0.104853260445     -0.301592774852     
2100000000.0        -0.11436985787      -0.313263270468     0.885446579099      -0.322481881209     0.885446579099      -0.322481881209     -0.11436985787      -0.313263270468     
2200000000.0        -0.124136476968     -0.324515543175     0.87567552443       -0.334175508935     0.87567552443       -0.334175508935     -0.124136476968     -0.324515543175     
2300000000.0        -0.134130270725     -0.335345787123     0.865677099188      -0.345447387085     0.865677099188      -0.345447387085     -0.134130270725     -0.335345787123     
2400000000.0        -0.144328716418     -0.345751619705     0.855473825341      -0.356295139616     0.855473825341      -0.356295139616     -0.144328716418     -0.345751619705     
2500000000.0        -0.154709708132     -0.355732014454     0.845087808078      -0.366717746428     0.845087808078      -0.366717746428     -0.154709708132     -0.355732014454     
2600000000.0        -0.165251640044     -0.365287228584     0.834540652515      -0.376715470921     0.834540652515      -0.376715470921     -0.165251640044     -0.365287228584     
2700000000.0        -0.175933480366     -0.37441872633      0.823853389751      -0.38628978334      0.823853389751      -0.38628978334      -0.175933480366     -0.37441872633      
2800000000.0        -0.186734835981     -0.383129099182     0.813046412227      -0.395443281021     0.813046412227      -0.395443281021     -0.186734835981     -0.383129099182     
2900000000.0        -0.197636007898     -0.391421984056     0.802139418269      -0.404179606568     0.802139418269      -0.404179606568     -0.197636007898     -0.391421984056     
3000000000.0        -0.208618037797     -0.399301980371     0.791151365538      -0.412503364941     0.791151365538      -0.412503364941     -0.208618037797     -0.399301980371     
3100000000.0        -0.219662745982     -0.406774566907     0.780100433081      -0.420420040316     0.780100433081      -0.420420040316     -0.219662745982     -0.406774566907     
3200000000.0        -0.230752761162     -0.413846019251     0.769003991543      -0.427935913543     0.769003991543      -0.427935913543     -0.230752761162     -0.413846019251     
3300000000.0        -0.241871542533     -0.420523328539     0.757878581085      -0.435057980894     0.757878581085      -0.435057980894     -0.241871542533     -0.420523328539     
3400000000.0        -0.253003394663     -0.426814122115     0.746739896502      -0.441793874723     0.746739896502      -0.441793874723     -0.253003394663     -0.426814122115     
3500000000.0        -0.264133475734     -0.432726586631     0.735602778973      -0.448151786579     0.735602778973      -0.448151786579     -0.264133475734     -0.432726586631     
3600000000.0        -0.275247799708     -0.438269394045     0.724481213899      -0.454140393203     0.724481213899      -0.454140393203     -0.275247799708     -0.438269394045     
3700000000.0        -0.286333232984     -0.44345163087      0.713388334243      -0.459768785788     0.713388334243      -0.459768785788     -0.286333232984     -0.44345163087      
3800000000.0        -0.29737748612      -0.448282730965     0.702336428811      -0.465046402769     0.702336428811      -0.465046402769     -0.29737748612      -0.448282730965     
3900000000.0        -0.308369101189     -0.452772412074     0.69133695489       -0.469982966374     0.69133695489       -0.469982966374     -0.308369101189     -0.452772412074     
4000000000.0        -0.31929743531      -0.45693061627      0.680400554722      -0.474588423066     0.680400554722      -0.474588423066     -0.31929743531      -0.45693061627      
4100000000.0        -0.330152640883     -0.460767454384     0.669537075263      -0.478872887979     0.669537075263      -0.478872887979     -0.330152640883     -0.460767454384     
4200000000.0        -0.340925643028     -0.464293154455     0.658755590747      -0.482846593372     0.658755590747      -0.482846593372     -0.340925643028     -0.464293154455     
4300000000.0        -0.351608114704     -0.46751801419      0.648064427571      -0.486519841096     0.648064427571      -0.486519841096     -0.351608114704     -0.46751801419      
4400000000.0        -0.362192449927     -0.47045235739      0.637471191067      -0.489902959016     0.637471191067      -0.489902959016     -0.362192449927     -0.47045235739      
4500000000.0        -0.372671735526     -0.473106494234     0.626982793751      -0.493006261307     0.626982793751      -0.493006261307     -0.372671735526     -0.473106494234     
4600000000.0        -0.383039721774     -0.475490685328     0.616605484694      -0.495840012503     0.616605484694      -0.495840012503     -0.383039721774     -0.475490685328     
4700000000.0        -0.393290792256     -0.477615109378     0.606344879651      -0.498414395173     0.606344879651      -0.498414395173     -0.393290792256     -0.477615109378     
4800000000.0        -0.403419933261     -0.479489834313     0.596205991667      -0.500739481046     0.596205991667      -0.500739481046     -0.403419933261     -0.479489834313     
4900000000.0        -0.413422702982     -0.48112479171      0.586193261882      -0.502825205444     0.586193261882      -0.502825205444     -0.413422702982     -0.48112479171      
5000000000.0        -0.423295200751     -0.482529754331     0.57631059029       -0.504681344815     0.57631059029       -0.504681344815     -0.423295200751     -0.482529754331     
5100000000.0        -0.433034036528     -0.483714316578     0.566561366256      -0.506317497199     0.566561366256      -0.506317497199     -0.433034036528     -0.483714316578     
5200000000.0        -0.442636300814     -0.484687877696     0.556948498597      -0.507743065427     0.556948498597      -0.507743065427     -0.442636300814     -0.484687877696     
5300000000.0        -0.452099535158     -0.485459627513     0.547474445078      -0.508967242866     0.547474445078      -0.508967242866     -0.452099535158     -0.485459627513     
5400000000.0        -0.461421703363     -0.486038534541     0.538141241208      -0.509999001524     0.538141241208      -0.509999001524     -0.461421703363     -0.486038534541     
5500000000.0        -0.470601163526     -0.486433336244     0.528950528193      -0.510847082319     0.528950528193      -0.510847082319     -0.470601163526     -0.486433336244     
5600000000.0        -0.479636640978     -0.486652531307     0.519903580003      -0.511519987349     0.519903580003      -0.511519987349     -0.479636640978     -0.486652531307     
5700000000.0        -0.4885272022       -0.48670437371      0.511001329454      -0.512025973973     0.511001329454      -0.512025973973     -0.4885272022       -0.48670437371      
5800000000.0        -0.497272229766     -0.486596868459     0.502244393262      -0.512373050538     0.502244393262      -0.512373050538     -0.497272229766     -0.486596868459     
5900000000.0        -0.505871398352     -0.486337768806     0.493633096037      -0.512568973607     0.493633096037      -0.512568973607     -0.505871398352     -0.486337768806     
6000000000.0        -0.514324651825     -0.485934574809     0.485167493193      -0.512621246517     0.485167493193      -0.512621246517     -0.514324651825     -0.485934574809     
6100000000.0        -0.522632181437     -0.485394533092     0.476847392755      -0.512537119141     0.476847392755      -0.512537119141     -0.522632181437     -0.485394533092     
6200000000.0        -0.530794405115     -0.484724637662     0.468672376063      -0.512323588713     0.468672376063      -0.512323588713     -0.530794405115     -0.484724637662     
6300000000.0        -0.538811947851     -0.483931631678     0.460641817394      -0.51198740159      0.460641817394      -0.51198740159      -0.538811947851     -0.483931631678     
6400000000.0        -0.546685623165     -0.483022010038     0.452754902488      -0.511535055846     0.452754902488      -0.511535055846     -0.546685623165     -0.483022010038     
6500000000.0        -0.554416415633     -0.482002022685     0.445010646021      -0.510972804578     0.445010646021      -0.510972804578     -0.554416415633     -0.482002022685     
6600000000.0        -0.562005464452     -0.480877678533     0.437407908046      -0.510306659837     0.437407908046      -0.510306659837     -0.562005464452     -0.480877678533     
6700000000.0        -0.569454048007     -0.479654749927     0.429945409423      -0.509542397086     0.429945409423      -0.509542397086     -0.569454048007     -0.479654749927     
6800000000.0        -0.576763569415     -0.478338777546     0.422621746273      -0.508685560103     0.422621746273      -0.508685560103     -0.576763569415     -0.478338777546     
6900000000.0        -0.583935543009     -0.476935075679     0.415435403495      -0.507741466265     0.415435403495      -0.507741466265     -0.583935543009     -0.476935075679     
7000000000.0        -0.59097158172      -0.475448737809     0.408384767384      -0.506715212126     0.408384767384      -0.506715212126     -0.59097158172      -0.475448737809     
7100000000.0        -0.597873385328     -0.473884642434     0.401468137381      -0.505611679246     0.401468137381      -0.505611679246     -0.597873385328     -0.473884642434     
7200000000.0        -0.604642729539     -0.472247459082     0.394683736998      -0.504435540203     0.394683736998      -0.504435540203     -0.604642729539     -0.472247459082     
7300000000.0        -0.61128145584      -0.470541654461     0.388029723955      -0.503191264743     0.388029723955      -0.503191264743     -0.61128145584      -0.470541654461     
7400000000.0        -0.61779146211      -0.468771498699     0.381504199576      -0.50188312603      0.381504199576      -0.50188312603      -0.61779146211      -0.468771498699     
7500000000.0        -0.624174693938     -0.466941071649     0.375105217471      -0.500515206941     0.375105217471      -0.500515206941     -0.624174693938     -0.466941071649     
7600000000.0        -0.630433136602     -0.465054269203     0.368830791553      -0.499091406389     0.368830791553      -0.499091406389     -0.630433136602     -0.465054269203     
7700000000.0        -0.636568807692     -0.463114809605     0.362678903416      -0.497615445633     0.362678903416      -0.497615445633     -0.636568807692     -0.463114809605     
7800000000.0        -0.642583750317     -0.461126239718     0.356647509131      -0.496090874546     0.356647509131      -0.496090874546     -0.642583750317     -0.461126239718     
7900000000.0        -0.648480026882     -0.459091941236     0.350734545466      -0.494521077834     0.350734545466      -0.494521077834     -0.648480026882     -0.459091941236     
8000000000.0        -0.654259713381     -0.457015136818     0.344937935592      -0.492909281164     0.344937935592      -0.492909281164     -0.654259713381     -0.457015136818     
8100000000.0        -0.65992489419      -0.454898896122     0.339255594294      -0.491258557201     0.339255594294      -0.491258557201     -0.65992489419      -0.454898896122     
8200000000.0        -0.665477657318     -0.452746141722     0.333685432717      -0.489571831528     0.333685432717      -0.489571831528     -0.665477657318     -0.452746141722     
8300000000.0        -0.670920090084     -0.450559654914     0.328225362688      -0.487851888452     0.328225362688      -0.487851888452     -0.670920090084     -0.450559654914     
8400000000.0        -0.676254275204     -0.448342081379     0.322873300631      -0.486101376666     0.322873300631      -0.486101376666     -0.676254275204     -0.448342081379     
8500000000.0        -0.681482287245     -0.446095936705     0.317627171115      -0.484322814774     0.317627171115      -0.484322814774     -0.681482287245     -0.446095936705     
8600000000.0        -0.686606189429     -0.443823611767     0.312484910041      -0.482518596671     0.312484910041      -0.482518596671     -0.686606189429     -0.443823611767     
8700000000.0        -0.691628030764     -0.44152737795      0.307444467526      -0.480690996766     0.307444467526      -0.480690996766     -0.691628030764     -0.44152737795      
8800000000.0        -0.696549843464     -0.439209392214     0.302503810464      -0.478842175052     0.302503810464      -0.478842175052     -0.696549843464     -0.439209392214     
8900000000.0        -0.701373640663     -0.436871702006     0.297660924831      -0.476974182013     0.297660924831      -0.476974182013     -0.701373640663     -0.436871702006     
9000000000.0        -0.70610141437      -0.434516250012     0.292913817715      -0.475088963379     0.292913817715      -0.475088963379     -0.70610141437      -0.434516250012     
9100000000.0        -0.710735133671     -0.432144878742     0.288260519124      -0.473188364714     0.288260519124      -0.473188364714     -0.710735133671     -0.432144878742     
9200000000.0        -0.715276743146     -0.429759334965     0.283699083561      -0.471274135847     0.283699083561      -0.471274135847     -0.715276743146     -0.429759334965     
9300000000.0        -0.719728161491     -0.42736127398      0.279227591409      -0.469347935149     0.279227591409      -0.469347935149     -0.719728161491     -0.42736127398      
9400000000.0        -0.724091280322     -0.42495226373      0.274844150121      -0.467411333643     0.274844150121      -0.467411333643     -0.724091280322     -0.42495226373      
9500000000.0        -0.728367963152     -0.422533788767     0.270546895247      -0.465465818974     0.270546895247      -0.465465818974     -0.728367963152     -0.422533788767     
9600000000.0        -0.732560044527     -0.42010725406      0.266333991298      -0.463512799212     0.266333991298      -0.463512799212     -0.732560044527     -0.42010725406      
9700000000.0        -0.736669329297     -0.417673988656     0.26220363247       -0.461553606519     0.26220363247       -0.461553606519     -0.736669329297     -0.417673988656     
9800000000.0        -0.740697592029     -0.415235249195     0.258154043236      -0.459589500663     0.258154043236      -0.459589500663     -0.740697592029     -0.415235249195     
9900000000.0        -0.744646576535     -0.412792223286     0.254183478818      -0.457621672394     0.254183478818      -0.457621672394     -0.744646576535     -0.412792223286     
10000000000.0       -0.748517995504     -0.410346032744     0.250290225549      -0.455651246677     0.250290225549      -0.455651246677     -0.748517995504     -0.410346032744     
