# Hz S RI R 50.00 
100000000.0         0.00242558055386    0.000649680182885   0.99757309237       -0.000952944009255  0.99757309237       -0.000952944009255  0.00242558055386    0.000649680182885   
200000000.0         0.0024433786549     0.00129930956816    0.997554875139      -0.00190584194236   0.997554875139      -0.00190584194236   0.0024433786549     0.00129930956816    
300000000.0         0.00245812120387    0.00194890794073    0.997539621397      -0.00285871609822   0.997539621397      -0.00285871609822   0.00245812120387    0.00194890794073    
400000000.0         0.0024719142269     0.00259848117812    0.997525225104      -0.0038115742881    0.997525225104      -0.0038115742881    0.0024719142269     0.00259848117812    
500000000.0         0.00248556955675    0.00324803185378    0.997510874415      -0.00476442072384   0.997510874415      -0.00476442072384   0.00248556955675    0.00324803185378    
600000000.0         0.00249950159852    0.00389756105954    0.997496154909      -0.00571725794063   0.997496154909      -0.00571725794063   0.00249950159852    0.00389756105954    
700000000.0         0.00251395537275    0.00454706906837    0.997480821551      -0.00667008751141   0.997480821551      -0.00667008751141   0.00251395537275    0.00454706906837    
800000000.0         0.00252908976875    0.00519655564546    0.997464715433      -0.00762291038869   0.997464715433      -0.00762291038869   0.00252908976875    0.00519655564546    
900000000.0         0.00254501462363    0.00584602021701    0.9974477267        -0.00857572709376   0.9974477267        -0.00857572709376   0.00254501462363    0.00584602021701    
1000000000.0        0.00256180952207    0.00649546197109    0.997429775747      -0.00952853783194   0.997429775747      -0.00952853783194   0.00256180952207    0.00649546197109    
1100000000.0        0.00257953424962    0.00714487992221    0.99741080277       -0.010481342568     0.99741080277       -0.010481342568     0.00257953424962    0.00714487992221    
1200000000.0        0.00259823502329    0.00779427295499    0.997390761529      -0.0114341410777    0.997390761529      -0.0114341410777    0.00259823502329    0.00779427295499    
1300000000.0        0.00261794841233    0.00844363985472    0.997369615434      -0.012386932985     0.997369615434      -0.012386932985     0.00261794841233    0.00844363985472    
1400000000.0        0.0026387039162     0.00909297932962    0.997347334962      -0.0133397177899    0.997347334962      -0.0133397177899    0.0026387039162     0.00909297932962    
1500000000.0        0.00266052572155    0.00974229002745    0.997323895903      -0.0142924948885    0.997323895903      -0.0142924948885    0.00266052572155    0.00974229002745    
1600000000.0        0.0026834339366     0.0103915705481     0.997299278125      -0.0152452635901    0.997299278125      -0.0152452635901    0.0026834339366     0.0103915705481     
1700000000.0        0.00270744548087    0.0110408194536     0.997273464682      -0.0161980231295    0.997273464682      -0.0161980231295    0.00270744548087    0.0110408194536     
1800000000.0        0.00273257474093    0.0116900352756     0.997246441164      -0.017150772678     0.997246441164      -0.017150772678     0.00273257474093    0.0116900352756     
1900000000.0        0.00275883406304    0.0123392165217     0.997218195197      -0.018103511351     0.997218195197      -0.018103511351     0.00275883406304    0.0123392165217     
2000000000.0        0.00278623412976    0.0129883616806     0.997188716072      -0.019056238216     0.997188716072      -0.019056238216     0.00278623412976    0.0129883616806     
2100000000.0        0.00281478425203    0.0136374692262     0.997157994452      -0.0200089522978    0.997157994452      -0.0200089522978    0.00281478425203    0.0136374692262     
2200000000.0        0.00284449259889    0.0142865376208     0.997126022139      -0.0209616525838    0.997126022139      -0.0209616525838    0.00284449259889    0.0142865376208     
2300000000.0        0.0028753663803     0.0149355653181     0.997092791896      -0.021914338028     0.997092791896      -0.021914338028     0.0028753663803     0.0149355653181     
2400000000.0        0.00290741199423    0.0155845507655     0.997058297295      -0.022867007555     0.997058297295      -0.022867007555     0.00290741199423    0.0155845507655     
2500000000.0        0.00294063514619    0.0162334924062     0.997022532603      -0.0238196600627    0.997022532603      -0.0238196600627    0.00294063514619    0.0162334924062     
2600000000.0        0.00297504094724    0.0168823886807     0.996985492678      -0.0247722944255    0.996985492678      -0.0247722944255    0.00297504094724    0.0168823886807     
2700000000.0        0.00301063399503    0.0175312380287     0.996947172895      -0.0257249094962    0.996947172895      -0.0257249094962    0.00301063399503    0.0175312380287     
2800000000.0        0.00304741844128    0.0181800388896     0.996907569069      -0.0266775041086    0.996907569069      -0.0266775041086    0.00304741844128    0.0181800388896     
2900000000.0        0.00308539804843    0.0188287897042     0.99686667741       -0.0276300770788    0.99686667741       -0.0276300770788    0.00308539804843    0.0188287897042     
3000000000.0        0.00312457623744    0.0194774889155     0.996824494465      -0.0285826272076    0.996824494465      -0.0285826272076    0.00312457623744    0.0194774889155     
3100000000.0        0.00316495612845    0.0201261349692     0.996781017083      -0.0295351532812    0.996781017083      -0.0295351532812    0.00316495612845    0.0201261349692     
3200000000.0        0.00320654057543    0.0207747263145     0.996736242379      -0.030487654073     0.996736242379      -0.030487654073     0.00320654057543    0.0207747263145     
3300000000.0        0.003249332196      0.021423261405      0.996690167703      -0.0314401283446    0.996690167703      -0.0314401283446    0.003249332196      0.021423261405      
3400000000.0        0.00329333339716    0.0220717386988     0.996642790617      -0.032392574847     0.996642790617      -0.032392574847     0.00329333339716    0.0220717386988     
3500000000.0        0.00333854639756    0.0227201566589     0.996594108871      -0.0333449923212    0.996594108871      -0.0333449923212    0.00333854639756    0.0227201566589     
3600000000.0        0.00338497324692    0.0233685137542     0.996544120382      -0.0342973794997    0.996544120382      -0.0342973794997    0.00338497324692    0.0233685137542     
3700000000.0        0.003432615843      0.0240168084591     0.99649282322       -0.0352497351065    0.99649282322       -0.0352497351065    0.003432615843      0.0240168084591     
3800000000.0        0.00348147594648    0.0246650392542     0.996440215592      -0.0362020578584    0.996440215592      -0.0362020578584    0.00348147594648    0.0246650392542     
3900000000.0        0.00353155519407    0.0253132046265     0.99638629583       -0.0371543464656    0.99638629583       -0.0371543464656    0.00353155519407    0.0253132046265     
4000000000.0        0.00358285511011    0.0259613030693     0.996331062375      -0.038106599632     0.996331062375      -0.038106599632     0.00358285511011    0.0259613030693     
4100000000.0        0.00363537711687    0.0266093330828     0.996274513772      -0.0390588160558    0.996274513772      -0.0390588160558    0.00363537711687    0.0266093330828     
4200000000.0        0.00368912254363    0.0272572931742     0.99621664866       -0.0400109944303    0.99621664866       -0.0400109944303    0.00368912254363    0.0272572931742     
4300000000.0        0.00374409263487    0.0279051818576     0.996157465761      -0.0409631334439    0.996157465761      -0.0409631334439    0.00374409263487    0.0279051818576     
4400000000.0        0.00380028855757    0.028552997654      0.996096963874      -0.0419152317811    0.996096963874      -0.0419152317811    0.00380028855757    0.028552997654      
4500000000.0        0.00385771140773    0.0292007390918     0.99603514187       -0.0428672881222    0.99603514187       -0.0428672881222    0.00385771140773    0.0292007390918     
4600000000.0        0.00391636221623    0.0298484047068     0.995971998686      -0.043819301144     0.995971998686      -0.043819301144     0.00391636221623    0.0298484047068     
4700000000.0        0.00397624195418    0.0304959930419     0.995907533316      -0.0447712695203    0.995907533316      -0.0447712695203    0.00397624195418    0.0304959930419     
4800000000.0        0.00403735153767    0.0311435026475     0.995841744812      -0.0457231919218    0.995841744812      -0.0457231919218    0.00403735153767    0.0311435026475     
4900000000.0        0.00409969183211    0.0317909320812     0.995774632274      -0.0466750670167    0.995774632274      -0.0466750670167    0.00409969183211    0.0317909320812     
5000000000.0        0.00416326365619    0.0324382799082     0.99570619485       -0.0476268934707    0.99570619485       -0.0476268934707    0.00416326365619    0.0324382799082     
5100000000.0        0.0042280677854     0.0330855447012     0.995636431732      -0.0485786699475    0.995636431732      -0.0485786699475    0.0042280677854     0.0330855447012     
5200000000.0        0.00429410495536    0.03373272504       0.995565342151      -0.0495303951085    0.995565342151      -0.0495303951085    0.00429410495536    0.03373272504       
5300000000.0        0.00436137586471    0.034379819512      0.995492925374      -0.0504820676138    0.995492925374      -0.0504820676138    0.00436137586471    0.034379819512      
5400000000.0        0.00442988117793    0.0350268267121     0.995419180704      -0.0514336861216    0.995419180704      -0.0514336861216    0.00442988117793    0.0350268267121     
5500000000.0        0.00449962152772    0.0356737452425     0.995344107475      -0.0523852492888    0.995344107475      -0.0523852492888    0.00449962152772    0.0356737452425     
5600000000.0        0.00457059751739    0.0363205737126     0.995267705051      -0.0533367557709    0.995267705051      -0.0533367557709    0.00457059751739    0.0363205737126     
5700000000.0        0.00464280972286    0.0369673107392     0.995189972821      -0.0542882042226    0.995189972821      -0.0542882042226    0.00464280972286    0.0369673107392     
5800000000.0        0.0047162586947     0.0376139549465     0.995110910204      -0.0552395932974    0.995110910204      -0.0552395932974    0.0047162586947     0.0376139549465     
5900000000.0        0.00479094495981    0.0382605049657     0.995030516638      -0.0561909216477    0.995030516638      -0.0561909216477    0.00479094495981    0.0382605049657     
6000000000.0        0.00486686902314    0.0389069594355     0.994948791587      -0.0571421879255    0.994948791587      -0.0571421879255    0.00486686902314    0.0389069594355     
6100000000.0        0.00494403136917    0.0395533170013     0.994865734532      -0.058093390782     0.994865734532      -0.058093390782     0.00494403136917    0.0395533170013     
6200000000.0        0.00502243246334    0.0401995763161     0.994781344976      -0.0590445288677    0.994781344976      -0.0590445288677    0.00502243246334    0.0401995763161     
6300000000.0        0.00510207275335    0.0408457360394     0.994695622438      -0.0599956008327    0.994695622438      -0.0599956008327    0.00510207275335    0.0408457360394     
6400000000.0        0.00518295267036    0.041491794838      0.994608566456      -0.0609466053268    0.994608566456      -0.0609466053268    0.00518295267036    0.041491794838      
6500000000.0        0.00526507263015    0.0421377513856     0.994520176581      -0.061897540999     0.994520176581      -0.061897540999     0.00526507263015    0.0421377513856     
6600000000.0        0.00534843303411    0.0427836043626     0.994430452379      -0.0628484064986    0.994430452379      -0.0628484064986    0.00534843303411    0.0427836043626     
6700000000.0        0.00543303427029    0.0434293524562     0.99433939343       -0.0637992004741    0.99433939343       -0.0637992004741    0.00543303427029    0.0434293524562     
6800000000.0        0.00551887671426    0.0440749943604     0.994246999328      -0.0647499215743    0.994246999328      -0.0647499215743    0.00551887671426    0.0440749943604     
6900000000.0        0.00560596072998    0.0447205287758     0.994153269676      -0.0657005684473    0.994153269676      -0.0657005684473    0.00560596072998    0.0447205287758     
7000000000.0        0.00569428667058    0.0453659544096     0.99405820409       -0.0666511397416    0.99405820409       -0.0666511397416    0.00569428667058    0.0453659544096     
7100000000.0        0.00578385487913    0.0460112699755     0.993961802197      -0.0676016341053    0.993961802197      -0.0676016341053    0.00578385487913    0.0460112699755     
7200000000.0        0.00587466568931    0.0466564741934     0.99386406363       -0.0685520501867    0.99386406363       -0.0685520501867    0.00587466568931    0.0466564741934     
7300000000.0        0.0059667194261     0.04730156579       0.993764988034      -0.0695023866337    0.993764988034      -0.0695023866337    0.0059667194261     0.04730156579       
7400000000.0        0.00606001640636    0.047946543498      0.993664575063      -0.0704526420945    0.993664575063      -0.0704526420945    0.00606001640635    0.047946543498      
7500000000.0        0.00615455693939    0.0485914060562     0.993562824375      -0.0714028152174    0.993562824375      -0.0714028152174    0.00615455693939    0.0485914060562     
7600000000.0        0.00625034132755    0.0492361522099     0.993459735639      -0.0723529046504    0.993459735639      -0.0723529046504    0.00625034132755    0.0492361522099     
7700000000.0        0.00634736986669    0.0498807807102     0.993355308529      -0.0733029090418    0.993355308529      -0.0733029090418    0.00634736986669    0.0498807807102     
7800000000.0        0.00644564284667    0.0505252903142     0.993249542725      -0.0742528270398    0.993249542725      -0.0742528270398    0.00644564284667    0.0505252903142     
7900000000.0        0.00654516055179    0.051169679785      0.993142437913      -0.0752026572928    0.993142437913      -0.0752026572928    0.00654516055179    0.051169679785      
8000000000.0        0.00664592326127    0.0518139478915     0.993033993786      -0.0761523984491    0.993033993786      -0.0761523984491    0.00664592326127    0.0518139478915     
8100000000.0        0.00674793124957    0.0524580934082     0.99292421004       -0.0771020491572    0.99292421004       -0.0771020491572    0.00674793124957    0.0524580934082     
8200000000.0        0.00685118478686    0.0531021151157     0.992813086375      -0.0780516080656    0.992813086375      -0.0780516080656    0.00685118478686    0.0531021151157     
8300000000.0        0.00695568413931    0.0537460117997     0.992700622497      -0.0790010738229    0.992700622497      -0.0790010738229    0.00695568413931    0.0537460117997     
8400000000.0        0.00706142956948    0.0543897822517     0.992586818117      -0.0799504450777    0.992586818117      -0.0799504450777    0.00706142956948    0.0543897822517     
8500000000.0        0.00716842133661    0.0550334252686     0.992471672946      -0.0808997204785    0.992471672946      -0.0808997204785    0.00716842133661    0.0550334252686     
8600000000.0        0.00727665969697    0.0556769396528     0.992355186701      -0.0818488986742    0.992355186701      -0.0818488986742    0.00727665969697    0.0556769396528     
8700000000.0        0.00738614490409    0.0563203242117     0.992237359101      -0.0827979783134    0.992237359101      -0.0827979783134    0.00738614490409    0.0563203242117     
8800000000.0        0.0074968772091     0.0569635777581     0.992118189868      -0.0837469580449    0.992118189868      -0.0837469580449    0.0074968772091     0.0569635777581     
8900000000.0        0.00760885686093    0.0576066991101     0.991997678727      -0.0846958365172    0.991997678727      -0.0846958365172    0.00760885686093    0.0576066991101     
9000000000.0        0.00772208410663    0.0582496870905     0.991875825404      -0.0856446123792    0.991875825404      -0.0856446123792    0.00772208410663    0.0582496870905     
9100000000.0        0.00783655919154    0.0588925405273     0.991752629628      -0.0865932842794    0.991752629628      -0.0865932842794    0.00783655919154    0.0588925405273     
9200000000.0        0.00795228235957    0.0595352582535     0.99162809113       -0.0875418508663    0.99162809113       -0.0875418508663    0.00795228235957    0.0595352582535     
9300000000.0        0.00806925385336    0.0601778391067     0.991502209641      -0.0884903107885    0.991502209641      -0.0884903107885    0.00806925385336    0.0601778391067     
9400000000.0        0.00818747391455    0.0608202819295     0.991374984895      -0.0894386626944    0.991374984895      -0.0894386626944    0.00818747391455    0.0608202819295     
9500000000.0        0.00830694278392    0.061462585569      0.991246416627      -0.0903869052322    0.991246416627      -0.0903869052322    0.00830694278392    0.061462585569      
9600000000.0        0.00842766070161    0.062104748877      0.991116504573      -0.09133503705      0.991116504573      -0.09133503705      0.00842766070161    0.062104748877      
9700000000.0        0.00854962790727    0.0627467707098     0.990985248468      -0.0922830567957    0.990985248468      -0.0922830567957    0.00854962790727    0.0627467707098     
9800000000.0        0.00867284464026    0.0633886499282     0.99085264805       -0.093230963117     0.99085264805       -0.093230963117     0.00867284464026    0.0633886499282     
9900000000.0        0.0087973111398     0.0640303853974     0.990718703057      -0.0941787546615    0.990718703057      -0.0941787546615    0.0087973111398     0.0640303853974     
10000000000.0       0.0089230276451     0.0646719759868     0.990583413226      -0.0951264300763    0.990583413226      -0.0951264300763    0.0089230276451     0.0646719759868     
