# Hz S RI R 50.00 
100000000.0         -0.000169808573378  -0.0167416976832    0.999523761017      -0.0181987604083    0.999523761017      -0.0181987604083    -0.000169808573378  -0.0167416976832    
200000000.0         -0.0010993359492    -0.033452508276     0.998588968192      -0.0363668485665    0.998588968192      -0.0363668485665    -0.0010993359492    -0.033452508276     
300000000.0         -0.00263466240005   -0.0501019718302    0.997046774793      -0.0544739353394    0.997046774793      -0.0544739353394    -0.00263466240005   -0.0501019718302    
400000000.0         -0.00477057957604   -0.066659727951     0.994902123712      -0.0724897670286    0.994902123712      -0.0724897670286    -0.00477057957604   -0.066659727951     
500000000.0         -0.00749994047003   -0.0830957984927    0.992162058188      -0.0903844603257    0.992162058188      -0.0903844603257    -0.00749994047003   -0.0830957984927    
600000000.0         -0.0108136485287    -0.0993807947007    0.988835620182      -0.108128713559     0.988835620182      -0.108128713559     -0.0108136485287    -0.0993807947007    
700000000.0         -0.0147007089451    -0.115486098675     0.984933770558      -0.125693990231     0.984933770558      -0.125693990231     -0.0147007089451    -0.115486098675     
800000000.0         -0.0191483065512    -0.131384028116     0.98046930081       -0.143052685        0.98046930081       -0.143052685        -0.0191483065512    -0.131384028116     
900000000.0         -0.0241419020839    -0.147047986434     0.975456732188      -0.160178274618     0.975456732188      -0.160178274618     -0.0241419020839    -0.147047986434     
1000000000.0        -0.0296653431674    -0.162452598376     0.969912202396      -0.177045454129     0.969912202396      -0.177045454129     -0.0296653431674    -0.162452598376     
1100000000.0        -0.035700987474     -0.17757383074      0.96385334114       -0.193630258024     0.96385334114       -0.193630258024     -0.035700987474     -0.17757383074      
1200000000.0        -0.042229835846     -0.192389097634     0.957299136255      -0.209910165834     0.957299136255      -0.209910165834     -0.042229835846     -0.192389097634     
1300000000.0        -0.0492316732638    -0.20687734981      0.950269792251      -0.225864191729     0.950269792251      -0.225864191729     -0.0492316732638    -0.20687734981      
1400000000.0        -0.0566852155934    -0.221019147789     0.942786583266      -0.241472957861     0.942786583266      -0.241472957861     -0.0566852155934    -0.221019147789     
1500000000.0        -0.064568260092     -0.234796718671     0.934871702345      -0.256718751361     0.934871702345      -0.256718751361     -0.064568260092     -0.234796718671     
1600000000.0        -0.0728578377161    -0.248193996786     0.926548108991      -0.27158556514      0.926548108991      -0.27158556514      -0.0728578377161    -0.248193996786     
1700000000.0        -0.0815303653648    -0.26119664852      0.917839376818      -0.286059122853     0.917839376818      -0.286059122853     -0.0815303653648    -0.26119664852      
1800000000.0        -0.0905617963095    -0.27379208189      0.908769543044      -0.300126888588     0.908769543044      -0.300126888588     -0.0905617963095    -0.27379208189      
1900000000.0        -0.0999277671955    -0.2859694416       0.899362961439      -0.313778062026     0.899362961439      -0.313778062026     -0.0999277671955    -0.2859694416       
2000000000.0        -0.109603740164     -0.297719590493     0.889644160156      -0.327003559982     0.889644160156      -0.327003559982     -0.109603740164     -0.297719590493     
2100000000.0        -0.119565138807     -0.309035078434     0.879637705746      -0.339795985377     0.879637705746      -0.339795985377     -0.119565138807     -0.309035078434     
2200000000.0        -0.129787476867     -0.319910099781     0.869368074438      -0.352149584773     0.869368074438      -0.352149584773     -0.129787476867     -0.319910099781     
2300000000.0        -0.140246478753     -0.330340440652     0.858859531597      -0.364060195719     0.858859531597      -0.364060195719     -0.140246478753     -0.330340440652     
2400000000.0        -0.15091819116      -0.340323417279     0.848136020092      -0.375525185158     0.848136020092      -0.375525185158     -0.15091819116      -0.340323417279     
2500000000.0        -0.161779085251     -0.349857806737     0.837221058102      -0.386543380217     0.837221058102      -0.386543380217     -0.161779085251     -0.349857806737     
2600000000.0        -0.172806149035     -0.358943771329     0.82613764673       -0.397114992646     0.82613764673       -0.397114992646     -0.172806149035     -0.358943771329     
2700000000.0        -0.183976969738     -0.367582777922     0.814908187616      -0.407241538198     0.814908187616      -0.407241538198     -0.183976969738     -0.367582777922     
2800000000.0        -0.195269806138     -0.375777513422     0.803554410606      -0.416925752156     0.803554410606      -0.416925752156     -0.195269806138     -0.375777513422     
2900000000.0        -0.20666365094      -0.383531797583     0.79209731136       -0.426171502179     0.79209731136       -0.426171502179     -0.20666365094      -0.383531797583     
3000000000.0        -0.218138283427     -0.39085049421      0.780557098704      -0.434983699545     0.780557098704      -0.434983699545     -0.218138283427     -0.39085049421      
3100000000.0        -0.229674312691     -0.397739421777     0.768953151389      -0.443368209811     0.768953151389      -0.443368209811     -0.229674312691     -0.397739421777     
3200000000.0        -0.24125321187      -0.404205264365     0.757303983853      -0.451331763783     0.757303983853      -0.451331763783     -0.24125321187      -0.404205264365     
3300000000.0        -0.252857343869     -0.410255483734     0.745627220494      -0.458881869617     0.745627220494      -0.458881869617     -0.252857343869     -0.410255483734     
3400000000.0        -0.264469979103     -0.415898233244     0.733939577924      -0.466026726783     0.733939577924      -0.466026726783     -0.264469979103     -0.415898233244     
3500000000.0        -0.276075305849     -0.421142274256     0.722256854618      -0.47277514248      0.722256854618      -0.47277514248      -0.276075305849     -0.421142274256     
3600000000.0        -0.287658433808     -0.425996895515     0.710593927339      -0.479136451063     0.710593927339      -0.479136451063     -0.287658433808     -0.425996895515     
3700000000.0        -0.299205391514     -0.430471835968     0.698964753736      -0.485120436874     0.698964753736      -0.485120436874     -0.299205391514     -0.430471835968     
3800000000.0        -0.310703118192     -0.434577211336     0.687382380475      -0.49073726085      0.687382380475      -0.49073726085      -0.310703118192     -0.434577211336     
3900000000.0        -0.322139450717     -0.438323444725     0.675858956282      -0.49599739115      0.675858956282      -0.49599739115      -0.322139450717     -0.438323444725     
4000000000.0        -0.333503106255     -0.441721201438     0.664405749299      -0.500911537999     0.664405749299      -0.500911537999     -0.333503106255     -0.441721201438     
4100000000.0        -0.344783661175     -0.444781328124     0.653033168163      -0.505490592848     0.653033168163      -0.505490592848     -0.344783661175     -0.444781328124     
4200000000.0        -0.355971526807     -0.447514796305     0.641750786253      -0.509745571931     0.641750786253      -0.509745571931     -0.355971526807     -0.447514796305     
4300000000.0        -0.367057922541     -0.449932650293     0.630567368581      -0.513687564202     0.630567368581      -0.513687564202     -0.367057922541     -0.449932650293     
4400000000.0        -0.378034846792     -0.452045959449     0.619490900827      -0.517327683603     0.619490900827      -0.517327683603     -0.378034846792     -0.452045959449     
4500000000.0        -0.388895046267     -0.453865774688     0.608528620071      -0.520677025602     0.608528620071      -0.520677025602     -0.388895046267     -0.453865774688     
4600000000.0        -0.399631983947     -0.455403089133     0.597687046798      -0.523746627857     0.597687046798      -0.523746627857     -0.399631983947     -0.455403089133     
4700000000.0        -0.41023980619      -0.456668802755     0.586972017806      -0.526547434869     0.586972017806      -0.526547434869     -0.41023980619      -0.456668802755     
4800000000.0        -0.42071330927      -0.457673690825     0.57638871965       -0.529090266463     0.57638871965       -0.529090266463     -0.42071330927      -0.457673690825     
4900000000.0        -0.431047905674     -0.458428376019     0.565941722349      -0.531385789897     0.565941722349      -0.531385789897     -0.431047905674     -0.458428376019     
5000000000.0        -0.44123959042      -0.458943303954     0.555635013063      -0.533444495416     0.555635013063      -0.533444495416     -0.44123959042      -0.458943303954     
5100000000.0        -0.451284907641     -0.459228721957     0.545472029504      -0.535276675042     0.545472029504      -0.535276675042     -0.451284907641     -0.459228721957     
5200000000.0        -0.461180917623     -0.459294660862     0.53545569289       -0.536892404378     0.53545569289       -0.536892404378     -0.461180917623     -0.459294660862     
5300000000.0        -0.4709251645       -0.459150919626     0.525588440258      -0.538301527241     0.525588440258      -0.538301527241     -0.4709251645       -0.459150919626     
5400000000.0        -0.480515644714     -0.45880705254      0.515872255986      -0.539513642885     0.515872255986      -0.539513642885     -0.480515644714     -0.45880705254      
5500000000.0        -0.489950776399     -0.458272358842     0.506308702412      -0.540538095631     0.506308702412      -0.540538095631     -0.489950776399     -0.458272358842     
5600000000.0        -0.499229369765     -0.457555874534     0.496898949445      -0.541383966689     0.496898949445      -0.541383966689     -0.499229369765     -0.457555874534     
5700000000.0        -0.508350598562     -0.456666366187     0.487643803096      -0.542060067982     0.487643803096      -0.542060067982     -0.508350598562     -0.456666366187     
5800000000.0        -0.517313972687     -0.455612326578     0.478543732866      -0.542574937792     0.478543732866      -0.542574937792     -0.517313972687     -0.455612326578     
5900000000.0        -0.526119311976     -0.454401971958     0.469598897948      -0.542936838037     0.469598897948      -0.542936838037     -0.526119311976     -0.454401971958     
6000000000.0        -0.534766721196     -0.453043240787     0.460809172233      -0.543153753025     0.460809172233      -0.543153753025     -0.534766721196     -0.453043240787     
6100000000.0        -0.543256566268     -0.451543793793     0.45217416808       -0.543233389513     0.45217416808       -0.543233389513     -0.543256566268     -0.451543793793     
6200000000.0        -0.551589451707     -0.449911015182     0.44369325887       -0.543183177936     0.44369325887       -0.543183177936     -0.551589451707     -0.449911015182     
6300000000.0        -0.559766199283     -0.448152014883     0.435365600345      -0.54301027466      0.435365600345      -0.54301027466      -0.559766199283     -0.448152014883     
6400000000.0        -0.567787827875     -0.446273631682     0.427190150741      -0.542721565125     0.427190150741      -0.542721565125     -0.567787827875     -0.446273631682     
6500000000.0        -0.575655534509     -0.44428243714      0.419165689747      -0.542323667772     0.419165689747      -0.542323667772     -0.575655534509     -0.44428243714      
6600000000.0        -0.583370676545     -0.442184740176     0.41129083632       -0.541822938638     0.41129083632       -0.541822938638     -0.583370676545     -0.442184740176     
6700000000.0        -0.590934754974     -0.439986592216     0.403564065371      -0.541225476515     0.403564065371      -0.541225476515     -0.590934754974     -0.439986592216     
6800000000.0        -0.598349398796     -0.437693792829     0.395983723385      -0.540537128593     0.395983723385      -0.540537128593     -0.598349398796     -0.437693792829     
6900000000.0        -0.605616350442     -0.435311895743     0.388548042999      -0.539763496483     0.388548042999      -0.539763496483     -0.605616350442     -0.435311895743     
7000000000.0        -0.612737452185     -0.432846215189     0.381255156575      -0.538909942577     0.381255156575      -0.538909942577     -0.612737452185     -0.432846215189     
7100000000.0        -0.619714633513     -0.430301832493     0.374103108829      -0.537981596641     0.374103108829      -0.537981596641     -0.619714633513     -0.430301832493     
7200000000.0        -0.626549899407     -0.427683602858     0.367089868541      -0.536983362613     0.367089868541      -0.536983362613     -0.626549899407     -0.427683602858     
7300000000.0        -0.633245319484     -0.424996162282     0.360213339408      -0.535919925521     0.360213339408      -0.535919925521     -0.633245319484     -0.424996162282     
7400000000.0        -0.639803017971     -0.42224393456      0.353471370065      -0.534795758501     0.353471370065      -0.534795758501     -0.639803017971     -0.42224393456      
7500000000.0        -0.646225164443     -0.419431138338     0.346861763335      -0.533615129855     0.346861763335      -0.533615129855     -0.646225164443     -0.419431138338     
7600000000.0        -0.652513965305     -0.416561794162     0.340382284746      -0.532382110112     0.340382284746      -0.532382110112     -0.652513965305     -0.416561794162     
7700000000.0        -0.658671655963     -0.413639731513     0.334030670348      -0.531100579063     0.334030670348      -0.531100579063     -0.658671655963     -0.413639731513     
7800000000.0        -0.664700493646     -0.410668595777     0.327804633886      -0.52977423275      0.327804633886      -0.52977423275      -0.664700493646     -0.410668595777     
7900000000.0        -0.670602750841     -0.407651855141     0.321701873358      -0.528406590361     0.321701873358      -0.528406590361     -0.670602750841     -0.407651855141     
8000000000.0        -0.676380709296     -0.404592807382     0.315720077002      -0.527001001032     0.315720077002      -0.527001001032     -0.676380709296     -0.404592807382     
8100000000.0        -0.682036654568     -0.401494586544     0.309856928746      -0.525560650529     0.309856928746      -0.525560650529     -0.682036654568     -0.401494586544     
8200000000.0        -0.687572871059     -0.398360169476     0.304110113155      -0.524088567794     0.304110113155      -0.524088567794     -0.687572871059     -0.398360169476     
8300000000.0        -0.69299163753      -0.39519238222      0.298477319915      -0.522587631344     0.298477319915      -0.522587631344     -0.69299163753      -0.39519238222      
8400000000.0        -0.698295223043     -0.39199390625      0.292956247883      -0.521060575512     0.292956247883      -0.521060575512     -0.698295223043     -0.39199390625      
8500000000.0        -0.703485883312     -0.388767284538     0.287544608727      -0.519509996522     0.287544608727      -0.519509996522     -0.703485883312     -0.388767284538     
8600000000.0        -0.70856585742      -0.385514927449     0.282240130197      -0.5179383584       0.282240130197      -0.5179383584       -0.70856585742      -0.385514927449     
8700000000.0        -0.713537364893     -0.382239118468     0.277040559045      -0.516347998695     0.277040559045      -0.516347998695     -0.713537364893     -0.382239118468     
8800000000.0        -0.718402603096     -0.378942019735     0.271943663621      -0.514741134031     0.271943663621      -0.514741134031     -0.718402603096     -0.378942019735     
8900000000.0        -0.723163744913     -0.375625677411     0.266947236182      -0.513119865474     0.266947236182      -0.513119865474     -0.723163744913     -0.375625677411     
9000000000.0        -0.72782293672      -0.372292026849     0.262049094909      -0.511486183722     0.262049094909      -0.511486183722     -0.72782293672      -0.372292026849     
9100000000.0        -0.732382296598     -0.368942897599     0.257247085689      -0.509841974101     0.257247085689      -0.509841974101     -0.732382296598     -0.368942897599     
9200000000.0        -0.736843912782     -0.365580018217     0.252539083648      -0.508189021394     0.252539083648      -0.508189021394     -0.736843912782     -0.365580018217     
9300000000.0        -0.741209842328     -0.362205020905     0.247922994483      -0.506529014485     0.247922994483      -0.506529014485     -0.741209842328     -0.362205020905     
9400000000.0        -0.745482109969     -0.35881944597      0.24339675559       -0.504863550823     0.24339675559       -0.504863550823     -0.745482109969     -0.35881944597      
9500000000.0        -0.749662707159     -0.355424746111     0.23895833701       -0.50319414072      0.23895833701       -0.50319414072      -0.749662707159     -0.355424746111     
9600000000.0        -0.753753591276     -0.352022290536     0.23460574222       -0.501522211473     0.23460574222       -0.501522211473     -0.753753591276     -0.352022290536     
9700000000.0        -0.757756684974     -0.348613368911     0.230337008764      -0.499849111323     0.230337008764      -0.499849111323     -0.757756684974     -0.348613368911     
9800000000.0        -0.76167387568      -0.345199195149     0.226150208749      -0.498176113249     0.226150208749      -0.498176113249     -0.76167387568      -0.345199195149     
9900000000.0        -0.765507015207     -0.341780911039     0.222043449219      -0.496504418605     0.222043449219      -0.496504418605     -0.765507015207     -0.341780911039     
10000000000.0       -0.769257919484     -0.338359589722     0.218014872414      -0.494835160607     0.218014872414      -0.494835160607     -0.769257919484     -0.338359589722     
