# Hz S RI R 50.00 
100000000.0         0.116590146617      0.00364853677646    0.883406694468      -0.0049790960153    0.883406694468      -0.0049790960153    0.116590146617      0.00364853677646    
200000000.0         0.117327026997      0.00728322309071    0.882665805822      -0.00994435376132   0.882665805822      -0.00994435376132   0.117327026997      0.00728322309071    
300000000.0         0.117919351673      0.0109089541214     0.882067622486      -0.0149006793442    0.882067622486      -0.0149006793442    0.117919351673      0.0109089541214     
400000000.0         0.118457415489      0.0145270674949     0.881521848805      -0.019849420189     0.881521848805      -0.019849420189     0.118457415489      0.0145270674949     
500000000.0         0.118976041261      0.0181380737647     0.880993661226      -0.0247910960812    0.880993661226      -0.0247910960812    0.118976041261      0.0181380737647     
600000000.0         0.11949299193       0.0217421179247     0.8804652961        -0.029725860878     0.8804652961        -0.029725860878     0.11949299193       0.0217421179247     
700000000.0         0.120018747041      0.0253391452955     0.87992627317       -0.0346536684948    0.87992627317       -0.0346536684948    0.120018747041      0.0253391452955     
800000000.0         0.120560074593      0.0289289785562     0.879369823714      -0.0395743499974    0.879369823714      -0.0395743499974    0.120560074593      0.0289289785562     
900000000.0         0.121121622934      0.0325113591986     0.878791298636      -0.0444876550958    0.878791298636      -0.0444876550958    0.121121622934      0.0325113591986     
1000000000.0        0.121706728412      0.036085972144      0.878187360813      -0.0493932767883    0.878187360813      -0.0493932767883    0.121706728412      0.036085972144      
1100000000.0        0.122317864723      0.0396524614428     0.877555535741      -0.0542908670825    0.877555535741      -0.0542908670825    0.122317864723      0.0396524614428     
1200000000.0        0.122956910911      0.0432104408505     0.876893943532      -0.0591800475864    0.876893943532      -0.0591800475864    0.122956910911      0.0432104408505     
1300000000.0        0.123625320127      0.0467595012699     0.87620113015       -0.0640604169627    0.87620113015       -0.0640604169627    0.123625320127      0.0467595012699     
1400000000.0        0.124324230663      0.0502992161778     0.875475956382      -0.0689315563662    0.875475956382      -0.0689315563662    0.124324230663      0.0502992161778     
1500000000.0        0.125054541687      0.0538291457054     0.874717522095      -0.0737930335315    0.874717522095      -0.0737930335315    0.125054541687      0.0538291457054     
1600000000.0        0.125816966504      0.0573488397843     0.873925112977      -0.0786444059265    0.873925112977      -0.0786444059265    0.125816966504      0.0573488397843     
1700000000.0        0.126612070986      0.0608578406299     0.873098162105      -0.0834852232407    0.873098162105      -0.0834852232407    0.126612070986      0.0608578406299     
1800000000.0        0.127440301933      0.0643556847389     0.872236221584      -0.0883150293886    0.872236221584      -0.0883150293886    0.127440301933      0.0643556847389     
1900000000.0        0.128302008424      0.0678419045269     0.871338941194      -0.0931333641506    0.871338941194      -0.0931333641506    0.128302008424      0.0678419045269     
2000000000.0        0.129197458164      0.0713160296906     0.870406052045      -0.0979397645394    0.870406052045      -0.0979397645394    0.129197458164      0.0713160296906     
2100000000.0        0.130126850201      0.0747775883581     0.869437353857      -0.102733765953     0.869437353857      -0.102733765953     0.130126850201      0.0747775883581     
2200000000.0        0.131090324963      0.0782261080729     0.868432704925      -0.107514903164     0.868432704925      -0.107514903164     0.131090324963      0.0782261080729     
2300000000.0        0.132087972266      0.0816611166454     0.867392014107      -0.112282711169     0.867392014107      -0.112282711169     0.132087972266      0.0816611166454     
2400000000.0        0.133119837803      0.0850821428971     0.866315234338      -0.117036725938     0.866315234338      -0.117036725938     0.133119837803      0.0850821428971     
2500000000.0        0.134185928438      0.0884887173178     0.865202357337      -0.121776485077     0.865202357337      -0.121776485077     0.134185928438      0.0884887173178     
2600000000.0        0.135286216578      0.0918803726505     0.864053409229      -0.126501528406     0.864053409229      -0.126501528406     0.135286216578      0.0918803726505     
2700000000.0        0.136420643822      0.095256644416      0.862868446903      -0.131211398495     0.862868446903      -0.131211398495     0.136420643822      0.095256644416      
2800000000.0        0.137589124024      0.0986170713869     0.861647554942      -0.135905641134     0.861647554942      -0.135905641134     0.137589124024      0.0986170713869     
2900000000.0        0.1387915459        0.101961196018      0.860390843023      -0.140583805763     0.860390843023      -0.140583805763     0.1387915459        0.101961196018      
3000000000.0        0.140027775246      0.105288564838      0.859098443689      -0.145245445873     0.859098443689      -0.145245445873     0.140027775246      0.105288564838      
3100000000.0        0.141297656863      0.108598728814      0.857770510436      -0.149890119362     0.857770510436      -0.149890119362     0.141297656863      0.108598728814      
3200000000.0        0.142601016223      0.111891243677      0.856407216037      -0.154517388871     0.856407216037      -0.154517388871     0.142601016223      0.111891243677      
3300000000.0        0.143937660926      0.115165670236      0.855008751092      -0.159126822089     0.855008751092      -0.159126822089     0.143937660926      0.115165670236      
3400000000.0        0.145307381985      0.118421574655      0.853575322734      -0.163717992043     0.853575322734      -0.163717992043     0.145307381985      0.118421574655      
3500000000.0        0.146709954974      0.121658528724      0.852107153494      -0.168290477358     0.852107153494      -0.168290477358     0.146709954974      0.121658528724      
3600000000.0        0.148145141038      0.1248761101        0.850604480275      -0.172843862507     0.850604480275      -0.172843862507     0.148145141038      0.1248761101        
3700000000.0        0.149612687822      0.128073902535      0.849067553439      -0.177377738037     0.849067553439      -0.177377738037     0.149612687822      0.128073902535      
3800000000.0        0.151112330292      0.131251496094      0.847496635973      -0.181891700787     0.847496635973      -0.181891700787     0.151112330292      0.131251496094      
3900000000.0        0.152643791496      0.134408487352      0.845892002736      -0.186385354087     0.845892002736      -0.186385354087     0.152643791496      0.134408487352      
4000000000.0        0.154206783255      0.137544479575      0.844253939762      -0.190858307941     0.844253939762      -0.190858307941     0.154206783255      0.137544479575      
4100000000.0        0.155801006804      0.140659082902      0.842582743626      -0.195310179205     0.842582743626      -0.195310179205     0.155801006804      0.140659082902      
4200000000.0        0.157426153378      0.143751914499      0.84087872085       -0.199740591748     0.84087872085       -0.199740591748     0.157426153378      0.143751914499      
4300000000.0        0.159081904766      0.146822598714      0.839142187356      -0.2041491766       0.839142187356      -0.2041491766       0.159081904766      0.146822598714      
4400000000.0        0.160767933824      0.149870767214      0.837373467948      -0.208535572096     0.837373467948      -0.208535572096     0.160767933824      0.149870767214      
4500000000.0        0.162483904956      0.152896059115      0.835572895832      -0.212899424007     0.835572895832      -0.212899424007     0.162483904956      0.152896059115      
4600000000.0        0.164229474575      0.155898121106      0.833740812159      -0.217240385657     0.833740812159      -0.217240385657     0.164229474575      0.155898121106      
4700000000.0        0.166004291529      0.158876607553      0.831877565591      -0.221558118034     0.831877565591      -0.221558118034     0.166004291529      0.158876607553      
4800000000.0        0.167807997515      0.161831180607      0.829983511895      -0.225852289899     0.829983511895      -0.225852289899     0.167807997515      0.161831180607      
4900000000.0        0.169640227467      0.164761510294      0.828059013549      -0.230122577871     0.828059013549      -0.230122577871     0.169640227467      0.164761510294      
5000000000.0        0.171500609934      0.167667274603      0.826104439367      -0.23436866652      0.826104439367      -0.23436866652      0.171500609934      0.167667274603      
5100000000.0        0.173388767438      0.170548159558      0.824120164142      -0.238590248438     0.824120164142      -0.238590248438     0.173388767438      0.170548159558      
5200000000.0        0.175304316817      0.173403859294      0.822106568298      -0.242787024314     0.822106568298      -0.242787024314     0.175304316817      0.173403859294      
5300000000.0        0.177246869561      0.176234076112      0.82006403756       -0.246958702994     0.82006403756       -0.246958702994     0.177246869561      0.176234076112      
5400000000.0        0.179216032131      0.179038520538      0.81799296263       -0.251105001535     0.81799296263       -0.251105001535     0.179216032131      0.179038520538      
5500000000.0        0.181211406274      0.18181691137       0.815893738874      -0.255225645252     0.815893738874      -0.255225645252     0.181211406274      0.18181691137       
5600000000.0        0.183232589319      0.184568975714      0.813766766026      -0.259320367762     0.813766766026      -0.259320367762     0.183232589319      0.184568975714      
5700000000.0        0.185279174478      0.187294449022      0.811612447889      -0.263388911015     0.811612447889      -0.263388911015     0.185279174478      0.187294449022      
5800000000.0        0.18735075112       0.189993075118      0.809431192053      -0.26743102532      0.809431192053      -0.26743102532      0.18735075112       0.189993075118      
5900000000.0        0.18944690506       0.192664606216      0.807223409618      -0.27144646937      0.807223409618      -0.27144646937      0.18944690506       0.192664606216      
6000000000.0        0.191567218819      0.195308802939      0.804989514922      -0.275435010253     0.804989514922      -0.275435010253     0.191567218819      0.195308802939      
6100000000.0        0.193711271892      0.197925434322      0.802729925282      -0.279396423462     0.802729925282      -0.279396423462     0.193711271892      0.197925434322      
6200000000.0        0.195878641004      0.200514277816      0.800445060732      -0.283330492897     0.800445060732      -0.283330492897     0.195878641004      0.200514277816      
6300000000.0        0.198068900359      0.203075119288      0.798135343776      -0.287237010861     0.798135343776      -0.287237010861     0.198068900359      0.203075119288      
6400000000.0        0.200281621888      0.205607753005      0.795801199143      -0.291115778055     0.795801199143      -0.291115778055     0.200281621888      0.205607753005      
6500000000.0        0.202516375483      0.208111981627      0.793443053545      -0.294966603557     0.793443053545      -0.294966603557     0.202516375483      0.208111981627      
6600000000.0        0.204772729234      0.21058761618       0.79106133545       -0.298789304808     0.79106133545       -0.298789304808     0.204772729234      0.21058761618       
6700000000.0        0.207050249654      0.213034476038      0.788656474845      -0.302583707585     0.788656474845      -0.302583707585     0.207050249654      0.213034476038      
6800000000.0        0.209348501908      0.215452388887      0.786228903021      -0.306349645973     0.786228903021      -0.306349645973     0.209348501908      0.215452388887      
6900000000.0        0.211667050022      0.217841190692      0.783779052349      -0.310086962325     0.783779052349      -0.310086962325     0.211667050022      0.217841190692      
7000000000.0        0.214005457103      0.22020072566       0.781307356074      -0.313795507231     0.781307356074      -0.313795507231     0.214005457103      0.22020072566       
7100000000.0        0.216363285545      0.222530846193      0.778814248097      -0.317475139467     0.778814248097      -0.317475139467     0.216363285545      0.222530846193      
7200000000.0        0.218740097231      0.224831412839      0.77630016278       -0.321125725949     0.77630016278       -0.321125725949     0.218740097231      0.224831412839      
7300000000.0        0.221135453733      0.227102294241      0.773765534745      -0.324747141682     0.773765534745      -0.324747141682     0.221135453733      0.227102294241      
7400000000.0        0.223548916504      0.229343367081      0.771210798677      -0.3283392697       0.771210798677      -0.3283392697       0.223548916504      0.229343367081      
7500000000.0        0.225980047071      0.231554516016      0.768636389138      -0.331902001009     0.768636389138      -0.331902001009     0.225980047071      0.231554516016      
7600000000.0        0.228428407215      0.233735633615      0.766042740383      -0.33543523452      0.766042740383      -0.33543523452      0.228428407215      0.233735633615      
7700000000.0        0.230893559155      0.235886620291      0.763430286173      -0.338938876982     0.763430286173      -0.338938876982     0.230893559155      0.235886620291      
7800000000.0        0.233375065723      0.238007384228      0.760799459608      -0.342412842908     0.760799459608      -0.342412842908     0.233375065723      0.238007384228      
7900000000.0        0.235872490532      0.240097841308      0.75815069295       -0.345857054504     0.75815069295       -0.345857054504     0.235872490532      0.240097841308      
8000000000.0        0.238385398148      0.242157915029      0.755484417455      -0.349271441586     0.755484417455      -0.349271441586     0.238385398148      0.242157915029      
8100000000.0        0.24091335425       0.244187536426      0.752801063217      -0.352655941503     0.752801063217      -0.352655941503     0.24091335425       0.244187536426      
8200000000.0        0.243455925786      0.246186643984      0.750101059001      -0.356010499049     0.750101059001      -0.356010499049     0.243455925786      0.246186643984      
8300000000.0        0.24601268113       0.248155183554      0.747384832096      -0.359335066375     0.747384832096      -0.359335066375     0.24601268113       0.248155183554      
8400000000.0        0.24858319023       0.250093108261      0.744652808162      -0.362629602906     0.744652808162      -0.362629602906     0.24858319023       0.250093108261      
8500000000.0        0.251167024755      0.25200037841       0.741905411087      -0.365894075239     0.741905411087      -0.365894075239     0.251167024755      0.25200037841       
8600000000.0        0.25376375823       0.253876961391      0.739143062843      -0.369128457055     0.739143062843      -0.369128457055     0.25376375823       0.253876961391      
8700000000.0        0.256372966181      0.255722831587      0.736366183352      -0.372332729018     0.736366183352      -0.372332729018     0.256372966181      0.255722831587      
8800000000.0        0.258994226261      0.257537970266      0.733575190351      -0.375506878677     0.733575190351      -0.375506878677     0.258994226261      0.257537970266      
8900000000.0        0.261627118379      0.259322365485      0.730770499266      -0.378650900367     0.730770499266      -0.378650900367     0.261627118379      0.259322365485      
9000000000.0        0.264271224828      0.261076011987      0.727952523087      -0.381764795099     0.727952523087      -0.381764795099     0.264271224828      0.261076011987      
9100000000.0        0.266926130399      0.262798911093      0.725121672249      -0.384848570464     0.725121672249      -0.384848570464     0.266926130399      0.262798911093      
9200000000.0        0.269591422501      0.264491070596      0.722278354512      -0.387902240517     0.722278354512      -0.387902240517     0.269591422501      0.264491070596      
9300000000.0        0.272266691272      0.266152504653      0.719422974855      -0.390925825677     0.719422974855      -0.390925825677     0.272266691272      0.266152504653      
9400000000.0        0.274951529683      0.267783233676      0.716555935364      -0.393919352612     0.716555935364      -0.393919352612     0.274951529683      0.267783233676      
9500000000.0        0.277645533647      0.26938328422       0.713677635131      -0.39688285413      0.713677635131      -0.39688285413      0.277645533647      0.26938328422       
9600000000.0        0.280348302114      0.270952688871      0.710788470151      -0.399816369068     0.710788470151      -0.399816369068     0.280348302114      0.270952688871      
9700000000.0        0.283059437169      0.272491486135      0.707888833232      -0.402719942177     0.707888833232      -0.402719942177     0.283059437169      0.272491486135      
9800000000.0        0.285778544123      0.273999720318      0.704979113895      -0.405593624009     0.704979113895      -0.405593624009     0.285778544123      0.273999720318      
9900000000.0        0.288505231601      0.27547744142       0.702059698294      -0.408437470802     0.702059698294      -0.408437470802     0.288505231601      0.27547744142       
10000000000.0       0.291239111624      0.276924705011      0.699130969126      -0.411251544365     0.699130969126      -0.411251544365     0.291239111624      0.276924705011      
