# Hz S RI R 50.00 
100000000.0         0.019081516992      0.000267389497003   0.980917396294      -0.000356505871724  0.980917396294      -0.000356505871724  0.019081516992      0.000267389497003   
200000000.0         0.0192039469038     0.000534623491569   0.980794871673      -0.000712856415739  0.980794871673      -0.000712856415739  0.0192039469038     0.000534623491569   
300000000.0         0.0192926820718     0.00080176665547    0.980706033802      -0.00106911640275   0.980706033802      -0.00106911640275   0.0192926820718     0.00080176665547    
400000000.0         0.0193641482122     0.00106884179726    0.980634456962      -0.00142530871867   0.980634456962      -0.00142530871867   0.0193641482122     0.00106884179726    
500000000.0         0.0194247014484     0.00133586193617    0.980573785031      -0.00178144644936   0.980573785031      -0.00178144644936   0.0194247014484     0.00133586193617    
600000000.0         0.0194775984262     0.00160283573654    0.980520761361      -0.00213753831886   0.980520761361      -0.00213753831886   0.0194775984262     0.00160283573654    
700000000.0         0.0195247718373     0.00186976946397    0.980473453261      -0.00249359064751   0.980473453261      -0.00249359064751   0.0195247718373     0.00186976946397    
800000000.0         0.0195674796681     0.00213666789464    0.980430602745      -0.00284960826234   0.980430602745      -0.00284960826234   0.0195674796681     0.00213666789464    
900000000.0         0.0196065948134     0.00240353480442    0.980391336916      -0.00320559498702   0.980391336916      -0.00320559498702   0.0196065948134     0.00240353480442    
1000000000.0        0.019642752145      0.00267037325915    0.980355020902      -0.00356155393259   0.980355020902      -0.00356155393259   0.019642752145      0.00267037325915    
1100000000.0        0.0196764304137     0.00293718579911    0.980321175953      -0.00391748768239   0.980321175953      -0.00391748768239   0.0196764304137     0.00293718579911    
1200000000.0        0.0197080011404     0.00320397456288    0.980289430547      -0.00427339841615   0.980289430547      -0.00427339841615   0.0197080011404     0.00320397456288    
1300000000.0        0.0197377594319     0.0034707413739     0.980259489577      -0.00462928799681   0.980259489577      -0.00462928799681   0.0197377594319     0.0034707413739     
1400000000.0        0.0197659442724     0.00373748780301    0.980231114058      -0.00498515803327   0.980231114058      -0.00498515803327   0.0197659442724     0.00373748780301    
1500000000.0        0.0197927523758     0.00400421521503    0.980204107277      -0.00534100992707   0.980204107277      -0.00534100992707   0.0197927523758     0.00400421521503    
1600000000.0        0.0198183479321     0.00427092480417    0.980178305041      -0.00569684490796   0.980178305041      -0.00569684490796   0.0198183479321     0.00427092480417    
1700000000.0        0.0198428696437     0.0045376176215     0.98015356865       -0.00605266406148   0.98015356865       -0.00605266406148   0.0198428696437     0.0045376176215     
1800000000.0        0.0198664359198     0.00480429459667    0.980129779692      -0.00640846835074   0.980129779692      -0.00640846835074   0.0198664359198     0.00480429459667    
1900000000.0        0.0198891487847     0.00507095655533    0.980106836145      -0.00676425863392   0.980106836145      -0.00676425863392   0.0198891487847     0.00507095655533    
2000000000.0        0.0199110968696     0.00533760423321    0.980084649374      -0.00712003567848   0.980084649374      -0.00712003567848   0.0199110968696     0.00533760423321    
2100000000.0        0.0199323577377     0.0056042382878     0.980063141818      -0.00747580017277   0.980063141818      -0.00747580017277   0.0199323577377     0.0056042382878     
2200000000.0        0.0199529997154     0.00587085930794    0.98004224515       -0.00783155273583   0.98004224515       -0.00783155273583   0.0199529997154     0.00587085930794    
2300000000.0        0.0199730833512     0.00613746782191    0.98002189882       -0.0081872939254    0.98002189882       -0.0081872939254    0.0199730833512     0.00613746782191    
2400000000.0        0.0199926625921     0.00640406430428    0.980002048881      -0.00854302424485   0.980002048881      -0.00854302424485   0.0199926625921     0.00640406430428    
2500000000.0        0.0200117857412     0.00667064918169    0.979982647029      -0.00889874414904   0.979982647029      -0.00889874414904   0.0200117857412     0.00667064918169    
2600000000.0        0.0200304962434     0.00693722283786    0.979963649819      -0.00925445404931   0.979963649819      -0.00925445404931   0.0200304962434     0.00693722283786    
2700000000.0        0.0200488333365     0.00720378561792    0.979945018014      -0.00961015431783   0.979945018014      -0.00961015431783   0.0200488333365     0.00720378561792    
2800000000.0        0.0200668325945     0.00747033783207    0.979926716037      -0.00996584529136   0.979926716037      -0.00996584529136   0.0200668325945     0.00747033783207    
2900000000.0        0.0200845263836     0.00773687975893    0.979908711523      -0.0103215272745    0.979908711523      -0.0103215272745    0.0200845263836     0.00773687975893    
3000000000.0        0.0201019442485     0.00800341164833    0.979890974927      -0.0106772005427    0.979890974927      -0.0106772005427    0.0201019442485     0.00800341164833    
3100000000.0        0.0201191132404     0.00826993372387    0.979873479197      -0.0110328653447    0.979873479197      -0.0110328653447    0.0201191132404     0.00826993372387    
3200000000.0        0.0201360581984     0.00853644618517    0.979856199492      -0.0113885219046    0.979856199492      -0.0113885219046    0.0201360581984     0.00853644618517    
3300000000.0        0.0201528019903     0.00880294920979    0.979839112946      -0.0117441704243    0.979839112946      -0.0117441704243    0.0201528019903     0.00880294920979    
3400000000.0        0.0201693657223     0.00906944295506    0.979822198451      -0.012099811085     0.979822198451      -0.012099811085     0.0201693657223     0.00906944295506    
3500000000.0        0.0201857689195     0.00933592755963    0.979805436482      -0.0124554440487    0.979805436482      -0.0124554440487    0.0201857689195     0.00933592755963    
3600000000.0        0.0202020296844     0.00960240314491    0.979788808935      -0.0128110694599    0.979788808935      -0.0128110694599    0.0202020296844     0.00960240314491    
3700000000.0        0.0202181648349     0.00986886981634    0.979772298992      -0.0131666874467    0.979772298992      -0.0131666874467    0.0202181648349     0.00986886981634    
3800000000.0        0.0202341900262     0.0101353276646     0.979755890998      -0.0135222981222    0.979755890998      -0.0135222981222    0.0202341900262     0.0101353276646     
3900000000.0        0.0202501198579     0.0104017767665     0.979739570353      -0.0138779015852    0.979739570353      -0.0138779015852    0.0202501198579     0.0104017767665     
4000000000.0        0.0202659679688     0.0106682171862     0.979723323416      -0.0142334979215    0.979723323416      -0.0142334979215    0.0202659679688     0.0106682171862     
4100000000.0        0.0202817471212     0.0109346489758     0.979707137425      -0.0145890872046    0.979707137425      -0.0145890872046    0.0202817471212     0.0109346489758     
4200000000.0        0.0202974692759     0.0112010721762     0.979691000419      -0.0149446694966    0.979691000419      -0.0149446694966    0.0202974692759     0.0112010721762     
4300000000.0        0.0203131456591     0.0114674868183     0.979674901172      -0.0153002448487    0.979674901172      -0.0153002448487    0.0203131456591     0.0114674868183     
4400000000.0        0.0203287868227     0.0117338929226     0.979658829129      -0.0156558133023    0.979658829129      -0.0156558133023    0.0203287868227     0.0117338929226     
4500000000.0        0.0203444026978     0.012000290501      0.979642774361      -0.0160113748893    0.979642774361      -0.0160113748893    0.0203444026978     0.012000290501      
4600000000.0        0.0203600026432     0.0122666795565     0.979626727508      -0.0163669296327    0.979626727508      -0.0163669296327    0.0203600026432     0.0122666795565     
4700000000.0        0.0203755954893     0.0125330600842     0.979610679738      -0.0167224775472    0.979610679738      -0.0167224775472    0.0203755954893     0.0125330600842     
4800000000.0        0.0203911895779     0.0127994320717     0.979594622709      -0.0170780186396    0.979594622709      -0.0170780186396    0.0203911895779     0.0127994320717     
4900000000.0        0.0204067927973     0.0130657954991     0.979578548532      -0.0174335529093    0.979578548532      -0.0174335529093    0.0204067927973     0.0130657954991     
5000000000.0        0.0204224126157     0.0133321503402     0.979562449739      -0.017789080349     0.979562449739      -0.017789080349     0.0204224126157     0.0133321503402     
5100000000.0        0.0204380561103     0.0135984965621     0.979546319252      -0.0181446009444    0.979546319252      -0.0181446009444    0.0204380561103     0.0135984965621     
5200000000.0        0.0204537299944     0.0138648341262     0.979530150357      -0.0185001146752    0.979530150357      -0.0185001146752    0.0204537299944     0.0138648341262     
5300000000.0        0.0204694406422     0.0141311629881     0.979513936678      -0.0188556215152    0.979513936678      -0.0188556215152    0.0204694406422     0.0141311629881     
5400000000.0        0.0204851941113     0.0143974830979     0.979497672159      -0.0192111214325    0.979497672159      -0.0192111214325    0.0204851941113     0.0143974830979     
5500000000.0        0.0205009961635     0.014663794401      0.979481351036      -0.0195666143902    0.979481351036      -0.0195666143902    0.0205009961635     0.014663794401      
5600000000.0        0.0205168522837     0.0149300968375     0.979464967823      -0.0199221003459    0.979464967823      -0.0199221003459    0.0205168522837     0.0149300968375     
5700000000.0        0.0205327676971     0.0151963903434     0.979448517296      -0.0202775792528    0.979448517296      -0.0202775792528    0.0205327676971     0.0151963903434     
5800000000.0        0.0205487473861     0.0154626748502     0.979431994471      -0.0206330510596    0.979431994471      -0.0206330510596    0.0205487473861     0.0154626748502     
5900000000.0        0.0205647961041     0.0157289502853     0.979415394593      -0.0209885157104    0.979415394593      -0.0209885157104    0.0205647961041     0.0157289502853     
6000000000.0        0.0205809183901     0.0159952165721     0.979398713124      -0.0213439731455    0.979398713124      -0.0213439731455    0.0205809183901     0.0159952165721     
6100000000.0        0.0205971185807     0.0162614736305     0.979381945726      -0.0216994233012    0.979381945726      -0.0216994233012    0.0205971185807     0.0162614736305     
6200000000.0        0.0206134008224     0.0165277213768     0.979365088253      -0.02205486611      0.979365088253      -0.02205486611      0.0206134008224     0.0165277213768     
6300000000.0        0.020629769082      0.0167939597239     0.979348136735      -0.022410301501     0.979348136735      -0.022410301501     0.020629769082      0.0167939597239     
6400000000.0        0.0206462271571     0.0170601885817     0.979331087376      -0.0227657294       0.979331087376      -0.0227657294       0.0206462271571     0.0170601885817     
6500000000.0        0.0206627786851     0.0173264078568     0.979313936537      -0.0231211497293    0.979313936537      -0.0231211497293    0.0206627786851     0.0173264078568     
6600000000.0        0.0206794271524     0.0175926174531     0.97929668073       -0.0234765624083    0.97929668073       -0.0234765624083    0.0206794271524     0.0175926174531     
6700000000.0        0.0206961759021     0.0178588172717     0.979279316614      -0.0238319673537    0.979279316614      -0.0238319673537    0.0206961759021     0.0178588172717     
6800000000.0        0.020713028142      0.0181250072111     0.979261840978      -0.024187364479     0.979261840978      -0.024187364479     0.020713028142      0.0181250072111     
6900000000.0        0.0207299869512     0.0183911871673     0.979244250743      -0.0245427536953    0.979244250743      -0.0245427536953    0.0207299869512     0.0183911871673     
7000000000.0        0.0207470552871     0.0186573570339     0.979226542951      -0.0248981349111    0.979226542951      -0.0248981349111    0.0207470552871     0.0186573570339     
7100000000.0        0.0207642359917     0.0189235167022     0.979208714759      -0.0252535080323    0.979208714759      -0.0252535080323    0.0207642359917     0.0189235167022     
7200000000.0        0.020781531797      0.0191896660614     0.979190763435      -0.0256088729628    0.979190763435      -0.0256088729628    0.020781531797      0.0191896660614     
7300000000.0        0.0207989453305     0.0194558049985     0.97917268635       -0.0259642296039    0.97917268635       -0.0259642296039    0.0207989453305     0.0194558049985     
7400000000.0        0.0208164791208     0.0197219333986     0.979154480975      -0.0263195778549    0.979154480975      -0.0263195778549    0.0208164791208     0.0197219333986     
7500000000.0        0.0208341356017     0.019988051145      0.979136144876      -0.0266749176133    0.979136144876      -0.0266749176133    0.0208341356017     0.019988051145      
7600000000.0        0.0208519171173     0.020254158119      0.979117675707      -0.0270302487742    0.979117675707      -0.0270302487742    0.0208519171173     0.020254158119      
7700000000.0        0.0208698259256     0.0205202542003     0.97909907121       -0.0273855712311    0.97909907121       -0.0273855712311    0.0208698259256     0.0205202542003     
7800000000.0        0.0208878642032     0.0207863392668     0.979080329208      -0.0277408848757    0.979080329208      -0.0277408848757    0.0208878642032     0.0207863392668     
7900000000.0        0.0209060340484     0.0210524131951     0.979061447602      -0.0280961895978    0.979061447602      -0.0280961895978    0.0209060340484     0.0210524131951     
8000000000.0        0.0209243374852     0.0213184758601     0.979042424366      -0.0284514852857    0.979042424366      -0.0284514852857    0.0209243374852     0.0213184758601     
8100000000.0        0.0209427764665     0.0215845271352     0.979023257548      -0.0288067718262    0.979023257548      -0.0288067718262    0.0209427764665     0.0215845271352     
8200000000.0        0.0209613528771     0.0218505668925     0.979003945262      -0.0291620491042    0.979003945262      -0.0291620491042    0.0209613528771     0.0218505668925     
8300000000.0        0.0209800685367     0.0221165950027     0.978984485687      -0.0295173170036    0.978984485687      -0.0295173170036    0.0209800685367     0.0221165950027     
8400000000.0        0.020998925203      0.0223826113355     0.978964877064      -0.0298725754066    0.978964877064      -0.0298725754066    0.020998925203      0.0223826113355     
8500000000.0        0.0210179245741     0.022648615759      0.978945117696      -0.0302278241941    0.978945117696      -0.0302278241941    0.0210179245741     0.022648615759      
8600000000.0        0.021037068291      0.0229146081404     0.97892520594       -0.0305830632458    0.97892520594       -0.0305830632458    0.021037068291      0.0229146081404     
8700000000.0        0.0210563579401     0.0231805883456     0.978905140209      -0.0309382924401    0.978905140209      -0.0309382924401    0.0210563579401     0.0231805883456     
8800000000.0        0.0210757950554     0.0234465562398     0.978884918968      -0.0312935116542    0.978884918968      -0.0312935116542    0.0210757950554     0.0234465562398     
8900000000.0        0.0210953811209     0.0237125116868     0.978864540733      -0.0316487207642    0.978864540733      -0.0316487207642    0.0210953811209     0.0237125116868     
9000000000.0        0.021115117572      0.0239784545495     0.978844004068      -0.032003919645     0.978844004068      -0.032003919645     0.021115117572      0.0239784545495     
9100000000.0        0.0211350057981     0.0242443846901     0.978823307581      -0.0323591081705    0.978823307581      -0.0323591081705    0.0211350057981     0.0242443846901     
9200000000.0        0.0211550471443     0.0245103019696     0.978802449928      -0.0327142862138    0.978802449928      -0.0327142862138    0.0211550471443     0.0245103019696     
9300000000.0        0.0211752429126     0.0247762062484     0.978781429805      -0.0330694536466    0.978781429805      -0.0330694536466    0.0211752429126     0.0247762062484     
9400000000.0        0.0211955943644     0.0250420973859     0.978760245951      -0.0334246103399    0.978760245951      -0.0334246103399    0.0211955943644     0.0250420973859     
9500000000.0        0.0212161027215     0.0253079752408     0.978738897142      -0.033779756164     0.978738897142      -0.033779756164     0.0212161027215     0.0253079752408     
9600000000.0        0.0212367691676     0.0255738396711     0.978717382195      -0.0341348909879    0.978717382195      -0.0341348909879    0.0212367691676     0.0255738396711     
9700000000.0        0.0212575948502     0.0258396905341     0.978695699961      -0.0344900146801    0.978695699961      -0.0344900146801    0.0212575948502     0.0258396905341     
9800000000.0        0.0212785808815     0.0261055276861     0.978673849327      -0.0348451271082    0.978673849327      -0.0348451271082    0.0212785808815     0.0261055276861     
9900000000.0        0.0212997283399     0.0263713509833     0.978651829214      -0.0352002281391    0.978651829214      -0.0352002281391    0.0212997283399     0.0263713509833     
10000000000.0       0.0213210382711     0.0266371602808     0.978629638574      -0.0355553176387    0.978629638574      -0.0355553176387    0.0213210382711     0.0266371602808     
