# Hz S RI R 50.00 
100000000.0         0.144826277945      0.00437116820984    0.855169130118      -0.00624758999777   0.855169130118      -0.00624758999777   0.144826277945      0.00437116820984    
200000000.0         0.145734940718      0.008720814848      0.854253152978      -0.012473673414     0.854253152978      -0.012473673414     0.145734940718      0.008720814848      
300000000.0         0.146484517436      0.0130561668973     0.853492536827      -0.0186854955212    0.853492536827      -0.0186854955212    0.146484517436      0.0130561668973     
400000000.0         0.147183523751      0.0173789981239     0.852778763952      -0.0248848475157    0.852778763952      -0.0248848475157    0.147183523751      0.0173789981239     
500000000.0         0.147873731215      0.0216898177576     0.852070060903      -0.0310722556264    0.852070060903      -0.0310722556264    0.147873731215      0.0216898177576     
600000000.0         0.148576383513      0.0259885782116     0.851345182138      -0.0372476889846    0.851345182138      -0.0372476889846    0.148576383513      0.0259885782116     
700000000.0         0.14930395643       0.0302749295172     0.85059164998       -0.0434108141363    0.85059164998       -0.0434108141363    0.14930395643       0.0302749295172     
800000000.0         0.150064453302      0.0345483375867     0.84980145914       -0.0495611133505    0.84980145914       -0.0495611133505    0.150064453302      0.0345483375867     
900000000.0         0.150863318944      0.0388081479759     0.848969162755      -0.055697948413     0.848969162755      -0.055697948413     0.150863318944      0.0388081479759     
1000000000.0        0.151704410439      0.0430536238655     0.84809090159       -0.061820598628     0.84809090159       -0.061820598628     0.151704410439      0.0430536238655     
1100000000.0        0.152590537171      0.0472839703931     0.847163863989      -0.0679282851671    0.847163863989      -0.0679282851671    0.152590537171      0.0472839703931     
1200000000.0        0.153523782861      0.0514983511449     0.846185963828      -0.0740201875721    0.846185963828      -0.0740201875721    0.153523782861      0.0514983511449     
1300000000.0        0.154505708373      0.055695899849      0.84515563771       -0.0800954554587    0.84515563771       -0.0800954554587    0.154505708373      0.055695899849      
1400000000.0        0.155537485171      0.0598757289853     0.844071711495      -0.0861532171333    0.844071711495      -0.0861532171333    0.155537485171      0.0598757289853     
1500000000.0        0.156619986407      0.0640369363287     0.842933309213      -0.0921925861429    0.842933309213      -0.0921925861429    0.156619986407      0.0640369363287     
1600000000.0        0.157753851021      0.0681786100607     0.841739788957      -0.0982126663918    0.841739788957      -0.0982126663918    0.157753851021      0.0681786100607     
1700000000.0        0.158939530071      0.072299832858      0.840490696551      -0.104212556235     0.840490696551      -0.104212556235     0.158939530071      0.072299832858      
1800000000.0        0.160177320986      0.0763996852332     0.839185731294      -0.110191351822     0.839185731294      -0.110191351822     0.160177320986      0.0763996852332     
1900000000.0        0.161467393426      0.0804772483137     0.837824720102      -0.116148149879     0.837824720102      -0.116148149879     0.161467393426      0.0804772483137     
2000000000.0        0.162809809149      0.0845316061914     0.836407597631      -0.122082050064     0.836407597631      -0.122082050064     0.162809809149      0.0845316061914     
2100000000.0        0.164204537553      0.088561847938      0.834934390743      -0.12799215698      0.834934390743      -0.12799215698      0.164204537553      0.088561847938      
2200000000.0        0.165651467996      0.0925670693545     0.833405206176      -0.13387758193      0.833405206176      -0.13387758193      0.165651467996      0.0925670693545     
2300000000.0        0.167150419727      0.0965463745059     0.831820220615      -0.139737444453     0.831820220615      -0.139737444453     0.167150419727      0.0965463745059     
2400000000.0        0.16870114998       0.10049887708       0.8301796726        -0.145570873686     0.8301796726        -0.145570873686     0.16870114998       0.10049887708       
2500000000.0        0.170303360664      0.104423701602      0.82848385583       -0.151377009575     0.82848385583       -0.151377009575     0.170303360664      0.104423701602      
2600000000.0        0.171956703959      0.108319984521      0.82673311357       -0.157155003972     0.82673311357       -0.157155003972     0.171956703959      0.108319984521      
2700000000.0        0.173660787042      0.112186875197      0.824927833918      -0.162904021613     0.824927833918      -0.162904021613     0.173660787042      0.112186875197      
2800000000.0        0.175415176143      0.116023536789      0.823068445757      -0.168623241015     0.823068445757      -0.168623241015     0.175415176143      0.116023536789      
2900000000.0        0.177219400036      0.119829147068      0.821155415255      -0.174311855288     0.821155415255      -0.174311855288     0.177219400036      0.119829147068      
3000000000.0        0.1790729531        0.123602899157      0.819189242808      -0.179969072874     0.819189242808      -0.179969072874     0.1790729531        0.123602899157      
3100000000.0        0.180975298008      0.127344002208      0.817170460348      -0.185594118226     0.817170460348      -0.185594118226     0.180975298008      0.127344002208      
3200000000.0        0.182925868132      0.131051682014      0.815099628938      -0.191186232423     0.815099628938      -0.191186232423     0.182925868132      0.131051682014      
3300000000.0        0.184924069694      0.134725181577      0.812977336622      -0.196744673737     0.812977336622      -0.196744673737     0.184924069694      0.134725181577      
3400000000.0        0.186969283715      0.13836376162       0.81080419647       -0.202268718145     0.81080419647       -0.202268718145     0.186969283715      0.13836376162       
3500000000.0        0.189060867802      0.141966701057      0.808580844797      -0.207757659799     0.808580844797      -0.207757659799     0.189060867802      0.141966701057      
3600000000.0        0.191198157782      0.145533297415      0.806307939524      -0.213210811456     0.806307939524      -0.213210811456     0.191198157782      0.145533297415      
3700000000.0        0.19338046922       0.149062867225      0.80398615866       -0.218627504857     0.80398615866       -0.218627504857     0.19338046922       0.149062867225      
3800000000.0        0.195607098832      0.152554746362      0.80161619889       -0.224007091079     0.80161619889       -0.224007091079     0.195607098832      0.152554746362      
3900000000.0        0.197877325809      0.156008290359      0.799198774247      -0.229348940843     0.799198774247      -0.229348940843     0.197877325809      0.156008290359      
4000000000.0        0.200190413068      0.159422874681      0.796734614866      -0.23465244479      0.796734614866      -0.23465244479      0.200190413068      0.159422874681      
4100000000.0        0.202545608423      0.162797894967      0.794224465804      -0.239917013728     0.794224465804      -0.239917013728     0.202545608423      0.162797894967      
4200000000.0        0.204942145718      0.166132767243      0.791669085915      -0.245142078835     0.791669085915      -0.245142078835     0.204942145718      0.166132767243      
4300000000.0        0.207379245888      0.169426928097      0.789069246783      -0.250327091845     0.789069246783      -0.250327091845     0.207379245888      0.169426928097      
4400000000.0        0.209856117984      0.172679834833      0.786425731697      -0.255471525199     0.786425731697      -0.255471525199     0.209856117984      0.172679834833      
4500000000.0        0.212371960155      0.17589096559       0.783739334669      -0.26057487216      0.783739334669      -0.26057487216      0.212371960155      0.17589096559       
4600000000.0        0.214925960594      0.179059819438      0.78101085949       -0.265636646916     0.78101085949       -0.265636646916     0.214925960594      0.179059819438      
4700000000.0        0.217517298442      0.182185916444      0.778241118819      -0.270656384643     0.778241118819      -0.270656384643     0.217517298442      0.182185916444      
4800000000.0        0.220145144668      0.185268797716      0.775430933306      -0.275633641547     0.775430933306      -0.275633641547     0.220145144668      0.185268797716      
4900000000.0        0.222808662919      0.188308025418      0.772581130744      -0.280567994885     0.772581130744      -0.280567994885     0.222808662919      0.188308025418      
5000000000.0        0.225507010337      0.191303182768      0.769692545247      -0.285459042958     0.769692545247      -0.285459042958     0.225507010337      0.191303182768      
5100000000.0        0.228239338356      0.194253874003      0.766766016452      -0.290306405078     0.766766016452      -0.290306405078     0.228239338356      0.194253874003      
5200000000.0        0.231004793472      0.197159724329      0.763802388752      -0.295109721523     0.763802388752      -0.295109721523     0.231004793472      0.197159724329      
5300000000.0        0.233802517988      0.200020379853      0.760802510546      -0.299868653459     0.760802510546      -0.299868653459     0.233802517988      0.200020379853      
5400000000.0        0.236631650742      0.202835507482      0.757767233515      -0.304582882848     0.757767233515      -0.304582882848     0.236631650742      0.202835507482      
5500000000.0        0.239491327805      0.205604794815      0.754697411919      -0.309252112338     0.754697411919      -0.309252112338     0.239491327805      0.205604794815      
5600000000.0        0.242380683166      0.208327950009      0.751593901912      -0.313876065127     0.751593901912      -0.313876065127     0.242380683166      0.208327950009      
5700000000.0        0.24529884939       0.21100470163       0.748457560884      -0.318454484815     0.748457560884      -0.318454484815     0.24529884939       0.21100470163       
5800000000.0        0.248244958264      0.213634798483      0.745289246816      -0.322987135237     0.745289246816      -0.322987135237     0.248244958264      0.213634798483      
5900000000.0        0.251218141413      0.216218009428      0.742089817659      -0.327473800275     0.742089817659      -0.327473800275     0.251218141413      0.216218009428      
6000000000.0        0.254217530903      0.218754123181      0.738860130733      -0.331914283662     0.738860130733      -0.331914283662     0.254217530903      0.218754123181      
6100000000.0        0.257242259829      0.2212429481        0.735601042138      -0.336308408766     0.735601042138      -0.336308408766     0.257242259829      0.2212429481        
6200000000.0        0.260291462871      0.22368431195       0.732313406194      -0.340656018359     0.732313406194      -0.340656018359     0.260291462871      0.22368431195       
6300000000.0        0.263364276847      0.226078061664      0.728998074893      -0.344956974371     0.728998074893      -0.344956974371     0.263364276847      0.226078061664      
6400000000.0        0.266459841238      0.228424063086      0.725655897369      -0.349211157642     0.725655897369      -0.349211157642     0.266459841238      0.228424063086      
6500000000.0        0.269577298693      0.230722200701      0.722287719389      -0.353418467643     0.722287719389      -0.353418467643     0.269577298693      0.230722200701      
6600000000.0        0.272715795528      0.232972377356      0.718894382863      -0.357578822207     0.718894382863      -0.357578822207     0.272715795528      0.232972377356      
6700000000.0        0.275874482192      0.23517451397       0.715476725366      -0.361692157228     0.715476725366      -0.361692157228     0.275874482192      0.23517451397       
6800000000.0        0.279052513727      0.237328549231      0.712035579684      -0.365758426367     0.712035579684      -0.365758426367     0.279052513727      0.237328549231      
6900000000.0        0.282249050202      0.239434439291      0.708571773375      -0.369777600743     0.708571773375      -0.369777600743     0.282249050202      0.239434439291      
7000000000.0        0.285463257138      0.24149215744       0.705086128347      -0.373749668608     0.705086128347      -0.373749668608     0.285463257138      0.24149215744       
7100000000.0        0.288694305908      0.243501693786      0.701579460452      -0.377674635027     0.701579460452      -0.377674635027     0.288694305908      0.243501693786      
7200000000.0        0.291941374125      0.245463054919      0.698052579103      -0.381552521538     0.698052579103      -0.381552521538     0.291941374125      0.245463054919      
7300000000.0        0.29520364601       0.247376263569      0.694506286899      -0.38538336582      0.694506286899      -0.38538336582      0.29520364601       0.247376263569      
7400000000.0        0.298480312746      0.249241358261      0.690941379274      -0.389167221337     0.690941379274      -0.389167221337     0.298480312746      0.249241358261      
7500000000.0        0.301770572812      0.251058392964      0.68735864416       -0.392904156993     0.68735864416       -0.392904156993     0.301770572812      0.251058392964      
7600000000.0        0.305073632305      0.252827436731      0.683758861663      -0.396594256772     0.683758861663      -0.396594256772     0.305073632305      0.252827436731      
7700000000.0        0.308388705243      0.254548573343      0.680142803762      -0.400237619377     0.680142803762      -0.400237619377     0.308388705243      0.254548573343      
7800000000.0        0.31171501385       0.25622190094       0.67651123402       -0.403834357869     0.67651123402       -0.403834357869     0.31171501385       0.25622190094       
7900000000.0        0.315051788831      0.257847531657      0.672864907309      -0.407384599295     0.672864907309      -0.407384599295     0.315051788831      0.257847531657      
8000000000.0        0.318398269629      0.259425591251      0.669204569552      -0.41088848432      0.669204569552      -0.41088848432      0.318398269629      0.259425591251      
8100000000.0        0.321753704662      0.260956218733      0.665530957483      -0.414346166856     0.665530957483      -0.414346166856     0.321753704662      0.260956218733      
8200000000.0        0.325117351555      0.262439565991      0.661844798418      -0.417757813687     0.661844798418      -0.417757813687     0.325117351555      0.262439565991      
8300000000.0        0.328488477345      0.263875797417      0.658146810041      -0.421123604096     0.658146810041      -0.421123604096     0.328488477345      0.263875797417      
8400000000.0        0.331866358685      0.265265089532      0.654437700208      -0.424443729487     0.654437700208      -0.424443729487     0.331866358685      0.265265089532      
8500000000.0        0.335250282022      0.266607630614      0.650718166763      -0.427718393015     0.650718166763      -0.427718393015     0.335250282022      0.266607630614      
8600000000.0        0.338639543769      0.267903620319      0.646988897363      -0.430947809208     0.646988897363      -0.430947809208     0.338639543769      0.267903620319      
8700000000.0        0.342033450456      0.269153269311      0.643250569327      -0.434132203594     0.643250569327      -0.434132203594     0.342033450456      0.269153269311      
8800000000.0        0.345431318881      0.270356798887      0.639503849488      -0.437271812329     0.639503849488      -0.437271812329     0.345431318881      0.270356798887      
8900000000.0        0.348832476229      0.271514440611      0.635749394065      -0.440366881827     0.635749394065      -0.440366881827     0.348832476229      0.271514440611      
9000000000.0        0.352236260196      0.27262643594       0.631987848543      -0.443417668389     0.631987848543      -0.443417668389     0.352236260196      0.27262643594       
9100000000.0        0.355642019091      0.273693035863      0.62821984757       -0.44642443784      0.62821984757       -0.44642443784      0.355642019091      0.273693035863      
9200000000.0        0.359049111927      0.274714500534      0.624446014859      -0.449387465164     0.624446014859      -0.449387465164     0.359049111927      0.274714500534      
9300000000.0        0.362456908505      0.275691098912      0.620666963111      -0.452307034141     0.620666963111      -0.452307034141     0.362456908505      0.275691098912      
9400000000.0        0.365864789477      0.276623108407      0.61688329394       -0.455183436995     0.61688329394       -0.455183436995     0.365864789477      0.276623108407      
9500000000.0        0.369272146412      0.277510814523      0.613095597815      -0.458016974034     0.613095597815      -0.458016974034     0.369272146412      0.277510814523      
9600000000.0        0.372678381839      0.278354510513      0.609304454011      -0.460807953308     0.609304454011      -0.460807953308     0.372678381839      0.278354510513      
9700000000.0        0.376082909283      0.279154497028      0.605510430573      -0.463556690257     0.605510430573      -0.463556690257     0.376082909283      0.279154497028      
9800000000.0        0.379485153295      0.279911081782      0.601714084281      -0.466263507372     0.601714084281      -0.466263507372     0.379485153295      0.279911081782      
9900000000.0        0.382884549469      0.28062457921       0.597915960637      -0.468928733859     0.597915960637      -0.468928733859     0.382884549469      0.28062457921       
10000000000.0       0.386280544448      0.281295310144      0.594116593853      -0.471552705308     0.594116593853      -0.471552705308     0.386280544448      0.281295310144      
