# Hz S RI R 50.00 
100000000.0         0.0028174283363     -0.000517237345008  0.997170383861      -0.00335080022228   0.997170383861      -0.00335080022228   0.0028174283363     -0.000517237345008  
200000000.0         0.00282922405526    -0.00103455127553   0.997132424341      -0.00670145239705   0.997132424341      -0.00670145239705   0.00282922405526    -0.00103455127553   
300000000.0         0.00283260952074    -0.00155187976979   0.997087899212      -0.0100519646742    0.997087899212      -0.0100519646742    0.00283260952074    -0.00155187976979   
400000000.0         0.0028300260282     -0.00206918774939   0.997034367572      -0.0134023156112    0.997034367572      -0.0134023156112    0.0028300260282     -0.00206918774939   
500000000.0         0.00282241337083    -0.00258644613416   0.996970890273      -0.0167524764439    0.996970890273      -0.0167524764439    0.00282241337083    -0.00258644613416   
600000000.0         0.00281025079105    -0.00310362839756   0.996896988973      -0.0201024149985    0.996896988973      -0.0201024149985    0.00281025079105    -0.00310362839756   
700000000.0         0.00279382150235    -0.00362070935634   0.996812381623      -0.0234520971379    0.996812381623      -0.0234520971379    0.00279382150235    -0.00362070935634   
800000000.0         0.00277330919688    -0.0041376646221    0.99671688596       -0.0268014874535    0.99671688596       -0.0268014874535    0.00277330919688    -0.0041376646221    
900000000.0         0.00274884100057    -0.00465447031357   0.996610376563      -0.0301505496469    0.996610376563      -0.0301505496469    0.00274884100057    -0.00465447031357   
1000000000.0        0.00272050923859    -0.00517110289076   0.996492763083      -0.0334992467621    0.996492763083      -0.0334992467621    0.00272050923859    -0.00517110289076   
1100000000.0        0.00268838353045    -0.0056875390524    0.996363978157      -0.0368475413378    0.996363978157      -0.0368475413378    0.00268838353045    -0.0056875390524    
1200000000.0        0.0026525179947     -0.00620375566943   0.996223970205      -0.0401953955114    0.996223970205      -0.0401953955114    0.0026525179947     -0.00620375566943   
1300000000.0        0.0026129557803     -0.00671972974004   0.996072698898      -0.0435427710946    0.996072698898      -0.0435427710946    0.0026129557803     -0.00671972974004   
1400000000.0        0.00256973204409    -0.0072354383585    0.995910132191      -0.046889629629     0.995910132191      -0.046889629629     0.00256973204409    -0.0072354383585    
1500000000.0        0.00252287597916    -0.0077508586928    0.995736244286      -0.0502359324288    0.995736244286      -0.0502359324288    0.00252287597916    -0.0077508586928    
1600000000.0        0.00247241223892    -0.0082659679686    0.995551014218      -0.0535816406144    0.995551014218      -0.0535816406144    0.00247241223892    -0.0082659679686    
1700000000.0        0.00241836196311    -0.00878074345734   0.995354424829      -0.0569267151386    0.995354424829      -0.0569267151386    0.00241836196311    -0.00878074345734   
1800000000.0        0.00236074353358    -0.00929516246745   0.995146462011      -0.0602711168088    0.995146462011      -0.0602711168088    0.00236074353358    -0.00929516246745   
1900000000.0        0.00229957314182    -0.00980920233778   0.994927114144      -0.063614806305     0.994927114144      -0.063614806305     0.00229957314182    -0.00980920233778   
2000000000.0        0.00223486522253    -0.0103228404327    0.99469637166       -0.0669577441942    0.99469637166       -0.0669577441942    0.00223486522253    -0.0103228404327    
2100000000.0        0.00216663278975    -0.0108360541386    0.994454226711      -0.070299890944     0.994454226711      -0.070299890944     0.00216663278975    -0.0108360541386    
2200000000.0        0.00209488770115    -0.0113488208609    0.994200672906      -0.0736412069329    0.994200672906      -0.0736412069329    0.00209488770115    -0.0113488208609    
2300000000.0        0.00201964086818    -0.0118611180224    0.993935705098      -0.0769816524602    0.993935705098      -0.0769816524602    0.00201964086818    -0.0118611180224    
2400000000.0        0.00194090242512    -0.0123729230618    0.993659319223      -0.0803211877541    0.993659319223      -0.0803211877541    0.00194090242512    -0.0123729230618    
2500000000.0        0.00185868186636    -0.0128842134329    0.993371512155      -0.083659772979     0.993371512155      -0.083659772979     0.00185868186636    -0.0128842134329    
2600000000.0        0.00177298815897    -0.0133949666038    0.993072281602      -0.0869973682423    0.993072281602      -0.0869973682423    0.00177298815897    -0.0133949666038    
2700000000.0        0.00168382983561    -0.0139051600573    0.992761626011      -0.0903339336001    0.992761626011      -0.0903339336001    0.00168382983561    -0.0139051600573    
2800000000.0        0.001591215072      -0.0144147712901    0.992439544488      -0.0936694290625    0.992439544488      -0.0936694290625    0.001591215072      -0.0144147712901    
2900000000.0        0.00149515175183    -0.0149237778137    0.992106036741      -0.0970038145981    0.992106036741      -0.0970038145981    0.00149515175183    -0.0149237778137    
3000000000.0        0.00139564752151    -0.0154321571543    0.991761103017      -0.100337050139     0.991761103017      -0.100337050139     0.00139564752151    -0.0154321571543    
3100000000.0        0.00129270983672    -0.0159398868536    0.991404744066      -0.103669095585     0.991404744066      -0.103669095585     0.00129270983672    -0.0159398868536    
3200000000.0        0.00118634600206    -0.0164469444692    0.991036961093      -0.106999910805     0.991036961093      -0.106999910805     0.00118634600206    -0.0164469444692    
3300000000.0        0.00107656320514    -0.0169533075757    0.990657755728      -0.110329455645     0.990657755728      -0.110329455645     0.00107656320514    -0.0169533075757    
3400000000.0        0.000963368545944   -0.017458953765     0.990267130001      -0.113657689926     0.990267130001      -0.113657689926     0.000963368545944   -0.017458953765     
3500000000.0        0.000846769062268   -0.0179638606472    0.989865086309      -0.116984573451     0.989865086309      -0.116984573451     0.000846769062268   -0.0179638606472    
3600000000.0        0.000726771751829   -0.0184680058521    0.989451627401      -0.120310066007     0.989451627401      -0.120310066007     0.000726771751829   -0.0184680058521    
3700000000.0        0.000603383591576   -0.0189713670293    0.989026756354      -0.123634127366     0.989026756354      -0.123634127366     0.000603383591576   -0.0189713670293    
3800000000.0        0.000476611554621   -0.0194739218497    0.988590476563      -0.126956717289     0.988590476563      -0.126956717289     0.000476611554621   -0.0194739218497    
3900000000.0        0.000346462625106   -0.0199756480066    0.988142791718      -0.130277795528     0.988142791718      -0.130277795528     0.000346462625106   -0.0199756480066    
4000000000.0        0.000212943811333   -0.0204765232164    0.987683705798      -0.13359732183      0.987683705798      -0.13359732183      0.000212943811334   -0.0204765232164    
4100000000.0        7.60621573692e-05   -0.0209765252199    0.987213223056      -0.136915255934     0.987213223056      -0.136915255934     7.60621573692e-05   -0.0209765252199    
4200000000.0        -6.41752466565e-05  -0.0214756317831    0.986731348011      -0.14023155758      0.986731348011      -0.14023155758      -6.41752466565e-05  -0.0214756317831    
4300000000.0        -0.00020776125539   -0.0219738206989    0.986238085435      -0.143546186506     0.986238085435      -0.143546186506     -0.00020776125539   -0.0219738206989    
4400000000.0        -0.000354688660089  -0.0224710697876    0.985733440351      -0.146859102453     0.985733440351      -0.146859102453     -0.000354688660089  -0.0224710697876    
4500000000.0        -0.000504950181325  -0.0229673568982    0.985217418021      -0.150170265164     0.985217418021      -0.150170265164     -0.000504950181325  -0.0229673568982    
4600000000.0        -0.00065853846245   -0.02346265991      0.984690023941      -0.153479634388     0.984690023941      -0.153479634388     -0.00065853846245   -0.02346265991      
4700000000.0        -0.000815446063739  -0.0239569567331    0.984151263836      -0.156787169881     0.984151263836      -0.156787169881     -0.000815446063739  -0.0239569567331    
4800000000.0        -0.000975665457118  -0.0244502253098    0.983601143652      -0.160092831407     0.983601143652      -0.160092831407     -0.000975665457118  -0.0244502253098    
4900000000.0        -0.00113918902143   -0.0249424436159    0.983039669557      -0.163396578742     0.983039669557      -0.163396578742     -0.00113918902143   -0.0249424436159    
5000000000.0        -0.00130600903817   -0.0254335896619    0.982466847928      -0.166698371672     0.982466847928      -0.166698371672     -0.00130600903817   -0.0254335896619    
5100000000.0        -0.00147611768762   -0.0259236414937    0.981882685356      -0.169998169999     0.981882685356      -0.169998169999     -0.00147611768762   -0.0259236414937    
5200000000.0        -0.00164950704535   -0.0264125771945    0.981287188635      -0.173295933538     0.981287188635      -0.173295933538     -0.00164950704535   -0.0264125771945    
5300000000.0        -0.00182616907912   -0.0269003748853    0.980680364765      -0.176591622121     0.980680364765      -0.176591622121     -0.00182616907912   -0.0269003748853    
5400000000.0        -0.002006095646     -0.0273870127265    0.980062220943      -0.179885195599     0.980062220943      -0.179885195599     -0.002006095646     -0.0273870127265    
5500000000.0        -0.00218927848977   -0.0278724689191    0.979432764566      -0.18317661384      0.979432764566      -0.18317661384      -0.00218927848977   -0.0278724689191    
5600000000.0        -0.00237570923865   -0.0283567217055    0.978792003223      -0.186465836737     0.978792003223      -0.186465836737     -0.00237570923865   -0.0283567217055    
5700000000.0        -0.00256537940311   -0.028839749371     0.978139944698      -0.189752824201     0.978139944698      -0.189752824201     -0.00256537940311   -0.028839749371     
5800000000.0        -0.00275828037403   -0.0293215302449    0.977476596963      -0.19303753617      0.977476596963      -0.19303753617      -0.00275828037403   -0.0293215302449    
5900000000.0        -0.0029544034209    -0.0298020427017    0.976801968178      -0.196319932603     0.976801968178      -0.196319932603     -0.0029544034209    -0.0298020427017    
6000000000.0        -0.00315373969031   -0.0302812651622    0.976116066691      -0.19959997349      0.976116066691      -0.19959997349      -0.00315373969031   -0.0302812651622    
6100000000.0        -0.00335628020449   -0.0307591760949    0.975418901034      -0.202877618845     0.975418901034      -0.202877618845     -0.00335628020449   -0.0307591760949    
6200000000.0        -0.00356201586006   -0.0312357540167    0.974710479919      -0.206152828711     0.974710479919      -0.206152828711     -0.00356201586006   -0.0312357540167    
6300000000.0        -0.00377093742685   -0.0317109774948    0.973990812243      -0.209425563162     0.973990812243      -0.209425563162     -0.00377093742685   -0.0317109774948    
6400000000.0        -0.0039830355469    -0.032184825147     0.973259907081      -0.212695782304     0.973259907081      -0.212695782304     -0.0039830355469    -0.032184825147     
6500000000.0        -0.0041983007335    -0.0326572756436    0.972517773687      -0.215963446273     0.972517773687      -0.215963446273     -0.0041983007335    -0.0326572756436    
6600000000.0        -0.00441672337035   -0.0331283077082    0.971764421491      -0.219228515241     0.971764421491      -0.219228515241     -0.00441672337035   -0.0331283077082    
6700000000.0        -0.00463829371086   -0.0335979001191    0.970999860101      -0.222490949413     0.970999860101      -0.222490949413     -0.00463829371086   -0.0335979001191    
6800000000.0        -0.00486300187746   -0.03406603171      0.970224099299      -0.225750709031     0.970224099299      -0.225750709031     -0.00486300187746   -0.03406603171      
6900000000.0        -0.00509083786103   -0.0345326813718    0.96943714904       -0.229007754374     0.96943714904       -0.229007754374     -0.00509083786103   -0.0345326813718    
7000000000.0        -0.00532179152037   -0.0349978280532    0.968639019452      -0.232262045759     0.968639019452      -0.232262045759     -0.00532179152037   -0.0349978280532    
7100000000.0        -0.00555585258182   -0.0354614507622    0.967829720836      -0.235513543542     0.967829720836      -0.235513543542     -0.00555585258182   -0.0354614507622    
7200000000.0        -0.0057930106388    -0.035923528567     0.967009263662      -0.238762208121     0.967009263662      -0.238762208121     -0.0057930106388    -0.035923528567     
7300000000.0        -0.00603325515155   -0.0363840405975    0.966177658572      -0.242007999934     0.966177658572      -0.242007999934     -0.00603325515155   -0.0363840405975    
7400000000.0        -0.00627657544686   -0.0368429660458    0.965334916373      -0.245250879461     0.965334916373      -0.245250879461     -0.00627657544686   -0.0368429660458    
7500000000.0        -0.00652296071782   -0.0373002841682    0.964481048046      -0.248490807229     0.964481048046      -0.248490807229     -0.00652296071782   -0.0373002841682    
7600000000.0        -0.00677240002369   -0.0377559742856    0.963616064734      -0.251727743806     0.963616064734      -0.251727743806     -0.00677240002369   -0.0377559742856    
7700000000.0        -0.00702488228976   -0.0382100157851    0.96273997775       -0.254961649808     0.96273997775       -0.254961649808     -0.00702488228976   -0.0382100157851    
7800000000.0        -0.00728039630728   -0.0386623881206    0.961852798572      -0.258192485898     0.961852798572      -0.258192485898     -0.00728039630728   -0.0386623881206    
7900000000.0        -0.00753893073343   -0.0391130708145    0.960954538841      -0.261420212787     0.960954538841      -0.261420212787     -0.00753893073343   -0.0391130708145    
8000000000.0        -0.00780047409128   -0.0395620434587    0.960045210365      -0.264644791233     0.960045210365      -0.264644791233     -0.00780047409128   -0.0395620434587    
8100000000.0        -0.00806501476987   -0.0400092857154    0.959124825115      -0.267866182047     0.959124825115      -0.267866182047     -0.00806501476987   -0.0400092857154    
8200000000.0        -0.00833254102426   -0.0404547773182    0.958193395223      -0.271084346089     0.958193395223      -0.271084346089     -0.00833254102426   -0.0404547773182    
8300000000.0        -0.00860304097562   -0.0408984980739    0.957250932986      -0.27429924427      0.957250932986      -0.27429924427      -0.00860304097562   -0.0408984980739    
8400000000.0        -0.0088765026114    -0.0413404278626    0.956297450862      -0.277510837558     0.956297450862      -0.277510837558     -0.0088765026114    -0.0413404278626    
8500000000.0        -0.00915291378542   -0.0417805466395    0.955332961468      -0.280719086971     0.955332961468      -0.280719086971     -0.00915291378542   -0.0417805466395    
8600000000.0        -0.00943226221814   -0.0422188344359    0.954357477583      -0.283923953583     0.954357477583      -0.283923953583     -0.00943226221814   -0.0422188344359    
8700000000.0        -0.0097145354968    -0.0426552713599    0.953371012145      -0.287125398526     0.953371012145      -0.287125398526     -0.0097145354968    -0.0426552713599    
8800000000.0        -0.00999972107571   -0.043089837598     0.952373578253      -0.290323382986     0.952373578253      -0.290323382986     -0.00999972107571   -0.043089837598     
8900000000.0        -0.0102878062765    -0.0435225134158    0.95136518916       -0.293517868209     0.95136518916       -0.293517868209     -0.0102878062765    -0.0435225134158    
9000000000.0        -0.0105787782884    -0.0439532791592    0.950345858281      -0.296708815498     0.950345858281      -0.296708815498     -0.0105787782884    -0.0439532791592    
9100000000.0        -0.0108726241685    -0.0443821152554    0.949315599187      -0.299896186217     0.949315599187      -0.299896186217     -0.0108726241685    -0.0443821152554    
9200000000.0        -0.0111693308422    -0.0448090022141    0.948274425605      -0.303079941791     0.948274425605      -0.303079941791     -0.0111693308422    -0.0448090022141    
9300000000.0        -0.0114688851034    -0.0452339206284    0.947222351418      -0.306260043704     0.947222351418      -0.306260043704     -0.0114688851034    -0.0452339206284    
9400000000.0        -0.0117712736151    -0.0456568511761    0.946159390664      -0.309436453506     0.946159390664      -0.309436453506     -0.0117712736151    -0.0456568511761    
9500000000.0        -0.0120764829096    -0.0460777746204    0.945085557538      -0.312609132809     0.945085557538      -0.312609132809     -0.0120764829096    -0.0460777746204    
9600000000.0        -0.0123844993887    -0.0464966718112    0.944000866386      -0.315778043287     0.944000866386      -0.315778043287     -0.0123844993887    -0.0464966718112    
9700000000.0        -0.0126953093248    -0.046913523686     0.942905331711      -0.318943146682     0.942905331711      -0.318943146682     -0.0126953093248    -0.046913523686     
9800000000.0        -0.0130088988606    -0.0473283112709    0.941798968166      -0.322104404802     0.941798968166      -0.322104404802     -0.0130088988606    -0.0473283112709    
9900000000.0        -0.0133252540099    -0.0477410156818    0.940681790557      -0.32526177952      0.940681790557      -0.32526177952      -0.0133252540099    -0.0477410156818    
10000000000.0       -0.0136443606583    -0.0481516181254    0.939553813845      -0.328415232778     0.939553813845      -0.328415232778     -0.0136443606583    -0.0481516181254    
