# Hz S RI R 50.00 
100000000.0         -3.91982286633e-05  -0.00729098225569   0.999913410803      -0.00755082088192   0.999913410803      -0.00755082088192   -3.91982286632e-05  -0.00729098225569   
200000000.0         -0.000211493181301  -0.0145794912923    0.999740692245      -0.015099219459     0.999740692245      -0.015099219459     -0.000211493181301  -0.0145794912923    
300000000.0         -0.000493807123382  -0.0218631798736    0.999457968895      -0.0226428745656    0.999457968895      -0.0226428745656    -0.000493807123382  -0.0218631798736    
400000000.0         -0.000885951021618  -0.029139680746     0.999065388932      -0.0301794387126    0.999065388932      -0.0301794387126    -0.000885951021618  -0.029139680746     
500000000.0         -0.00138768010396   -0.0364066202942    0.998563181398      -0.0377065547707    0.998563181398      -0.0377065547707    -0.00138768010396   -0.0364066202942    
600000000.0         -0.0019986847922    -0.0436616251013    0.997951647824      -0.0452218635964    0.997951647824      -0.0452218635964    -0.0019986847922    -0.0436616251013    
700000000.0         -0.00271858843393   -0.0509023266111    0.997231160072      -0.0527230092425    0.997231160072      -0.0527230092425    -0.00271858843393   -0.0509023266111    
800000000.0         -0.00354694665647   -0.0581263649762    0.996402159373      -0.0602076431385    0.996402159373      -0.0602076431385    -0.00354694665647   -0.0581263649762    
900000000.0         -0.00448324734903   -0.0653313924809    0.995465155624      -0.0676734277367    0.995465155624      -0.0676734277367    -0.00448324734903   -0.0653313924809    
1000000000.0        -0.0055269109821    -0.0725150767017    0.994420726714      -0.0751180398319    0.994420726714      -0.0751180398319    -0.0055269109821    -0.0725150767017    
1100000000.0        -0.00667729115431   -0.0796751034851    0.993269517774      -0.0825391736602    0.993269517774      -0.0825391736602    -0.00667729115431   -0.0796751034851    
1200000000.0        -0.00793367531762   -0.086809179788     0.992012240331      -0.0899345438332    0.992012240331      -0.0899345438332    -0.00793367531762   -0.086809179788     
1300000000.0        -0.00929528565428   -0.093915036401     0.990649671361      -0.0973018881386    0.990649671361      -0.0973018881386    -0.00929528565428   -0.093915036401     
1400000000.0        -0.0107612800897    -0.100990430569     0.989182652223      -0.104638970224     0.989182652223      -0.104638970224     -0.0107612800897    -0.100990430569     
1500000000.0        -0.0123307534302    -0.108033148517     0.987612087491      -0.111943582173     0.987612087491      -0.111943582173     -0.0123307534302    -0.108033148517     
1600000000.0        -0.0140027386166    -0.115041007879     0.985938943677      -0.119213546987     0.985938943677      -0.119213546987     -0.0140027386166    -0.115041007879     
1700000000.0        -0.0157762080869    -0.122011860038     0.984164247851      -0.126446720958     0.984164247851      -0.126446720958     -0.0157762080869    -0.122011860038     
1800000000.0        -0.0176500752409    -0.128943592369     0.982289086167      -0.133640995953     0.982289086167      -0.133640995953     -0.0176500752409    -0.128943592369     
1900000000.0        -0.019623196        -0.135834130395     0.980314602288      -0.140794301596     0.980314602288      -0.140794301596     -0.019623196        -0.135834130395     
2000000000.0        -0.0216943704581    -0.142681439837     0.978241995739      -0.147904607352     0.978241995739      -0.147904607352     -0.0216943704581    -0.142681439837     
2100000000.0        -0.0238623446142    -0.149483528577     0.976072520156      -0.15496992451      0.976072520156      -0.15496992451      -0.0238623446142    -0.149483528577     
2200000000.0        -0.0261258121842    -0.156238448509     0.973807481483      -0.161988308066     0.973807481483      -0.161988308066     -0.0261258121842    -0.156238448509     
2300000000.0        -0.028483416483     -0.162944297305     0.971448236078      -0.168957858498     0.971448236078      -0.168957858498     -0.028483416483     -0.162944297305     
2400000000.0        -0.030933752373     -0.16959922006      0.968996188764      -0.175876723441     0.968996188764      -0.175876723441     -0.030933752373     -0.16959922006      
2500000000.0        -0.0334753682715    -0.176201410844     0.966452790822      -0.182743099254     0.966452790822      -0.182743099254     -0.0334753682715    -0.176201410844     
2600000000.0        -0.0361067682118    -0.182749114144     0.963819537926      -0.189555232479     0.963819537926      -0.189555232479     -0.0361067682118    -0.182749114144     
2700000000.0        -0.0388264139509    -0.189240626197     0.961097968036      -0.196311421189     0.961097968036      -0.196311421189     -0.0388264139509    -0.189240626197     
2800000000.0        -0.0416327271199    -0.19567429622      0.958289659244      -0.203010016232     0.958289659244      -0.203010016232     -0.0416327271199    -0.19567429622      
2900000000.0        -0.0445240914079    -0.202048527523     0.955396227591      -0.20964942236      0.955396227591      -0.20964942236      -0.0445240914079    -0.202048527523     
3000000000.0        -0.0474988547766    -0.208361778524     0.95241932485       -0.216228099253     0.95241932485       -0.216228099253     -0.0474988547766    -0.208361778524     
3100000000.0        -0.0505553316978    -0.214612563644     0.94936063629       -0.222744562432     0.94936063629       -0.222744562432     -0.0505553316978    -0.214612563644     
3200000000.0        -0.0536918054087    -0.220799454104     0.94622187842       -0.22919738406      0.94622187842       -0.22919738406      -0.0536918054087    -0.220799454104     
3300000000.0        -0.0569065301785    -0.226921078604     0.94300479672       -0.235585193638     0.94300479672       -0.235585193638     -0.0569065301785    -0.226921078604     
3400000000.0        -0.0601977335829    -0.232976123907     0.939711163368      -0.241906678591     0.939711163368      -0.241906678591     -0.0601977335829    -0.232976123907     
3500000000.0        -0.0635636187777    -0.238963335304     0.936342774964      -0.248160584752     0.936342774964      -0.248160584752     -0.0635636187777    -0.238963335304     
3600000000.0        -0.0670023667696    -0.24488151699      0.932901450263      -0.254345716737     0.932901450263      -0.254345716737     -0.0670023667696    -0.24488151699      
3700000000.0        -0.0705121386773    -0.25072953232      0.929389027908      -0.260460938219     0.929389027908      -0.260460938219     -0.0705121386773    -0.25072953232      
3800000000.0        -0.0740910779772    -0.256506303986     0.92580736419       -0.266505172101     0.92580736419       -0.266505172101     -0.0740910779772    -0.256506303986     
3900000000.0        -0.0777373127318    -0.262210814074     0.922158330814      -0.272477400593     0.922158330814      -0.272477400593     -0.0777373127318    -0.262210814074     
4000000000.0        -0.0814489577929    -0.267842104043     0.918443812699      -0.278376665187     0.918443812699      -0.278376665187     -0.0814489577929    -0.267842104043     
4100000000.0        -0.0852241169783    -0.273399274603     0.914665705802      -0.284202066547     0.914665705802      -0.284202066547     -0.0852241169783    -0.273399274603     
4200000000.0        -0.0890608852154    -0.278881485501     0.910825914971      -0.289952764301     0.910825914971      -0.289952764301     -0.0890608852154    -0.278881485501     
4300000000.0        -0.0929573506495    -0.284287955225     0.906926351837      -0.295627976749     0.906926351837      -0.295627976749     -0.0929573506495    -0.284287955225     
4400000000.0        -0.0969115967129    -0.289617960625     0.902968932749      -0.301226980489     0.902968932749      -0.301226980489     -0.0969115967129    -0.289617960625     
4500000000.0        -0.10092170415      -0.294870836445     0.898955576744      -0.306749109955     0.898955576744      -0.306749109955     -0.10092170415      -0.294870836445     
4600000000.0        -0.104985752999     -0.300045974787     0.894888203568      -0.312193756887     0.894888203568      -0.312193756887     -0.104985752999     -0.300045974787     
4700000000.0        -0.109101824521     -0.305142824497     0.890768731745      -0.317560369718     0.890768731745      -0.317560369718     -0.109101824521     -0.305142824497     
4800000000.0        -0.113268003079     -0.310160890479     0.886599076698      -0.322848452898     0.886599076698      -0.322848452898     -0.113268003079     -0.310160890479     
4900000000.0        -0.117482377966     -0.31509973295      0.882381148923      -0.328057566146     0.882381148923      -0.328057566146     -0.117482377966     -0.31509973295      
5000000000.0        -0.121743045171     -0.319958966621     0.878116852222      -0.333187323638     0.878116852222      -0.333187323638     -0.121743045171     -0.319958966621     
5100000000.0        -0.126048109095     -0.32473825983      0.873808081987      -0.338237393146     0.873808081987      -0.338237393146     -0.126048109095     -0.32473825983      
5200000000.0        -0.130395684194     -0.329437333613     0.869456723553      -0.343207495107     0.869456723553      -0.343207495107     -0.130395684194     -0.329437333613     
5300000000.0        -0.134783896579     -0.334055960723     0.865064650605      -0.348097401651     0.865064650605      -0.348097401651     -0.134783896579     -0.334055960723     
5400000000.0        -0.139210885535     -0.338593964608     0.860633723654      -0.352906935576     0.860633723654      -0.352906935576     -0.139210885535     -0.338593964608     
5500000000.0        -0.14367480499      -0.343051218339     0.856165788569      -0.357635969283     0.856165788569      -0.357635969283     -0.14367480499      -0.343051218339     
5600000000.0        -0.148173824913     -0.347427643497     0.85166267518       -0.362284423663     0.85166267518       -0.362284423663     -0.148173824913     -0.347427643497     
5700000000.0        -0.152706132648     -0.35172320903      0.847126195943      -0.366852266959     0.847126195943      -0.366852266959     -0.152706132648     -0.35172320903      
5800000000.0        -0.157269934185     -0.35593793007      0.84255814467       -0.371339513581     0.84255814467       -0.371339513581     -0.157269934185     -0.35593793007      
5900000000.0        -0.16186345536      -0.360071866723     0.837960295325      -0.375746222906     0.837960295325      -0.375746222906     -0.16186345536      -0.360071866723     
6000000000.0        -0.166484942999     -0.364125122836     0.833334400888      -0.380072498037     0.833334400888      -0.380072498037     -0.166484942999     -0.364125122836     
6100000000.0        -0.171132665984     -0.368097844739     0.828682192279      -0.384318484553     0.828682192279      -0.384318484553     -0.171132665984     -0.368097844739     
6200000000.0        -0.175804916268     -0.371990219966     0.824005377353      -0.388484369231     0.824005377353      -0.388484369231     -0.175804916268     -0.371990219966     
6300000000.0        -0.180500009809     -0.375802475964     0.819305639956      -0.392570378756     0.819305639956      -0.392570378756     -0.180500009809     -0.375802475964     
6400000000.0        -0.185216287459     -0.379534878785     0.814584639046      -0.396576778416     0.814584639046      -0.396576778416     -0.185216287459     -0.379534878785     
6500000000.0        -0.18995211577      -0.383187731774     0.809844007877      -0.400503870787     0.809844007877      -0.400503870787     -0.18995211577      -0.383187731774     
6600000000.0        -0.194705887755     -0.386761374245     0.805085353247      -0.404351994414     0.805085353247      -0.404351994414     -0.194705887755     -0.386761374245     
6700000000.0        -0.199476023575     -0.390256180155     0.800310254803      -0.408121522488     0.800310254803      -0.408121522488     -0.199476023575     -0.390256180155     
6800000000.0        -0.204260971176     -0.393672556774     0.795520264413      -0.411812861512     0.795520264413      -0.411812861512     -0.204260971176     -0.393672556774     
6900000000.0        -0.209059206856     -0.397010943364     0.790716905589      -0.415426449985     0.790716905589      -0.415426449985     -0.209059206856     -0.397010943364     
7000000000.0        -0.213869235783     -0.40027180985      0.785901672975      -0.418962757073     0.785901672975      -0.418962757073     -0.213869235783     -0.40027180985      
7100000000.0        -0.218689592455     -0.403455655507     0.781076031886      -0.422422281297     0.781076031886      -0.422422281297     -0.218689592455     -0.403455655507     
7200000000.0        -0.223518841104     -0.406563007653     0.776241417905      -0.425805549223     0.776241417905      -0.425805549223     -0.223518841104     -0.406563007653     
7300000000.0        -0.228355576045     -0.409594420346     0.771399236532      -0.429113114167     0.771399236532      -0.429113114167     -0.228355576045     -0.409594420346     
7400000000.0        -0.233198421975     -0.412550473099     0.766550862883      -0.432345554908     0.766550862883      -0.432345554908     -0.233198421975     -0.412550473099     
7500000000.0        -0.238046034225     -0.415431769611     0.761697641444      -0.435503474415     0.761697641444      -0.435503474415     -0.238046034225     -0.415431769611     
7600000000.0        -0.24289709896      -0.418238936507     0.756840885866      -0.438587498593     0.756840885866      -0.438587498593     -0.24289709896      -0.418238936507     
7700000000.0        -0.247750333331     -0.420972622101     0.751981878816      -0.441598275045     0.751981878816      -0.441598275045     -0.247750333331     -0.420972622101     
7800000000.0        -0.252604485587     -0.423633495173     0.747121871861      -0.444536471849     0.747121871861      -0.444536471849     -0.252604485587     -0.423633495173     
7900000000.0        -0.25745833514      -0.42622224377      0.742262085408      -0.447402776361     0.742262085408      -0.447402776361     -0.25745833514      -0.42622224377      
8000000000.0        -0.262310692588     -0.428739574027     0.737403708675      -0.450197894035     0.737403708675      -0.450197894035     -0.262310692588     -0.428739574027     
8100000000.0        -0.267160399706     -0.431186209011     0.732547899709      -0.452922547266     0.732547899709      -0.452922547266     -0.267160399706     -0.431186209011     
8200000000.0        -0.272006329387     -0.433562887585     0.727695785433      -0.455577474258     0.727695785433      -0.455577474258     -0.272006329387     -0.433562887585     
8300000000.0        -0.276847385557     -0.435870363302     0.722848461742      -0.458163427914     0.722848461742      -0.458163427914     -0.276847385557     -0.435870363302     
8400000000.0        -0.281682503054     -0.438109403317     0.718006993618      -0.460681174755     0.718006993618      -0.460681174755     -0.281682503054     -0.438109403317     
8500000000.0        -0.286510647467     -0.440280787334     0.713172415292      -0.463131493858     0.713172415292      -0.463131493858     -0.286510647467     -0.440280787334     
8600000000.0        -0.291330814956     -0.442385306569     0.708345730424      -0.465515175829     0.708345730424      -0.465515175829     -0.291330814956     -0.442385306569     
8700000000.0        -0.296142032033     -0.444423762751     0.703527912322      -0.467833021794     0.703527912322      -0.467833021794     -0.296142032033     -0.444423762751     
8800000000.0        -0.300943355324     -0.446396967138     0.698719904184      -0.470085842425     0.698719904184      -0.470085842425     -0.300943355324     -0.446396967138     
8900000000.0        -0.305733871295     -0.448305739573     0.693922619361      -0.47227445699      0.693922619361      -0.47227445699      -0.305733871295     -0.448305739573     
9000000000.0        -0.310512695966     -0.450150907559     0.689136941658      -0.474399692429     0.689136941658      -0.474399692429     -0.310512695966     -0.450150907559     
9100000000.0        -0.315278974593     -0.451933305366     0.684363725638      -0.476462382465     0.684363725638      -0.476462382465     -0.315278974593     -0.451933305366     
9200000000.0        -0.320031881334     -0.453653773167     0.679603796966      -0.478463366732     0.679603796966      -0.478463366732     -0.320031881334     -0.453653773167     
9300000000.0        -0.324770618894     -0.455313156198     0.67485795276       -0.480403489947     0.67485795276       -0.480403489947     -0.324770618894     -0.455313156198     
9400000000.0        -0.329494418151     -0.456912303955     0.67012696196       -0.482283601093     0.67012696196       -0.482283601093     -0.329494418151     -0.456912303955     
9500000000.0        -0.334202537771     -0.458452069406     0.665411565726      -0.484104552643     0.665411565726      -0.484104552643     -0.334202537771     -0.458452069406     
9600000000.0        -0.3388942638       -0.459933308246     0.660712477834      -0.485867199809     0.660712477834      -0.485867199809     -0.3388942638       -0.459933308246     
9700000000.0        -0.343568909246     -0.461356878167     0.656030385095      -0.487572399812     0.656030385095      -0.487572399812     -0.343568909246     -0.461356878167     
9800000000.0        -0.348225813654     -0.462723638166     0.651365947789      -0.489221011194     0.651365947789      -0.489221011194     -0.348225813654     -0.462723638166     
9900000000.0        -0.352864342657     -0.464034447872     0.646719800104      -0.49081389314      0.646719800104      -0.49081389314      -0.352864342657     -0.464034447872     
10000000000.0       -0.357483887531     -0.465290166909     0.642092550586      -0.492351904844     0.642092550586      -0.492351904844     -0.357483887531     -0.465290166909     
