# Hz S RI R 50.00 
100000000.0         -0.000174279776106  -0.0171082221019    0.999528473152      -0.0178223934107    0.999528473152      -0.0178223934107    -0.000174279776106  -0.0171082221019    
200000000.0         -0.00110445274457   -0.034183842931     0.998595514177      -0.0356122318186    0.998595514177      -0.0356122318186    -0.00110445274457   -0.034183842931     
300000000.0         -0.0026404586402    -0.0511954919482    0.997056723709      -0.053338175112     0.997056723709      -0.053338175112     -0.0026404586402    -0.0511954919482    
400000000.0         -0.00477669561343   -0.0681121374433    0.994917447461      -0.0709692164852    0.994917447461      -0.0709692164852    -0.00477669561343   -0.0681121374433    
500000000.0         -0.00750554208069   -0.0849032875897    0.992185208556      -0.0884748864337    0.992185208556      -0.0884748864337    -0.00750554208069   -0.0849032875897    
600000000.0         -0.010817366414     -0.101539172266     0.988869588395      -0.105825435505     0.988869588395      -0.105825435505     -0.010817366414     -0.101539172266     
700000000.0         -0.0147005952229    -0.117990912721     0.984982130611      -0.122992004423     0.984982130611      -0.122992004423     -0.0147005952229    -0.117990912721     
800000000.0         -0.0191418066025    -0.134230679102     0.980536237707      -0.139946781885     0.980536237707      -0.139946781885     -0.0191418066025    -0.134230679102     
900000000.0         -0.02412584064      -0.15023183484      0.975547056053      -0.156663149125     0.975547056053      -0.156663149125     -0.02412584064      -0.15023183484      
1000000000.0        -0.0296359236561    -0.165969066763     0.970031349372      -0.173115810147     0.970031349372      -0.173115810147     -0.0296359236561    -0.165969066763     
1100000000.0        -0.0356538036342    -0.18141849991      0.96400736205       -0.189280906632     0.96400736205       -0.189280906632     -0.0356538036342    -0.18141849991      
1200000000.0        -0.0421598945571    -0.19655779627      0.957494674049      -0.20513611675      0.957494674049      -0.20513611675      -0.0421598945571    -0.19655779627      
1300000000.0        -0.0491334274575    -0.211366236909     0.950514049386      -0.220660737332     0.950514049386      -0.220660737332     -0.0491334274575    -0.211366236909     
1400000000.0        -0.0565526060401    -0.225824787214     0.943087280203      -0.235835749166     0.943087280203      -0.235835749166     -0.0565526060401    -0.225824787214     
1500000000.0        -0.0643947647944    -0.239916145266     0.935237028445      -0.250643865401     0.935237028445      -0.250643865401     -0.0643947647944    -0.239916145266     
1600000000.0        -0.0726365276037    -0.253624773605     0.9269866671        -0.265069563346     0.9269866671        -0.265069563346     -0.0726365276037    -0.253624773605     
1700000000.0        -0.0812539649713    -0.266936914881     0.918360122874      -0.279099100145     0.918360122874      -0.279099100145     -0.0812539649713    -0.266936914881     
1800000000.0        -0.0902227481226    -0.27984059212      0.909381722007      -0.292720513064     0.909381722007      -0.292720513064     -0.0902227481226    -0.27984059212      
1900000000.0        -0.0995182984073    -0.292325594484     0.900076040814      -0.305923605273     0.900076040814      -0.305923605273     -0.0995182984073    -0.292325594484     
2000000000.0        -0.109115930603     -0.304383449604     0.890467762336      -0.318699918193     0.890467762336      -0.318699918193     -0.109115930603     -0.304383449604     
2100000000.0        -0.11899098892      -0.316007383645     0.880581540307      -0.331042691578     0.880581540307      -0.331042691578     -0.11899098892      -0.316007383645     
2200000000.0        -0.129118974688     -0.327192270388     0.870441871429      -0.342946812611     0.870441871429      -0.342946812611     -0.129118974688     -0.327192270388     
2300000000.0        -0.139475664937     -0.337934570645     0.860072976781      -0.354408755326     0.860072976781      -0.354408755326     -0.139475664937     -0.337934570645     
2400000000.0        -0.150037221249     -0.348232263375     0.849498692949      -0.365426511744     0.849498692949      -0.365426511744     -0.150037221249     -0.348232263375     
2500000000.0        -0.160780288458     -0.358084769862     0.838742373305      -0.375999516052     0.838742373305      -0.375999516052     -0.160780288458     -0.358084769862     
2600000000.0        -0.171682082971     -0.367492872284     0.827826799681      -0.386128563187     0.827826799681      -0.386128563187     -0.171682082971     -0.367492872284     
2700000000.0        -0.182720470621     -0.376458627985     0.816774104507      -0.395815723113     0.816774104507      -0.395815723113     -0.182720470621     -0.376458627985     
2800000000.0        -0.193874034133     -0.384985280667     0.805605703334      -0.405064252024     0.805605703334      -0.405064252024     -0.193874034133     -0.384985280667     
2900000000.0        -0.205122130403     -0.393077169672     0.794342237551      -0.41387850163      0.794342237551      -0.41387850163      -0.205122130403     -0.393077169672     
3000000000.0        -0.21644493792      -0.400739638412     0.78300352696       -0.422263827597     0.78300352696       -0.422263827597     -0.21644493792      -0.400739638412     
3100000000.0        -0.227823494733     -0.407978942929     0.771608531796      -0.43022649811      0.771608531796      -0.43022649811      -0.227823494733     -0.407978942929     
3200000000.0        -0.239239727485     -0.414802161448     0.760175323701      -0.437773603434     0.760175323701      -0.437773603434     -0.239239727485     -0.414802161448     
3300000000.0        -0.250676472038     -0.421217105695     0.748721065086      -0.444912967238     0.748721065086      -0.444912967238     -0.250676472038     -0.421217105695     
3400000000.0        -0.262117486324     -0.427232234643     0.737261996282      -0.451653060343     0.737261996282      -0.451653060343     -0.262117486324     -0.427232234643     
3500000000.0        -0.273547456032     -0.432856571243     0.725813429849      -0.458002917464     0.725813429849      -0.458002917464     -0.273547456032     -0.432856571243     
3600000000.0        -0.284951993799     -0.438099622613     0.714389751383      -0.463972057399     0.714389751383      -0.463972057399     -0.284951993799     -0.438099622613     
3700000000.0        -0.296317632546     -0.442971304042     0.70300442618       -0.469570407038     0.70300442618       -0.469570407038     -0.296317632546     -0.442971304042     
3800000000.0        -0.307631813612     -0.447481867102     0.691670011097      -0.47480822948      0.691670011097      -0.47480822948      -0.307631813612     -0.447481867102     
3900000000.0        -0.318882870329     -0.451641832071     0.680398170982      -0.47969605646      0.680398170982      -0.47969605646      -0.318882870329     -0.451641832071     
4000000000.0        -0.330060007633     -0.455461924786     0.669199699049      -0.484244625208     0.669199699049      -0.484244625208     -0.330060007633     -0.455461924786     
4100000000.0        -0.34115327832      -0.458953018009     0.658084540638      -0.488464819816     0.658084540638      -0.488464819816     -0.34115327832      -0.458953018009     
4200000000.0        -0.352153556465     -0.462126077302     0.64706181978       -0.492367617116     0.64706181978       -0.492367617116     -0.352153556465     -0.462126077302     
4300000000.0        -0.363052508562     -0.46499211137      0.636139868066      -0.495964037029     0.636139868066      -0.495964037029     -0.363052508562     -0.46499211137      
4400000000.0        -0.373842562815     -0.46756212679      0.625326255349      -0.499265097297     0.625326255349      -0.499265097297     -0.373842562815     -0.46756212679      
4500000000.0        -0.38451687707      -0.469847087013     0.614627821815      -0.502281772487     0.614627821815      -0.502281772487     -0.38451687707      -0.469847087013     
4600000000.0        -0.395069305735     -0.471857875475     0.604050711061      -0.505024957105     0.604050711061      -0.505024957105     -0.395069305735     -0.471857875475     
4700000000.0        -0.405494366094     -0.473605262657     0.593600403781      -0.507505432662     0.593600403781      -0.507505432662     -0.405494366094     -0.473605262657     
4800000000.0        -0.415787204298     -0.4750998769       0.583281751772      -0.509733838488     0.583281751772      -0.509733838488     -0.415787204298     -0.4750998769       
4900000000.0        -0.425943561342     -0.476352178775     0.573099011961      -0.511720646105     0.573099011961      -0.511720646105     -0.425943561342     -0.476352178775     
5000000000.0        -0.435959739265     -0.477372438789     0.563055880199      -0.513476136939     0.563055880199      -0.513476136939     -0.435959739265     -0.477372438789     
5100000000.0        -0.445832567784     -0.478170718217     0.553155524632      -0.515010383153     0.553155524632      -0.515010383153     -0.445832567784     -0.478170718217     
5200000000.0        -0.455559371558     -0.478756852846     0.543400618432      -0.516333231393     0.543400618432      -0.516333231393     -0.455559371558     -0.478756852846     
5300000000.0        -0.465137938222     -0.479140439405     0.533793371769      -0.517454289219     0.533793371769      -0.517454289219     -0.465137938222     -0.479140439405     
5400000000.0        -0.474566487322     -0.479330824471     0.524335562863      -0.518382914018     0.524335562863      -0.518382914018     -0.474566487322     -0.479330824471     
5500000000.0        -0.48384364027      -0.479337095652     0.515028568046      -0.519128204187     0.515028568046      -0.519128204187     -0.48384364027      -0.479337095652     
5600000000.0        -0.492968391366     -0.479168074835     0.505873390722      -0.519698992379     0.505873390722      -0.519698992379     -0.492968391366     -0.479168074835     
5700000000.0        -0.501940079991     -0.47883231331      0.49687068919       -0.520103840636     0.49687068919       -0.520103840636     -0.501940079991     -0.47883231331      
5800000000.0        -0.510758363972     -0.478338088591     0.488020803265      -0.520351037211     0.488020803265      -0.520351037211     -0.510758363972     -0.478338088591     
5900000000.0        -0.519423194185     -0.47769340276      0.479323779684      -0.520448594909     0.479323779684      -0.520448594909     -0.519423194185     -0.47769340276      
6000000000.0        -0.527934790383     -0.47690598216      0.470779396272      -0.520404250788     0.470779396272      -0.520404250788     -0.527934790383     -0.47690598216      
6100000000.0        -0.53629361827      -0.475983278304     0.462387184871      -0.520225467066     0.462387184871      -0.520225467066     -0.53629361827      -0.475983278304     
6200000000.0        -0.544500367799     -0.474932469833     0.454146453038      -0.519919433085     0.454146453038      -0.519919433085     -0.544500367799     -0.474932469833     
6300000000.0        -0.552555932698     -0.473760465413     0.446056304526      -0.519493068204     0.446056304526      -0.519493068204     -0.552555932698     -0.473760465413     
6400000000.0        -0.560461391177     -0.472473907434     0.438115658568      -0.518953025507     0.438115658568      -0.518953025507     -0.560461391177     -0.472473907434     
6500000000.0        -0.56821798781      -0.471079176403     0.430323267999      -0.518305696192     0.430323267999      -0.518305696192     -0.56821798781      -0.471079176403     
6600000000.0        -0.575827116545     -0.469582395932     0.422677736246      -0.517557214565     0.422677736246      -0.517557214565     -0.575827116545     -0.469582395932     
6700000000.0        -0.583290304807     -0.46798943822      0.415177533226      -0.516713463521     0.415177533226      -0.516713463521     -0.583290304807     -0.46798943822      
6800000000.0        -0.590609198654     -0.466305929947     0.407821010182      -0.51578008044      0.407821010182      -0.51578008044      -0.590609198654     -0.466305929947     
6900000000.0        -0.597785548955     -0.464537258505     0.400606413518      -0.514762463421     0.400606413518      -0.514762463421     -0.597785548955     -0.464537258505     
7000000000.0        -0.604821198519     -0.462688578489     0.393531897655      -0.513665777775     0.393531897655      -0.513665777775     -0.604821198519     -0.462688578489     
7100000000.0        -0.611718070165     -0.460764818397     0.386595536971      -0.512494962725     0.386595536971      -0.512494962725     -0.611718070165     -0.460764818397     
7200000000.0        -0.618478155657     -0.458770687472     0.379795336861      -0.511254738251     0.379795336861      -0.511254738251     -0.618478155657     -0.458770687472     
7300000000.0        -0.625103505484     -0.456710682642     0.373129243962      -0.509949612029     0.373129243962      -0.509949612029     -0.625103505484     -0.456710682642     
7400000000.0        -0.631596219414     -0.454589095511     0.366595155589      -0.508583886429     0.366595155589      -0.508583886429     -0.631596219414     -0.454589095511     
7500000000.0        -0.637958437809     -0.452410019369     0.360190928428      -0.50716166552      0.360190928428      -0.50716166552      -0.637958437809     -0.452410019369     
7600000000.0        -0.644192333635     -0.450177356175     0.353914386525      -0.505686862061     0.353914386525      -0.505686862061     -0.644192333635     -0.450177356175     
7700000000.0        -0.650300105126     -0.447894823499     0.347763328617      -0.504163204437     0.347763328617      -0.504163204437     -0.650300105126     -0.447894823499     
7800000000.0        -0.656283969081     -0.445565961382     0.341735534838      -0.502594243528     0.341735534838      -0.502594243528     -0.656283969081     -0.445565961382     
7900000000.0        -0.662146154732     -0.443194139102     0.335828772851      -0.500983359472     0.335828772851      -0.500983359472     -0.662146154732     -0.443194139102     
8000000000.0        -0.667888898158     -0.440782561825     0.330040803431      -0.499333768319     0.330040803431      -0.499333768319     -0.667888898158     -0.440782561825     
8100000000.0        -0.673514437212     -0.438334277126     0.324369385541      -0.497648528552     0.324369385541      -0.497648528552     -0.673514437212     -0.438334277126     
8200000000.0        -0.679025006911     -0.435852181362     0.318812280939      -0.495930547464     0.318812280939      -0.495930547464     -0.679025006911     -0.435852181362     
8300000000.0        -0.684422835277     -0.433339025895     0.313367258337      -0.49418258738      0.313367258337      -0.49418258738      -0.684422835277     -0.433339025895     
8400000000.0        -0.689710139583     -0.430797423151     0.308032097159      -0.492407271716     0.308032097159      -0.492407271716     -0.689710139583     -0.430797423151     
8500000000.0        -0.694889122975     -0.428229852505     0.302804590907      -0.490607090873     0.302804590907      -0.490607090873     -0.694889122975     -0.428229852505     
8600000000.0        -0.699961971461     -0.425638666        0.297682550188      -0.488784407946     0.297682550188      -0.488784407946     -0.699961971461     -0.425638666        
8700000000.0        -0.704930851208     -0.423026093881     0.292663805404      -0.486941464269     0.292663805404      -0.486941464269     -0.704930851208     -0.423026093881     
8800000000.0        -0.709797906156     -0.420394249955     0.287746209141      -0.485080384769     0.287746209141      -0.485080384769     -0.709797906156     -0.420394249955     
8900000000.0        -0.714565255902     -0.417745136761     0.282927638287      -0.483203183145     0.282927638287      -0.483203183145     -0.714565255902     -0.417745136761     
9000000000.0        -0.719234993844     -0.415080650576     0.278205995885      -0.481311766868     0.278205995885      -0.481311766868     -0.719234993844     -0.415080650576     
9100000000.0        -0.723809185562     -0.412402586222     0.273579212752      -0.479407941993     0.273579212752      -0.479407941993     -0.723809185562     -0.412402586222     
9200000000.0        -0.728289867416     -0.40971264171      0.269045248881      -0.477493417804     0.269045248881      -0.477493417804     -0.728289867416     -0.40971264171      
9300000000.0        -0.732679045344     -0.407012422701     0.264602094646      -0.475569811277     0.264602094646      -0.475569811277     -0.732679045344     -0.407012422701     
9400000000.0        -0.736978693839     -0.404303446798     0.260247771815      -0.473638651369     0.260247771815      -0.473638651369     -0.736978693839     -0.404303446798     
9500000000.0        -0.741190755101     -0.401587147665     0.255980334409      -0.471701383142     0.255980334409      -0.471701383142     -0.741190755101     -0.401587147665     
9600000000.0        -0.745317138335     -0.398864878983     0.251797869394      -0.469759371722     0.251797869394      -0.469759371722     -0.745317138335     -0.398864878983     
9700000000.0        -0.749359719195     -0.396137918243     0.247698497246      -0.467813906089     0.247698497246      -0.467813906089     -0.749359719195     -0.396137918243     
9800000000.0        -0.753320339347     -0.393407470384     0.243680372376      -0.465866202716     0.243680372376      -0.465866202716     -0.753320339347     -0.393407470384     
9900000000.0        -0.757200806156     -0.390674671272     0.239741683454      -0.463917409055     0.239741683454      -0.463917409055     -0.757200806156     -0.390674671272     
10000000000.0       -0.761002892476     -0.387940591037     0.235880653612      -0.46196860687      0.235880653612      -0.46196860687      -0.761002892476     -0.387940591037     
