# Hz S RI R 50.00 
100000000.0         0.00235965433829    0.0014502888446     0.997631693351      -0.00453455046634   0.997631693351      -0.00453455046634   0.00235965433829    0.0014502888446     
200000000.0         0.00239373793571    0.00290026866695    0.997580436449      -0.00906885276367   0.997580436449      -0.00906885276367   0.00239373793571    0.00290026866695    
300000000.0         0.00243688378221    0.00434988694519    0.997510594794      -0.0136028865177    0.997510594794      -0.0136028865177    0.00243688378221    0.00434988694519    
400000000.0         0.00249112670462    0.00579904308771    0.99742013156       -0.0181365717631    0.99742013156       -0.0181365717631    0.00249112670462    0.00579904308771    
500000000.0         0.00255724673443    0.00724762580904    0.997308264299      -0.0226698119101    0.997308264299      -0.0226698119101    0.00255724673443    0.00724762580904    
600000000.0         0.00263563821099    0.00869551935862    0.997174595888      -0.0272025019538    0.997174595888      -0.0272025019538    0.00263563821099    0.00869551935862    
700000000.0         0.00272653060924    0.0101426057317     0.997018893731      -0.0317345317032    0.997018893731      -0.0317345317032    0.00272653060924    0.0101426057317     
800000000.0         0.00283006909564    0.0115887656829     0.996841009237      -0.0362657874096    0.996841009237      -0.0362657874096    0.00283006909564    0.0115887656829     
900000000.0         0.00294635037838    0.0130338792651     0.996640841985      -0.0407961527137    0.996640841985      -0.0407961527137    0.00294635037838    0.0130338792651     
1000000000.0        0.00307544087052    0.0144778261452     0.996418321586      -0.0453255092515    0.996418321586      -0.0453255092515    0.00307544087052    0.0144778261452     
1100000000.0        0.00321738678217    0.0159204858039     0.996173397606      -0.0498537370689    0.996173397606      -0.0498537370689    0.00321738678217    0.0159204858039     
1200000000.0        0.00337222013186    0.0173617376681     0.995906033567      -0.0543807149212    0.995906033567      -0.0543807149212    0.00337222013186    0.0173617376681     
1300000000.0        0.00353996252752    0.018801461205      0.99561620318       -0.0589063204984    0.99561620318       -0.0589063204984    0.00353996252752    0.018801461205      
1400000000.0        0.00372062765126    0.0202395359892     0.995303887874      -0.0634304305996    0.995303887874      -0.0634304305996    0.00372062765126    0.0202395359892     
1500000000.0        0.00391422295273    0.0216758417542     0.994969075108      -0.0679529212731    0.994969075108      -0.0679529212731    0.00391422295272    0.0216758417542     
1600000000.0        0.00412075083865    0.0231102584327     0.994611757197      -0.0724736679308    0.994611757197      -0.0724736679308    0.00412075083865    0.0231102584327     
1700000000.0        0.00434020953069    0.0245426661876     0.99423193046       -0.0769925454435    0.99423193046       -0.0769925454435    0.00434020953069    0.0245426661876     
1800000000.0        0.00457259369808    0.0259729454392     0.993829594593      -0.081509428222     0.993829594593      -0.081509428222     0.00457259369808    0.0259729454392     
1900000000.0        0.00481789493367    0.027400976887      0.993404752205      -0.0860241902868    0.993404752205      -0.0860241902868    0.00481789493367    0.027400976887      
2000000000.0        0.00507610211833    0.0288266415289     0.992957408458      -0.0905367053293    0.992957408458      -0.0905367053293    0.00507610211833    0.0288266415289     
2100000000.0        0.0053472017045     0.0302498206784     0.992487570792      -0.0950468467659    0.992487570792      -0.0950468467659    0.0053472017045     0.0302498206784     
2200000000.0        0.00563117793986    0.031670395979      0.991995248704      -0.0995544877858    0.991995248704      -0.0995544877858    0.00563117793986    0.031670395979      
2300000000.0        0.00592801304622    0.033088249419      0.991480453577      -0.104059501395     0.991480453577      -0.104059501395     0.00592801304622    0.033088249419      
2400000000.0        0.0062376873642     0.0345032633436     0.990943198542      -0.108561760455     0.990943198542      -0.108561760455     0.0062376873642     0.0345032633436     
2500000000.0        0.00656017947172    0.0359153204668     0.990383498361      -0.113061137721     0.990383498361      -0.113061137721     0.00656017947172    0.0359153204668     
2600000000.0        0.00689546628191    0.0373243038834     0.989801369336      -0.117557505872     0.989801369336      -0.117557505872     0.00689546628191    0.0373243038834     
2700000000.0        0.00724352312491    0.0387300970789     0.989196829235      -0.122050737544     0.989196829235      -0.122050737544     0.00724352312491    0.0387300970789     
2800000000.0        0.00760432381695    0.0401325839407     0.988569897219      -0.126540705359     0.988569897219      -0.126540705359     0.00760432381695    0.0401325839407     
2900000000.0        0.007977840719      0.0415316487676     0.987920593796      -0.131027281953     0.987920593796      -0.131027281953     0.007977840719      0.0415316487676     
3000000000.0        0.00836404478722    0.0429271762797     0.987248940768      -0.135510339997     0.987248940768      -0.135510339997     0.00836404478722    0.0429271762797     
3100000000.0        0.00876290561664    0.0443190516281     0.986554961195      -0.139989752228     0.986554961195      -0.139989752228     0.00876290561664    0.0443190516281     
3200000000.0        0.00917439147922    0.0457071604041     0.985838679359      -0.144465391464     0.985838679359      -0.144465391464     0.00917439147922    0.0457071604041     
3300000000.0        0.0095984693575     0.0470913886482     0.985100120733      -0.148937130633     0.985100120733      -0.148937130633     0.0095984693575     0.0470913886482     
3400000000.0        0.0100351049743     0.0484716228596     0.984339311956      -0.15340484279      0.984339311956      -0.15340484279      0.0100351049743     0.0484716228596     
3500000000.0        0.0104842628193     0.0498477500048     0.983556280809      -0.157868401138     0.983556280809      -0.157868401138     0.0104842628193     0.0498477500048     
3600000000.0        0.0109459061731     0.0512196575264     0.982751056191      -0.162327679045     0.982751056191      -0.162327679045     0.0109459061731     0.0512196575264     
3700000000.0        0.011419997129      0.052587233352      0.981923668106      -0.166782550065     0.981923668106      -0.166782550065     0.011419997129      0.052587233352      
3800000000.0        0.0119064966129     0.0539503659028     0.981074147639      -0.171232887956     0.981074147639      -0.171232887956     0.0119064966129     0.0539503659028     
3900000000.0        0.0124053644011     0.0553089441018     0.980202526947      -0.175678566694     0.980202526947      -0.175678566694     0.0124053644011     0.0553089441018     
4000000000.0        0.0129165591382     0.056662857383      0.979308839237      -0.180119460493     0.979308839237      -0.180119460493     0.0129165591382     0.056662857383      
4100000000.0        0.013440038352      0.0580119956992     0.978393118759      -0.184555443817     0.978393118759      -0.184555443817     0.013440038352      0.0580119956992     
4200000000.0        0.0139757584687     0.0593562495307     0.977455400791      -0.188986391401     0.977455400791      -0.188986391401     0.0139757584687     0.0593562495307     
4300000000.0        0.0145236748269     0.0606955098933     0.976495721626      -0.19341217826      0.976495721626      -0.19341217826      0.0145236748269     0.0606955098933     
4400000000.0        0.0150837416906     0.0620296683469     0.975514118564      -0.197832679707     0.975514118564      -0.197832679707     0.0150837416906     0.0620296683469     
4500000000.0        0.0156559122621     0.0633586170032     0.974510629896      -0.202247771369     0.974510629896      -0.202247771369     0.0156559122621     0.0633586170032     
4600000000.0        0.016240138694      0.0646822485344     0.973485294901      -0.206657329195     0.973485294901      -0.206657329195     0.016240138694      0.0646822485344     
4700000000.0        0.0168363721005     0.0660004561806     0.97243815383       -0.211061229475     0.97243815383       -0.211061229475     0.0168363721005     0.0660004561806     
4800000000.0        0.0174445625692     0.0673131337583     0.971369247898      -0.215459348851     0.971369247898      -0.215459348851     0.0174445625692     0.0673131337583     
4900000000.0        0.0180646591715     0.0686201756681     0.970278619279      -0.21985156433      0.970278619279      -0.21985156433      0.0180646591715     0.0686201756681     
5000000000.0        0.0186966099734     0.0699214769025     0.969166311091      -0.224237753296     0.969166311091      -0.224237753296     0.0186966099734     0.0699214769025     
5100000000.0        0.0193403620459     0.0712169330539     0.968032367391      -0.228617793522     0.968032367391      -0.228617793522     0.0193403620459     0.0712169330539     
5200000000.0        0.0199958614748     0.072506440322      0.966876833164      -0.232991563183     0.966876833164      -0.232991563183     0.0199958614748     0.072506440322      
5300000000.0        0.0206630533712     0.0737898955218     0.965699754319      -0.237358940869     0.965699754319      -0.237358940869     0.0206630533712     0.0737898955218     
5400000000.0        0.0213418818804     0.0750671960911     0.964501177676      -0.241719805592     0.964501177676      -0.241719805592     0.0213418818804     0.0750671960911     
5500000000.0        0.0220322901926     0.0763382400979     0.963281150957      -0.246074036801     0.963281150957      -0.246074036801     0.0220322901926     0.0763382400979     
5600000000.0        0.0227342205513     0.0776029262479     0.962039722784      -0.250421514393     0.962039722784      -0.250421514393     0.0227342205513     0.0776029262479     
5700000000.0        0.0234476142637     0.078861153892      0.960776942664      -0.254762118719     0.960776942664      -0.254762118719     0.0234476142637     0.078861153892      
5800000000.0        0.0241724117092     0.0801128230335     0.959492860986      -0.259095730602     0.959492860986      -0.259095730602     0.0241724117092     0.0801128230335     
5900000000.0        0.0249085523494     0.0813578343354     0.95818752901       -0.263422231339     0.95818752901       -0.263422231339     0.0249085523494     0.0813578343354     
6000000000.0        0.0256559747365     0.0825960891273     0.95686099886       -0.267741502719     0.95686099886       -0.267741502719     0.0256559747365     0.0825960891273     
6100000000.0        0.0264146165233     0.0838274894129     0.955513323515      -0.272053427025     0.955513323515      -0.272053427025     0.0264146165233     0.0838274894129     
6200000000.0        0.0271844144715     0.0850519378768     0.954144556802      -0.276357887052     0.954144556802      -0.276357887052     0.0271844144715     0.0850519378768     
6300000000.0        0.0279653044615     0.0862693378913     0.952754753389      -0.280654766107     0.952754753389      -0.280654766107     0.0279653044615     0.0862693378913     
6400000000.0        0.0287572215009     0.0874795935233     0.951343968774      -0.284943948028     0.951343968774      -0.284943948028     0.0287572215009     0.0874795935233     
6500000000.0        0.0295600997337     0.0886826095412     0.949912259279      -0.289225317184     0.949912259279      -0.289225317184     0.0295600997337     0.0886826095412     
6600000000.0        0.0303738724496     0.0898782914214     0.948459682042      -0.293498758491     0.948459682042      -0.293498758491     0.0303738724496     0.0898782914214     
6700000000.0        0.0311984720927     0.091066545355      0.946986295007      -0.297764157415     0.946986295007      -0.297764157415     0.0311984720927     0.091066545355      
6800000000.0        0.0320338302704     0.0922472782541     0.945492156921      -0.302021399987     0.945492156921      -0.302021399987     0.0320338302704     0.0922472782541     
6900000000.0        0.0328798777629     0.0934203977586     0.943977327317      -0.306270372802     0.943977327317      -0.306270372802     0.0328798777629     0.0934203977586     
7000000000.0        0.0337365445317     0.094585812242      0.942441866515      -0.310510963038     0.942441866515      -0.310510963038     0.0337365445317     0.094585812242      
7100000000.0        0.0346037597292     0.095743430818      0.940885835608      -0.314743058455     0.940885835608      -0.314743058455     0.0346037597292     0.095743430818      
7200000000.0        0.0354814517069     0.0968931633465     0.939309296455      -0.318966547407     0.939309296455      -0.318966547407     0.0354814517069     0.0968931633465     
7300000000.0        0.0363695480253     0.0980349204397     0.937712311675      -0.323181318849     0.937712311675      -0.323181318849     0.0363695480253     0.0980349204397     
7400000000.0        0.0372679754624     0.0991686134679     0.936094944635      -0.327387262345     0.936094944635      -0.327387262345     0.0372679754624     0.0991686134679     
7500000000.0        0.0381766600229     0.100294154566      0.934457259445      -0.331584268074     0.934457259445      -0.331584268074     0.0381766600229     0.100294154566      
7600000000.0        0.0390955269476     0.101411456637      0.932799320948      -0.335772226837     0.932799320948      -0.335772226837     0.0390955269476     0.101411456637      
7700000000.0        0.0400245007218     0.102520433362      0.931121194712      -0.339951030065     0.931121194712      -0.339951030065     0.0400245007218     0.102520433362      
7800000000.0        0.040963505085      0.103620999202      0.92942294702       -0.344120569827     0.92942294702       -0.344120569827     0.040963505085      0.103620999202      
7900000000.0        0.0419124630398     0.104713069403      0.927704644864      -0.348280738833     0.927704644864      -0.348280738833     0.0419124630398     0.104713069403      
8000000000.0        0.0428712968612     0.105796560005      0.925966355935      -0.352431430444     0.925966355935      -0.352431430444     0.0428712968612     0.105796560005      
8100000000.0        0.0438399281053     0.106871387845      0.924208148616      -0.356572538675     0.924208148616      -0.356572538675     0.0438399281053     0.106871387845      
8200000000.0        0.0448182776191     0.107937470561      0.922430091971      -0.360703958206     0.922430091971      -0.360703958206     0.044818277619      0.107937470561      
8300000000.0        0.045806265549      0.108994726599      0.920632255738      -0.364825584382     0.920632255738      -0.364825584382     0.045806265549      0.108994726599      
8400000000.0        0.0468038113507     0.110043075219      0.918814710321      -0.368937313225     0.918814710321      -0.368937313225     0.0468038113507     0.110043075219      
8500000000.0        0.0478108337979     0.111082436496      0.916977526778      -0.373039041434     0.916977526778      -0.373039041434     0.0478108337979     0.111082436496      
8600000000.0        0.0488272509916     0.112112731327      0.915120776818      -0.377130666395     0.915120776818      -0.377130666395     0.0488272509916     0.112112731327      
8700000000.0        0.0498529803696     0.113133881439      0.913244532786      -0.381212086184     0.913244532786      -0.381212086184     0.0498529803696     0.113133881439      
8800000000.0        0.0508879387155     0.114145809386      0.911348867659      -0.385283199574     0.911348867659      -0.385283199574     0.0508879387155     0.114145809386      
8900000000.0        0.0519320421679     0.115148438561      0.909433855035      -0.389343906039     0.909433855035      -0.389343906039     0.0519320421679     0.115148438561      
9000000000.0        0.0529852062302     0.116141693195      0.907499569125      -0.393394105758     0.907499569125      -0.393394105758     0.0529852062302     0.116141693195      
9100000000.0        0.0540473457789     0.117125498364      0.905546084744      -0.397433699623     0.905546084744      -0.397433699623     0.0540473457789     0.117125498364      
9200000000.0        0.0551183750741     0.118099779994      0.9035734773        -0.401462589241     0.9035734773        -0.401462589241     0.0551183750741     0.118099779994      
9300000000.0        0.0561982077679     0.119064464861      0.901581822791      -0.405480676938     0.901581822791      -0.405480676938     0.0561982077679     0.119064464861      
9400000000.0        0.0572867569139     0.1200194806        0.899571197788      -0.409487865768     0.899571197788      -0.409487865768     0.0572867569139     0.1200194806        
9500000000.0        0.0583839349768     0.120964755706      0.897541679435      -0.413484059512     0.897541679435      -0.413484059512     0.0583839349768     0.120964755706      
9600000000.0        0.0594896538416     0.121900219535      0.895493345432      -0.417469162685     0.895493345432      -0.417469162685     0.0594896538416     0.121900219535      
9700000000.0        0.0606038248227     0.122825802316      0.893426274031      -0.421443080539     0.893426274031      -0.421443080539     0.0606038248227     0.122825802316      
9800000000.0        0.0617263586736     0.123741435146      0.891340544025      -0.425405719069     0.891340544025      -0.425405719069     0.0617263586736     0.123741435146      
9900000000.0        0.062857165596      0.124647049996      0.889236234741      -0.429356985014     0.889236234741      -0.429356985014     0.062857165596      0.124647049996      
10000000000.0       0.0639961552491     0.125542579718      0.88711342603       -0.433296785861     0.88711342603       -0.433296785861     0.0639961552491     0.125542579718      
