# Hz S RI R 50.00 
100000000.0         -0.00136065442331   -0.0363866329168    0.99863204233       -0.0364321530511    0.99863204233       -0.0364321530511    -0.00136065442331   -0.0363866329168    
200000000.0         -0.00535626745752   -0.0724693909221    0.994636376254      -0.0725604629763    0.994636376254      -0.0725604629763    -0.00535626745752   -0.0724693909221    
300000000.0         -0.0119174530825    -0.10796322826      0.988075148052      -0.108099899347     0.988075148052      -0.108099899347     -0.0119174530825    -0.10796322826      
400000000.0         -0.0209385001942    -0.142600301886     0.979054062545      -0.142782629843     0.979054062545      -0.142782629843     -0.0209385001942    -0.142600301886     
500000000.0         -0.0322786713796    -0.176135775746     0.967713854736      -0.176363826463     0.967713854736      -0.176363826463     -0.0322786713796    -0.176135775746     
600000000.0         -0.0457676475059    -0.208352777244     0.954224842526      -0.208626622714     0.954224842526      -0.208626622714     -0.0457676475059    -0.208352777244     
700000000.0         -0.0612116910327    -0.239066050648     0.93878076273       -0.239385767431     0.93878076273       -0.239385767431     -0.0612116910327    -0.239066050648     
800000000.0         -0.078400161278     -0.268124180742     0.921592255557      -0.268489848702     0.921592255557      -0.268489848702     -0.078400161278     -0.268124180742     
900000000.0         -0.0971120229959    -0.295410402116     0.902880355924      -0.29582210337      0.902880355924      -0.29582210337      -0.0971120229959    -0.295410402116     
1000000000.0        -0.117122031112     -0.320842109779     0.882870308665      -0.321299927806     0.882870308665      -0.321299927806     -0.117122031112     -0.320842109779     
1100000000.0        -0.138206337521     -0.344369257468     0.861785961706      -0.344873276371     0.861785961706      -0.344873276371     -0.138206337521     -0.344369257468     
1200000000.0        -0.160147339665     -0.365971872601     0.83984491746       -0.366522176474     0.83984491746       -0.366522176474     -0.160147339665     -0.365971872601     
1300000000.0        -0.182737665811     -0.38565693333      0.817254547548      -0.386253605738     0.817254547548      -0.386253605738     -0.182737665811     -0.38565693333      
1400000000.0        -0.20578326098      -0.403454847816     0.794208906855      -0.404097971362     0.794208906855      -0.404097971362     -0.20578326098      -0.403454847816     
1500000000.0        -0.229105595355     -0.419415753752     0.770886525121      -0.420105409719     0.770886525121      -0.420105409719     -0.229105595355     -0.419415753752     
1600000000.0        -0.252543061017     -0.433605823294     0.747449010201      -0.434342091359     0.747449010201      -0.434342091359     -0.252543061017     -0.433605823294     
1700000000.0        -0.275951652596     -0.446103720257     0.724040367408      -0.446886678263     0.724040367408      -0.446886678263     -0.275951652596     -0.446103720257     
1800000000.0        -0.299205043949     -0.45699731726      0.700786922838      -0.457827041037     0.700786922838      -0.457827041037     -0.299205043949     -0.45699731726      
1900000000.0        -0.322194178315     -0.466380743821     0.67779773321       -0.46725730705      0.67779773321       -0.46725730705      -0.322194178315     -0.466380743821     
2000000000.0        -0.344826486199     -0.474351804384     0.655165367982      -0.475275278508     0.655165367982      -0.475275278508     -0.344826486199     -0.474351804384     
2100000000.0        -0.367024836001     -0.481009779075     0.632966958723      -0.481980233229     0.632966958723      -0.481980233229     -0.367024836001     -0.481009779075     
2200000000.0        -0.388726309538     -0.486453599757     0.611265423586      -0.487471100735     0.611265423586      -0.487471100735     -0.388726309538     -0.486453599757     
2300000000.0        -0.409880879984     -0.490780379564     0.590110789372      -0.491844991806     0.590110789372      -0.491844991806     -0.409880879984     -0.490780379564     
2400000000.0        -0.430450054926     -0.494084264663     0.569541548473      -0.495196050262     0.569541548473      -0.495196050262     -0.430450054926     -0.494084264663     
2500000000.0        -0.450405533166     -0.496455571764     0.549586002064      -0.497614590486     0.549586002064      -0.497614590486     -0.450405533166     -0.496455571764     
2600000000.0        -0.469727911263     -0.497980172881     0.530263553569      -0.499186482204     0.530263553569      -0.499186482204     -0.469727911263     -0.497980172881     
2700000000.0        -0.488405464942     -0.498739089289     0.511585927245      -0.499992744448     0.511585927245      -0.499992744448     -0.488405464942     -0.498739089289     
2800000000.0        -0.506433021461     -0.498808258643     0.493558295821      -0.500109312681     0.493558295821      -0.500109312681     -0.506433021461     -0.498808258643     
2900000000.0        -0.523810931825     -0.498258442324     0.476180308277      -0.499606946159     0.476180308277      -0.499606946159     -0.523810931825     -0.498258442324     
3000000000.0        -0.540544146121     -0.497155243733     0.459447014513      -0.498551246219     0.459447014513      -0.498551246219     -0.540544146121     -0.497155243733     
3100000000.0        -0.556641391112     -0.495559212061     0.443349687756      -0.49700276006      0.443349687756      -0.49700276006      -0.556641391112     -0.495559212061     
3200000000.0        -0.572114446249     -0.493526009882     0.427876548543      -0.495017148338     0.427876548543      -0.495017148338     -0.572114446249     -0.493526009882     
3300000000.0        -0.586977512281     -0.491106626446     0.413013396117      -0.492645398454     0.413013396117      -0.492645398454     -0.586977512281     -0.491106626446     
3400000000.0        -0.601246665432     -0.488347621807     0.398744154244      -0.48993406869      0.398744154244      -0.48993406869      -0.601246665432     -0.488347621807     
3500000000.0        -0.614939389481     -0.485291389788     0.385051339137      -0.486925551172     0.385051339137      -0.486925551172     -0.614939389481     -0.485291389788     
3600000000.0        -0.628074177907     -0.481976430289     0.37191645731       -0.483658344174     0.37191645731       -0.483658344174     -0.628074177907     -0.481976430289     
3700000000.0        -0.640670198373     -0.478437623548     0.359320341093      -0.480167326384     0.359320341093      -0.480167326384     -0.640670198373     -0.478437623548     
3800000000.0        -0.652747012191     -0.474706500762     0.347243429169      -0.476484027518     0.347243429169      -0.476484027518     -0.652747012191     -0.474706500762     
3900000000.0        -0.664324341855     -0.470811506933     0.335665999035      -0.472636891166     0.335665999035      -0.472636891166     -0.664324341855     -0.470811506933     
4000000000.0        -0.675421880335     -0.466778252992     0.324568357718      -0.468651526916     0.324568357718      -0.468651526916     -0.675421880335     -0.466778252992     
4100000000.0        -0.686059136348     -0.462629755235     0.313930996495      -0.464550949787     0.313930996495      -0.464550949787     -0.686059136348     -0.462629755235     
4200000000.0        -0.696255310505     -0.458386660834     0.303734714751      -0.460355805736     0.303734714751      -0.460355805736     -0.696255310505     -0.458386660834     
4300000000.0        -0.706029197717     -0.45406745878      0.293960717569      -0.456084582603     0.293960717569      -0.456084582603     -0.706029197717     -0.45406745878      
4400000000.0        -0.715399111874     -0.449688676097     0.284590691057      -0.451753806316     0.284590691057      -0.451753806316     -0.715399111874     -0.449688676097     
4500000000.0        -0.724382829251     -0.445265059445     0.275606858935      -0.447378222499     0.275606858935      -0.447378222499     -0.724382829251     -0.445265059445     
4600000000.0        -0.7329975476       -0.440809742543     0.266992023447      -0.442970963887     0.266992023447      -0.442970963887     -0.7329975476       -0.440809742543     
4700000000.0        -0.741259858275     -0.436334399945     0.258729593236      -0.438543704105     0.258729593236      -0.438543704105     -0.741259858275     -0.436334399945     
4800000000.0        -0.749185729133     -0.43184938789      0.250803600443      -0.434106798508     0.250803600443      -0.434106798508     -0.749185729133     -0.43184938789      
4900000000.0        -0.756790496249     -0.427363872956     0.243198708989      -0.429669412842     0.243198708989      -0.429669412842     -0.756790496249     -0.427363872956     
5000000000.0        -0.764088862812     -0.422885949317     0.235900215681      -0.425239640492     0.235900215681      -0.425239640492     -0.764088862812     -0.422885949317     
5100000000.0        -0.771094903788     -0.418422745413     0.228894045552      -0.420824609152     0.228894045552      -0.420824609152     -0.771094903788     -0.418422745413     
5200000000.0        -0.777822075163     -0.41398052082      0.222166742614      -0.416430577696     0.222166742614      -0.416430577696     -0.777822075163     -0.41398052082      
5300000000.0        -0.784283226775     -0.409564754095     0.215705457024      -0.412063024012     0.215705457024      -0.412063024012     -0.784283226775     -0.409564754095     
5400000000.0        -0.790490617911     -0.405180222328     0.209497929496      -0.407726724566     0.209497929496      -0.407726724566     -0.790490617911     -0.405180222328     
5500000000.0        -0.796455934949     -0.400831073123     0.203532473647      -0.403425826368     0.203532473647      -0.403425826368     -0.796455934949     -0.400831073123     
5600000000.0        -0.802190310497     -0.396520889648     0.197797956867      -0.399163912027     0.197797956867      -0.399163912027     -0.802190310497     -0.396520889648     
5700000000.0        -0.807704343541     -0.392252749375     0.192283780171      -0.39494405849      0.192283780171      -0.39494405849      -0.807704343541     -0.392252749375     
5800000000.0        -0.813008120205     -0.388029277095     0.186979857429      -0.39076889005      0.186979857429      -0.39076889005      -0.813008120205     -0.388029277095     
5900000000.0        -0.81811123483      -0.383852692721     0.181876594302      -0.386640626152     0.181876594302      -0.386640626152     -0.81811123483      -0.383852692721     
6000000000.0        -0.823022811087     -0.37972485437      0.176964867113      -0.382561124475     0.176964867113      -0.382561124475     -0.823022811087     -0.37972485437      
6100000000.0        -0.827751522949     -0.375647297178     0.172236001891      -0.378531919739     0.172236001891      -0.378531919739     -0.827751522949     -0.375647297178     
6200000000.0        -0.832305615332     -0.371621268245     0.167681753717      -0.374554258656     0.167681753717      -0.374554258656     -0.832305615332     -0.371621268245     
6300000000.0        -0.836692924304     -0.367647758086     0.16329428652       -0.370629131374     0.16329428652       -0.370629131374     -0.836692924304     -0.367647758086     
6400000000.0        -0.840920896753     -0.36372752893      0.159066153412      -0.366757299778     0.159066153412      -0.366757299778     -0.840920896753     -0.36372752893      
6500000000.0        -0.844996609443     -0.359861140168     0.154990277628      -0.362939322936     0.154990277628      -0.362939322936     -0.844996609443     -0.359861140168     
6600000000.0        -0.848926787409     -0.356048971231     0.151059934129      -0.359175579977     0.151059934129      -0.359175579977     -0.848926787409     -0.356048971231     
6700000000.0        -0.852717821668     -0.352291242156     0.147268731899      -0.355466290653     0.147268731899      -0.355466290653     -0.852717821668     -0.352291242156     
6800000000.0        -0.856375786199     -0.34858803206      0.143610596956      -0.351811533817     0.143610596956      -0.351811533817     -0.856375786199     -0.34858803206      
6900000000.0        -0.859906454214     -0.344939295734     0.140079756087      -0.348211264009     0.140079756087      -0.348211264009     -0.859906454214     -0.344939295734     
7000000000.0        -0.863315313691     -0.34134487854      0.136670721312      -0.344665326359     0.136670721312      -0.344665326359     -0.863315313691     -0.34134487854      
7100000000.0        -0.866607582204     -0.337804529785     0.133378275057      -0.341173469955     0.133378275057      -0.341173469955     -0.866607582204     -0.337804529785     
7200000000.0        -0.869788221026     -0.334317914715     0.130197456045      -0.337735359843     0.130197456045      -0.337735359843     -0.869788221026     -0.334317914715     
7300000000.0        -0.872861948564     -0.330884625278     0.127123545871      -0.33435058778      0.127123545871      -0.33435058778      -0.872861948564     -0.330884625278     
7400000000.0        -0.875833253104     -0.327504189766     0.124152056245      -0.331018681881     0.124152056245      -0.331018681881     -0.875833253104     -0.327504189766     
7500000000.0        -0.878706404921     -0.324176081457     0.121278716892      -0.327739115262     0.121278716892      -0.327739115262     -0.878706404921     -0.324176081457     
7600000000.0        -0.881485467751     -0.320899726356     0.118499464073      -0.324511313776     0.118499464073      -0.324511313776     -0.881485467751     -0.320899726356     
7700000000.0        -0.884174309676     -0.317674510119     0.115810429706      -0.321334662938     0.115810429706      -0.321334662938     -0.884174309676     -0.317674510119     
7800000000.0        -0.886776613419     -0.314499784248     0.113207931067      -0.318208514121     0.113207931067      -0.318208514121     -0.886776613419     -0.314499784248     
7900000000.0        -0.889295886097     -0.31137487163      0.110688461036      -0.31513219009      0.110688461036      -0.31513219009      -0.889295886097     -0.31137487163      
8000000000.0        -0.891735468451     -0.308299071478     0.108248678873      -0.31210498995      0.108248678873      -0.31210498995      -0.891735468451     -0.308299071478     
8100000000.0        -0.894098543564     -0.305271663743     0.105885401491      -0.30912619355      0.105885401491      -0.30912619355      -0.894098543564     -0.305271663743     
8200000000.0        -0.896388145119     -0.30229191305      0.103595595206      -0.30619506542      0.103595595206      -0.30619506542      -0.896388145119     -0.30229191305      
8300000000.0        -0.898607165198     -0.29935907219      0.101376367936      -0.303310858271     0.101376367936      -0.303310858271     -0.898607165198     -0.29935907219      
8400000000.0        -0.90075836165      -0.296472385242     0.0992249618304     -0.300472816102     0.0992249618304     -0.300472816102     -0.90075836165      -0.296472385242     
8500000000.0        -0.90284436506      -0.293631090328     0.0971387463019     -0.297680176967     0.0971387463019     -0.297680176967     -0.90284436506      -0.293631090328     
8600000000.0        -0.904867685333     -0.290834422067     0.095115211445      -0.294932175423     0.095115211445      -0.294932175423     -0.904867685333     -0.290834422067     
8700000000.0        -0.906830717912     -0.288081613739     0.0931519618152     -0.292228044695     0.0931519618152     -0.292228044695     -0.906830717912     -0.288081613739     
8800000000.0        -0.908735749654     -0.285371899202     0.091246710553      -0.289567018591     0.091246710553      -0.289567018591     -0.908735749654     -0.285371899202     
8900000000.0        -0.910584964386     -0.282704514572     0.0893972738304     -0.286948333185     0.0893972738304     -0.286948333185     -0.910584964386     -0.282704514572     
9000000000.0        -0.91238044815      -0.280078699705     0.0876015656045     -0.284371228296     0.0876015656045     -0.284371228296     -0.91238044815      -0.280078699705     
9100000000.0        -0.91412419416      -0.277493699495     0.0858575926596     -0.281834948786     0.0858575926596     -0.281834948786     -0.91412419416      -0.277493699495     
9200000000.0        -0.915818107488     -0.274948765001     0.084163449922      -0.279338745686     0.084163449922      -0.279338745686     -0.915818107488     -0.274948765001     
9300000000.0        -0.917464009493     -0.272443154429     0.0825173160319     -0.276881877183     0.0825173160319     -0.276881877183     -0.917464009493     -0.272443154429     
9400000000.0        -0.919063642004     -0.269976133984     0.0809174491575     -0.274463609464     0.0809174491575     -0.274463609464     -0.919063642004     -0.269976133984     
9500000000.0        -0.920618671281     -0.267546978595     0.0793621830386     -0.272083217448     0.0793621830386     -0.272083217448     -0.920618671281     -0.267546978595     
9600000000.0        -0.922130691752     -0.265154972542     0.077849923245      -0.269739985404     0.077849923245      -0.269739985404     -0.922130691752     -0.265154972542     
9700000000.0        -0.923601229554     -0.262799409977     0.0763791436387     -0.267433207481     0.0763791436387     -0.267433207481     -0.923601229554     -0.262799409977     
9800000000.0        -0.925031745877     -0.260479595369     0.0749483830274     -0.265162188149     0.0749483830274     -0.265162188149     -0.925031745877     -0.260479595369     
9900000000.0        -0.926423640131     -0.258194843864     0.0735562419992     -0.262926242558     0.0735562419992     -0.262926242558     -0.926423640131     -0.258194843864     
10000000000.0       -0.927778252943     -0.255944481583     0.072201379927      -0.260724696837     0.072201379927      -0.260724696837     -0.927778252943     -0.255944481583     
