# Hz S RI R 50.00 
100000000.0         4.88445090709e-05   -0.0106814381199    0.999661561175      -0.0123827286038    0.999661561175      -0.0123827286038    4.88445090709e-05   -0.0106814381199    
200000000.0         -0.000357835379025  -0.0213543896012    0.999247915369      -0.0247571314618    0.999247915369      -0.0247571314618    -0.000357835379025  -0.0213543896012    
300000000.0         -0.00102874717016   -0.0320103899797    0.998567805149      -0.0371148470692    0.998567805149      -0.0371148470692    -0.00102874717016   -0.0320103899797    
400000000.0         -0.00196284192391   -0.0426408838053    0.997621944701      -0.049447403635     0.997621944701      -0.049447403635     -0.00196284192391   -0.0426408838053    
500000000.0         -0.00315880372374   -0.053237304864     0.996411519714      -0.0617463094838    0.996411519714      -0.0617463094838    -0.00315880372374   -0.053237304864     
600000000.0         -0.00461497783993   -0.0637911180276    0.994938117009      -0.0740030981676    0.994938117009      -0.0740030981676    -0.00461497783993   -0.0637911180276    
700000000.0         -0.00632935467983   -0.0742938506631    0.993203704514      -0.086209361497     0.993203704514      -0.086209361497     -0.00632935467983   -0.0742938506631    
800000000.0         -0.00829956731536   -0.0847371194405    0.991210620614      -0.0983567773107    0.991210620614      -0.0983567773107    -0.00829956731536   -0.0847371194405    
900000000.0         -0.0105228944646    -0.0951126545289    0.988961565329      -0.1104371343       0.988961565329      -0.1104371343       -0.0105228944646    -0.0951126545289    
1000000000.0        -0.0129962665288    -0.105412321995     0.98645959134       -0.122442354852     0.98645959134       -0.122442354852     -0.0129962665288    -0.105412321995     
1100000000.0        -0.0157162737602    -0.115628144771     0.983708094185      -0.134364516342     0.983708094185      -0.134364516342     -0.0157162737602    -0.115628144771     
1200000000.0        -0.0186791761154    -0.125752322362     0.980710801442      -0.146195871093     0.980710801442      -0.146195871093     -0.0186791761154    -0.125752322362     
1300000000.0        -0.0218809145378    -0.135777249348     0.977471760841      -0.157928865075     0.977471760841      -0.157928865075     -0.0218809145378    -0.135777249348     
1400000000.0        -0.0253171234892    -0.145695532711     0.973995327334      -0.169556155393     0.973995327334      -0.169556155393     -0.0253171234892    -0.145695532711     
1500000000.0        -0.0289831445857    -0.155500007967     0.970286149196      -0.181070626555     0.970286149196      -0.181070626555     -0.0289831445857    -0.155500007967     
1600000000.0        -0.0328740412136    -0.165183754093     0.96634915322       -0.192465405506     0.96634915322       -0.192465405506     -0.0328740412136    -0.165183754093     
1700000000.0        -0.0369846140062    -0.174740107219     0.96218952911       -0.203733875418     0.96218952911       -0.203733875418     -0.0369846140062    -0.174740107219     
1800000000.0        -0.0413094170675    -0.18416267306      0.957812713156      -0.214869688202     0.957812713156      -0.214869688202     -0.0413094170675    -0.18416267306      
1900000000.0        -0.0458427748326    -0.193445338072     0.953224371304      -0.225866775741     0.953224371304      -0.225866775741     -0.0458427748326    -0.193445338072     
2000000000.0        -0.0505787994551    -0.202582279313     0.948430381714      -0.23671935981      0.948430381714      -0.23671935981      -0.0505787994551    -0.202582279313     
2100000000.0        -0.0555114086123    -0.211567973006     0.943436816914      -0.247421960696     0.943436816914      -0.247421960696     -0.0555114086123    -0.211567973006     
2200000000.0        -0.0606343436242    -0.220397201789     0.938249925646      -0.257969404503     0.938249925646      -0.257969404503     -0.0606343436242    -0.220397201789     
2300000000.0        -0.0659411877797    -0.22906506068      0.932876114513      -0.268356829154     0.932876114513      -0.268356829154     -0.0659411877797    -0.22906506068      
2400000000.0        -0.0714253847721    -0.237566961741     0.927321929528      -0.278579689107     0.927321929528      -0.278579689107     -0.0714253847721    -0.237566961741     
2500000000.0        -0.0770802571435    -0.245898637488     0.921594037651      -0.288633758796     0.921594037651      -0.288633758796     -0.0770802571435    -0.245898637488     
2600000000.0        -0.0828990246465    -0.25405614306      0.91569920841       -0.298515134834     0.91569920841       -0.298515134834     -0.0828990246465    -0.25405614306      
2700000000.0        -0.0888748224323    -0.262035857174     0.909644295708      -0.308220237007     0.909644295708      -0.308220237007     -0.0888748224323    -0.262035857174     
2800000000.0        -0.0950007189823    -0.269834481932     0.903436219879      -0.317745808101     0.903436219879      -0.317745808101     -0.0950007189823    -0.269834481932     
2900000000.0        -0.101269733703     -0.277449041487     0.897081950084      -0.327088912603     0.897081950084      -0.327088912603     -0.101269733703     -0.277449041487     
3000000000.0        -0.107674854113     -0.284876879658     0.890588487121      -0.33624693434      0.890588487121      -0.33624693434      -0.107674854113     -0.284876879658     
3100000000.0        -0.114209052551     -0.29211565652      0.883962846708      -0.345217573087     0.883962846708      -0.345217573087     -0.114209052551     -0.29211565652      
3200000000.0        -0.12086530235      -0.299163344038     0.877212043306      -0.353998840234     0.877212043306      -0.353998840234     -0.12086530235      -0.299163344038     
3300000000.0        -0.127636593418     -0.306018220813     0.870343074533      -0.36258905354      0.870343074533      -0.36258905354      -0.127636593418     -0.306018220813     
3400000000.0        -0.134515947176     -0.312678865988     0.863362906223      -0.370986831072     0.863362906223      -0.370986831072     -0.134515947176     -0.312678865988     
3500000000.0        -0.14149643082      -0.319144152399     0.856278458158      -0.379191084363     0.856278458158      -0.379191084363     -0.14149643082      -0.319144152399     
3600000000.0        -0.148571170862     -0.325413239022     0.849096590527      -0.387201010884     0.849096590527      -0.387201010884     -0.148571170862     -0.325413239022     
3700000000.0        -0.155733365925     -0.331485562795     0.841824091123      -0.39501608588      0.841824091123      -0.39501608588      -0.155733365925     -0.331485562795     
3800000000.0        -0.162976298776     -0.337360829878     0.834467663315      -0.402636053645     0.834467663315      -0.402636053645     -0.162976298776     -0.337360829878     
3900000000.0        -0.170293347564     -0.343039006416     0.827033914798      -0.410060918299     0.827033914798      -0.410060918299     -0.170293347564     -0.343039006416     
4000000000.0        -0.17767799627      -0.34852030888      0.819529347148      -0.417290934148     0.819529347148      -0.417290934148     -0.17767799627      -0.34852030888      
4100000000.0        -0.185123844351     -0.353805194042     0.81196034617       -0.424326595668     0.81196034617       -0.424326595668     -0.185123844351     -0.353805194042     
4200000000.0        -0.192624615585     -0.358894348656     0.804333173054      -0.4311686272       0.804333173054      -0.4311686272       -0.192624615585     -0.358894348656     
4300000000.0        -0.200174166112     -0.363788678897     0.796653956328      -0.4378179724       0.796653956328      -0.4378179724       -0.200174166112     -0.363788678897     
4400000000.0        -0.207766491692     -0.368489299629     0.788928684603      -0.444275783521     0.788928684603      -0.444275783521     -0.207766491692     -0.368489299629     
4500000000.0        -0.215395734181     -0.372997523539     0.781163200088      -0.45054341056      0.781163200088      -0.45054341056      -0.215395734181     -0.372997523539     
4600000000.0        -0.223056187249     -0.377314850221     0.773363192874      -0.456622390343     0.773363192874      -0.456622390343     -0.223056187249     -0.377314850221     
4700000000.0        -0.230742301352     -0.38144295522      0.765534195956      -0.462514435594     0.765534195956      -0.462514435594     -0.230742301352     -0.38144295522      
4800000000.0        -0.238448687994     -0.385383679125     0.757681580972      -0.468221424026     0.757681580972      -0.468221424026     -0.238448687994     -0.385383679125     
4900000000.0        -0.246170123283     -0.38913901672      0.749810554643      -0.473745387506     0.749810554643      -0.473745387506     -0.246170123283     -0.38913901672      
5000000000.0        -0.253901550828     -0.392711106254     0.741926155871      -0.479088501333     0.741926155871      -0.479088501333     -0.253901550828     -0.392711106254     
5100000000.0        -0.261638083998     -0.396102218861     0.734033253482      -0.484253073668     0.734033253482      -0.484253073668     -0.261638083998     -0.396102218861     
5200000000.0        -0.269375007561     -0.399314748158     0.726136544576      -0.489241535141     0.726136544576      -0.489241535141     -0.269375007561     -0.399314748158     
5300000000.0        -0.277107778766     -0.402351200065     0.718240553457      -0.494056428676     0.718240553457      -0.494056428676     -0.277107778766     -0.402351200065     
5400000000.0        -0.284832027857     -0.405214182855     0.710349631096      -0.498700399551     0.710349631096      -0.498700399551     -0.284832027857     -0.405214182855     
5500000000.0        -0.292543558096     -0.407906397476     0.702467955124      -0.503176185728     0.702467955124      -0.503176185728     -0.292543558096     -0.407906397476     
5600000000.0        -0.300238345289     -0.410430628155     0.69459953029       -0.507486608462     0.69459953029       -0.507486608462     -0.300238345289     -0.410430628155     
5700000000.0        -0.30791253688      -0.412789733298     0.686748189372      -0.51163456321      0.686748189372      -0.51163456321      -0.30791253688      -0.412789733298     
5800000000.0        -0.31556245062      -0.414986636718     0.678917594499      -0.515623010867     0.678917594499      -0.515623010867     -0.31556245062      -0.414986636718     
5900000000.0        -0.323184572863     -0.417024319183     0.671111238856      -0.519454969316     0.671111238856      -0.519454969316     -0.323184572863     -0.417024319183     
6000000000.0        -0.330775556506     -0.418905810305     0.663332448737      -0.523133505327     0.663332448737      -0.523133505327     -0.330775556506     -0.418905810305     
6100000000.0        -0.33833221862      -0.420634180776     0.655584385917      -0.526661726798     0.655584385917      -0.526661726798     -0.33833221862      -0.420634180776     
6200000000.0        -0.345851537779     -0.42221253495      0.647870050308      -0.530042775345     0.647870050308      -0.530042775345     -0.345851537779     -0.42221253495      
6300000000.0        -0.353330651148     -0.423644003784     0.640192282883      -0.533279819244     0.640192282883      -0.533279819244     -0.353330651148     -0.423644003784     
6400000000.0        -0.360766851324     -0.424931738126     0.632553768819      -0.53637604673      0.632553768819      -0.53637604673      -0.360766851324     -0.424931738126     
6500000000.0        -0.368157582983     -0.426078902363     0.624957040849      -0.539334659647     0.624957040849      -0.539334659647     -0.368157582983     -0.426078902363     
6600000000.0        -0.375500439353     -0.427088668415     0.61740448279       -0.542158867448     0.61740448279       -0.542158867448     -0.375500439353     -0.427088668415     
6700000000.0        -0.382793158522     -0.427964210078     0.609898333228      -0.544851881543     0.609898333228      -0.544851881543     -0.382793158522     -0.427964210078     
6800000000.0        -0.390033619628     -0.428708697705     0.602440689321      -0.547416909987     0.602440689321      -0.547416909987     -0.390033619628     -0.428708697705     
6900000000.0        -0.397219838939     -0.429325293229     0.595033510721      -0.549857152503     0.595033510721      -0.549857152503     -0.397219838939     -0.429325293229     
7000000000.0        -0.404349965843     -0.429817145505     0.587678623577      -0.552175795836     0.587678623577      -0.552175795836     -0.404349965843     -0.429817145505     
7100000000.0        -0.411422278777     -0.430187385984     0.5803777246        -0.554376009424     0.5803777246        -0.554376009424     -0.411422278777     -0.430187385984     
7200000000.0        -0.418435181102     -0.430439124684     0.573132385189      -0.55646094138      0.573132385189      -0.55646094138      -0.418435181102     -0.430439124684     
7300000000.0        -0.425387196951     -0.430575446475     0.565944055572      -0.558433714774     0.565944055572      -0.558433714774     -0.425387196951     -0.430575446475     
7400000000.0        -0.432276967056     -0.430599407648     0.55881406898       -0.560297424215     0.55881406898       -0.560297424215     -0.432276967056     -0.430599407648     
7500000000.0        -0.439103244579     -0.430514032767     0.551743645811      -0.5620551327       0.551743645811      -0.5620551327       -0.439103244579     -0.430514032767     
7600000000.0        -0.445864890948     -0.430322311793     0.544733897784      -0.563709868745     0.544733897784      -0.563709868745     -0.445864890948     -0.430322311793     
7700000000.0        -0.452560871723     -0.430027197465     0.537785832078      -0.565264623772     0.537785832078      -0.565264623772     -0.452560871723     -0.430027197465     
7800000000.0        -0.459190252493     -0.429631602934     0.53090035542       -0.566722349741     0.53090035542       -0.566722349741     -0.459190252493     -0.429631602934     
7900000000.0        -0.465752194815     -0.429138399627     0.524078278149      -0.568085957023     0.524078278149      -0.568085957023     -0.465752194815     -0.429138399627     
8000000000.0        -0.472245952214     -0.428550415342     0.517320318205      -0.569358312499     0.517320318205      -0.569358312499     -0.472245952214     -0.428550415342     
8100000000.0        -0.478670866238     -0.427870432561     0.510627105076      -0.57054223787      0.510627105076      -0.57054223787      -0.478670866238     -0.427870432561     
8200000000.0        -0.48502636258      -0.427101186955     0.503999183664      -0.571640508176     0.503999183664      -0.571640508176     -0.48502636258      -0.427101186955     
8300000000.0        -0.491311947281     -0.426245366099     0.49743701808       -0.572655850504     0.49743701808       -0.572655850504     -0.491311947281     -0.426245366099     
8400000000.0        -0.49752720301      -0.425305608351     0.490940995361      -0.573590942877     0.490940995361      -0.573590942877     -0.49752720301      -0.425305608351     
8500000000.0        -0.503671785423     -0.42428450192      0.484511429099      -0.574448413323     0.484511429099      -0.574448413323     -0.503671785423     -0.42428450192      
8600000000.0        -0.509745419618     -0.42318458408      0.478148562988      -0.575230839093     0.478148562988      -0.575230839093     -0.509745419618     -0.42318458408      
8700000000.0        -0.515747896679     -0.422008340549     0.47185257427       -0.575940746042     0.47185257427       -0.575940746042     -0.515747896679     -0.422008340549     
8800000000.0        -0.521679070311     -0.420758204997     0.465623577095      -0.576580608143     0.465623577095      -0.576580608143     -0.521679070311     -0.420758204997     
8900000000.0        -0.527538853576     -0.419436558701     0.459461625781      -0.577152847142     0.459461625781      -0.577152847142     -0.527538853576     -0.419436558701     
9000000000.0        -0.533327215722     -0.41804573031      0.453366717975      -0.577659832326     0.453366717975      -0.577659832326     -0.533327215722     -0.41804573031      
9100000000.0        -0.539044179114     -0.416587995732     0.44733879772       -0.578103880414     0.44733879772       -0.578103880414     -0.539044179114     -0.416587995732     
9200000000.0        -0.544689816266     -0.415065578124     0.441377758419      -0.578487255555     0.441377758419      -0.578487255555     -0.544689816266     -0.415065578124     
9300000000.0        -0.550264246964     -0.413480647987     0.435483445696      -0.578812169415     0.435483445696      -0.578812169415     -0.550264246964     -0.413480647987     
9400000000.0        -0.555767635499     -0.411835323343     0.429655660168      -0.579080781365     0.429655660168      -0.579080781365     -0.555767635499     -0.411835323343     
9500000000.0        -0.561200187996     -0.410131669999     0.423894160105      -0.579295198746     0.423894160105      -0.579295198746     -0.561200187996     -0.410131669999     
9600000000.0        -0.566562149832     -0.40837170189      0.418198664         -0.579457477215     0.418198664         -0.579457477215     -0.566562149832     -0.40837170189      
9700000000.0        -0.571853803165     -0.40655738149      0.412568853044      -0.579569621155     0.412568853044      -0.579569621155     -0.571853803165     -0.40655738149      
9800000000.0        -0.577075464553     -0.404690620281     0.407004373493      -0.579633584155     0.407004373493      -0.579633584155     -0.577075464553     -0.404690620281     
9900000000.0        -0.582227482661     -0.402773279293     0.401504838953      -0.579651269542     0.401504838953      -0.579651269542     -0.582227482661     -0.402773279293     
10000000000.0       -0.587310236074     -0.400807169681     0.396069832569      -0.579624530968     0.396069832569      -0.579624530968     -0.587310236074     -0.400807169681     
