# Hz S RI R 50.00 
100000000.0         0.000110082794083   -0.00398609853815   0.999846122109      -0.00433318081647   0.999846122109      -0.00433318081647   0.000110082794083   -0.00398609853815   
200000000.0         5.50651912377e-05   -0.00797176290189   0.999789136111      -0.00866593261016   0.999789136111      -0.00866593261016   5.50651912377e-05   -0.00797176290189   
300000000.0         -3.47162162041e-05  -0.0119565974253    0.999697724067      -0.0129978637097    0.999697724067      -0.0129978637097    -3.47162162043e-05  -0.0119565974253    
400000000.0         -0.000159132095069  -0.015940199871     0.999571787638      -0.0173285748688    0.999571787638      -0.0173285748688    -0.000159132095069  -0.015940199871     
500000000.0         -0.000318116943715  -0.0199221648882    0.999411304938      -0.0216576633128    0.999411304938      -0.0216576633128    -0.000318116943715  -0.0199221648882    
600000000.0         -0.000511620354939  -0.0239020853307    0.999216281948      -0.0259847242187    0.999216281948      -0.0259847242187    -0.000511620354939  -0.0239020853307    
700000000.0         -0.000739594618049  -0.027879552996     0.998986740213      -0.0303093515293    0.998986740213      -0.0303093515293    -0.000739594618049  -0.027879552996     
800000000.0         -0.00100199018783   -0.0318541591194    0.998722712378      -0.0346311384915    0.998722712378      -0.0346311384915    -0.00100199018783   -0.0318541591194    
900000000.0         -0.00129875366551   -0.0358254947447    0.998424240202      -0.0389496780539    0.998424240202      -0.0389496780539    -0.00129875366551   -0.0358254947447    
1000000000.0        -0.00162982677719   -0.039793151025     0.998091373551      -0.0432645631866    0.998091373551      -0.0432645631866    -0.00162982677719   -0.039793151025     
1100000000.0        -0.0019951458105    -0.0437567194759    0.997724169845      -0.0475753871487    0.997724169845      -0.0475753871487    -0.0019951458105    -0.0437567194759    
1200000000.0        -0.00239464128554   -0.0477157922034    0.997322693713      -0.0518817437257    0.997322693713      -0.0518817437257    -0.00239464128554   -0.0477157922034    
1300000000.0        -0.00282823775583   -0.0516699621069    0.996887016772      -0.0561832274409    0.996887016772      -0.0561832274409    -0.00282823775583   -0.0516699621069    
1400000000.0        -0.00329585368679   -0.0556188230706    0.996417217475      -0.060479433753     0.996417217475      -0.060479433753     -0.00329585368679   -0.0556188230706    
1500000000.0        -0.00379740138305   -0.059561970141     0.995913380995      -0.0647699592391    0.995913380995      -0.0647699592391    -0.00379740138305   -0.059561970141     
1600000000.0        -0.00433278694832   -0.0634989996974    0.995375599133      -0.0690544017689    0.995375599133      -0.0690544017689    -0.00433278694832   -0.0634989996974    
1700000000.0        -0.00490191026804   -0.0674295096139    0.994803970243      -0.0733323606707    0.994803970243      -0.0733323606707    -0.00490191026804   -0.0674295096139    
1800000000.0        -0.0055046650085    -0.0713530994163    0.994198599159      -0.0776034368911    0.994198599159      -0.0776034368911    -0.0055046650085    -0.0713530994163    
1900000000.0        -0.00614093862867   -0.0752693704334    0.993559597137      -0.0818672331492    0.993559597137      -0.0818672331492    -0.00614093862867   -0.0752693704334    
2000000000.0        -0.00681061240185   -0.0791779259444    0.992887081788      -0.0861233540856    0.992887081788      -0.0861233540856    -0.00681061240185   -0.0791779259444    
2100000000.0        -0.00751356144556   -0.0830783713218    0.992181177021      -0.090371406408     0.992181177021      -0.090371406408     -0.00751356144556   -0.0830783713218    
2200000000.0        -0.00824965475815   -0.0869703141717    0.991442012978      -0.094610999033     0.991442012978      -0.094610999033     -0.00824965475815   -0.0869703141717    
2300000000.0        -0.00901875526135   -0.0908533644697    0.990669725979      -0.0988417432231    0.990669725979      -0.0988417432231    -0.00901875526135   -0.0908533644697    
2400000000.0        -0.00982071984795   -0.0947271346944    0.989864458451      -0.103063252722     0.989864458451      -0.103063252722     -0.00982071984795   -0.0947271346944    
2500000000.0        -0.0106553994342    -0.0985912399579    0.989026358871      -0.107275143887     0.989026358871      -0.107275143887     -0.0106553994342    -0.0985912399579    
2600000000.0        -0.0115226390165    -0.102445298133     0.988155581691      -0.111477035816     0.988155581691      -0.111477035816     -0.0115226390165    -0.102445298133     
2700000000.0        -0.0124222777317    -0.106288929979     0.987252287276      -0.115668550474     0.987252287276      -0.115668550474     -0.0124222777317    -0.106288929979     
2800000000.0        -0.0133541489214    -0.110121759263     0.98631664183       -0.119849312816     0.98631664183       -0.119849312816     -0.0133541489214    -0.110121759263     
2900000000.0        -0.0143180801999    -0.113943412878     0.985348817321      -0.12401895091      0.985348817321      -0.12401895091      -0.0143180801999    -0.113943412878     
3000000000.0        -0.0153138935243    -0.117753520964     0.984348991408      -0.128177096049     0.984348991408      -0.128177096049     -0.0153138935243    -0.117753520964     
3100000000.0        -0.016341405269     -0.121551717015     0.983317347362      -0.13232338287      0.983317347362      -0.13232338287      -0.016341405269     -0.121551717015     
3200000000.0        -0.017400426302     -0.125337637999     0.982254073984      -0.136457449466     0.982254073984      -0.136457449466     -0.017400426302     -0.125337637999     
3300000000.0        -0.0184907620651    -0.12911092446      0.981159365525      -0.140578937492     0.981159365525      -0.140578937492     -0.0184907620651    -0.12911092446      
3400000000.0        -0.0196122126553    -0.132871220627     0.9800334216        -0.144687492277     0.9800334216        -0.144687492277     -0.0196122126553    -0.132871220627     
3500000000.0        -0.0207645729102    -0.136618174518     0.9788764471        -0.148782762924     0.9788764471        -0.148782762924     -0.0207645729102    -0.136618174518     
3600000000.0        -0.0219476324948    -0.140351438039     0.977688652105      -0.152864402411     0.977688652105      -0.152864402411     -0.0219476324948    -0.140351438039     
3700000000.0        -0.0231611759907    -0.144070667082     0.976470251791      -0.156932067692     0.976470251791      -0.156932067692     -0.0231611759907    -0.144070667082     
3800000000.0        -0.0244049829886    -0.147775521623     0.975221466339      -0.160985419791     0.975221466339      -0.160985419791     -0.0244049829886    -0.147775521623     
3900000000.0        -0.0256788281809    -0.151465665812     0.973942520837      -0.165024123897     0.973942520837      -0.165024123897     -0.0256788281809    -0.151465665812     
4000000000.0        -0.0269824814585    -0.155140768062     0.972633645184      -0.169047849449     0.972633645184      -0.169047849449     -0.0269824814585    -0.155140768062     
4100000000.0        -0.0283157080076    -0.158800501139     0.971295073995      -0.173056270229     0.971295073995      -0.173056270229     -0.0283157080076    -0.158800501139     
4200000000.0        -0.0296782684098    -0.162444542243     0.969927046494      -0.177049064445     0.969927046494      -0.177049064445     -0.0296782684098    -0.162444542243     
4300000000.0        -0.0310699187427    -0.166072573089     0.968529806419      -0.181025914808     0.968529806419      -0.181025914808     -0.0310699187427    -0.166072573089     
4400000000.0        -0.0324904106831    -0.16968427999      0.967103601912      -0.184986508618     0.967103601912      -0.184986508618     -0.0324904106831    -0.16968427999      
4500000000.0        -0.0339394916113    -0.173279353926     0.96564868542       -0.188930537832     0.96564868542       -0.188930537832     -0.0339394916113    -0.173279353926     
4600000000.0        -0.0354169047165    -0.176857490621     0.964165313584      -0.192857699142     0.964165313584      -0.192857699142     -0.0354169047165    -0.176857490621     
4700000000.0        -0.0369223891041    -0.180418390609     0.962653747134      -0.196767694044     0.962653747134      -0.196767694044     -0.0369223891041    -0.180418390609     
4800000000.0        -0.0384556799042    -0.183961759305     0.96111425078       -0.200660228903     0.96111425078       -0.200660228903     -0.0384556799042    -0.183961759305     
4900000000.0        -0.0400165083808    -0.187487307064     0.9595470931        -0.204535015017     0.9595470931        -0.204535015017     -0.0400165083808    -0.187487307064     
5000000000.0        -0.0416046020426    -0.190994749245     0.957952546433      -0.208391768679     0.957952546433      -0.208391768679     -0.0416046020426    -0.190994749245     
5100000000.0        -0.0432196847541    -0.194483806266     0.956330886762      -0.212230211236     0.956330886762      -0.212230211236     -0.0432196847541    -0.194483806266     
5200000000.0        -0.0448614768487    -0.19795420366      0.954682393607      -0.216050069141     0.954682393607      -0.216050069141     -0.0448614768487    -0.19795420366      
5300000000.0        -0.0465296952415    -0.201405672128     0.953007349906      -0.219851074006     0.953007349906      -0.219851074006     -0.0465296952415    -0.201405672128     
5400000000.0        -0.0482240535433    -0.204837947586     0.951306041905      -0.223632962652     0.951306041905      -0.223632962652     -0.0482240535433    -0.204837947586     
5500000000.0        -0.0499442621751    -0.208250771211     0.94957875904       -0.227395477153     0.94957875904       -0.227395477153     -0.0499442621751    -0.208250771211     
5600000000.0        -0.0516900284836    -0.211643889482     0.947825793825      -0.231138364881     0.947825793825      -0.231138364881     -0.0516900284836    -0.211643889482     
5700000000.0        -0.053461056856     -0.215017054224     0.946047441733      -0.234861378544     0.946047441733      -0.234861378544     -0.053461056856     -0.215017054224     
5800000000.0        -0.055257048837     -0.218370022642     0.944244001082      -0.238564276224     0.944244001082      -0.238564276224     -0.055257048837     -0.218370022642     
5900000000.0        -0.057077703244     -0.221702557353     0.942415772918      -0.242246821411     0.942415772918      -0.242246821411     -0.057077703244     -0.221702557353     
6000000000.0        -0.058922716284     -0.225014426423     0.940563060898      -0.245908783035     0.940563060898      -0.245908783035     -0.058922716284     -0.225014426423     
6100000000.0        -0.0607917816704    -0.228305403388     0.938686171173      -0.249549935491     0.938686171173      -0.249549935491     -0.0607917816704    -0.228305403388     
6200000000.0        -0.062684590739     -0.231575267283     0.936785412274      -0.253170058667     0.936785412274      -0.253170058667     -0.062684590739     -0.231575267283     
6300000000.0        -0.064600832565     -0.234823802664     0.934861094992      -0.256768937967     0.934861094992      -0.256768937967     -0.064600832565     -0.234823802664     
6400000000.0        -0.0665401940791    -0.238050799626     0.932913532263      -0.260346364327     0.932913532263      -0.260346364327     -0.0665401940791    -0.238050799626     
6500000000.0        -0.068502360184     -0.241256053822     0.930943039051      -0.263902134235     0.930943039051      -0.263902134235     -0.068502360184     -0.241256053822     
6600000000.0        -0.0704870138702    -0.244439366472     0.928949932233      -0.267436049743     0.928949932233      -0.267436049743     -0.0704870138702    -0.244439366472     
6700000000.0        -0.0724938363319    -0.24760054438      0.926934530483      -0.270947918479     0.926934530483      -0.270947918479     -0.0724938363319    -0.24760054438      
6800000000.0        -0.0745225070817    -0.250739399938     0.924897154155      -0.274437553655     0.924897154155      -0.274437553655     -0.0745225070817    -0.250739399938     
6900000000.0        -0.0765727040658    -0.25385575113      0.922838125171      -0.277904774072     0.922838125171      -0.277904774072     -0.0765727040658    -0.25385575113      
7000000000.0        -0.0786441037778    -0.256949421541     0.920757766906      -0.281349404121     0.920757766906      -0.281349404121     -0.0786441037778    -0.256949421541     
7100000000.0        -0.0807363813726    -0.26002024035      0.918656404071      -0.28477127379      0.918656404071      -0.28477127379      -0.0807363813726    -0.26002024035      
7200000000.0        -0.0828492107789    -0.263068042334     0.916534362606      -0.288170218653     0.916534362606      -0.288170218653     -0.0828492107789    -0.263068042334     
7300000000.0        -0.0849822648114    -0.266092667857     0.914391969564      -0.291546079871     0.914391969564      -0.291546079871     -0.0849822648114    -0.266092667857     
7400000000.0        -0.0871352152823    -0.269093962865     0.912229552998      -0.294898704182     0.912229552998      -0.294898704182     -0.0871352152823    -0.269093962865     
7500000000.0        -0.0893077331112    -0.272071778877     0.910047441856      -0.298227943891     0.910047441856      -0.298227943891     -0.0893077331112    -0.272071778877     
7600000000.0        -0.091499488435     -0.275025972972     0.907845965868      -0.301533656857     0.907845965868      -0.301533656857     -0.091499488435     -0.275025972972     
7700000000.0        -0.0937101507162    -0.277956407771     0.905625455438      -0.304815706481     0.905625455438      -0.304815706481     -0.0937101507162    -0.277956407771     
7800000000.0        -0.0959393888502    -0.280862951422     0.903386241534      -0.308073961684     0.903386241534      -0.308073961684     -0.0959393888502    -0.280862951422     
7900000000.0        -0.0981868712717    -0.283745477583     0.901128655589      -0.311308296894     0.901128655589      -0.311308296894     -0.0981868712717    -0.283745477583     
8000000000.0        -0.10045226606      -0.286603865394     0.898853029387      -0.314518592016     0.898853029387      -0.314518592016     -0.10045226606      -0.286603865394     
8100000000.0        -0.102735241042     -0.289437999457     0.896559694966      -0.317704732413     0.896559694966      -0.317704732413     -0.102735241042     -0.289437999457     
8200000000.0        -0.105035463896     -0.29224776981      0.894248984509      -0.320866608882     0.894248984509      -0.320866608882     -0.105035463896     -0.29224776981      
8300000000.0        -0.107352602254     -0.295033071896     0.891921230251      -0.324004117618     0.891921230251      -0.324004117618     -0.107352602254     -0.295033071896     
8400000000.0        -0.109686323798     -0.297793806533     0.88957676437       -0.327117160192     0.88957676437       -0.327117160192     -0.109686323798     -0.297793806533     
8500000000.0        -0.112036296362     -0.300529879884     0.887215918894      -0.33020564351      0.887215918894      -0.33020564351      -0.112036296362     -0.300529879884     
8600000000.0        -0.114402188029     -0.30324120342      0.884839025603      -0.333269479788     0.884839025603      -0.333269479788     -0.114402188029     -0.30324120342      
8700000000.0        -0.116783667225     -0.305927693883     0.882446415929      -0.336308586508     0.882446415929      -0.336308586508     -0.116783667225     -0.305927693883     
8800000000.0        -0.119180402814     -0.308589273251     0.88003842087       -0.339322886383     0.88003842087       -0.339322886383     -0.119180402814     -0.308589273251     
8900000000.0        -0.121592064191     -0.311225868695     0.877615370889      -0.342312307317     0.877615370889      -0.342312307317     -0.121592064191     -0.311225868695     
9000000000.0        -0.124018321375     -0.31383741254      0.875177595828      -0.345276782363     0.875177595828      -0.345276782363     -0.124018321375     -0.31383741254      
9100000000.0        -0.126458845092     -0.316423842215     0.872725424815      -0.348216249678     0.872725424815      -0.348216249678     -0.126458845092     -0.316423842215     
9200000000.0        -0.128913306872     -0.318985100219     0.870259186181      -0.351130652483     0.870259186181      -0.351130652483     -0.128913306872     -0.318985100219     
9300000000.0        -0.131381379127     -0.321521134064     0.867779207367      -0.35401993901      0.867779207367      -0.35401993901      -0.131381379127     -0.321521134064     
9400000000.0        -0.133862735242     -0.324031896231     0.865285814846      -0.356884062457     0.865285814846      -0.356884062457     -0.133862735242     -0.324031896231     
9500000000.0        -0.136357049654     -0.326517344122     0.862779334036      -0.35972298094      0.862779334036      -0.35972298094      -0.136357049654     -0.326517344122     
9600000000.0        -0.138863997932     -0.328977440006     0.86026008922       -0.362536657438     0.86026008922       -0.362536657438     -0.138863997932     -0.328977440006     
9700000000.0        -0.141383256862     -0.331412150968     0.857728403468      -0.365325059745     0.857728403468      -0.365325059745     -0.141383256862     -0.331412150968     
9800000000.0        -0.143914504519     -0.333821448855     0.855184598556      -0.368088160413     0.855184598556      -0.368088160413     -0.143914504519     -0.333821448855     
9900000000.0        -0.146457420344     -0.336205310222     0.852628994893      -0.370825936699     0.852628994893      -0.370825936699     -0.146457420344     -0.336205310222     
10000000000.0       -0.149011685223     -0.338563716274     0.850061911448      -0.373538370509     0.850061911448      -0.373538370509     -0.149011685223     -0.338563716274     
