# Hz S RI R 50.00 
100000000.0         1.54543751034e-05   -0.00358213169214   0.999949811749      -0.00370379487727   0.999949811749      -0.00370379487727   1.54543751034e-05   -0.00358213169214   
200000000.0         -2.77191326388e-05  -0.00716393992612   0.999906169869      -0.00740727078026   0.999906169869      -0.00740727078026   -2.77191326392e-05  -0.00716393992612   
300000000.0         -9.747632471e-05    -0.0107451451141    0.999836043065      -0.0111101505521    0.999836043065      -0.0111101505521    -9.74763247101e-05  -0.0107451451141    
400000000.0         -0.000193778518423  -0.0143254657431    0.999739413482      -0.0148121545534    0.999739413482      -0.0148121545534    -0.000193778518423  -0.0143254657431    
500000000.0         -0.000316600463198  -0.0179046194465    0.999616284688      -0.0185130020181    0.999616284688      -0.0185130020181    -0.000316600463198  -0.0179046194465    
600000000.0         -0.000465918226967  -0.0214823234364    0.999466669601      -0.0222124115826    0.999466669601      -0.0222124115826    -0.000465918226967  -0.0214823234364    
700000000.0         -0.000641706116538  -0.0250582947591    0.999290587434      -0.0259101015889    0.999290587434      -0.0259101015889    -0.000641706116538  -0.0250582947591    
800000000.0         -0.000843935555279  -0.0286322504769    0.999088062581      -0.0296057902954    0.999088062581      -0.0296057902954    -0.000843935555279  -0.0286322504769    
900000000.0         -0.00107257458433   -0.0322039078129    0.998859124124      -0.0332991960404    0.998859124124      -0.0332991960404    -0.00107257458433   -0.0322039078129    
1000000000.0        -0.00132758761372   -0.0357729842762    0.998603805576      -0.0369900373802    0.998603805576      -0.0369900373802    -0.00132758761372   -0.0357729842762    
1100000000.0        -0.00160893528744   -0.0393391977715    0.99832214474       -0.0406780332088    0.99832214474       -0.0406780332088    -0.00160893528744   -0.0393391977715    
1200000000.0        -0.00191657440787   -0.0429022666993    0.998014183621      -0.0443629028651    0.998014183621      -0.0443629028651    -0.00191657440787   -0.0429022666993    
1300000000.0        -0.00225045789348   -0.0464619100534    0.997679968357      -0.0480443662364    0.997679968357      -0.0480443662364    -0.00225045789348   -0.0464619100534    
1400000000.0        -0.00261053475635   -0.0500178475104    0.997319549179      -0.0517221438521    0.997319549179      -0.0517221438521    -0.00261053475635   -0.0500178475104    
1500000000.0        -0.0029967500928    -0.0535697995154    0.996932980372      -0.0553959569741    0.996932980372      -0.0553959569741    -0.00299675009281   -0.0535697995154    
1600000000.0        -0.00340904508304   -0.0571174873686    0.996520320244      -0.0590655276853    0.996520320244      -0.0590655276853    -0.00340904508304   -0.0571174873686    
1700000000.0        -0.00384735699699   -0.0606606333043    0.996081631094      -0.0627305789725    0.996081631094      -0.0627305789725    -0.00384735699699   -0.0606606333043    
1800000000.0        -0.00431161920531   -0.0641989605729    0.995616979187      -0.0663908348098    0.995616979187      -0.0663908348098    -0.00431161920531   -0.0641989605729    
1900000000.0        -0.00480176119411   -0.0677321935169    0.995126434723      -0.0700460202372    0.995126434723      -0.0700460202372    -0.00480176119411   -0.0677321935169    
2000000000.0        -0.00531770858311   -0.0712600576489    0.994610071813      -0.0736958614397    0.994610071813      -0.0736958614397    -0.00531770858311   -0.0712600576489    
2100000000.0        -0.00585938314653   -0.0747822797264    0.994067968447      -0.0773400858242    0.994067968447      -0.0773400858242    -0.00585938314653   -0.0747822797264    
2200000000.0        -0.00642670283621   -0.0782985878242    0.993500206466      -0.0809784220928    0.993500206466      -0.0809784220928    -0.00642670283621   -0.0782985878242    
2300000000.0        -0.00701958180736   -0.0818087114088    0.992906871534      -0.0846106003188    0.992906871534      -0.0846106003188    -0.00701958180736   -0.0818087114088    
2400000000.0        -0.00763793044592   -0.0853123814077    0.992288053101      -0.0882363520169    0.992288053101      -0.0882363520169    -0.00763793044592   -0.0853123814077    
2500000000.0        -0.0082816553982    -0.0888093302816    0.991643844377      -0.0918554102159    0.991643844377      -0.0918554102159    -0.0082816553982    -0.0888093302816    
2600000000.0        -0.00895065960185   -0.092299292091     0.990974342295      -0.0954675095273    0.990974342295      -0.0954675095273    -0.00895065960185   -0.092299292091     
2700000000.0        -0.00964484231895   -0.0957820025662    0.990279647474      -0.0990723862149    0.990279647474      -0.0990723862149    -0.00964484231894   -0.0957820025662    
2800000000.0        -0.0103640991704    -0.0992571991721    0.989559864187      -0.102669778261     0.989559864187      -0.102669778261     -0.0103640991704    -0.0992571991721    
2900000000.0        -0.0111083221719    -0.102724621175     0.988815100321      -0.106259425434     0.988815100321      -0.106259425434     -0.0111083221719    -0.102724621175     
3000000000.0        -0.0118773997718    -0.106184009707     0.988045467339      -0.109841069354     0.988045467339      -0.109841069354     -0.0118773997718    -0.106184009707     
3100000000.0        -0.0126712168894    -0.109635107828     0.987251080241      -0.113414453551     0.987251080241      -0.113414453551     -0.0126712168894    -0.109635107828     
3200000000.0        -0.0134896549559    -0.11307766059      0.98643205752       -0.116979323538     0.98643205752       -0.116979323538     -0.0134896549559    -0.11307766059      
3300000000.0        -0.0143325919556    -0.116511415093     0.985588521122      -0.120535426861     0.985588521122      -0.120535426861     -0.0143325919556    -0.116511415093     
3400000000.0        -0.0151999024689    -0.119936120554     0.984720596402      -0.124082513169     0.984720596402      -0.124082513169     -0.0151999024689    -0.119936120554     
3500000000.0        -0.0160914577164    -0.123351528354     0.983828412079      -0.127620334264     0.983828412079      -0.127620334264     -0.0160914577164    -0.123351528354     
3600000000.0        -0.0170071256047    -0.126757392106     0.982912100191      -0.131148644166     0.982912100191      -0.131148644166     -0.0170071256047    -0.126757392106     
3700000000.0        -0.0179467707721    -0.130153467704     0.981971796046      -0.134667199168     0.981971796046      -0.134667199168     -0.0179467707721    -0.130153467704     
3800000000.0        -0.0189102546369    -0.133539513379     0.981007638177      -0.138175757887     0.981007638177      -0.138175757887     -0.0189102546369    -0.133539513379     
3900000000.0        -0.0198974354457    -0.136915289756     0.980019768291      -0.141674081322     0.980019768291      -0.141674081322     -0.0198974354457    -0.136915289756     
4000000000.0        -0.0209081683233    -0.140280559904     0.979008331217      -0.145161932907     0.979008331217      -0.145161932907     -0.0209081683233    -0.140280559904     
4100000000.0        -0.0219423053236    -0.143635089384     0.977973474861      -0.148639078558     0.977973474861      -0.148639078558     -0.0219423053236    -0.143635089384     
4200000000.0        -0.0229996954809    -0.146978646306     0.976915350149      -0.152105286729     0.976915350149      -0.152105286729     -0.0229996954809    -0.146978646306     
4300000000.0        -0.0240801848629    -0.150311001371     0.975834110974      -0.155560328455     0.975834110974      -0.155560328455     -0.0240801848629    -0.150311001371     
4400000000.0        -0.0251836166241    -0.153631927918     0.974729914146      -0.159003977404     0.974729914146      -0.159003977404     -0.0251836166241    -0.153631927918     
4500000000.0        -0.02630983106      -0.156941201977     0.973602919335      -0.162436009919     0.973602919335      -0.162436009919     -0.02630983106      -0.156941201977     
4600000000.0        -0.0274586656627    -0.160238602303     0.972453289016      -0.165856205067     0.972453289016      -0.165856205067     -0.0274586656627    -0.160238602303     
4700000000.0        -0.0286299551763    -0.163523910429     0.971281188412      -0.169264344677     0.971281188412      -0.169264344677     -0.0286299551763    -0.163523910429     
4800000000.0        -0.0298235316542    -0.166796910698     0.970086785439      -0.172660213385     0.970086785439      -0.172660213385     -0.0298235316542    -0.166796910698     
4900000000.0        -0.0310392245159    -0.170057390313     0.968870250647      -0.176043598676     0.968870250647      -0.176043598676     -0.0310392245159    -0.170057390313     
5000000000.0        -0.0322768606055    -0.173305139367     0.967631757165      -0.17941429092      0.967631757165      -0.17941429092      -0.0322768606055    -0.173305139367     
5100000000.0        -0.03353626425      -0.176539950885     0.966371480637      -0.182772083409     0.966371480637      -0.182772083409     -0.03353626425      -0.176539950885     
5200000000.0        -0.0348172573189    -0.179761620862     0.965089599167      -0.186116772396     0.965089599167      -0.186116772396     -0.0348172573189    -0.179761620862     
5300000000.0        -0.0361196592837    -0.182969948291     0.963786293257      -0.18944815713      0.963786293257      -0.18944815713      -0.0361196592837    -0.182969948291     
5400000000.0        -0.0374432872784    -0.186164735202     0.962461745747      -0.192766039885     0.962461745747      -0.192766039885     -0.0374432872784    -0.186164735202     
5500000000.0        -0.0387879561602    -0.189345786691     0.961116141755      -0.196070225998     0.961116141755      -0.196070225998     -0.0387879561602    -0.189345786691     
5600000000.0        -0.0401534785706    -0.192512910952     0.959749668616      -0.199360523892     0.959749668616      -0.199360523892     -0.0401534785706    -0.192512910952     
5700000000.0        -0.041539664997     -0.195665919303     0.958362515818      -0.202636745114     0.958362515818      -0.202636745114     -0.041539664997     -0.195665919303     
5800000000.0        -0.0429463238348    -0.198804626216     0.956954874942      -0.205898704354     0.956954874942      -0.205898704354     -0.0429463238348    -0.198804626216     
5900000000.0        -0.0443732614497    -0.201928849343     0.955526939601      -0.209146219476     0.955526939601      -0.209146219476     -0.0443732614497    -0.201928849343     
6000000000.0        -0.0458202822398    -0.205038409537     0.954078905373      -0.212379111542     0.954078905373      -0.212379111542     -0.0458202822398    -0.205038409537     
6100000000.0        -0.0472871886988    -0.20813313088      0.952610969743      -0.215597204834     0.952610969743      -0.215597204834     -0.0472871886988    -0.20813313088      
6200000000.0        -0.0487737814791    -0.211212840703     0.951123332037      -0.218800326879     0.951123332037      -0.218800326879     -0.0487737814791    -0.211212840703     
6300000000.0        -0.0502798594543    -0.214277369602     0.94961619336       -0.221988308462     0.94961619336       -0.221988308462     -0.0502798594543    -0.214277369602     
6400000000.0        -0.0518052197833    -0.217326551464     0.948089756533      -0.225160983655     0.948089756533      -0.225160983655     -0.0518052197833    -0.217326551464     
6500000000.0        -0.0533496579732    -0.220360223478     0.946544226027      -0.228318189826     0.946544226027      -0.228318189826     -0.0533496579732    -0.220360223478     
6600000000.0        -0.0549129679429    -0.223378226156     0.944979807904      -0.231459767659     0.944979807904      -0.231459767659     -0.0549129679429    -0.223378226156     
6700000000.0        -0.0564949420864    -0.226380403343     0.943396709748      -0.23458556117      0.943396709748      -0.23458556117      -0.0564949420864    -0.226380403343     
6800000000.0        -0.0580953713367    -0.229366602234     0.941795140609      -0.237695417716     0.941795140609      -0.237695417716     -0.0580953713367    -0.229366602234     
6900000000.0        -0.0597140452288    -0.232336673384     0.94017531093       -0.240789188011     0.94017531093       -0.240789188011     -0.0597140452288    -0.232336673384     
7000000000.0        -0.0613507519635    -0.235290470717     0.938537432491      -0.243866726132     0.938537432491      -0.243866726132     -0.0613507519635    -0.235290470717     
7100000000.0        -0.0630052784701    -0.238227851537     0.936881718345      -0.246927889535     0.936881718345      -0.246927889535     -0.0630052784701    -0.238227851537     
7200000000.0        -0.0646774104702    -0.241148676537     0.93520838275       -0.249972539054     0.93520838275       -0.249972539054     -0.0646774104702    -0.241148676537     
7300000000.0        -0.0663669325401    -0.244052809802     0.933517641112      -0.253000538917     0.933517641112      -0.253000538917     -0.0663669325401    -0.244052809802     
7400000000.0        -0.0680736281738    -0.246940118814     0.931809709917      -0.256011756741     0.931809709917      -0.256011756741     -0.0680736281738    -0.246940118814     
7500000000.0        -0.0697972798456    -0.24981047446      0.930084806673      -0.259006063545     0.930084806673      -0.259006063545     -0.0697972798456    -0.24981047446      
7600000000.0        -0.0715376690722    -0.252663751029     0.928343149844      -0.261983333746     0.928343149844      -0.261983333746     -0.0715376690722    -0.252663751029     
7700000000.0        -0.0732945764748    -0.255499826216     0.926584958792      -0.264943445162     0.926584958792      -0.264943445162     -0.0732945764748    -0.255499826216     
7800000000.0        -0.0750677818406    -0.258318581122     0.92481045371       -0.267886279015     0.92481045371       -0.267886279015     -0.0750677818406    -0.258318581122     
7900000000.0        -0.0768570641844    -0.261119900252     0.923019855567      -0.270811719924     0.923019855567      -0.270811719924     -0.0768570641844    -0.261119900252     
8000000000.0        -0.078662201809     -0.263903671509     0.92121338604       -0.273719655906     0.92121338604       -0.273719655906     -0.078662201809     -0.263903671509     
8100000000.0        -0.0804829723664    -0.266669786197     0.919391267461      -0.276609978372     0.919391267461      -0.276609978372     -0.0804829723664    -0.266669786197     
8200000000.0        -0.0823191529174    -0.269418139009     0.917553722751      -0.27948258212      0.917553722751      -0.27948258212      -0.0823191529174    -0.269418139009     
8300000000.0        -0.0841705199913    -0.272148628026     0.915700975362      -0.282337365333     0.915700975362      -0.282337365333     -0.0841705199913    -0.272148628026     
8400000000.0        -0.0860368496455    -0.274861154703     0.913833249221      -0.285174229566     0.913833249221      -0.285174229566     -0.0860368496455    -0.274861154703     
8500000000.0        -0.0879179175235    -0.277555623869     0.911950768665      -0.287993079739     0.911950768665      -0.287993079739     -0.0879179175235    -0.277555623869     
8600000000.0        -0.0898134989136    -0.280231943708     0.910053758389      -0.290793824131     0.910053758389      -0.290793824131     -0.0898134989136    -0.280231943708     
8700000000.0        -0.091723368806     -0.282890025757     0.908142443386      -0.293576374364     0.908142443386      -0.293576374364     -0.091723368806     -0.282890025757     
8800000000.0        -0.0936473019502    -0.285529784886     0.906217048889      -0.296340645396     0.906217048889      -0.296340645396     -0.0936473019502    -0.285529784886     
8900000000.0        -0.0955850729115    -0.288151139291     0.904277800315      -0.299086555504     0.904277800315      -0.299086555504     -0.0955850729115    -0.288151139291     
9000000000.0        -0.0975364561262    -0.290754010475     0.902324923211      -0.30181402627      0.902324923211      -0.30181402627      -0.0975364561262    -0.290754010475     
9100000000.0        -0.0995012259575    -0.293338323237     0.900358643196      -0.304522982571     0.900358643196      -0.304522982571     -0.0995012259575    -0.293338323237     
9200000000.0        -0.101479156749     -0.295904005654     0.89837918591       -0.307213352556     0.89837918591       -0.307213352556     -0.101479156749     -0.295904005654     
9300000000.0        -0.103470022881     -0.298450989064     0.896386776955      -0.309885067634     0.896386776955      -0.309885067634     -0.103470022881     -0.298450989064     
9400000000.0        -0.10547359882      -0.300979208046     0.894381641849      -0.312538062454     0.894381641849      -0.312538062454     -0.10547359882      -0.300979208046     
9500000000.0        -0.107489659174     -0.303488600406     0.892364005966      -0.315172274886     0.892364005966      -0.315172274886     -0.107489659174     -0.303488600406     
9600000000.0        -0.109517978743     -0.305979107151     0.890334094489      -0.317787646002     0.890334094489      -0.317787646002     -0.109517978743     -0.305979107151     
9700000000.0        -0.111558332571     -0.308450672475     0.888292132357      -0.320384120053     0.888292132357      -0.320384120053     -0.111558332571     -0.308450672475     
9800000000.0        -0.113610495994     -0.31090324373      0.886238344218      -0.322961644453     0.886238344218      -0.322961644453     -0.113610495994     -0.31090324373      
9900000000.0        -0.115674244694     -0.313336771409     0.884172954373      -0.325520169748     0.884172954373      -0.325520169748     -0.115674244694     -0.313336771409     
10000000000.0       -0.117749354742     -0.315751209119     0.882096186734      -0.328059649601     0.882096186734      -0.328059649601     -0.117749354742     -0.315751209119     
