# Hz S RI R 50.00 
100000000.0         0.0061877800345     0.000336764625772   0.993811063461      -0.00049284290856   0.993811063461      -0.00049284290856   0.0061877800345     0.000336764625772   
200000000.0         0.00622873643773    0.000673461408348   0.993769926141      -0.000985618236578  0.993769926141      -0.000985618236578  0.00622873643773    0.000673461408348   
300000000.0         0.00625900756459    0.00101011766822    0.993739449684      -0.00147835346602   0.993739449684      -0.00147835346602   0.00625900756459    0.00101011766822    
400000000.0         0.00628396596045    0.00134674275226    0.993714261545      -0.00197105807039   0.993714261545      -0.00197105807039   0.00628396596045    0.00134674275226    
500000000.0         0.00630568636877    0.00168334181816    0.993692286978      -0.00246373731662   0.993692286978      -0.00246373731662   0.00630568636877    0.00168334181816    
600000000.0         0.00632522970551    0.00201991816503    0.993672465067      -0.00295639460188   0.993672465067      -0.00295639460188   0.00632522970551    0.00201991816503    
700000000.0         0.00634322433424    0.00235647407112    0.993654167447      -0.00344903229439   0.993654167447      -0.00344903229439   0.00634322433424    0.00235647407112    
800000000.0         0.00636007843777    0.00269301118247    0.993636985936      -0.00394165212389   0.993636985936      -0.00394165212389   0.00636007843777    0.00269301118247    
900000000.0         0.00637607467387    0.00302953072182    0.993620637874      -0.0044342553918    0.993620637874      -0.0044342553918    0.00637607467387    0.00302953072182    
1000000000.0        0.00639141820292    0.00336603361224    0.993604918099      -0.00492684309574   0.993604918099      -0.00492684309574   0.00639141820292    0.00336603361224    
1100000000.0        0.0064062634125     0.00370252055573    0.993589672225      -0.00541941600866   0.993589672225      -0.00541941600866   0.0064062634125     0.00370252055573    
1200000000.0        0.00642072985783    0.0040389920858     0.993574780694      -0.005911974732     0.993574780694      -0.005911974732     0.00642072985783    0.0040389920858     
1300000000.0        0.0064349123006     0.00437544860419    0.993560148744      -0.00640451973275   0.993560148744      -0.00640451973275   0.0064349123006     0.00437544860419    
1400000000.0        0.00644888731411    0.0047118904074     0.9935456998        -0.00689705137026   0.9935456998        -0.00689705137026   0.00644888731411    0.0047118904074     
1500000000.0        0.00646271778851    0.00504831770642    0.993531370972      -0.00738956991617   0.993531370972      -0.00738956991617   0.00646271778851    0.00504831770642    
1600000000.0        0.00647645609824    0.00538473064159    0.993517109884      -0.0078820755696    0.993517109884      -0.0078820755696    0.00647645609824    0.00538473064159    
1700000000.0        0.00649014638686    0.00572112929424    0.993502872391      -0.00837456846891   0.993502872391      -0.00837456846891   0.00649014638686    0.00572112929424    
1800000000.0        0.0065038262521     0.00605751369586    0.993488620894      -0.00886704870091   0.993488620894      -0.00886704870091   0.0065038262521     0.00605751369586    
1900000000.0        0.00651752801307    0.00639388383536    0.993474323074      -0.00935951630838   0.993474323074      -0.00935951630838   0.00651752801307    0.00639388383536    
2000000000.0        0.0065312796793     0.00673023966502    0.993459950919      -0.0098519712961    0.993459950919      -0.0098519712961    0.0065312796793     0.00673023966502    
2100000000.0        0.00654510570314    0.00706658110537    0.993445479977      -0.0103444136357    0.993445479977      -0.0103444136357    0.00654510570314    0.00706658110537    
2200000000.0        0.00655902757186    0.00740290804917    0.993430888758      -0.0108368432701    0.993430888758      -0.0108368432701    0.00655902757186    0.00740290804917    
2300000000.0        0.00657306427921    0.00773922036485    0.993416158267      -0.0113292601164    0.993416158267      -0.0113292601164    0.00657306427921    0.00773922036485    
2400000000.0        0.00658723270506    0.00807551789929    0.993401271624      -0.0118216640692    0.993401271624      -0.0118216640692    0.00658723270506    0.00807551789929    
2500000000.0        0.00660154792425    0.00841180048031    0.993386213753      -0.0123140550032    0.993386213753      -0.0123140550032    0.00660154792425    0.00841180048031    
2600000000.0        0.00661602345985    0.00874806791864    0.993370971129      -0.0128064327749    0.993370971129      -0.0128064327749    0.00661602345985    0.00874806791864    
2700000000.0        0.00663067149282    0.00908432000983    0.993355531569      -0.0132987972247    0.993355531569      -0.0132987972247    0.00663067149282    0.00908432000983    
2800000000.0        0.00664550303672    0.00942055653566    0.993339884059      -0.0137911481785    0.993339884059      -0.0137911481785    0.00664550303672    0.00942055653566    
2900000000.0        0.00666052808443    0.00975677726561    0.993324018605      -0.0142834854488    0.993324018605      -0.0142834854488    0.00666052808443    0.00975677726561    
3000000000.0        0.00667575573206    0.010092981958      0.99330792611       -0.0147758088364    0.99330792611       -0.0147758088364    0.00667575573206    0.010092981958      
3100000000.0        0.00669119428433    0.0104291703608     0.993291598266      -0.0152681181312    0.993291598266      -0.0152681181312    0.00669119428433    0.0104291703608     
3200000000.0        0.00670685134463    0.0107653422132     0.993275027469      -0.0157604131129    0.993275027469      -0.0157604131129    0.00670685134463    0.0107653422132     
3300000000.0        0.0067227338924     0.0111014972455     0.993258206739      -0.0162526935524    0.993258206739      -0.0162526935524    0.0067227338924     0.0111014972455     
3400000000.0        0.00673884834991    0.0114376351806     0.993241129651      -0.016744959212     0.993241129651      -0.016744959212     0.00673884834991    0.0114376351806     
3500000000.0        0.00675520064026    0.0117737557342     0.993223790282      -0.0172372098464    0.993223790282      -0.0172372098464    0.00675520064026    0.0117737557342     
3600000000.0        0.00677179623786    0.0121098586157     0.993206183154      -0.0177294452033    0.993206183154      -0.0177294452033    0.00677179623786    0.0121098586157     
3700000000.0        0.00678864021257    0.0124459435285     0.993188303197      -0.0182216650239    0.993188303197      -0.0182216650239    0.00678864021257    0.0124459435285     
3800000000.0        0.00680573726849    0.0127820101704     0.993170145705      -0.0187138690431    0.993170145705      -0.0187138690431    0.00680573726849    0.0127820101704     
3900000000.0        0.00682309177807    0.0131180582343     0.993151706304      -0.0192060569904    0.993151706304      -0.0192060569904    0.00682309177807    0.0131180582343     
4000000000.0        0.00684070781238    0.0134540874084     0.993132980921      -0.0196982285901    0.993132980921      -0.0196982285901    0.00684070781238    0.0134540874084     
4100000000.0        0.00685858916784    0.0137900973766     0.993113965758      -0.0201903835617    0.993113965758      -0.0201903835617    0.00685858916784    0.0137900973766     
4200000000.0        0.00687673939008    0.0141260878187     0.993094657269      -0.0206825216199    0.993094657269      -0.0206825216199    0.00687673939008    0.0141260878187     
4300000000.0        0.00689516179519    0.0144620584109     0.993075052134      -0.0211746424756    0.993075052134      -0.0211746424756    0.00689516179519    0.0144620584109     
4400000000.0        0.00691385948875    0.014798008826      0.993055147248      -0.0216667458356    0.993055147248      -0.0216667458356    0.00691385948875    0.014798008826      
4500000000.0        0.00693283538287    0.0151339387335     0.993034939696      -0.022158831403     0.993034939696      -0.022158831403     0.00693283538287    0.0151339387335     
4600000000.0        0.00695209221158    0.0154698478001     0.993014426742      -0.0226508988776    0.993014426742      -0.0226508988776    0.00695209221158    0.0154698478001     
4700000000.0        0.00697163254461    0.0158057356894     0.992993605815      -0.0231429479559    0.992993605815      -0.0231429479559    0.00697163254461    0.0158057356894     
4800000000.0        0.00699145879993    0.0161416020627     0.992972474495      -0.0236349783314    0.992972474495      -0.0236349783314    0.00699145879993    0.0161416020627     
4900000000.0        0.00701157325504    0.016477446579      0.992951030503      -0.0241269896949    0.992951030503      -0.0241269896949    0.00701157325504    0.016477446579      
5000000000.0        0.00703197805724    0.0168132688947     0.99292927169       -0.0246189817344    0.99292927169       -0.0246189817344    0.00703197805724    0.0168132688947     
5100000000.0        0.00705267523296    0.0171490686644     0.992907196028      -0.0251109541355    0.992907196028      -0.0251109541355    0.00705267523296    0.0171490686644     
5200000000.0        0.00707366669628    0.0174848455406     0.9928848016        -0.0256029065814    0.9928848016        -0.0256029065814    0.00707366669628    0.0174848455406     
5300000000.0        0.00709495425666    0.0178205991742     0.992862086595      -0.0260948387533    0.992862086595      -0.0260948387533    0.00709495425666    0.0178205991742     
5400000000.0        0.00711653962606    0.018156329214      0.9928390493        -0.0265867503301    0.9928390493        -0.0265867503301    0.00711653962606    0.018156329214      
5500000000.0        0.00713842442539    0.0184920353077     0.992815688092      -0.0270786409888    0.992815688092      -0.0270786409888    0.00713842442539    0.0184920353077     
5600000000.0        0.00716061019052    0.018827717101      0.992792001433      -0.0275705104047    0.992792001433      -0.0275705104047    0.00716061019052    0.018827717101      
5700000000.0        0.0071830983777     0.0191633742388     0.992767987865      -0.0280623582512    0.992767987865      -0.0280623582512    0.0071830983777     0.0191633742388     
5800000000.0        0.00720589036865    0.0194990063641     0.992743646003      -0.0285541842001    0.992743646003      -0.0285541842001    0.00720589036865    0.0194990063641     
5900000000.0        0.00722898747512    0.0198346131191     0.992718974536      -0.0290459879217    0.992718974536      -0.0290459879217    0.00722898747512    0.0198346131191     
6000000000.0        0.00725239094325    0.0201701941448     0.992693972213      -0.0295377690849    0.992693972213      -0.0295377690849    0.00725239094325    0.0201701941448     
6100000000.0        0.00727610195746    0.0205057490809     0.99266863785       -0.0300295273571    0.99266863785       -0.0300295273571    0.00727610195746    0.0205057490809     
6200000000.0        0.00730012164416    0.0208412775665     0.992642970317      -0.0305212624044    0.992642970317      -0.0305212624044    0.00730012164416    0.0208412775665     
6300000000.0        0.00732445107507    0.0211767792394     0.992616968541      -0.0310129738919    0.992616968541      -0.0310129738919    0.00732445107507    0.0211767792394     
6400000000.0        0.00734909127042    0.0215122537368     0.992590631499      -0.0315046614831    0.992590631499      -0.0315046614831    0.00734909127042    0.0215122537368     
6500000000.0        0.00737404320187    0.0218477006949     0.992563958218      -0.0319963248409    0.992563958218      -0.0319963248409    0.00737404320187    0.0218477006949     
6600000000.0        0.00739930779516    0.0221831197494     0.99253694777       -0.0324879636268    0.99253694777       -0.0324879636268    0.00739930779516    0.0221831197494     
6700000000.0        0.00742488593268    0.0225185105351     0.992509599271      -0.0329795775015    0.992509599271      -0.0329795775015    0.00742488593268    0.0225185105351     
6800000000.0        0.00745077845583    0.0228538726861     0.992481911877      -0.0334711661246    0.992481911877      -0.0334711661246    0.00745077845583    0.0228538726861     
6900000000.0        0.00747698616718    0.0231892058361     0.992453884783      -0.033962729155     0.992453884783      -0.033962729155     0.00747698616718    0.0231892058361     
7000000000.0        0.00750350983252    0.0235245096181     0.992425517222      -0.0344542662507    0.992425517222      -0.0344542662507    0.00750350983252    0.0235245096181     
7100000000.0        0.0075303501828     0.0238597836647     0.99239680846       -0.0349457770689    0.99239680846       -0.0349457770689    0.0075303501828     0.0238597836647     
7200000000.0        0.00755750791589    0.0241950276078     0.992367757798      -0.0354372612661    0.992367757798      -0.0354372612661    0.00755750791589    0.0241950276078     
7300000000.0        0.00758498369825    0.024530241079      0.992338364566      -0.035928718498     0.992338364566      -0.035928718498     0.00758498369825    0.024530241079      
7400000000.0        0.00761277816654    0.0248654237096     0.992308628127      -0.0364201484197    0.992308628127      -0.0364201484197    0.00761277816654    0.0248654237096     
7500000000.0        0.00764089192903    0.0252005751303     0.992278547868      -0.0369115506858    0.992278547868      -0.0369115506858    0.00764089192903    0.0252005751303     
7600000000.0        0.00766932556705    0.0255356949716     0.992248123208      -0.03740292495      0.992248123208      -0.03740292495      0.00766932556705    0.0255356949716     
7700000000.0        0.00769807963622    0.0258707828636     0.992217353588      -0.0378942708656    0.992217353588      -0.0378942708656    0.00769807963622    0.0258707828636     
7800000000.0        0.00772715466771    0.0262058384361     0.992186238474      -0.0383855880856    0.992186238474      -0.0383855880856    0.00772715466771    0.0262058384361     
7900000000.0        0.00775655116939    0.0265408613187     0.992154777357      -0.038876876262     0.992154777357      -0.038876876262     0.00775655116939    0.0265408613187     
8000000000.0        0.00778626962688    0.0268758511407     0.992122969749      -0.0393681350469    0.992122969749      -0.0393681350469    0.00778626962688    0.0268758511407     
8100000000.0        0.00781631050459    0.0272108075312     0.992090815182      -0.0398593640914    0.992090815182      -0.0398593640914    0.00781631050459    0.0272108075312     
8200000000.0        0.00784667424669    0.0275457301192     0.992058313211      -0.0403505630467    0.992058313211      -0.0403505630467    0.00784667424669    0.0275457301192     
8300000000.0        0.00787736127799    0.0278806185334     0.992025463409      -0.0408417315632    0.992025463409      -0.0408417315632    0.00787736127799    0.0278806185334     
8400000000.0        0.00790837200479    0.0282154724025     0.991992265367      -0.041332869291     0.991992265367      -0.041332869291     0.00790837200479    0.0282154724025     
8500000000.0        0.00793970681574    0.0285502913547     0.991958718693      -0.0418239758802    0.991958718693      -0.0418239758802    0.00793970681574    0.0285502913547     
8600000000.0        0.00797136608255    0.0288850750186     0.991924823014      -0.04231505098      0.991924823014      -0.04231505098      0.00797136608255    0.0288850750186     
8700000000.0        0.00800335016073    0.0292198230224     0.991890577972      -0.0428060942399    0.991890577972      -0.0428060942399    0.00800335016073    0.0292198230224     
8800000000.0        0.00803565939028    0.0295545349941     0.991855983225      -0.0432971053086    0.991855983225      -0.0432971053086    0.00803565939028    0.0295545349941     
8900000000.0        0.00806829409634    0.0298892105621     0.991821038444      -0.0437880838349    0.991821038444      -0.0437880838349    0.00806829409634    0.0298892105621     
9000000000.0        0.00810125458979    0.0302238493542     0.991785743318      -0.044279029467     0.991785743318      -0.044279029467     0.00810125458979    0.0302238493542     
9100000000.0        0.00813454116785    0.0305584509985     0.991750097546      -0.0447699418533    0.991750097546      -0.0447699418533    0.00813454116785    0.0305584509985     
9200000000.0        0.00816815411463    0.0308930151231     0.991714100841      -0.0452608206416    0.991714100841      -0.0452608206416    0.00816815411463    0.0308930151231     
9300000000.0        0.00820209370163    0.0312275413559     0.99167775293       -0.0457516654797    0.99167775293       -0.0457516654797    0.00820209370163    0.0312275413559     
9400000000.0        0.0082363601883     0.031562029325      0.991641053551      -0.0462424760151    0.991641053551      -0.0462424760151    0.0082363601883     0.031562029325      
9500000000.0        0.00827095382242    0.0318964786584     0.991604002454      -0.0467332518953    0.991604002454      -0.0467332518953    0.00827095382242    0.0318964786584     
9600000000.0        0.00830587484065    0.032230888984      0.991566599399      -0.0472239927675    0.991566599399      -0.0472239927675    0.00830587484065    0.032230888984      
9700000000.0        0.00834112346889    0.0325652599301     0.991528844158      -0.0477146982787    0.991528844158      -0.0477146982787    0.00834112346889    0.0325652599301     
9800000000.0        0.00837669992272    0.0328995911248     0.991490736514      -0.0482053680759    0.991490736514      -0.0482053680759    0.00837669992272    0.0328995911248     
9900000000.0        0.00841260440777    0.0332338821962     0.991452276257      -0.048696001806     0.991452276257      -0.048696001806     0.00841260440777    0.0332338821962     
10000000000.0       0.00844883712012    0.0335681327728     0.99141346319       -0.0491865991157    0.99141346319       -0.0491865991157    0.00844883712012    0.0335681327728     
