# Hz S RI R 50.00 
100000000.0         -0.000336491779124  -0.0187838038264    0.999575415699      -0.0192217424177    0.999575415699      -0.0192217424177    -0.000336491779124  -0.0187838038264    
200000000.0         -0.00143694052642   -0.0375250422747    0.998474079293      -0.0384010099965    0.998474079293      -0.0384010099965    -0.00143694052642   -0.0375250422747    
300000000.0         -0.00325344395877   -0.0561829553129    0.996656647618      -0.0574970906425    0.996656647618      -0.0574970906425    -0.00325344395877   -0.0561829553129    
400000000.0         -0.00577814169436   -0.0747173954467    0.994130905066      -0.0764698738482    0.994130905066      -0.0764698738482    -0.00577814169436   -0.0747173954467    
500000000.0         -0.00900023822275   -0.0930890996399    0.990907617809      -0.0952801278859    0.990907617809      -0.0952801278859    -0.00900023822275   -0.0930890996399    
600000000.0         -0.0129061009974    -0.111259953767     0.987000403306      -0.113889766107     0.987000403306      -0.113889766107     -0.0129061009974    -0.111259953767     
700000000.0         -0.0174793986024    -0.129193241759     0.982425583917      -0.132262097031     0.982425583917      -0.132262097031     -0.0174793986024    -0.129193241759     
800000000.0         -0.0227012668718    -0.14685387527      0.977202017797      -0.150362054597     0.977202017797      -0.150362054597     -0.0227012668718    -0.14685387527      
900000000.0         -0.0285504980697    -0.16420860076      0.971350908383      -0.168156405619     0.971350908383      -0.168156405619     -0.0285504980697    -0.16420860076      
1000000000.0        -0.0350037491749    -0.181226181556     0.964895595444      -0.185613932125     0.964895595444      -0.185613932125     -0.0350037491749    -0.181226181556     
1100000000.0        -0.0420357653997    -0.197877553115     0.957861331192      -0.202705586837     0.957861331192      -0.202705586837     -0.0420357653997    -0.197877553115     
1200000000.0        -0.0496196150476    -0.21413595034      0.950275045198      -0.219404620634     0.950275045198      -0.219404620634     -0.0496196150476    -0.21413595034      
1300000000.0        -0.05772693183      -0.229977006362     0.942165101946      -0.235686681482     0.942165101946      -0.235686681482     -0.05772693183      -0.229977006362     
1400000000.0        -0.0663281608392    -0.245378822819     0.933561054764      -0.251529884811     0.933561054764      -0.251529884811     -0.0663281608392    -0.245378822819     
1500000000.0        -0.0753928045453    -0.260322012174     0.924493399771      -0.266914855931     0.924493399771      -0.266914855931     -0.0753928045453    -0.260322012174     
1600000000.0        -0.0848896654106    -0.274789713091     0.914993333217      -0.281824745484     0.914993333217      -0.281824745484     -0.0848896654106    -0.274789713091     
1700000000.0        -0.0947870820163    -0.288767580329     0.905092515328      -0.296245219412     0.905092515328      -0.296245219412     -0.0947870820163    -0.288767580329     
1800000000.0        -0.105053155934     -0.302243750955     0.894822843414      -0.310164425229     0.894822843414      -0.310164425229     -0.105053155934     -0.302243750955     
1900000000.0        -0.115655966953     -0.315208788971     0.88421623662       -0.323572936701     0.88421623662       -0.323572936701     -0.115655966953     -0.315208788971     
2000000000.0        -0.12656377468      -0.327655610648     0.873304434324      -0.336463679235     0.873304434324      -0.336463679235     -0.12656377468      -0.327655610648     
2100000000.0        -0.137745204912     -0.339579393012     0.862118809745      -0.348831838406     0.862118809745      -0.348831838406     -0.137745204912     -0.339579393012     
2200000000.0        -0.14916941961      -0.350977468002     0.850690199966      -0.360674754153     0.850690199966      -0.360674754153     -0.14916941961      -0.350977468002     
2300000000.0        -0.160806269678     -0.361849204811     0.839048753152      -0.371991803168     0.839048753152      -0.371991803168     -0.160806269678     -0.361849204811     
2400000000.0        -0.172626430093     -0.372195882907     0.827223793411      -0.38278427194      0.827223793411      -0.38278427194      -0.172626430093     -0.372195882907     
2500000000.0        -0.184601517306     -0.382020558112     0.815243703392      -0.393055222873     0.815243703392      -0.393055222873     -0.184601517306     -0.382020558112     
2600000000.0        -0.196704189097     -0.391327923999     0.80313582443       -0.402809355713     0.80313582443       -0.402809355713     -0.196704189097     -0.391327923999     
2700000000.0        -0.208908227332     -0.400124170705     0.790926373779      -0.412052866385     0.790926373779      -0.412052866385     -0.208908227332     -0.400124170705     
2800000000.0        -0.221188604314     -0.408416843065     0.778640378268      -0.420793305156     0.778640378268      -0.420793305156     -0.221188604314     -0.408416843065     
2900000000.0        -0.233521533557     -0.416214699784     0.76630162352       -0.42903943583      0.76630162352       -0.42903943583      -0.233521533557     -0.416214699784     
3000000000.0        -0.245884505995     -0.423527575132     0.753932617742      -0.436801097466     0.753932617742      -0.436801097466     -0.245884505995     -0.423527575132     
3100000000.0        -0.258256312706     -0.430366244471     0.741554569003      -0.444089069927     0.741554569003      -0.444089069927     -0.258256312706     -0.430366244471     
3200000000.0        -0.270617055325     -0.43674229468      0.729187374819      -0.450914944323     0.729187374819      -0.450914944323     -0.270617055325     -0.43674229468      
3300000000.0        -0.282948145342     -0.442668000357     0.716849622851      -0.457290999235     0.716849622851      -0.457290999235     -0.282948145342     -0.442668000357     
3400000000.0        -0.295232293506     -0.448156206507     0.704558601504      -0.463230083417     0.704558601504      -0.463230083417     -0.295232293506     -0.448156206507     
3500000000.0        -0.307453490528     -0.453220218208     0.692330319225      -0.468745505482     0.692330319225      -0.468745505482     -0.307453490528     -0.453220218208     
3600000000.0        -0.319596980253     -0.457873697621     0.680179531326      -0.473850930927     0.680179531326      -0.473850930927     -0.319596980253     -0.457873697621     
3700000000.0        -0.331649226436     -0.46213056856      0.66811977321       -0.478560286714     0.66811977321       -0.478560286714     -0.331649226436     -0.46213056856      
3800000000.0        -0.343597874166     -0.466004928689     0.656163398947      -0.48288767349      0.656163398947      -0.48288767349      -0.343597874166     -0.466004928689     
3900000000.0        -0.355431706943     -0.469510969337     0.644321624196      -0.486847285403     0.644321624196      -0.486847285403     -0.355431706943     -0.469510969337     
4000000000.0        -0.367140600326     -0.472662902796     0.632604572557      -0.490453337421     0.632604572557      -0.490453337421     -0.367140600326     -0.472662902796     
4100000000.0        -0.378715472984     -0.47547489691      0.621021324518      -0.493719999934     0.621021324518      -0.493719999934     -0.378715472984     -0.47547489691      
4200000000.0        -0.390148235921     -0.477961016702     0.609579968235      -0.496661340384     0.609579968235      -0.496661340384     -0.390148235921     -0.477961016702     
4300000000.0        -0.401431740539     -0.480135172708     0.598287651463      -0.499291271615     0.598287651463      -0.499291271615     -0.401431740539     -0.480135172708     
4400000000.0        -0.412559726154     -0.482011075687     0.587150634041      -0.501623506594     0.587150634041      -0.501623506594     -0.412559726154     -0.482011075687     
4500000000.0        -0.423526767479     -0.483602197328     0.576174340412      -0.503671519124     0.576174340412      -0.503671519124     -0.423526767479     -0.483602197328     
4600000000.0        -0.434328222533     -0.484921736552     0.565363411711      -0.505448510156     0.565363411711      -0.505448510156     -0.434328222533     -0.484921736552     
4700000000.0        -0.44496018136      -0.485982591029     0.554721757045      -0.506967379314     0.554721757045      -0.506967379314     -0.44496018136      -0.485982591029     
4800000000.0        -0.455419415884     -0.486797333481     0.544252603644      -0.508240701206     0.544252603644      -0.508240701206     -0.455419415884     -0.486797333481     
4900000000.0        -0.465703331157     -0.487378192395     0.533958545601      -0.509280706147     0.533958545601      -0.509280706147     -0.465703331157     -0.487378192395     
5000000000.0        -0.475809918233     -0.487737036749     0.523841591011      -0.510099264886     0.523841591011      -0.510099264886     -0.475809918233     -0.487737036749     
5100000000.0        -0.485737708816     -0.487885364366     0.513903207316      -0.510707876971     0.513903207316      -0.510707876971     -0.485737708816     -0.487885364366     
5200000000.0        -0.495485731817     -0.487834293549     0.504144364745      -0.511117662392     0.504144364745      -0.511117662392     -0.495485731817     -0.487834293549     
5300000000.0        -0.505053471916     -0.487594557648     0.494565577762      -0.511339356147     0.494565577762      -0.511339356147     -0.505053471916     -0.487594557648     
5400000000.0        -0.514440830166     -0.48717650223      0.485166944448      -0.511383305422     0.485166944448      -0.511383305422     -0.514440830166     -0.48717650223      
5500000000.0        -0.523648086699     -0.486590084553     0.475948183809      -0.511259469074     0.475948183809      -0.511259469074     -0.523648086699     -0.486590084553     
5600000000.0        -0.532675865504     -0.485844875069     0.466908670987      -0.51097741913      0.466908670987      -0.51097741913      -0.532675865504     -0.485844875069     
5700000000.0        -0.541525101293     -0.48495006068      0.4580474704        -0.510546344053     0.4580474704        -0.510546344053     -0.541525101293     -0.48495006068      
5800000000.0        -0.550197008403     -0.483914449516     0.449363366836      -0.509975053524     0.449363366836      -0.509975053524     -0.550197008403     -0.483914449516     
5900000000.0        -0.558693051703     -0.482746477013     0.44085489455       -0.509271984524     0.44085489455       -0.509271984524     -0.558693051703     -0.482746477013     
6000000000.0        -0.567014919436     -0.48145421309      0.432520364418      -0.508445208511     0.432520364418      -0.508445208511     -0.567014919436     -0.48145421309      
6100000000.0        -0.575164497943     -0.480045370234     0.424357889214      -0.507502439517     0.424357889214      -0.507502439517     -0.575164497943     -0.480045370234     
6200000000.0        -0.583143848193     -0.478527312352     0.416365407084      -0.506451042993     0.416365407084      -0.506451042993     -0.583143848193     -0.478527312352     
6300000000.0        -0.590955184031     -0.476907064209     0.408540703289      -0.505298045258     0.408540703289      -0.505298045258     -0.590955184031     -0.476907064209     
6400000000.0        -0.598600852089     -0.475191321353     0.400881430301      -0.504050143424     0.400881430301      -0.504050143424     -0.598600852089     -0.475191321353     
6500000000.0        -0.60608331325      -0.473386460383     0.393385126339      -0.502713715666     0.393385126339      -0.502713715666     -0.60608331325      -0.473386460383     
6600000000.0        -0.6134051256       -0.471498549479     0.386049232411      -0.501294831753     0.386049232411      -0.501294831753     -0.6134051256       -0.471498549479     
6700000000.0        -0.620568928783     -0.469533359077     0.378871107966      -0.499799263734     0.378871107966      -0.499799263734     -0.620568928783     -0.469533359077     
6800000000.0        -0.627577429664     -0.46749637264      0.371848045224      -0.498232496699     0.371848045224      -0.498232496699     -0.627577429664     -0.46749637264      
6900000000.0        -0.63443338924      -0.465392797423     0.364977282271      -0.496599739557     0.364977282271      -0.496599739557     -0.63443338924      -0.465392797423     
7000000000.0        -0.641139610706     -0.463227575201     0.35825601499       -0.494905935758     0.35825601499       -0.494905935758     -0.641139610706     -0.463227575201     
7100000000.0        -0.647698928599     -0.461005392889     0.351681407914      -0.493155773918     0.351681407914      -0.493155773918     -0.647698928599     -0.461005392889     
7200000000.0        -0.654114198959     -0.458730693015     0.345250604071      -0.491353698295     0.345250604071      -0.491353698295     -0.654114198959     -0.458730693015     
7300000000.0        -0.660388290426     -0.456407684017     0.338960733882      -0.489503919084     0.338960733882      -0.489503919084     -0.660388290426     -0.456407684017     
7400000000.0        -0.666524076211     -0.454040350321     0.332808923192      -0.487610422503     0.332808923192      -0.487610422503     -0.666524076211     -0.454040350321     
7500000000.0        -0.672524426873     -0.451632462187     0.326792300493      -0.485676980632     0.326792300493      -0.485676980632     -0.672524426873     -0.451632462187     
7600000000.0        -0.678392203847     -0.449187585295     0.320908003392      -0.483707161006     0.320908003392      -0.483707161006     -0.678392203847     -0.449187585295     
7700000000.0        -0.684130253662     -0.446709090056     0.315153184402      -0.481704335925     0.315153184402      -0.481704335925     -0.684130253662     -0.446709090056     
7800000000.0        -0.689741402795     -0.44420016064      0.309525016075      -0.479671691485     0.309525016075      -0.479671691485     -0.689741402795     -0.44420016064      
7900000000.0        -0.695228453116     -0.441663803713     0.304020695569      -0.477612236312     0.304020695569      -0.477612236312     -0.695228453116     -0.441663803713     
8000000000.0        -0.700594177862     -0.439102856864     0.298637448666      -0.475528809994     0.298637448666      -0.475528809994     -0.700594177862     -0.439102856864     
8100000000.0        -0.705841318118     -0.436519996744     0.293372533294      -0.473424091219     0.293372533294      -0.473424091219     -0.705841318118     -0.436519996744     
8200000000.0        -0.710972579743     -0.433917746888     0.288223242601      -0.4713006056       0.288223242601      -0.4713006056       -0.710972579743     -0.433917746888     
8300000000.0        -0.715990630709     -0.431298485244     0.283186907615      -0.469160733201     0.283186907615      -0.469160733201     -0.715990630709     -0.431298485244     
8400000000.0        -0.720898098821     -0.4286644514       0.278260899522      -0.467006715765     0.278260899522      -0.467006715765     -0.720898098821     -0.4286644514       
8500000000.0        -0.725697569786     -0.426017753509     0.273442631603      -0.464840663644     0.273442631603      -0.464840663644     -0.725697569786     -0.426017753509     
8600000000.0        -0.730391585581     -0.423360374929     0.268729560856      -0.462664562437     0.268729560856      -0.462664562437     -0.730391585581     -0.423360374929     
8700000000.0        -0.734982643124     -0.42069418058      0.264119189335      -0.460480279344     0.264119189335      -0.460480279344     -0.734982643124     -0.42069418058      
8800000000.0        -0.739473193188     -0.418020923015     0.259609065231      -0.458289569244     0.259609065231      -0.458289569244     -0.739473193188     -0.418020923015     
8900000000.0        -0.743865639555     -0.415342248225     0.255196783717      -0.456094080494     0.255196783717      -0.456094080494     -0.743865639555     -0.415342248225     
9000000000.0        -0.748162338381     -0.412659701179     0.250879987584      -0.453895360475     0.250879987584      -0.453895360475     -0.748162338381     -0.412659701179     
9100000000.0        -0.752365597747     -0.409974731112     0.24665636769       -0.451694860877     0.24665636769       -0.451694860877     -0.752365597747     -0.409974731112     
9200000000.0        -0.756477677387     -0.407288696562     0.242523663235      -0.449493942736     0.242523663235      -0.449493942736     -0.756477677387     -0.407288696562     
9300000000.0        -0.760500788556     -0.404602870171     0.238479661883      -0.447293881235     0.238479661883      -0.447293881235     -0.760500788556     -0.404602870171     
9400000000.0        -0.764437094055     -0.401918443253     0.234522199752      -0.44509587028      0.234522199752      -0.44509587028      -0.764437094055     -0.401918443253     
9500000000.0        -0.768288708354     -0.399236530151     0.230649161276      -0.442901026843     0.230649161276      -0.442901026843     -0.768288708354     -0.399236530151     
9600000000.0        -0.772057697844     -0.396558172367     0.22685847896       -0.440710395104     0.22685847896       -0.440710395104     -0.772057697844     -0.396558172367     
9700000000.0        -0.775746081171     -0.393884342502     0.223148133049      -0.438524950386     0.223148133049      -0.438524950386     -0.775746081171     -0.393884342502     
9800000000.0        -0.779355829661     -0.39121594799      0.219516151096      -0.436345602891     0.219516151096      -0.436345602891     -0.779355829661     -0.39121594799      
9900000000.0        -0.782888867814     -0.388553834653     0.215960607469      -0.434173201254     0.215960607469      -0.434173201254     -0.782888867814     -0.388553834653     
10000000000.0       -0.786347073872     -0.385898790074     0.21247962279       -0.432008535915     0.21247962279       -0.432008535915     -0.786347073872     -0.385898790074     
