# Hz S RI R 50.00 
100000000.0         0.0145219676007     0.000754409591657   0.985476620129      -0.00112328709509   0.985476620129      -0.00112328709509   0.0145219676007     0.000754409591657   
200000000.0         0.0146186418704     0.00150845567621    0.98537939684       -0.0022462114754    0.98537939684       -0.0022462114754    0.0146186418704     0.00150845567621    
300000000.0         0.0146913786334     0.00226228064931    0.985305974296      -0.00336891610519   0.985305974296      -0.00336891610519   0.0146913786334     0.00226228064931    
400000000.0         0.014752684814      0.00301593139426    0.985243845567      -0.00449144832212   0.985243845567      -0.00449144832212   0.014752684814      0.00301593139426    
500000000.0         0.0148073904016     0.00376943254561    0.985188180654      -0.00561383315825   0.985188180654      -0.00561383315825   0.0148073904016     0.00376943254561    
600000000.0         0.0148579652229     0.00452279887217    0.985136509723      -0.00673608574306   0.985136509723      -0.00673608574306   0.0148579652229     0.00452279887217    
700000000.0         0.0149058721018     0.00527603972627    0.985087369944      -0.00785821576298   0.985087369944      -0.00785821576298   0.0149058721018     0.00527603972627    
800000000.0         0.0149520612531     0.0060291611079     0.985039811092      -0.00898022953154   0.985039811092      -0.00898022953154   0.0149520612531     0.0060291611079     
900000000.0         0.0149971906416     0.00678216677342    0.984993175196      -0.0101021311021    0.984993175196      -0.0101021311021    0.0149971906416     0.00678216677342    
1000000000.0        0.0150417377925     0.00753505889198    0.984946984722      -0.0112239229272    0.984946984722      -0.0112239229272    0.0150417377925     0.00753505889198    
1100000000.0        0.0150860620085     0.00828783846241    0.984900880359      -0.0123456062771    0.984900880359      -0.0123456062771    0.0150860620085     0.00828783846241    
1200000000.0        0.0151304414807     0.00904050559223    0.984854583908      -0.013467181521     0.984854583908      -0.013467181521     0.0151304414807     0.00904050559223    
1300000000.0        0.0151750966608     0.00979305969249    0.984807874907      -0.0145886483224    0.984807874907      -0.0145886483224    0.0151750966608     0.00979305969249    
1400000000.0        0.0152202056382     0.0105454996184     0.984760575258      -0.0157100057814    0.984760575258      -0.0157100057814    0.0152202056382     0.0105454996184     
1500000000.0        0.0152659146299     0.0112978237736     0.984712538736      -0.0168312525391    0.984712538736      -0.0168312525391    0.0152659146299     0.0112978237736     
1600000000.0        0.0153123453542     0.0120500301895     0.98466364361       -0.0179523868582    0.98466364361       -0.0179523868582    0.0153123453542     0.0120500301895     
1700000000.0        0.0153596003505     0.012802116587      0.984613787333      -0.0190734066847    0.984613787333      -0.0190734066847    0.0153596003505     0.012802116587      
1800000000.0        0.0154077669027     0.0135540804243     0.98456288261       -0.020194309697     0.98456288261       -0.020194309697     0.0154077669027     0.0135540804243     
1900000000.0        0.0154569199894     0.0143059189363     0.984510854452      -0.0213150933448    0.984510854452      -0.0213150933448    0.0154569199894     0.0143059189363     
2000000000.0        0.01550712454       0.0150576291657     0.984457637918      -0.022435754881     0.984457637918      -0.022435754881     0.01550712454       0.0150576291657     
2100000000.0        0.0155584371867     0.0158092079889     0.984403176365      -0.0235562913882    0.984403176365      -0.0235562913882    0.0155584371867     0.0158092079889     
2200000000.0        0.0156109076428     0.0165606521372     0.984347420069      -0.0246766997995    0.984347420069      -0.0246766997995    0.0156109076428     0.0165606521372     
2300000000.0        0.0156645798009     0.0173119582151     0.984290325124      -0.0257969769176    0.984290325124      -0.0257969769176    0.0156645798009     0.0173119582151     
2400000000.0        0.0157194926166     0.0180631227148     0.984231852563      -0.0269171194295    0.984231852563      -0.0269171194295    0.0157194926166     0.0180631227148     
2500000000.0        0.0157756808276     0.0188141420298     0.984171967637      -0.0280371239195    0.984171967637      -0.0280371239195    0.0157756808276     0.0188141420298     
2600000000.0        0.0158331755437     0.0195650124649     0.984110639222      -0.0291569868808    0.984110639222      -0.0291569868808    0.0158331755437     0.0195650124649     
2700000000.0        0.0158920047343     0.0203157302468     0.984047839336      -0.030276704725     0.984047839336      -0.030276704725     0.0158920047343     0.0203157302468     
2800000000.0        0.0159521936358     0.0210662915314     0.98398354273       -0.0313962737901    0.98398354273       -0.0313962737901    0.0159521936358     0.0210662915314     
2900000000.0        0.0160137650931     0.0218166924116     0.983917726546      -0.0325156903482    0.983917726546      -0.0325156903482    0.0160137650931     0.0218166924116     
3000000000.0        0.0160767398476     0.0225669289232     0.983850370027      -0.033634950612     0.983850370027      -0.033634950612     0.0160767398476     0.0225669289232     
3100000000.0        0.0161411367834     0.0233169970505     0.983781454277      -0.0347540507398    0.983781454277      -0.0347540507398    0.0161411367834     0.0233169970505     
3200000000.0        0.0162069731362     0.0240668927314     0.983710962044      -0.0358729868414    0.983710962044      -0.0358729868414    0.0162069731362     0.0240668927314     
3300000000.0        0.016274264674      0.0248166118615     0.983638877547      -0.0369917549817    0.983638877547      -0.0369917549817    0.016274264674      0.0248166118615     
3400000000.0        0.0163430258522     0.025566150298      0.983565186315      -0.0381103511854    0.983565186315      -0.0381103511854    0.0163430258522     0.025566150298      
3500000000.0        0.016413269949      0.0263155038635     0.983489875055      -0.0392287714398    0.983489875055      -0.0392287714398    0.016413269949      0.0263155038635     
3600000000.0        0.0164850091829     0.0270646683487     0.983412931533      -0.0403470116986    0.983412931533      -0.0403470116986    0.0164850091829     0.0270646683487     
3700000000.0        0.0165582548152     0.0278136395153     0.983334344471      -0.0414650678846    0.983334344471      -0.0414650678846    0.0165582548152     0.0278136395153     
3800000000.0        0.0166330172405     0.0285624130987     0.983254103461      -0.0425829358922    0.983254103461      -0.0425829358922    0.0166330172405     0.0285624130987     
3900000000.0        0.0167093060663     0.0293109848101     0.983172198876      -0.0437006115898    0.983172198876      -0.0437006115898    0.0167093060663     0.0293109848101     
4000000000.0        0.0167871301831     0.0300593503389     0.983088621812      -0.044818090822     0.983088621812      -0.044818090822     0.0167871301831     0.0300593503389     
4100000000.0        0.0168664978272     0.0308075053542     0.983003364015      -0.0459353694116    0.983003364015      -0.0459353694116    0.0168664978272     0.0308075053542     
4200000000.0        0.0169474166355     0.0315554455068     0.98291641783       -0.0470524431611    0.98291641783       -0.0470524431611    0.0169474166355     0.0315554455068     
4300000000.0        0.0170298936958     0.0323031664306     0.982827776153      -0.0481693078548    0.982827776153      -0.0481693078548    0.0170298936958     0.0323031664306     
4400000000.0        0.0171139355907     0.0330506637444     0.982737432385      -0.04928595926      0.982737432385      -0.04928595926      0.0171139355907     0.0330506637444     
4500000000.0        0.0171995484372     0.0337979330528     0.982645380389      -0.0504023931283    0.982645380389      -0.0504023931283    0.0171995484372     0.0337979330528     
4600000000.0        0.0172867379228     0.0345449699479     0.982551614462      -0.0515186051974    0.982551614462      -0.0515186051974    0.0172867379228     0.0345449699479     
4700000000.0        0.0173755093376     0.0352917700099     0.982456129293      -0.0526345911915    0.982456129293      -0.0526345911915    0.0173755093376     0.0352917700099     
4800000000.0        0.0174658676032     0.0360383288089     0.982358919945      -0.0537503468231    0.982358919945      -0.0537503468231    0.0174658676032     0.0360383288089     
4900000000.0        0.0175578172994     0.036784641905      0.982259981817      -0.0548658677937    0.982259981817      -0.0548658677937    0.0175578172994     0.036784641905      
5000000000.0        0.0176513626878     0.03753070485       0.982159310629      -0.0559811497947    0.982159310629      -0.0559811497947    0.0176513626878     0.03753070485       
5100000000.0        0.017746507734      0.0382765131876     0.982056902397      -0.0570961885085    0.982056902397      -0.0570961885085    0.017746507734      0.0382765131876     
5200000000.0        0.0178432561268     0.0390220624549     0.981952753413      -0.0582109796089    0.981952753413      -0.0582109796089    0.0178432561268     0.0390220624549     
5300000000.0        0.0179416112968     0.0397673481823     0.981846860225      -0.0593255187626    0.981846860225      -0.0593255187626    0.0179416112968     0.0397673481823     
5400000000.0        0.0180415764327     0.0405123658951     0.981739219627      -0.0604398016291    0.981739219627      -0.0604398016291    0.0180415764327     0.0405123658951     
5500000000.0        0.0181431544964     0.0412571111132     0.981629828634      -0.0615538238619    0.981629828634      -0.0615538238619    0.0181431544964     0.0412571111132     
5600000000.0        0.0182463482371     0.0420015793525     0.981518684479      -0.062667581109     0.981518684479      -0.062667581109     0.0182463482371     0.0420015793525     
5700000000.0        0.018351160204      0.0427457661252     0.981405784591      -0.0637810690135    0.981405784591      -0.0637810690135    0.018351160204      0.0427457661252     
5800000000.0        0.0184575927576     0.04348966694       0.981291126589      -0.064894283214     0.981291126589      -0.064894283214     0.0184575927576     0.04348966694       
5900000000.0        0.0185656480814     0.0442332773032     0.981174708269      -0.0660072193455    0.981174708269      -0.0660072193455    0.0185656480814     0.0442332773032     
6000000000.0        0.018675328191      0.0449765927188     0.981056527593      -0.0671198730395    0.981056527593      -0.0671198730395    0.018675328191      0.0449765927188     
6100000000.0        0.0187866349439     0.0457196086888     0.980936582682      -0.0682322399246    0.980936582682      -0.0682322399246    0.0187866349439     0.0457196086888     
6200000000.0        0.0188995700478     0.0464623207141     0.980814871808      -0.0693443156271    0.980814871808      -0.0693443156271    0.0188995700478     0.0464623207141     
6300000000.0        0.0190141350686     0.0472047242946     0.980691393382      -0.0704560957713    0.980691393382      -0.0704560957713    0.0190141350686     0.0472047242946     
6400000000.0        0.0191303314377     0.0479468149297     0.980566145951      -0.07156757598      0.980566145951      -0.07156757598      0.0191303314377     0.0479468149297     
6500000000.0        0.0192481604589     0.0486885881185     0.980439128188      -0.0726787518745    0.980439128188      -0.0726787518745    0.0192481604589     0.0486885881185     
6600000000.0        0.0193676233144     0.0494300393602     0.980310338889      -0.0737896190755    0.980310338889      -0.0737896190755    0.0193676233144     0.0494300393602     
6700000000.0        0.0194887210713     0.0501711641546     0.980179776964      -0.0749001732033    0.980179776964      -0.0749001732033    0.0194887210713     0.0501711641546     
6800000000.0        0.0196114546865     0.0509119580022     0.980047441433      -0.0760104098776    0.980047441433      -0.0760104098776    0.0196114546865     0.0509119580022     
6900000000.0        0.0197358250125     0.0516524164047     0.97991333142       -0.0771203247188    0.97991333142       -0.0771203247188    0.0197358250125     0.0516524164047     
7000000000.0        0.0198618328013     0.0523925348651     0.979777446149      -0.0782299133473    0.979777446149      -0.0782299133473    0.0198618328013     0.0523925348651     
7100000000.0        0.0199894787097     0.0531323088879     0.979639784941      -0.0793391713844    0.979639784941      -0.0793391713844    0.0199894787097     0.0531323088879     
7200000000.0        0.0201187633031     0.0538717339798     0.979500347206      -0.0804480944525    0.979500347206      -0.0804480944525    0.0201187633031     0.0538717339798     
7300000000.0        0.0202496870594     0.0546108056494     0.979359132442      -0.081556678175     0.979359132442      -0.081556678175     0.0202496870594     0.0546108056494     
7400000000.0        0.0203822503731     0.0553495194079     0.979216140231      -0.0826649181772    0.979216140231      -0.0826649181772    0.0203822503731     0.0553495194079     
7500000000.0        0.020516453558      0.0560878707688     0.979071370233      -0.0837728100859    0.979071370233      -0.0837728100859    0.020516453558      0.0560878707688     
7600000000.0        0.0206522968513     0.0568258552488     0.978924822187      -0.0848803495299    0.978924822187      -0.0848803495299    0.0206522968513     0.0568258552488     
7700000000.0        0.0207897804159     0.0575634683674     0.978776495905      -0.0859875321403    0.978776495905      -0.0859875321403    0.0207897804159     0.0575634683674     
7800000000.0        0.0209289043439     0.0583007056475     0.97862639127       -0.0870943535506    0.97862639127       -0.0870943535506    0.0209289043439     0.0583007056475     
7900000000.0        0.0210696686588     0.0590375626154     0.978474508233      -0.088200809397     0.978474508233      -0.088200809397     0.0210696686588     0.0590375626154     
8000000000.0        0.0212120733184     0.0597740348009     0.97832084681       -0.0893068953185    0.97832084681       -0.0893068953185    0.0212120733184     0.0597740348009     
8100000000.0        0.0213561182171     0.0605101177379     0.978165407083      -0.0904126069572    0.978165407083      -0.0904126069572    0.0213561182171     0.0605101177379     
8200000000.0        0.0215018031879     0.0612458069641     0.978008189191      -0.0915179399581    0.978008189191      -0.0915179399581    0.0215018031879     0.0612458069641     
8300000000.0        0.0216491280052     0.0619810980213     0.977849193334      -0.0926228899701    0.977849193334      -0.0926228899701    0.0216491280052     0.0619810980213     
8400000000.0        0.0217980923859     0.0627159864558     0.977688419769      -0.0937274526454    0.977688419769      -0.0937274526454    0.0217980923859     0.0627159864558     
8500000000.0        0.0219486959923     0.0634504678183     0.977525868807      -0.0948316236399    0.977525868807      -0.0948316236399    0.0219486959923     0.0634504678183     
8600000000.0        0.0221009384331     0.0641845376641     0.977361540812      -0.0959353986136    0.977361540812      -0.0959353986136    0.0221009384331     0.0641845376641     
8700000000.0        0.0222548192656     0.0649181915534     0.977195436201      -0.0970387732303    0.977195436201      -0.0970387732303    0.0222548192656     0.0649181915534     
8800000000.0        0.0224103379972     0.0656514250513     0.977027555439      -0.0981417431582    0.977027555439      -0.0981417431582    0.0224103379972     0.0656514250513     
8900000000.0        0.022567494087      0.0663842337279     0.97685789904       -0.09924430407      0.97685789904       -0.09924430407      0.022567494087      0.0663842337279     
9000000000.0        0.022726286947      0.0671166131585     0.976686467563      -0.100346451643     0.976686467563      -0.100346451643     0.022726286947      0.0671166131585     
9100000000.0        0.0228867159439     0.0678485589239     0.976513261615      -0.101448181558     0.976513261615      -0.101448181558     0.0228867159439     0.0678485589239     
9200000000.0        0.0230487804        0.0685800666101     0.976338281845      -0.102549489502     0.976338281845      -0.102549489502     0.0230487804        0.0685800666101     
9300000000.0        0.0232124795949     0.069311131809      0.976161528946      -0.103650371166     0.976161528946      -0.103650371166     0.0232124795949     0.069311131809      
9400000000.0        0.0233778127663     0.0700417501179     0.975983003651      -0.104750822248     0.975983003651      -0.104750822248     0.0233778127663     0.0700417501179     
9500000000.0        0.0235447791115     0.0707719171401     0.975802706735      -0.105850838448     0.975802706735      -0.105850838448     0.0235447791115     0.0707719171401     
9600000000.0        0.0237133777882     0.071501628485      0.975620639012      -0.106950415473     0.975620639012      -0.106950415473     0.0237133777882     0.071501628485      
9700000000.0        0.0238836079157     0.0722308797677     0.975436801334      -0.108049549036     0.975436801334      -0.108049549036     0.0238836079157     0.0722308797677     
9800000000.0        0.0240554685757     0.0729596666097     0.975251194589      -0.109148234855     0.975251194589      -0.109148234855     0.0240554685757     0.0729596666097     
9900000000.0        0.0242289588134     0.0736879846388     0.975063819704      -0.110246468653     0.975063819704      -0.110246468653     0.0242289588134     0.0736879846388     
10000000000.0       0.0244040776386     0.0744158294891     0.974874677639      -0.11134424616      0.974874677639      -0.11134424616      0.0244040776386     0.0744158294891     
