# Hz S RI R 50.00 
100000000.0         0.00036849857153    -0.000322469827461  0.999625775176      -0.00193928419266   0.999625775176      -0.00193928419266   0.00036849857153    -0.00032246982746   
200000000.0         0.000368029777887   -0.000644980608011  0.999616400817      -0.00387863935998   0.999616400817      -0.00387863935998   0.000368029777887   -0.000644980608011  
300000000.0         0.000365660464243   -0.000967545389146  0.999603808717      -0.00581810716638   0.999603808717      -0.00581810716638   0.000365660464243   -0.000967545389146  
400000000.0         0.00036171083252    -0.00129017375381   0.999587676916      -0.00775771604946   0.999587676916      -0.00775771604946   0.00036171083252    -0.00129017375381   
500000000.0         0.000356303492987   -0.00161287281814   0.999567880727      -0.00969748827641   0.999567880727      -0.00969748827641   0.000356303492987   -0.00161287281814   
600000000.0         0.000349500423657   -0.00193564789401   0.999544355839      -0.0116374421426    0.999544355839      -0.0116374421426    0.000349500423656   -0.00193564789401   
700000000.0         0.00034133776817    -0.00225850287772   0.999517063553      -0.0135775930584    0.999517063553      -0.0135775930584    0.00034133776817    -0.00225850287772   
800000000.0         0.000331838532568   -0.00258144050219   0.999485978121      -0.015517954191     0.999485978121      -0.015517954191     0.000331838532569   -0.00258144050219   
900000000.0         0.000321018238952   -0.00290446251278   0.999451081116      -0.0174585368842    0.999451081116      -0.0174585368842    0.000321018238952   -0.00290446251278   
1000000000.0        0.000308887792581   -0.00322756979705   0.999412358585      -0.0193993509537    0.999412358585      -0.0193993509537    0.000308887792581   -0.00322756979705   
1100000000.0        0.0002954550772     -0.00355076248455   0.999369799474      -0.0213404049043    0.999369799474      -0.0213404049043    0.0002954550772     -0.00355076248455   
1200000000.0        0.000280725907145   -0.00387404002584   0.999323394692      -0.0232817060968    0.999323394692      -0.0232817060968    0.000280725907145   -0.00387404002584   
1300000000.0        0.00026470462771    -0.00419740125661   0.999273136524      -0.0252232608798    0.999273136524      -0.0252232608798    0.00026470462771    -0.00419740125661   
1400000000.0        0.000247394510961   -0.00452084445143   0.999219018249      -0.0271650746959    0.999219018249      -0.0271650746959    0.000247394510961   -0.00452084445143   
1500000000.0        0.000228798026523   -0.00484436736887   0.999161033882      -0.0291071521696    0.999161033882      -0.0291071521696    0.000228798026523   -0.00484436736887   
1600000000.0        0.000208917032682   -0.00516796729038   0.99909917799       -0.0310494971808    0.99909917799       -0.0310494971808    0.000208917032682   -0.00516796729038   
1700000000.0        0.000187752914932   -0.00549164105411   0.999033445566      -0.0329921129277    0.999033445566      -0.0329921129277    0.000187752914932   -0.00549164105411   
1800000000.0        0.000165306688787   -0.00581538508459   0.998963831937      -0.0349350019806    0.998963831937      -0.0349350019806    0.000165306688787   -0.00581538508459   
1900000000.0        0.000141579077643   -0.00613919541912   0.998890332689      -0.0368781663287    0.998890332689      -0.0368781663287    0.000141579077643   -0.00613919541912   
2000000000.0        0.000116570572849   -0.00646306773137   0.998812943621      -0.0388216074217    0.998812943621      -0.0388216074217    0.00011657057285    -0.00646306773137   
2100000000.0        9.02814808137e-05   -0.0067869973526    0.9987316607        -0.0407653262055    0.9987316607        -0.0407653262055    9.02814808137e-05   -0.0067869973526    
2200000000.0        6.27119604788e-05   -0.00711097929099   0.998646480034      -0.0427093231557    0.998646480034      -0.0427093231557    6.27119604788e-05   -0.00711097929099   
2300000000.0        3.38620535585e-05   -0.00743500824921   0.998557397845      -0.0446535983059    0.998557397845      -0.0446535983059    3.38620535585e-05   -0.00743500824921   
2400000000.0        3.7317092243e-06    -0.00775907864054   0.998464410453      -0.0465981512747    0.998464410453      -0.0465981512747    3.7317092243e-06    -0.00775907864054   
2500000000.0        -2.76791955111e-05  -0.00808318460373   0.998367514259      -0.0485429812891    0.998367514259      -0.0485429812891    -2.76791955111e-05  -0.00808318460373   
2600000000.0        -6.03708387853e-05  -0.00840732001672   0.998266705735      -0.0504880872067    0.998266705735      -0.0504880872067    -6.03708387855e-05  -0.00840732001672   
2700000000.0        -9.43434395547e-05  -0.0087314785094    0.998161981414      -0.0524334675352    0.998161981414      -0.0524334675352    -9.43434395546e-05  -0.0087314785094    
2800000000.0        -0.000129597245419  -0.00905565347546   0.998053337882      -0.0543791204514    0.998053337882      -0.0543791204514    -0.000129597245419  -0.00905565347546   
2900000000.0        -0.000166132522183  -0.00937983808346   0.997940771772      -0.0563250438171    0.997940771772      -0.0563250438171    -0.000166132522183  -0.00937983808346   
3000000000.0        -0.000203949544846  -0.00970402528724   0.99782427976       -0.0582712351959    0.99782427976       -0.0582712351959    -0.000203949544846  -0.00970402528724   
3100000000.0        -0.000243048589762  -0.0100282078356    0.997703858562      -0.0602176918666    0.997703858562      -0.0602176918666    -0.000243048589762  -0.0100282078356    
3200000000.0        -0.000283429927788  -0.0103523782816    0.997579504926      -0.0621644108374    0.997579504926      -0.0621644108374    -0.000283429927788  -0.0103523782816    
3300000000.0        -0.000325093818225  -0.0106765289909    0.997451215637      -0.0641113888584    0.997451215637      -0.0641113888584    -0.000325093818225  -0.0106765289909    
3400000000.0        -0.000368040503485  -0.0110006521503    0.99731898751       -0.0660586224332    0.99731898751       -0.0660586224332    -0.000368040503485  -0.0110006521503    
3500000000.0        -0.000412270204307  -0.0113247397754    0.997182817387      -0.0680061078299    0.997182817387      -0.0680061078299    -0.000412270204307  -0.0113247397754    
3600000000.0        -0.000457783115501  -0.0116487837175    0.997042702143      -0.0699538410915    0.997042702143      -0.0699538410915    -0.000457783115502  -0.0116487837175    
3700000000.0        -0.000504579402113  -0.0119727756711    0.996898638678      -0.0719018180458    0.996898638678      -0.0719018180458    -0.000504579402112  -0.0119727756711    
3800000000.0        -0.00055265919595   -0.0122967071802    0.996750623918      -0.0738500343145    0.996750623918      -0.0738500343145    -0.00055265919595   -0.0122967071802    
3900000000.0        -0.000602022592461  -0.0126205696449    0.996598654816      -0.0757984853216    0.996598654816      -0.0757984853216    -0.000602022592461  -0.0126205696449    
4000000000.0        -0.000652669647865  -0.0129443543268    0.996442728352      -0.077747166302     0.996442728352      -0.077747166302     -0.000652669647865  -0.0129443543268    
4100000000.0        -0.000704600376553  -0.0132680523555    0.996282841531      -0.0796960723087    0.996282841531      -0.0796960723087    -0.000704600376553  -0.0132680523555    
4200000000.0        -0.000757814748696  -0.0135916547334    0.996118991384      -0.0816451982208    0.996118991384      -0.0816451982208    -0.000757814748696  -0.0135916547334    
4300000000.0        -0.000812312688061  -0.0139151523414    0.995951174966      -0.0835945387499    0.995951174966      -0.0835945387499    -0.000812312688061  -0.0139151523414    
4400000000.0        -0.00086809406998   -0.0142385359437    0.99577938936       -0.0855440884469    0.99577938936       -0.0855440884469    -0.00086809406998   -0.0142385359437    
4500000000.0        -0.000925158719503  -0.0145617961925    0.995603631674      -0.0874938417085    0.995603631674      -0.0874938417085    -0.000925158719502  -0.0145617961925    
4600000000.0        -0.00098350640966   -0.0148849236331    0.99542389904       -0.0894437927828    0.99542389904       -0.0894437927828    -0.00098350640966   -0.0148849236331    
4700000000.0        -0.00104313685987   -0.0152079087075    0.995240188619      -0.0913939357751    0.995240188619      -0.0913939357751    -0.00104313685987   -0.0152079087075    
4800000000.0        -0.00110404973446   -0.0155307417594    0.995052497597      -0.0933442646537    0.995052497597      -0.0933442646537    -0.00110404973446   -0.0155307417594    
4900000000.0        -0.00116624464126   -0.0158534130379    0.994860823186      -0.0952947732544    0.994860823186      -0.0952947732544    -0.00116624464126   -0.0158534130379    
5000000000.0        -0.00122972113037   -0.0161759127015    0.994665162626      -0.0972454552863    0.994665162626      -0.0972454552863    -0.00122972113037   -0.0161759127015    
5100000000.0        -0.0012944786929    -0.0164982308221    0.994465513183      -0.0991963043356    0.994465513183      -0.0991963043356    -0.0012944786929    -0.0164982308221    
5200000000.0        -0.00136051675986   -0.0168203573882    0.994261872152      -0.101147313871     0.994261872152      -0.101147313871     -0.00136051675986   -0.0168203573882    
5300000000.0        -0.00142783470113   -0.0171422823087    0.994054236854      -0.103098477247     0.994054236854      -0.103098477247     -0.00142783470113   -0.0171422823087    
5400000000.0        -0.00149643182449   -0.0174639954162    0.993842604639      -0.10504978771      0.993842604639      -0.10504978771      -0.00149643182449   -0.0174639954162    
5500000000.0        -0.00156630737464   -0.0177854864705    0.993626972885      -0.1070012384       0.993626972885      -0.1070012384       -0.00156630737464   -0.0177854864705    
5600000000.0        -0.00163746053236   -0.0181067451615    0.993407338998      -0.108952822354     0.993407338998      -0.108952822354     -0.00163746053236   -0.0181067451615    
5700000000.0        -0.00170989041374   -0.018427761112     0.993183700414      -0.110904532514     0.993183700414      -0.110904532514     -0.00170989041374   -0.018427761112     
5800000000.0        -0.00178359606934   -0.0187485238815    0.992956054598      -0.112856361726     0.992956054598      -0.112856361726     -0.00178359606934   -0.0187485238815    
5900000000.0        -0.00185857648354   -0.019069022968     0.992724399043      -0.114808302744     0.992724399043      -0.114808302744     -0.00185857648354   -0.019069022968     
6000000000.0        -0.00193483057382   -0.0193892478116    0.992488731274      -0.116760348236     0.992488731274      -0.116760348236     -0.00193483057382   -0.0193892478116    
6100000000.0        -0.00201235719014   -0.0197091877967    0.992249048844      -0.118712490784     0.992249048844      -0.118712490784     -0.00201235719014   -0.0197091877967    
6200000000.0        -0.00209115511433   -0.0200288322549    0.992005349337      -0.120664722889     0.992005349337      -0.120664722889     -0.00209115511433   -0.0200288322549    
6300000000.0        -0.00217122305955   -0.0203481704671    0.991757630368      -0.122617036973     0.991757630368      -0.122617036973     -0.00217122305955   -0.0203481704671    
6400000000.0        -0.00225255966975   -0.0206671916662    0.991505889583      -0.12456942538      0.991505889583      -0.12456942538      -0.00225255966975   -0.0206671916662    
6500000000.0        -0.00233516351917   -0.0209858850398    0.991250124658      -0.126521880385     0.991250124658      -0.126521880385     -0.00233516351917   -0.0209858850398    
6600000000.0        -0.00241903311183   -0.0213042397316    0.990990333299      -0.128474394187     0.990990333299      -0.128474394187     -0.00241903311183   -0.0213042397316    
6700000000.0        -0.00250416688118   -0.0216222448446    0.990726513248      -0.130426958921     0.990726513248      -0.130426958921     -0.00250416688118   -0.0216222448446    
6800000000.0        -0.0025905631896    -0.0219398894425    0.990458662273      -0.132379566653     0.990458662273      -0.132379566653     -0.0025905631896    -0.0219398894425    
6900000000.0        -0.00267822032805   -0.0222571625522    0.990186778179      -0.134332209387     0.990186778179      -0.134332209387     -0.00267822032804   -0.0222571625522    
7000000000.0        -0.00276713651568   -0.022574053166     0.989910858799      -0.136284879066     0.989910858799      -0.136284879066     -0.00276713651568   -0.022574053166     
7100000000.0        -0.00285730989953   -0.0228905502429    0.989630902001      -0.138237567572     0.989630902001      -0.138237567572     -0.00285730989953   -0.0228905502429    
7200000000.0        -0.00294873855415   -0.0232066427114    0.989346905684      -0.14019026673      0.989346905684      -0.14019026673      -0.00294873855415   -0.0232066427114    
7300000000.0        -0.00304142048133   -0.0235223194707    0.98905886778       -0.142142968312     0.98905886778       -0.142142968312     -0.00304142048133   -0.0235223194707    
7400000000.0        -0.00313535360983   -0.0238375693929    0.988766786253      -0.144095664034     0.988766786253      -0.144095664034     -0.00313535360983   -0.0238375693929    
7500000000.0        -0.00323053579507   -0.0241523813246    0.988470659103      -0.146048345563     0.988470659103      -0.146048345563     -0.00323053579507   -0.0241523813246    
7600000000.0        -0.00332696481893   -0.0244667440888    0.988170484358      -0.148001004514     0.988170484358      -0.148001004514     -0.00332696481893   -0.0244667440888    
7700000000.0        -0.0034246383895    -0.0247806464866    0.987866260084      -0.149953632455     0.987866260084      -0.149953632455     -0.0034246383895    -0.0247806464866    
7800000000.0        -0.00352355414087   -0.0250940772986    0.987557984378      -0.15190622091      0.987557984378      -0.15190622091      -0.00352355414087   -0.0250940772986    
7900000000.0        -0.00362370963293   -0.0254070252867    0.987245655369      -0.153858761356     0.987245655369      -0.153858761356     -0.00362370963293   -0.0254070252867    
8000000000.0        -0.00372510235119   -0.025719479196     0.986929271223      -0.155811245226     0.986929271223      -0.155811245226     -0.00372510235119   -0.025719479196     
8100000000.0        -0.00382772970661   -0.0260314277556    0.986608830137      -0.157763663916     0.986608830137      -0.157763663916     -0.00382772970661   -0.0260314277556    
8200000000.0        -0.00393158903545   -0.0263428596809    0.986284330344      -0.159716008777     0.986284330344      -0.159716008777     -0.00393158903545   -0.0263428596809    
8300000000.0        -0.00403667759913   -0.0266537636744    0.985955770107      -0.161668271125     0.985955770107      -0.161668271125     -0.00403667759913   -0.0266537636744    
8400000000.0        -0.0041429925841    -0.0269641284276    0.985623147727      -0.163620442238     0.985623147727      -0.163620442238     -0.0041429925841    -0.0269641284276    
8500000000.0        -0.00425053110173   -0.0272739426223    0.985286461537      -0.165572513357     0.985286461537      -0.165572513357     -0.00425053110173   -0.0272739426223    
8600000000.0        -0.00435929018819   -0.027583194932     0.984945709904      -0.167524475689     0.984945709904      -0.167524475689     -0.00435929018819   -0.027583194932     
8700000000.0        -0.00446926680439   -0.0278918740229    0.98460089123       -0.169476320409     0.98460089123       -0.169476320409     -0.00446926680439   -0.0278918740229    
8800000000.0        -0.00458045783587   -0.028199968556     0.98425200395       -0.171428038659     0.98425200395       -0.171428038659     -0.00458045783587   -0.028199968556     
8900000000.0        -0.00469286009275   -0.0285074671874    0.983899046534      -0.173379621549     0.983899046534      -0.173379621549     -0.00469286009275   -0.0285074671874    
9000000000.0        -0.00480647030965   -0.0288143585706    0.983542017487      -0.175331060163     0.983542017487      -0.175331060163     -0.00480647030965   -0.0288143585706    
9100000000.0        -0.00492128514568   -0.0291206313568    0.983180915345      -0.177282345552     0.983180915345      -0.177282345552     -0.00492128514568   -0.0291206313568    
9200000000.0        -0.00503730118436   -0.0294262741969    0.982815738682      -0.179233468742     0.982815738682      -0.179233468742     -0.00503730118436   -0.0294262741969    
9300000000.0        -0.00515451493364   -0.0297312757423    0.982446486105      -0.181184420732     0.982446486105      -0.181184420732     -0.00515451493364   -0.0297312757423    
9400000000.0        -0.00527292282581   -0.0300356246461    0.982073156255      -0.183135192495     0.982073156255      -0.183135192495     -0.00527292282581   -0.0300356246461    
9500000000.0        -0.00539252121758   -0.0303393095643    0.981695747808      -0.185085774982     0.981695747808      -0.185085774982     -0.00539252121758   -0.0303393095643    
9600000000.0        -0.00551330638999   -0.030642319157     0.981314259473      -0.187036159117     0.981314259473      -0.187036159117     -0.00551330638999   -0.030642319157     
9700000000.0        -0.0056352745485    -0.0309446420897    0.980928689994      -0.188986335803     0.980928689994      -0.188986335803     -0.0056352745485    -0.0309446420897    
9800000000.0        -0.00575842182295   -0.0312462670338    0.980539038151      -0.190936295923     0.980539038151      -0.190936295923     -0.00575842182295   -0.0312462670338    
9900000000.0        -0.0058827442676    -0.0315471826683    0.980145302756      -0.192886030336     0.980145302756      -0.192886030336     -0.0058827442676    -0.0315471826683    
10000000000.0       -0.00600823786118   -0.0318473776806    0.979747482656      -0.194835529884     0.979747482656      -0.194835529884     -0.00600823786118   -0.0318473776806    
