# Hz S RI R 50.00 
100000000.0         -0.000373294909301  -0.0203386693921    0.999485374397      -0.0207911768785    0.999485374397      -0.0207911768785    -0.000373294909301  -0.0203386693921    
200000000.0         -0.00166011000044   -0.0406236306199    0.998197289528      -0.0415286963994    0.998197289528      -0.0415286963994    -0.00166011000044   -0.0406236306199    
300000000.0         -0.00378440711472   -0.0608033408383    0.996071760807      -0.0621610444342    0.996071760807      -0.0621610444342    -0.00378440711472   -0.0608033408383    
400000000.0         -0.00673544483589   -0.0808271469905    0.993119407924      -0.0826375907253    0.993119407924      -0.0826375907253    -0.00673544483589   -0.0808271469905    
500000000.0         -0.0104984990855    -0.100645693079     0.989354908162      -0.102908999111     0.989354908162      -0.102908999111     -0.0104984990855    -0.100645693079     
600000000.0         -0.0150550183714    -0.120211308254     0.984796789129      -0.122927616624     0.984796789129      -0.122927616624     -0.0150550183714    -0.120211308254     
700000000.0         -0.0203828421385    -0.139478367095     0.979467197219      -0.142647834278     0.979467197219      -0.142647834278     -0.0203828421385    -0.139478367095     
800000000.0         -0.0264564620525    -0.158403616151     0.973391631518      -0.162026413921     0.973391631518      -0.162026413921     -0.0264564620525    -0.158403616151     
900000000.0         -0.0332473176531    -0.176946462063     0.96659864602       -0.181022776549     0.96659864602       -0.181022776549     -0.0332473176531    -0.176946462063     
1000000000.0        -0.0407241193333    -0.195069217746     0.959119525567      -0.19959924864      0.959119525567      -0.19959924864      -0.0407241193333    -0.195069217746     
1100000000.0        -0.0488531917933    -0.212737304232     0.950987941798      -0.217721264098     0.950987941798      -0.217721264098     -0.0488531917933    -0.212737304232     
1200000000.0        -0.0575988311738    -0.229919406907     0.942239595658      -0.235357520569     0.942239595658      -0.235357520569     -0.0575988311738    -0.229919406907     
1300000000.0        -0.0669236692137    -0.246587585935     0.932911853022      -0.252480089934     0.932911853022      -0.252480089934     -0.0669236692137    -0.246587585935     
1400000000.0        -0.0767890380675    -0.262717341706     0.923043379725      -0.269064483808     0.923043379725      -0.269064483808     -0.0767890380675    -0.262717341706     
1500000000.0        -0.0871553298456    -0.278287637036     0.91267378193       -0.285089675782     0.91267378193       -0.285089675782     -0.0871553298456    -0.278287637036     
1600000000.0        -0.0979823454928    -0.293280878644     0.901843257173      -0.300538082937     0.901843257173      -0.300538082937     -0.0979823454928    -0.293280878644     
1700000000.0        -0.109229628269     -0.307682861092     0.89059226084       -0.315395509821     0.89059226084       -0.315395509821     -0.109229628269     -0.307682861092     
1800000000.0        -0.120856777809     -0.321482676896     0.878961192063      -0.329651058578     0.878961192063      -0.329651058578     -0.120856777809     -0.321482676896     
1900000000.0        -0.132823741493     -0.334672596853     0.866990102328      -0.343297009307     0.866990102328      -0.343297009307     -0.132823741493     -0.334672596853     
2000000000.0        -0.145091080618     -0.347247924896     0.854718429282      -0.356328674935     0.854718429282      -0.356328674935     -0.145091080618     -0.347247924896     
2100000000.0        -0.157620209591     -0.359206831838     0.842184757523      -0.368744234984     0.842184757523      -0.368744234984     -0.157620209591     -0.359206831838     
2200000000.0        -0.170373607101     -0.370550172371     0.829426607414      -0.380544552581     0.829426607414      -0.380544552581     -0.170373607101     -0.370550172371     
2300000000.0        -0.183314998846     -0.38128128953      0.816480252349      -0.391732978943     0.816480252349      -0.391732978943     -0.183314998846     -0.38128128953      
2400000000.0        -0.196409511987     -0.391405810616     0.803380564289      -0.402315149313     0.803380564289      -0.402315149313     -0.196409511987     -0.391405810616     
2500000000.0        -0.209623802019     -0.400931438298     0.79016088689       -0.412298774074     0.79016088689       -0.412298774074     -0.209623802019     -0.400931438298     
2600000000.0        -0.222926153154     -0.409867740255     0.776852935106      -0.421693428405     0.776852935106      -0.421693428405     -0.222926153154     -0.409867740255     
2700000000.0        -0.236286553676     -0.41822594035      0.763486719836      -0.430510343465     0.763486719836      -0.430510343465     -0.236286553676     -0.41822594035      
2800000000.0        -0.249676747988     -0.426018713951     0.750090495875      -0.438762201727     0.750090495875      -0.438762201727     -0.249676747988     -0.426018713951     
2900000000.0        -0.263070267253     -0.433259989598     0.736690731264      -0.446462938652     0.736690731264      -0.446462938652     -0.263070267253     -0.433259989598     
3000000000.0        -0.276442440666     -0.439964758837     0.72331209602       -0.453627552535     0.72331209602       -0.453627552535     -0.276442440666     -0.439964758837     
3100000000.0        -0.289770389461     -0.446148895674     0.709977468127      -0.460271923964     0.709977468127      -0.460271923964     -0.289770389461     -0.446148895674     
3200000000.0        -0.303033005734     -0.451828986735     0.69670795471       -0.466412645992     0.69670795471       -0.466412645992     -0.303033005734     -0.451828986735     
3300000000.0        -0.316210918162     -0.457022172922     0.683522926315      -0.4720668658       0.683522926315      -0.4720668658       -0.316210918162     -0.457022172922     
3400000000.0        -0.329286446613     -0.461746003048     0.670440062298      -0.477252138337     0.670440062298      -0.477252138337     -0.329286446613     -0.461746003048     
3500000000.0        -0.34224354752      -0.466018299692     0.657475405448      -0.481986292184     0.657475405448      -0.481986292184     -0.34224354752      -0.466018299692     
3600000000.0        -0.355067751808     -0.469857037284     0.644643424065      -0.48628730765      0.644643424065      -0.48628730765      -0.355067751808     -0.469857037284     
3700000000.0        -0.36774609698      -0.47328023227      0.631957079865      -0.490173206932     0.631957079865      -0.490173206932     -0.36774609698      -0.47328023227      
3800000000.0        -0.38026705487      -0.476305845011     0.619427900234      -0.49366195603      0.619427900234      -0.49366195603      -0.38026705487      -0.476305845011     
3900000000.0        -0.392620456367     -0.478951692996     0.607066053497      -0.496771377965     0.607066053497      -0.496771377965     -0.392620456367     -0.478951692996     
4000000000.0        -0.404797414317     -0.481235374821     0.594880426021      -0.499519076757     0.594880426021      -0.499519076757     -0.404797414317     -0.481235374821     
4100000000.0        -0.416790245621     -0.48317420433      0.582878700112      -0.501922371579     0.582878700112      -0.501922371579     -0.416790245621     -0.48317420433      
4200000000.0        -0.428592393425     -0.484785154255     0.571067431829      -0.503998240394     0.571067431829      -0.503998240394     -0.428592393425     -0.484785154255     
4300000000.0        -0.440198350166     -0.48608480868      0.559452127933      -0.505763272435     0.559452127933      -0.505763272435     -0.440198350166     -0.48608480868      
4400000000.0        -0.451603582109     -0.48708932363      0.548037321354      -0.507233628785     0.548037321354      -0.507233628785     -0.451603582109     -0.48708932363      
4500000000.0        -0.462804455895     -0.48781439508      0.53682664464       -0.508425010404     0.53682664464       -0.508425010404     -0.462804455895     -0.48781439508      
4600000000.0        -0.473798167521     -0.488275233715     0.525822900977      -0.509352632881     0.525822900977      -0.509352632881     -0.473798167521     -0.488275233715     
4700000000.0        -0.484582674075     -0.488486545751     0.515028132456      -0.510031207268     0.515028132456      -0.510031207268     -0.484582674075     -0.488486545751     
4800000000.0        -0.49515662848      -0.488462519217     0.504443685325      -0.510474926363     0.504443685325      -0.510474926363     -0.49515662848      -0.488462519217     
4900000000.0        -0.505519317408     -0.488216815055     0.494070272079      -0.510697455812     0.494070272079      -0.510697455812     -0.505519317408     -0.488216815055     
5000000000.0        -0.515670602484     -0.487762562493     0.483908030253      -0.510711929488     0.483908030253      -0.510711929488     -0.515670602484     -0.487762562493     
5100000000.0        -0.525610864827     -0.487112358158     0.473956577881      -0.510530948607     0.473956577881      -0.510530948607     -0.525610864827     -0.487112358158     
5200000000.0        -0.535340952948     -0.486278268422     0.4642150656        -0.510166584078     0.4642150656        -0.510166584078     -0.535340952948     -0.486278268422     
5300000000.0        -0.544862133976     -0.485271834552     0.454682225422      -0.509630381654     0.454682225422      -0.509630381654     -0.544862133976     -0.485271834552     
5400000000.0        -0.554176048148     -0.484104080228     0.445356416244      -0.508933369455     0.445356416244      -0.508933369455     -0.554176048148     -0.484104080228     
5500000000.0        -0.563284666489     -0.482785521067     0.436235666167      -0.508086067495     0.436235666167      -0.508086067495     -0.563284666489     -0.482785521067     
5600000000.0        -0.572190251577     -0.481326175809     0.427317711735      -0.50709849887      0.427317711735      -0.50709849887      -0.572190251577     -0.481326175809     
5700000000.0        -0.580895321267     -0.479735578864     0.418600034205      -0.505980202309     0.418600034205      -0.505980202309     -0.580895321267     -0.479735578864     
5800000000.0        -0.589402615258     -0.478022793939     0.410079892984      -0.504740245803     0.410079892984      -0.504740245803     -0.589402615258     -0.478022793939     
5900000000.0        -0.597715064359     -0.476196428516     0.401754356362      -0.503387241085     0.401754356362      -0.503387241085     -0.597715064359     -0.476196428516     
6000000000.0        -0.60583576231      -0.474264648953     0.393620329692      -0.501929358736     0.393620329692      -0.501929358736     -0.60583576231      -0.474264648953     
6100000000.0        -0.613767940018     -0.47223519604      0.385674581149      -0.500374343739     0.385674581149      -0.500374343739     -0.613767940018     -0.47223519604      
6200000000.0        -0.621514942069     -0.470115400824     0.377913765224      -0.498729531311     0.377913765224      -0.498729531311     -0.621514942069     -0.470115400824     
6300000000.0        -0.629080205361     -0.467912200578     0.370334444089      -0.497001862872     0.370334444089      -0.497001862872     -0.629080205361     -0.467912200578     
6400000000.0        -0.636467239727     -0.465632154793     0.36293310697       -0.495197902039     0.36293310697       -0.495197902039     -0.636467239727     -0.465632154793     
6500000000.0        -0.643679610413     -0.463281461071     0.355706187676      -0.493323850524     0.355706187676      -0.493323850524     -0.643679610413     -0.463281461071     
6600000000.0        -0.650720922274     -0.460865970858     0.348650080398      -0.491385563861     0.348650080398      -0.491385563861     -0.650720922274     -0.460865970858     
6700000000.0        -0.657594805559     -0.458391204915     0.341761153923      -0.48938856689      0.341761153923      -0.48938856689      -0.657594805559     -0.458391204915     
6800000000.0        -0.664304903184     -0.455862368493     0.335035764365      -0.487338068927     0.335035764365      -0.487338068927     -0.664304903184     -0.455862368493     
6900000000.0        -0.670854859347     -0.453284366142     0.328470266546      -0.485238978576     0.328470266546      -0.485238978576     -0.670854859347     -0.453284366142     
7000000000.0        -0.67724830941      -0.450661816124     0.322061024118      -0.483095918145     0.322061024118      -0.483095918145     -0.67724830941      -0.450661816124     
7100000000.0        -0.683488870917     -0.4479990644       0.315804418541      -0.480913237632     0.315804418541      -0.480913237632     -0.683488870917     -0.4479990644       
7200000000.0        -0.689580135675     -0.445300198162     0.309696857004      -0.478695028261     0.309696857004      -0.478695028261     -0.689580135675     -0.445300198162     
7300000000.0        -0.695525662795     -0.442569058897     0.303734779384      -0.476445135549     0.303734779384      -0.476445135549     -0.695525662795     -0.442569058897     
7400000000.0        -0.701328972608     -0.439809254973     0.297914664327      -0.474167171892     0.297914664327      -0.474167171892     -0.701328972608     -0.439809254973     
7500000000.0        -0.70699354139      -0.43702417374      0.292233034528      -0.471864528664     0.292233034528      -0.471864528664     -0.70699354139      -0.43702417374      
7600000000.0        -0.712522796812     -0.434216993141     0.286686461276      -0.469540387834     0.286686461276      -0.469540387834     -0.712522796812     -0.434216993141     
7700000000.0        -0.717920114051     -0.43139069284      0.281271568347      -0.467197733095     0.281271568347      -0.467197733095     -0.717920114051     -0.43139069284      
7800000000.0        -0.723188812502     -0.428548064867     0.275985035289      -0.464839360509     0.275985035289      -0.464839360509     -0.723188812502     -0.428548064867     
7900000000.0        -0.728332153031     -0.42569172379      0.27082360017       -0.462467888681     0.27082360017       -0.462467888681     -0.728332153031     -0.42569172379      
8000000000.0        -0.733353335714     -0.422824116423     0.265784061836      -0.460085768467     0.265784061836      -0.460085768467     -0.733353335714     -0.422824116423     
8100000000.0        -0.738255498027     -0.419947531083     0.260863281728      -0.457695292233     0.260863281728      -0.457695292233     -0.738255498027     -0.419947531083     
8200000000.0        -0.743041713414     -0.417064106394     0.256058185307      -0.455298602662     0.256058185307      -0.455298602662     -0.743041713414     -0.417064106394     
8300000000.0        -0.747714990227     -0.41417583968      0.251365763117      -0.452897701146     0.251365763117      -0.452897701146     -0.747714990227     -0.41417583968      
8400000000.0        -0.752278270969     -0.411284594927     0.246783071541      -0.450494455747     0.246783071541      -0.450494455747     -0.752278270969     -0.411284594927     
8500000000.0        -0.756734431828     -0.408392110353     0.242307233267      -0.448090608776     0.242307233267      -0.448090608776     -0.756734431828     -0.408392110353     
8600000000.0        -0.761086282459     -0.405500005594     0.237935437505      -0.445687783969     0.237935437505      -0.445687783969     -0.761086282459     -0.405500005594     
8700000000.0        -0.765336565989     -0.402609788513     0.233664939986      -0.443287493307     0.233664939986      -0.443287493307     -0.765336565989     -0.402609788513     
8800000000.0        -0.769487959217     -0.399722861659     0.229493062756      -0.44089114347      0.229493062756      -0.44089114347      -0.769487959217     -0.399722861659     
8900000000.0        -0.773543072992     -0.396840528383     0.225417193803      -0.438500041957     0.225417193803      -0.438500041957     -0.773543072992     -0.396840528383     
9000000000.0        -0.777504452731     -0.393963998632     0.221434786533      -0.436115402875     0.221434786533      -0.436115402875     -0.777504452731     -0.393963998632     
9100000000.0        -0.781374579084     -0.391094394425     0.217543359112      -0.433738352427     0.217543359112      -0.433738352427     -0.781374579084     -0.391094394425     
9200000000.0        -0.785155868703     -0.388232755039     0.213740493692      -0.431369934088     0.213740493692      -0.431369934088     -0.785155868703     -0.388232755039     
9300000000.0        -0.78885067511      -0.385380041908     0.210023835543      -0.429011113512     0.210023835543      -0.429011113512     -0.78885067511      -0.385380041908     
9400000000.0        -0.792461289655     -0.382537143259     0.206391092098      -0.426662783162     0.206391092098      -0.426662783162     -0.792461289655     -0.382537143259     
9500000000.0        -0.795989942539     -0.379704878483     0.202840031928      -0.42432576669      0.202840031928      -0.42432576669      -0.795989942539     -0.379704878483     
9600000000.0        -0.799438803897     -0.376884002271     0.199368483657      -0.422000823067     0.199368483657      -0.422000823067     -0.799438803897     -0.376884002271     
9700000000.0        -0.802809984935     -0.374075208512     0.195974334827      -0.419688650485     0.195974334827      -0.419688650485     -0.802809984935     -0.374075208512     
9800000000.0        -0.806105539101     -0.37127913398      0.192655530729      -0.417389890045     0.192655530729      -0.417389890045     -0.806105539101     -0.37127913398      
9900000000.0        -0.809327463289     -0.368496361807     0.189410073194      -0.415105129228     0.189410073194      -0.415105129228     -0.809327463289     -0.368496361807     
10000000000.0       -0.812477699069     -0.365727424761     0.186236019364      -0.412834905175     0.186236019364      -0.412834905175     -0.812477699069     -0.365727424761     
