# Hz S RI R 50.00 
100000000.0         0.000334168034      -0.00172944019046   0.99964835911       -0.00312590650843   0.99964835911       -0.00312590650843   0.000334168034      -0.00172944019046   
200000000.0         0.000317915602743   -0.00345885953514   0.99962456044       -0.00625180912615   0.99962456044       -0.00625180912615   0.000317915602743   -0.00345885953514   
300000000.0         0.000290251933497   -0.00518821482948   0.999588593241      -0.00937768540043   0.999588593241      -0.00937768540043   0.000290251933497   -0.00518821482948   
400000000.0         0.000251472330294   -0.00691745561498   0.99954016074       -0.0125034989538    0.99954016074       -0.0125034989538    0.000251472330294   -0.00691745561498   
500000000.0         0.000201690056263   -0.00864652723943   0.999479148503      -0.015629206786     0.999479148503      -0.015629206786     0.000201690056263   -0.00864652723943   
600000000.0         0.00014096278666    -0.0103753721753    0.99940549813       -0.0187547616133    0.99940549813       -0.0187547616133    0.00014096278666    -0.0103753721753    
700000000.0         6.93247491621e-05   -0.0121039307298    0.999319175222      -0.0218801130323    0.999319175222      -0.0218801130323    6.93247491623e-05   -0.0121039307298    
800000000.0         -1.32015382085e-05  -0.0138321414851    0.999220157726      -0.0250052082101    0.999220157726      -0.0250052082101    -1.32015382084e-05  -0.0138321414851    
900000000.0         -0.000106600032004  -0.0155599415957    0.999108430768      -0.028129992338     0.999108430768      -0.028129992338     -0.000106600032004  -0.0155599415957    
1000000000.0        -0.00021085850202   -0.0172872670028    0.998983984045      -0.0312544089499    0.998983984045      -0.0312544089499    -0.00021085850202   -0.0172872670028    
1100000000.0        -0.000325967045306  -0.0190140525957    0.998846810389      -0.034378400159     0.998846810389      -0.034378400159     -0.000325967045306  -0.0190140525957    
1200000000.0        -0.000451917195196  -0.0207402323384    0.998696904917      -0.037501906839     0.998696904917      -0.037501906839     -0.000451917195196  -0.0207402323384    
1300000000.0        -0.000588701356121  -0.0224657393705    0.998534264507      -0.0406248687687    0.998534264507      -0.0406248687687    -0.000588701356122  -0.0224657393705    
1400000000.0        -0.000736312428213  -0.024190506092     0.998358887449      -0.0437472247493    0.998358887449      -0.0437472247493    -0.000736312428213  -0.024190506092     
1500000000.0        -0.000894743548164  -0.025914464233     0.998170773222      -0.0468689127022    0.998170773222      -0.0468689127022    -0.000894743548164  -0.025914464233     
1600000000.0        -0.00106398790439   -0.0276375449149    0.997969922336      -0.0499898697513    0.997969922336      -0.0499898697513    -0.00106398790439   -0.0276375449149    
1700000000.0        -0.00124403860137   -0.0293596787025    0.997756336218      -0.0531100322944    0.997756336218      -0.0531100322944    -0.00124403860137   -0.0293596787025    
1800000000.0        -0.00143488855757   -0.0310807956504    0.997530017137      -0.0562293360648    0.997530017137      -0.0562293360648    -0.00143488855757   -0.0310807956504    
1900000000.0        -0.00163653042696   -0.0328008253448    0.997290968144      -0.0593477161865    0.997290968144      -0.0593477161865    -0.00163653042696   -0.0328008253448    
2000000000.0        -0.00184895653736   -0.0345196969403    0.997039193034      -0.0624651072221    0.997039193034      -0.0624651072221    -0.00184895653736   -0.0345196969403    
2100000000.0        -0.0020721588413    -0.0362373391938    0.996774696308      -0.0655814432174    0.996774696308      -0.0655814432174    -0.0020721588413    -0.0362373391938    
2200000000.0        -0.00230612887613   -0.0379536804959    0.996497483158      -0.0686966577406    0.996497483158      -0.0686966577406    -0.00230612887613   -0.0379536804959    
2300000000.0        -0.00255085773119   -0.0396686488991    0.996207559447      -0.071810683919     0.996207559447      -0.071810683919     -0.00255085773119   -0.0396686488991    
2400000000.0        -0.0028063360205    -0.041382172145     0.995904931693      -0.0749234544725    0.995904931693      -0.0749234544725    -0.0028063360205    -0.041382172145     
2500000000.0        -0.0030725538597    -0.043094177689     0.995589607065      -0.0780349017444    0.995589607065      -0.0780349017444    -0.00307255385971   -0.043094177689     
2600000000.0        -0.00334950084649   -0.0448045927238    0.995261593374      -0.0811449577306    0.995261593374      -0.0811449577306    -0.00334950084649   -0.0448045927238    
2700000000.0        -0.00363716604374   -0.0465133442015    0.994920899067      -0.0842535541066    0.994920899067      -0.0842535541066    -0.00363716604374   -0.0465133442015    
2800000000.0        -0.00393553796503   -0.0482203588551    0.994567533223      -0.087360622253     0.994567533223      -0.087360622253     -0.00393553796503   -0.0482203588551    
2900000000.0        -0.00424460456191   -0.0499255632178    0.994201505553      -0.0904660932796    0.994201505553      -0.0904660932796    -0.00424460456191   -0.0499255632178    
3000000000.0        -0.00456435321279   -0.0516288836429    0.993822826399      -0.0935698980485    0.993822826399      -0.0935698980485    -0.00456435321279   -0.0516288836429    
3100000000.0        -0.00489477071327   -0.0533302463221    0.993431506729      -0.0966719671955    0.993431506729      -0.0966719671955    -0.00489477071327   -0.0533302463221    
3200000000.0        -0.0052358432674    -0.0550295773029    0.993027558139      -0.0997722311512    0.993027558139      -0.0997722311512    -0.0052358432674    -0.0550295773029    
3300000000.0        -0.00558755648014   -0.0567268025059    0.992610992854      -0.102870620161     0.992610992854      -0.102870620161     -0.00558755648014   -0.0567268025059    
3400000000.0        -0.00594989535057   -0.0584218477412    0.992181823723      -0.105967064304     0.992181823723      -0.105967064304     -0.00594989535057   -0.0584218477412    
3500000000.0        -0.00632284426584   -0.0601146387249    0.991740064228      -0.109061493511     0.991740064228      -0.109061493511     -0.00632284426584   -0.0601146387249    
3600000000.0        -0.00670638699591   -0.0618051010941    0.991285728475      -0.112153837585     0.991285728475      -0.112153837585     -0.00670638699591   -0.0618051010941    
3700000000.0        -0.00710050668877   -0.0634931604221    0.9908188312        -0.115244026213     0.9908188312        -0.115244026213     -0.00710050668877   -0.0634931604221    
3800000000.0        -0.00750518586629   -0.0651787422335    0.990339387767      -0.118331988989     0.990339387767      -0.118331988989     -0.00750518586629   -0.0651787422335    
3900000000.0        -0.00792040642052   -0.0668617720184    0.989847414172      -0.121417655426     0.989847414172      -0.121417655426     -0.00792040642052   -0.0668617720184    
4000000000.0        -0.00834614961047   -0.0685421752462    0.989342927037      -0.124500954974     0.989342927037      -0.124500954974     -0.00834614961047   -0.0685421752462    
4100000000.0        -0.00878239605932   -0.0702198773797    0.988825943616      -0.127581817031     0.988825943616      -0.127581817031     -0.00878239605932   -0.0702198773797    
4200000000.0        -0.00922912575197   -0.0718948038885    0.988296481791      -0.130660170966     0.988296481791      -0.130660170966     -0.00922912575197   -0.0718948038885    
4300000000.0        -0.00968631803302   -0.073566880262     0.987754560076      -0.133735946125     0.987754560076      -0.133735946125     -0.00968631803302   -0.073566880262     
4400000000.0        -0.010153951605     -0.0752360320224    0.987200197614      -0.136809071851     0.987200197614      -0.136809071851     -0.010153951605     -0.0752360320224    
4500000000.0        -0.010632004527     -0.0769021847374    0.986633414176      -0.139879477496     0.986633414176      -0.139879477496     -0.010632004527     -0.0769021847374    
4600000000.0        -0.0111204542137    -0.0785652640329    0.986054230166      -0.142947092433     0.986054230166      -0.142947092433     -0.0111204542137    -0.0785652640329    
4700000000.0        -0.0116192774342    -0.0802251956049    0.985462666614      -0.146011846074     0.985462666614      -0.146011846074     -0.0116192774342    -0.0802251956049    
4800000000.0        -0.0121284503119    -0.0818819052317    0.984858745178      -0.149073667878     0.984858745178      -0.149073667878     -0.0121284503119    -0.0818819052317    
4900000000.0        -0.012647948324     -0.0835353187858    0.984242488145      -0.152132487365     0.984242488145      -0.152132487365     -0.012647948324     -0.0835353187858    
5000000000.0        -0.0131777463014    -0.0851853622453    0.983613918429      -0.155188234132     0.983613918429      -0.155188234132     -0.0131777463014    -0.0851853622453    
5100000000.0        -0.0137178184291    -0.0868319617058    0.982973059568      -0.158240837861     0.982973059568      -0.158240837861     -0.0137178184291    -0.0868319617058    
5200000000.0        -0.0142681382465    -0.0884750433916    0.982319935724      -0.161290228334     0.982319935724      -0.161290228334     -0.0142681382465    -0.0884750433916    
5300000000.0        -0.0148286786479    -0.0901145336664    0.981654571684      -0.164336335444     0.981654571684      -0.164336335444     -0.0148286786479    -0.0901145336664    
5400000000.0        -0.0153994118839    -0.0917503590449    0.980976992856      -0.167379089206     0.980976992856      -0.167379089206     -0.0153994118839    -0.0917503590449    
5500000000.0        -0.0159803095619    -0.0933824462034    0.980287225267      -0.17041841977      0.980287225267      -0.17041841977      -0.0159803095619    -0.0933824462034    
5600000000.0        -0.0165713426475    -0.0950107219901    0.979585295562      -0.173454257431     0.979585295562      -0.173454257431     -0.0165713426475    -0.0950107219901    
5700000000.0        -0.0171724814662    -0.0966351134362    0.978871231005      -0.176486532641     0.978871231005      -0.176486532641     -0.0171724814662    -0.0966351134362    
5800000000.0        -0.0177836957048    -0.098255547766     0.97814505947       -0.179515176021     0.97814505947       -0.179515176021     -0.0177836957048    -0.098255547766     
5900000000.0        -0.0184049544134    -0.0998719524071    0.977406809445      -0.182540118367     0.977406809445      -0.182540118367     -0.0184049544134    -0.0998719524071    
6000000000.0        -0.0190362260072    -0.101484255001     0.976656510028      -0.185561290669     0.976656510028      -0.185561290669     -0.0190362260072    -0.101484255001     
6100000000.0        -0.019677478269     -0.103092383411     0.975894190924      -0.188578624113     0.975894190924      -0.188578624113     -0.019677478269     -0.103092383411     
6200000000.0        -0.0203286783513    -0.104696265735     0.97511988244       -0.191592050096     0.97511988244       -0.191592050096     -0.0203286783513    -0.104696265735     
6300000000.0        -0.0209897927786    -0.106295830314     0.974333615488      -0.194601500237     0.974333615488      -0.194601500237     -0.0209897927786    -0.106295830314     
6400000000.0        -0.0216607874508    -0.107891005741     0.973535421576      -0.197606906384     0.973535421576      -0.197606906384     -0.0216607874508    -0.107891005741     
6500000000.0        -0.0223416276452    -0.109481720871     0.97272533281       -0.200608200623     0.97272533281       -0.200608200623     -0.0223416276452    -0.109481720871     
6600000000.0        -0.02303227802      -0.111067904829     0.971903381885      -0.203605315293     0.971903381885      -0.203605315293     -0.02303227802      -0.111067904829     
6700000000.0        -0.0237327026172    -0.112649487021     0.971069602087      -0.206598182991     0.971069602087      -0.206598182991     -0.0237327026172    -0.112649487021     
6800000000.0        -0.0244428648661    -0.114226397144     0.970224027289      -0.209586736582     0.970224027289      -0.209586736582     -0.0244428648661    -0.114226397144     
6900000000.0        -0.0251627275865    -0.11579856519      0.969366691943      -0.21257090921      0.969366691943      -0.21257090921      -0.0251627275865    -0.11579856519      
7000000000.0        -0.025892252992     -0.11736592146      0.968497631081      -0.215550634307     0.968497631081      -0.215550634307     -0.025892252992     -0.11736592146      
7100000000.0        -0.0266314026945    -0.118928396571     0.967616880309      -0.218525845599     0.967616880309      -0.218525845599     -0.0266314026945    -0.118928396571     
7200000000.0        -0.0273801377072    -0.120485921463     0.966724475804      -0.221496477119     0.966724475804      -0.221496477119     -0.0273801377072    -0.120485921463     
7300000000.0        -0.0281384184488    -0.122038427408     0.965820454309      -0.224462463211     0.965820454309      -0.224462463211     -0.0281384184488    -0.122038427408     
7400000000.0        -0.0289062047479    -0.123585846022     0.964904853127      -0.227423738545     0.964904853127      -0.227423738545     -0.0289062047479    -0.123585846022     
7500000000.0        -0.0296834558467    -0.125128109265     0.963977710123      -0.230380238119     0.963977710123      -0.230380238119     -0.0296834558467    -0.125128109265     
7600000000.0        -0.0304701304056    -0.126665149459     0.963039063711      -0.23333189727      0.963039063711      -0.23333189727      -0.0304701304056    -0.126665149459     
7700000000.0        -0.0312661865077    -0.128196899288     0.962088952858      -0.236278651684     0.962088952858      -0.236278651684     -0.0312661865077    -0.128196899288     
7800000000.0        -0.032071581663     -0.129723291808     0.961127417072      -0.2392204374       0.961127417072      -0.2392204374       -0.032071581663     -0.129723291808     
7900000000.0        -0.0328862728134    -0.131244260458     0.960154496401      -0.242157190821     0.960154496401      -0.242157190821     -0.0328862728134    -0.131244260458     
8000000000.0        -0.0337102163374    -0.132759739063     0.959170231429      -0.245088848722     0.959170231429      -0.245088848722     -0.0337102163374    -0.132759739063     
8100000000.0        -0.0345433680548    -0.134269661844     0.958174663269      -0.248015348254     0.958174663269      -0.248015348254     -0.0345433680548    -0.134269661844     
8200000000.0        -0.0353856832319    -0.135773963424     0.957167833557      -0.250936626956     0.957167833557      -0.250936626956     -0.0353856832319    -0.135773963424     
8300000000.0        -0.0362371165864    -0.137272578835     0.95614978445       -0.253852622759     0.95614978445       -0.253852622759     -0.0362371165864    -0.137272578835     
8400000000.0        -0.0370976222928    -0.138765443528     0.955120558618      -0.256763273994     0.955120558618      -0.256763273994     -0.0370976222928    -0.138765443528     
8500000000.0        -0.0379671539872    -0.140252493376     0.954080199242      -0.259668519403     0.954080199242      -0.259668519403     -0.0379671539872    -0.140252493376     
8600000000.0        -0.0388456647734    -0.141733664683     0.953028750003      -0.262568298138     0.953028750003      -0.262568298138     -0.0388456647734    -0.141733664683     
8700000000.0        -0.0397331072276    -0.143208894189     0.951966255082      -0.265462549775     0.951966255082      -0.265462549775     -0.0397331072276    -0.143208894189     
8800000000.0        -0.0406294334046    -0.144678119079     0.950892759152      -0.268351214318     0.950892759152      -0.268351214318     -0.0406294334046    -0.144678119079     
8900000000.0        -0.0415345948429    -0.146141276988     0.949808307372      -0.271234232205     0.949808307372      -0.271234232205     -0.0415345948429    -0.146141276988     
9000000000.0        -0.0424485425707    -0.147598306007     0.94871294538       -0.274111544315     0.94871294538       -0.274111544315     -0.0424485425707    -0.147598306007     
9100000000.0        -0.0433712271118    -0.149049144689     0.947606719293      -0.276983091974     0.947606719293      -0.276983091974     -0.0433712271118    -0.149049144689     
9200000000.0        -0.044302598491     -0.150493732056     0.946489675692      -0.279848816964     0.946489675692      -0.279848816964     -0.044302598491     -0.150493732056     
9300000000.0        -0.0452426062407    -0.151932007606     0.945361861624      -0.282708661524     0.945361861624      -0.282708661524     -0.0452426062407    -0.151932007606     
9400000000.0        -0.0461911994064    -0.153363911315     0.944223324591      -0.285562568358     0.944223324591      -0.285562568358     -0.0461911994064    -0.153363911315     
9500000000.0        -0.047148326553     -0.154789383646     0.943074112548      -0.288410480645     0.943074112548      -0.288410480645     -0.047148326553     -0.154789383646     
9600000000.0        -0.0481139357711    -0.156208365554     0.941914273892      -0.291252342037     0.941914273892      -0.291252342037     -0.0481139357711    -0.156208365554     
9700000000.0        -0.0490879746828    -0.157620798491     0.940743857459      -0.294088096671     0.940743857459      -0.294088096671     -0.0490879746828    -0.157620798491     
9800000000.0        -0.0500703904486    -0.159026624411     0.939562912516      -0.296917689171     0.939562912516      -0.296917689171     -0.0500703904486    -0.159026624411     
9900000000.0        -0.0510611297732    -0.160425785775     0.938371488757      -0.299741064655     0.938371488757      -0.299741064655     -0.0510611297732    -0.160425785775     
10000000000.0       -0.0520601389124    -0.161818225557     0.937169636292      -0.302558168737     0.937169636292      -0.302558168737     -0.0520601389124    -0.161818225557     
