# Hz S RI R 50.00 
100000000.0         0.0149920653364     0.00235095016041    0.985005760886      -0.00321370741325   0.985005760886      -0.00321370741325   0.0149920653364     0.00235095016041    
200000000.0         0.0151124552451     0.0047006818676     0.984883448982      -0.006426208886     0.984883448982      -0.006426208886     0.0151124552451     0.0047006818676     
300000000.0         0.015221881594      0.0070495215409     0.984771352308      -0.0096378385202    0.984771352308      -0.0096378385202    0.015221881594      0.0070495215409     
400000000.0         0.0153332065106     0.00939750322664    0.984656608617      -0.0128486365323    0.984656608617      -0.0128486365323    0.0153332065106     0.00939750322664    
500000000.0         0.0154513863856     0.0117445928677     0.984534261387      -0.0160585742679    0.984534261387      -0.0160585742679    0.0154513863856     0.0117445928677     
600000000.0         0.0155789483368     0.0140907262622     0.984401783354      -0.0192675924222    0.984401783354      -0.0192675924222    0.0155789483368     0.0140907262622     
700000000.0         0.0157173831685     0.0164358227221     0.984257683554      -0.0224756148326    0.984257683554      -0.0224756148326    0.0157173831685     0.0164358227221     
800000000.0         0.0158676540079     0.018779791421      0.984100998688      -0.0256825549071    0.984100998688      -0.0256825549071    0.0158676540079     0.018779791421      
900000000.0         0.0160304228811     0.0211225348127     0.983931066546      -0.0288883190957    0.983931066546      -0.0288883190957    0.0160304228811     0.0211225348127     
1000000000.0        0.0162061656083     0.0234639506624     0.98374741111       -0.032092808959     0.98374741111       -0.032092808959     0.0162061656083     0.0234639506624     
1100000000.0        0.0163952357006     0.0258039333421     0.98354967866       -0.0352959224911    0.98354967866       -0.0352959224911    0.0163952357006     0.0258039333421     
1200000000.0        0.01659790245       0.0281423747029     0.983337599681      -0.0384975550134    0.983337599681      -0.0384975550134    0.01659790245       0.0281423747029     
1300000000.0        0.0168143749029     0.0304791646888     0.983110964895      -0.0416975998047    0.983110964895      -0.0416975998047    0.0168143749029     0.0304791646888     
1400000000.0        0.0170448176255     0.0328141917836     0.982869609493      -0.0448959485621    0.982869609493      -0.0448959485621    0.0170448176255     0.0328141917836     
1500000000.0        0.0172893614508     0.0351473433467     0.982613402385      -0.0480924917474    0.982613402385      -0.0480924917474    0.0172893614508     0.0351473433467     
1600000000.0        0.0175481110306     0.0374785058715     0.982342238655      -0.0512871188551    0.982342238655      -0.0512871188551    0.0175481110306     0.0374785058715     
1700000000.0        0.017821150281      0.039807565189      0.982056034112      -0.0544797186238    0.982056034112      -0.0544797186238    0.017821150281      0.039807565189      
1800000000.0        0.0181085463966     0.0421344066311     0.981754721274      -0.0576701792061    0.981754721274      -0.0576701792061    0.0181085463966     0.0421344066311     
1900000000.0        0.0184103528682     0.0444589151648     0.981438246355      -0.0608583883087    0.981438246355      -0.0608583883087    0.0184103528682     0.0444589151648     
2000000000.0        0.0187266117908     0.0467809755027     0.981106566954      -0.0640442333082    0.981106566954      -0.0640442333082    0.0187266117908     0.0467809755027     
2100000000.0        0.0190573556553     0.0491004721969     0.980759650267      -0.0672276013493    0.980759650267      -0.0672276013493    0.0190573556553     0.0491004721969     
2200000000.0        0.0194026087583     0.051417289719      0.980397471672      -0.070408379429     0.980397471672      -0.070408379429     0.0194026087583     0.051417289719      
2300000000.0        0.019762388326      0.0537313125292     0.980020013609      -0.0735864544689    0.980020013609      -0.0735864544689    0.019762388326      0.0537313125292     
2400000000.0        0.0201367054193     0.0560424251368     0.979627264676      -0.0767617133793    0.979627264676      -0.0767617133793    0.0201367054193     0.0560424251368     
2500000000.0        0.020525565671      0.0583505121535     0.97921921889       -0.0799340431155    0.97921921889       -0.0799340431155    0.020525565671      0.0583505121535     
2600000000.0        0.0209289698913     0.0606554583411     0.97879587508       -0.0831033307278    0.97879587508       -0.0831033307278    0.0209289698913     0.0606554583411     
2700000000.0        0.0213469145694     0.0629571486547     0.97835723639       -0.0862694634072    0.97835723639       -0.0862694634072    0.0213469145694     0.0629571486547     
2800000000.0        0.0217793922932     0.0652554682812     0.977903309855      -0.0894323285262    0.977903309855      -0.0894323285262    0.0217793922932     0.0652554682812     
2900000000.0        0.0222263921022     0.067550302675      0.977434106054      -0.0925918136767    0.977434106054      -0.0925918136767    0.0222263921022     0.067550302675      
3000000000.0        0.0226878997869     0.0698415375909     0.976949638802      -0.0957478067042    0.976949638802      -0.0957478067042    0.0226878997869     0.0698415375909     
3100000000.0        0.0231638981446     0.0721290591142     0.976449924903      -0.0989001957404    0.976449924903      -0.0989001957404    0.0231638981446     0.0721290591142     
3200000000.0        0.0236543671984     0.0744127536888     0.975934983927      -0.102048869232     0.975934983927      -0.102048869232     0.0236543671984     0.0744127536888     
3300000000.0        0.0241592843876     0.0766925081438     0.975404838019      -0.105193715971     0.975404838019      -0.105193715971     0.0241592843876     0.0766925081438     
3400000000.0        0.0246786247323     0.0789682097184     0.974859511737      -0.108334625117     0.974859511737      -0.108334625117     0.0246786247323     0.0789682097184     
3500000000.0        0.0252123609779     0.081239746085      0.974299031905      -0.111471486225     0.974299031905      -0.111471486225     0.0252123609779     0.081239746085      
3600000000.0        0.0257604637216     0.0835070053716     0.973723427491      -0.114604189268     0.973723427491      -0.114604189268     0.0257604637216     0.0835070053716     
3700000000.0        0.0263229015248     0.0857698761828     0.973132729488      -0.11773262466      0.973132729488      -0.11773262466      0.0263229015248     0.0857698761828     
3800000000.0        0.0268996410123     0.0880282476202     0.972526970822      -0.120856683276     0.972526970822      -0.120856683276     0.0268996410123     0.0880282476202     
3900000000.0        0.0274906469615     0.0902820093012     0.971906186256      -0.123976256471     0.971906186256      -0.123976256471     0.0274906469615     0.0902820093012     
4000000000.0        0.028095882382      0.0925310513779     0.971270412318      -0.127091236103     0.971270412318      -0.127091236103     0.028095882382      0.0925310513779     
4100000000.0        0.0287153085873     0.0947752645546     0.970619687223      -0.130201514551     0.970619687223      -0.130201514551     0.0287153085873     0.0947752645546     
4200000000.0        0.0293488852601     0.0970145401049     0.96995405081       -0.133306984728     0.96995405081       -0.133306984728     0.0293488852601     0.0970145401049     
4300000000.0        0.0299965705113     0.0992487698881     0.969273544485      -0.136407540105     0.969273544485      -0.136407540105     0.0299965705113     0.0992487698881     
4400000000.0        0.0306583209345     0.101477846365      0.968578211164      -0.139503074724     0.968578211164      -0.139503074724     0.0306583209345     0.101477846365      
4500000000.0        0.0313340916552     0.103701662615      0.967868095225      -0.142593483215     0.967868095225      -0.142593483215     0.0313340916552     0.103701662615      
4600000000.0        0.0320238363768     0.105920112346      0.967143242462      -0.14567866081      0.967143242462      -0.14567866081      0.0320238363768     0.105920112346      
4700000000.0        0.0327275074232     0.108133089916      0.966403700043      -0.148758503362     0.966403700043      -0.148758503362     0.0327275074232     0.108133089916      
4800000000.0        0.033445055778      0.110340490341      0.965649516469      -0.151832907354     0.965649516469      -0.151832907354     0.033445055778      0.110340490341      
4900000000.0        0.0341764311212     0.112542209312      0.96488074154       -0.154901769921     0.96488074154       -0.154901769921     0.0341764311212     0.112542209312      
5000000000.0        0.034921581864      0.114738143206      0.964097426317      -0.157964988854     0.964097426317      -0.157964988854     0.034921581864      0.114738143206      
5100000000.0        0.0356804551814     0.116928189102      0.963299623095      -0.161022462622     0.963299623095      -0.161022462622     0.0356804551814     0.116928189102      
5200000000.0        0.0364529970421     0.119112244789      0.962487385366      -0.164074090379     0.962487385366      -0.164074090379     0.0364529970421     0.119112244789      
5300000000.0        0.0372391522384     0.121290208782      0.961660767795      -0.167119771983     0.961660767795      -0.167119771983     0.0372391522384     0.121290208782      
5400000000.0        0.0380388644132     0.123461980331      0.96081982619       -0.170159408        0.96081982619       -0.170159408        0.0380388644132     0.123461980331      
5500000000.0        0.0388520760867     0.125627459435      0.959964617476      -0.173192899723     0.959964617476      -0.173192899723     0.0388520760867     0.125627459435      
5600000000.0        0.0396787286816     0.127786546852      0.959095199671      -0.176220149181     0.959095199671      -0.176220149181     0.0396787286816     0.127786546852      
5700000000.0        0.0405187625469     0.129939144108      0.958211631862      -0.179241059149     0.958211631862      -0.179241059149     0.0405187625469     0.129939144108      
5800000000.0        0.0413721169818     0.132085153511      0.957313974178      -0.182255533161     0.957313974178      -0.182255533161     0.0413721169818     0.132085153511      
5900000000.0        0.0422387302576     0.134224478159      0.956402287773      -0.185263475521     0.956402287773      -0.185263475521     0.0422387302576     0.134224478159      
6000000000.0        0.0431185396399     0.13635702195       0.955476634801      -0.18826479131      0.955476634801      -0.18826479131      0.0431185396399     0.13635702195       
6100000000.0        0.0440114814094     0.138482689592      0.954537078395      -0.191259386402     0.954537078395      -0.191259386402     0.0440114814094     0.138482689592      
6200000000.0        0.0449174908827     0.140601386615      0.953583682649      -0.194247167465     0.953583682649      -0.194247167465     0.0449174908827     0.140601386615      
6300000000.0        0.0458365024317     0.142713019374      0.952616512594      -0.197228041981     0.952616512594      -0.197228041981     0.0458365024317     0.142713019374      
6400000000.0        0.0467684495038     0.144817495066      0.951635634185      -0.200201918248     0.951635634185      -0.200201918248     0.0467684495038     0.144817495066      
6500000000.0        0.0477132646406     0.146914721731      0.950641114273      -0.20316870539      0.950641114273      -0.20316870539      0.0477132646406     0.146914721731      
6600000000.0        0.0486708794963     0.149004608264      0.949633020594      -0.206128313367     0.949633020594      -0.206128313367     0.0486708794963     0.149004608264      
6700000000.0        0.0496412248566     0.151087064426      0.948611421749      -0.209080652986     0.948611421749      -0.209080652986     0.0496412248566     0.151087064426      
6800000000.0        0.0506242306562     0.153162000845      0.947576387184      -0.212025635902     0.947576387184      -0.212025635902     0.0506242306562     0.153162000845      
6900000000.0        0.0516198259966     0.15522932903       0.946527987172      -0.214963174635     0.946527987172      -0.214963174635     0.0516198259966     0.15522932903       
7000000000.0        0.0526279391635     0.157288961375      0.945466292801      -0.217893182568     0.945466292801      -0.217893182568     0.0526279391635     0.157288961375      
7100000000.0        0.0536484976442     0.159340811166      0.944391375951      -0.220815573964     0.944391375951      -0.220815573964     0.0536484976442     0.159340811166      
7200000000.0        0.0546814281441     0.16138479259       0.943303309278      -0.223730263966     0.943303309278      -0.223730263966     0.0546814281441     0.16138479259       
7300000000.0        0.0557266566038     0.163420820741      0.942202166201      -0.226637168608     0.942202166201      -0.226637168608     0.0557266566038     0.163420820741      
7400000000.0        0.0567841082153     0.165448811625      0.941088020882      -0.229536204819     0.941088020882      -0.229536204819     0.0567841082153     0.165448811625      
7500000000.0        0.0578537074387     0.167468682169      0.93996094821       -0.232427290432     0.93996094821       -0.232427290432     0.0578537074387     0.167468682169      
7600000000.0        0.0589353780182     0.169480350222      0.938821023788      -0.235310344188     0.938821023788      -0.235310344188     0.0589353780182     0.169480350222      
7700000000.0        0.060029042998      0.171483734567      0.937668323912      -0.238185285743     0.937668323912      -0.238185285743     0.060029042998      0.171483734567      
7800000000.0        0.0611346247384     0.173478754922      0.936502925559      -0.241052035675     0.936502925559      -0.241052035675     0.0611346247384     0.173478754922      
7900000000.0        0.0622520449317     0.175465331948      0.935324906371      -0.243910515486     0.935324906371      -0.243910515486     0.0622520449317     0.175465331948      
8000000000.0        0.0633812246175     0.177443387251      0.934134344638      -0.246760647613     0.934134344638      -0.246760647613     0.0633812246175     0.177443387251      
8100000000.0        0.0645220841981     0.17941284339       0.932931319281      -0.249602355425     0.932931319281      -0.249602355425     0.0645220841981     0.17941284339       
8200000000.0        0.0656745434546     0.181373623881      0.931715909842      -0.252435563237     0.931715909842      -0.252435563237     0.0656745434546     0.181373623881      
8300000000.0        0.0668385215615     0.183325653198      0.930488196463      -0.255260196306     0.930488196463      -0.255260196306     0.0668385215615     0.183325653198      
8400000000.0        0.0680139371021     0.185268856784      0.929248259874      -0.258076180842     0.929248259874      -0.258076180842     0.0680139371021     0.185268856784      
8500000000.0        0.0692007080838     0.187203161047      0.927996181379      -0.260883444009     0.927996181379      -0.260883444009     0.0692007080838     0.187203161047      
8600000000.0        0.0703987519529     0.189128493369      0.926732042836      -0.263681913929     0.926732042836      -0.263681913929     0.0703987519529     0.189128493369      
8700000000.0        0.0716079856094     0.19104478211       0.925455926648      -0.266471519686     0.925455926648      -0.266471519686     0.0716079856094     0.19104478211       
8800000000.0        0.0728283254223     0.192951956606      0.924167915744      -0.269252191329     0.924167915744      -0.269252191329     0.0728283254223     0.192951956606      
8900000000.0        0.0740596872437     0.194849947178      0.922868093567      -0.272023859879     0.922868093567      -0.272023859879     0.0740596872437     0.194849947178      
9000000000.0        0.0753019864241     0.196738685132      0.921556544057      -0.274786457326     0.921556544057      -0.274786457326     0.0753019864241     0.196738685132      
9100000000.0        0.0765551378264     0.198618102762      0.92023335164       -0.277539916635     0.92023335164       -0.277539916635     0.0765551378264     0.198618102762      
9200000000.0        0.0778190558408     0.200488133353      0.91889860121       -0.28028417175      0.91889860121       -0.28028417175      0.0778190558408     0.200488133353      
9300000000.0        0.0790936543989     0.202348711182      0.917552378115      -0.283019157595     0.917552378115      -0.283019157595     0.0790936543989     0.202348711182      
9400000000.0        0.0803788469885     0.204199771522      0.916194768144      -0.285744810074     0.916194768144      -0.285744810074     0.0803788469885     0.204199771522      
9500000000.0        0.0816745466674     0.206041250643      0.914825857514      -0.288461066077     0.914825857514      -0.288461066077     0.0816745466674     0.206041250643      
9600000000.0        0.0829806660776     0.207873085811      0.913445732853      -0.291167863479     0.913445732853      -0.291167863479     0.0829806660776     0.207873085811      
9700000000.0        0.0842971174597     0.209695215296      0.912054481187      -0.293865141145     0.912054481187      -0.293865141145     0.0842971174597     0.209695215296      
9800000000.0        0.0856238126667     0.211507578367      0.910652189926      -0.296552838924     0.910652189926      -0.296552838924     0.0856238126667     0.211507578367      
9900000000.0        0.086960663178      0.213310115295      0.909238946853      -0.299230897661     0.909238946853      -0.299230897661     0.086960663178      0.213310115295      
10000000000.0       0.0883075801133     0.215102767355      0.907814840103      -0.301899259189     0.907814840103      -0.301899259189     0.0883075801133     0.215102767355      
