# Hz S RI R 50.00 
100000000.0         -0.000108356788087  -0.0128854202227    0.999743890488      -0.0131025448321    0.999743890488      -0.0131025448321    -0.000108356788087  -0.0128854202227    
200000000.0         -0.000626938853779  -0.0257569832681    0.999224231435      -0.0261912394391    0.999224231435      -0.0261912394391    -0.000626938853779  -0.0257569832681    
300000000.0         -0.00148194726807   -0.0386015789249    0.998368353726      -0.0392529778766    0.998368353726      -0.0392529778766    -0.00148194726807   -0.0386015789249    
400000000.0         -0.00267157787407   -0.0514061958626    0.997177934366      -0.0522747521803    0.997177934366      -0.0522747521803    -0.00267157787407   -0.0514061958626    
500000000.0         -0.00419339930354   -0.0641579609998    0.995655355975      -0.0652436922141    0.995655355975      -0.0652436922141    -0.00419339930354   -0.0641579609998    
600000000.0         -0.00604433811493   -0.0768441804268    0.993803667241      -0.0781471067442    0.993803667241      -0.0781471067442    -0.00604433811493   -0.0768441804268    
700000000.0         -0.0082206873245    -0.0894523797392    0.991626560583      -0.0909725238483    0.991626560583      -0.0909725238483    -0.0082206873245    -0.0894523797392    
800000000.0         -0.0107181223103    -0.101970343126     0.989128351227      -0.103707730048     0.989128351227      -0.103707730048     -0.0107181223103    -0.101970343126     
900000000.0         -0.0135317209482    -0.114386150829     0.98631395483       -0.116340807797     0.98631395483       -0.116340807797     -0.0135317209482    -0.114386150829     
1000000000.0        -0.0166559869536    -0.126688214671     0.983188863012      -0.128860171028     0.983188863012      -0.128860171028     -0.0166559869536    -0.126688214671     
1100000000.0        -0.0200848759199    -0.138865311424     0.979759116689      -0.141254598539     0.979759116689      -0.141254598539     -0.0200848759199    -0.138865311424     
1200000000.0        -0.023811823705     -0.150906613805     0.976031277315      -0.153513264996     0.976031277315      -0.153513264996     -0.023811823705     -0.150906613805     
1300000000.0        -0.027829776862     -0.162801718931     0.972012396217      -0.165625769398     0.972012396217      -0.165625769398     -0.027829776862     -0.162801718931     
1400000000.0        -0.0321312248316    -0.174540674098     0.967709982247      -0.177582160867     0.967709982247      -0.177582160867     -0.0321312248316    -0.174540674098     
1500000000.0        -0.0367082336171    -0.186113999778     0.963131968006      -0.189372961643     0.963131968006      -0.189372961643     -0.0367082336171    -0.186113999778     
1600000000.0        -0.0415524806615    -0.197512709737     0.958286674892      -0.200989187214     0.958286674892      -0.200989187214     -0.0415524806615    -0.197512709737     
1700000000.0        -0.0466552906533    -0.208728328256     0.953182777242      -0.212422363538     0.953182777242      -0.212422363538     -0.0466552906533    -0.208728328256     
1800000000.0        -0.0520076719857    -0.2197529044       0.947829265832      -0.223664541315     0.947829265832      -0.223664541315     -0.0520076719857    -0.2197529044       
1900000000.0        -0.0576003536041    -0.230579023367     0.942235411005      -0.234708307338     0.942235411005      -0.234708307338     -0.0576003536041    -0.230579023367     
2000000000.0        -0.0634238219819    -0.241199814933     0.936410725669      -0.245546792945     0.936410725669      -0.245546792945     -0.0634238219819    -0.241199814933     
2100000000.0        -0.0694683579751    -0.251608959059     0.930364928427      -0.256173679621     0.930364928427      -0.256173679621     -0.0694683579751    -0.251608959059     
2200000000.0        -0.0757240733222    -0.261800688724     0.924107907065      -0.266583201843     0.924107907065      -0.266583201843     -0.0757240733222    -0.261800688724     
2300000000.0        -0.0821809465643    -0.271769790111     0.917649682616      -0.276770147255     0.917649682616      -0.276770147255     -0.0821809465643    -0.271769790111     
2400000000.0        -0.0888288581817    -0.281511600219     0.911000374224      -0.286729854296     0.911000374224      -0.286729854296     -0.0888288581817    -0.281511600219     
2500000000.0        -0.0956576247588    -0.291022002086     0.904170164963      -0.29645820741      0.904170164963      -0.29645820741      -0.0956576247588    -0.291022002086     
2600000000.0        -0.102657032005     -0.300297417715     0.897169268815      -0.305951629987     0.897169268815      -0.305951629987     -0.102657032005     -0.300297417715     
2700000000.0        -0.109816866484     -0.309334798908     0.890007898937      -0.315207075187     0.890007898937      -0.315207075187     -0.109816866484     -0.309334798908     
2800000000.0        -0.117126945913     -0.318131616135     0.882696237354      -0.324222014816     0.882696237354      -0.324222014816     -0.117126945913     -0.318131616135     
2900000000.0        -0.124577147935     -0.326685845639     0.875244406189      -0.332994426431     0.875244406189      -0.332994426431     -0.124577147935     -0.326685845639     
3000000000.0        -0.132157437246     -0.334995954932     0.867662440526      -0.341522778836     0.867662440526      -0.341522778836     -0.132157437246     -0.334995954932     
3100000000.0        -0.139857891033     -0.343060886869     0.859960262976      -0.349806016159     0.859960262976      -0.349806016159     -0.139857891033     -0.343060886869     
3200000000.0        -0.147668722644     -0.35088004248      0.852147660002      -0.357843540679     0.852147660002      -0.357843540679     -0.147668722644     -0.35088004248      
3300000000.0        -0.155580303464     -0.358453262725     0.844234260042      -0.365635194593     0.844234260042      -0.365635194593     -0.155580303464     -0.358453262725     
3400000000.0        -0.163583182976     -0.365780809362     0.836229513447      -0.373181240871     0.836229513447      -0.373181240871     -0.163583182976     -0.365780809362     
3500000000.0        -0.171668106998     -0.372863345076     0.828142674241      -0.380482343394     0.828142674241      -0.380482343394     -0.171668106998     -0.372863345076     
3600000000.0        -0.179826034104     -0.379701913038     0.819982783701      -0.387539546515     0.819982783701      -0.387539546515     -0.179826034104     -0.379701913038     
3700000000.0        -0.188048150259     -0.386297916059     0.811758655721      -0.394354254208     0.811758655721      -0.394354254208     -0.188048150259     -0.386297916059     
3800000000.0        -0.196325881695     -0.392653095464     0.803478863933      -0.400928208945     0.803478863933      -0.400928208945     -0.196325881695     -0.392653095464     
3900000000.0        -0.204650906075     -0.398769509835     0.795151730544      -0.407263470441     0.795151730544      -0.407263470441     -0.204650906075     -0.398769509835     
4000000000.0        -0.213015162002     -0.404649513757     0.786785316827      -0.413362394396     0.786785316827      -0.413362394396     -0.213015162002     -0.404649513757     
4100000000.0        -0.221410856927     -0.410295736661     0.778387415209      -0.419227611345     0.778387415209      -0.419227611345     -0.221410856927     -0.410295736661     
4200000000.0        -0.229830473542     -0.415711061896     0.769965542885      -0.424862005725     0.769965542885      -0.424862005725     -0.229830473542     -0.415711061896     
4300000000.0        -0.238266774704     -0.420898606116     0.761526936884      -0.430268695266     0.761526936884      -0.430268695266     -0.238266774704     -0.420898606116     
4400000000.0        -0.246712807001     -0.425861699068     0.753078550507      -0.435451010775     0.753078550507      -0.435451010775     -0.246712807001     -0.425861699068     
4500000000.0        -0.255161903018     -0.430603863857     0.744627051064      -0.440412476407     0.744627051064      -0.440412476407     -0.255161903018     -0.430603863857     
4600000000.0        -0.263607682394     -0.435128797763     0.736178818814      -0.445156790479     0.736178818814      -0.445156790479     -0.263607682394     -0.435128797763     
4700000000.0        -0.272044051757     -0.439440353662     0.727739947024      -0.449687806889     0.727739947024      -0.449687806889     -0.272044051757     -0.439440353662     
4800000000.0        -0.280465203623     -0.443542522095     0.719316243081      -0.454009517193     0.719316243081      -0.454009517193     -0.280465203623     -0.443542522095     
4900000000.0        -0.288865614338     -0.44743941404      0.710913230539      -0.458126033367     0.710913230539      -0.458126033367     -0.288865614338     -0.44743941404      
5000000000.0        -0.297240041154     -0.451135244397     0.70253615205       -0.462041571305     0.70253615205       -0.462041571305     -0.297240041154     -0.451135244397     
5100000000.0        -0.305583518517     -0.45463431624      0.694189973076      -0.465760435056     0.694189973076      -0.465760435056     -0.305583518517     -0.45463431624      
5200000000.0        -0.313891353641     -0.457941005816     0.685879386306      -0.469287001837     0.685879386306      -0.469287001837     -0.313891353641     -0.457941005816     
5300000000.0        -0.322159121467     -0.461059748341     0.677608816708      -0.472625707823     0.677608816708      -0.472625707823     -0.322159121467     -0.461059748341     
5400000000.0        -0.330382659048     -0.463995024569     0.669382427137      -0.475781034716     0.669382427137      -0.475781034716     -0.330382659048     -0.463995024569     
5500000000.0        -0.338558059464     -0.466751348147     0.661204124422      -0.478757497101     0.661204124422      -0.478757497101     -0.338558059464     -0.466751348147     
5600000000.0        -0.346681665311     -0.469333253748     0.653077565879      -0.481559630581     0.653077565879      -0.481559630581     -0.346681665311     -0.469333253748     
5700000000.0        -0.354750061839     -0.471745285975     0.645006166166      -0.484191980676     0.645006166166      -0.484191980676     -0.354750061839     -0.471745285975     
5800000000.0        -0.362760069795     -0.473991989014     0.63699310445       -0.486659092486     0.63699310445       -0.486659092486     -0.362760069795     -0.473991989014     
5900000000.0        -0.370708738029     -0.476077897037     0.629041331789      -0.488965501083     0.629041331789      -0.488965501083     -0.370708738029     -0.476077897037     
6000000000.0        -0.37859333592      -0.478007525317     0.62115357872       -0.491115722633     0.62115357872       -0.491115722633     -0.37859333592      -0.478007525317     
6100000000.0        -0.38641134565      -0.479785362041     0.61333236297       -0.493114246211     0.61333236297       -0.493114246211     -0.38641134565      -0.479785362041     
6200000000.0        -0.394160454404     -0.481415860807     0.605579997269      -0.494965526289     0.605579997269      -0.494965526289     -0.394160454404     -0.481415860807     
6300000000.0        -0.401838546501     -0.482903433761     0.597898597208      -0.496673975884     0.597898597208      -0.496673975884     -0.401838546501     -0.482903433761     
6400000000.0        -0.409443695528     -0.484252445368     0.590290089117      -0.49824396032      0.590290089117      -0.49824396032      -0.409443695528     -0.484252445368     
6500000000.0        -0.416974156473     -0.485467206768     0.582756217917      -0.499679791594     0.582756217917      -0.499679791594     -0.416974156473     -0.485467206768     
6600000000.0        -0.424428357925     -0.486551970713     0.575298554933      -0.500985723302     0.575298554933      -0.500985723302     -0.424428357925     -0.486551970713     
6700000000.0        -0.431804894343     -0.487510927037     0.56791850562       -0.502165946118     0.56791850562       -0.502165946118     -0.431804894343     -0.487510927037     
6800000000.0        -0.439102518425     -0.488348198641     0.560617317192      -0.503224583777     0.560617317192      -0.503224583777     -0.439102518425     -0.488348198641     
6900000000.0        -0.446320133599     -0.489067837965     0.553396086134      -0.504165689543     0.553396086134      -0.504165689543     -0.446320133599     -0.489067837965     
7000000000.0        -0.45345678666      -0.489673823912     0.546255765564      -0.504993243138     0.546255765564      -0.504993243138     -0.45345678666      -0.489673823912     
7100000000.0        -0.460511660555     -0.490170059204     0.539197172446      -0.505711148097     0.539197172446      -0.505711148097     -0.460511660555     -0.490170059204     
7200000000.0        -0.467484067347     -0.490560368136     0.53222099463       -0.506323229522     0.53222099463       -0.506323229522     -0.467484067347     -0.490560368136     
7300000000.0        -0.474373441354     -0.490848494716     0.525327797711      -0.50683323222      0.525327797711      -0.50683323222      -0.474373441354     -0.490848494716     
7400000000.0        -0.481179332482     -0.491038101137     0.518518031694      -0.507244819179     0.518518031694      -0.507244819179     -0.481179332482     -0.491038101137     
7500000000.0        -0.487901399758     -0.491132766593     0.511792037463      -0.507561570383     0.511792037463      -0.507561570383     -0.487901399758     -0.491132766593     
7600000000.0        -0.494539405065     -0.491135986386     0.505150053048      -0.507786981913     0.505150053048      -0.507786981913     -0.494539405065     -0.491135986386     
7700000000.0        -0.501093207088     -0.491051171309     0.498592219674      -0.507924465342     0.498592219674      -0.507924465342     -0.501093207088     -0.491051171309     
7800000000.0        -0.507562755468     -0.490881647293     0.49211858761       -0.507977347373     0.49211858761       -0.507977347373     -0.507562755468     -0.490881647293     
7900000000.0        -0.513948085182     -0.490630655286     0.48572912179       -0.50794886972      0.48572912179       -0.50794886972      -0.513948085182     -0.490630655286     
8000000000.0        -0.520249311119     -0.490301351346     0.479423707235      -0.507842189202     0.479423707235      -0.507842189202     -0.520249311119     -0.490301351346     
8100000000.0        -0.526466622884     -0.489896806929     0.473202154248      -0.507660378034     0.473202154248      -0.507660378034     -0.526466622884     -0.489896806929     
8200000000.0        -0.532600279812     -0.489420009363     0.467064203406      -0.507406424293     0.467064203406      -0.507406424293     -0.532600279812     -0.489420009363     
8300000000.0        -0.538650606187     -0.488873862472     0.461009530332      -0.50708323255      0.461009530332      -0.50708323255      -0.538650606187     -0.488873862472     
8400000000.0        -0.544617986671     -0.488261187352     0.455037750271      -0.506693624647     0.455037750271      -0.506693624647     -0.544617986671     -0.488261187352     
8500000000.0        -0.550502861945     -0.487584723282     0.449148422453      -0.506240340598     0.449148422453      -0.506240340598     -0.550502861945     -0.487584723282     
8600000000.0        -0.556305724535     -0.486847128737     0.443341054257      -0.505726039614     0.443341054257      -0.505726039614     -0.556305724535     -0.486847128737     
8700000000.0        -0.56202711485      -0.486050982519     0.437615105183      -0.505153301225     0.437615105183      -0.505153301225     -0.56202711485      -0.486050982519     
8800000000.0        -0.567667617395     -0.485198784967     0.43196999063       -0.504524626497     0.43196999063       -0.504524626497     -0.567667617395     -0.485198784967     
8900000000.0        -0.573227857187     -0.484292959256     0.426405085489      -0.503842439324     0.426405085489      -0.503842439324     -0.573227857187     -0.484292959256     
9000000000.0        -0.578708496337     -0.483335852753     0.420919727554      -0.503109087794     0.420919727554      -0.503109087794     -0.578708496337     -0.483335852753     
9100000000.0        -0.584110230815     -0.482329738444     0.415513220761      -0.502326845604     0.415513220761      -0.502326845604     -0.584110230815     -0.482329738444     
9200000000.0        -0.589433787382     -0.481276816398     0.410184838253      -0.501497913536     0.410184838253      -0.501497913536     -0.589433787382     -0.481276816398     
9300000000.0        -0.594679920688     -0.480179215283     0.404933825284      -0.500624420964     0.404933825284      -0.500624420964     -0.594679920688     -0.480179215283     
9400000000.0        -0.599849410523     -0.479038993909     0.399759401967      -0.4997084274       0.399759401967      -0.4997084274       -0.599849410523     -0.479038993909     
9500000000.0        -0.60494305923      -0.477858142795     0.394660765864      -0.498751924065     0.394660765864      -0.498751924065     -0.60494305923      -0.477858142795     
9600000000.0        -0.609961689248     -0.476638585761     0.389637094436      -0.497756835475     0.389637094436      -0.497756835475     -0.609961689248     -0.476638585761     
9700000000.0        -0.614906140817     -0.475382181528     0.384687547348      -0.496725021046     0.384687547348      -0.496725021046     -0.614906140817     -0.475382181528     
9800000000.0        -0.619777269796     -0.474090725334     0.37981126864       -0.495658276705     0.37981126864       -0.495658276705     -0.619777269796     -0.474090725334     
9900000000.0        -0.624575945626     -0.472765950541     0.375007388772      -0.494558336502     0.375007388772      -0.494558336502     -0.624575945626     -0.472765950541     
10000000000.0       -0.629303049412     -0.47140953025      0.370275026542      -0.493426874223     0.370275026542      -0.493426874223     -0.629303049412     -0.47140953025      
