# Hz S RI R 50.00 
100000000.0         0.0054557116368     0.00139487217039    0.994538931445      -0.00355053368725   0.994538931445      -0.00355053368725   0.0054557116368     0.00139487217039    
200000000.0         0.00550580169407    0.0027893133895     0.994479828857      -0.0071006444028    0.994479828857      -0.0071006444028    0.00550580169407    0.0027893133895     
300000000.0         0.0055562726765     0.00418339078312    0.994415689388      -0.0106504061848    0.994415689388      -0.0106504061848    0.0055562726765     0.00418339078312    
400000000.0         0.00561183576271    0.00557707757662    0.994341801444      -0.0141997967952    0.994341801444      -0.0141997967952    0.00561183576271    0.00557707757662    
500000000.0         0.00567430372216    0.00697032527244    0.994256351765      -0.0177487710757    0.994256351765      -0.0177487710757    0.00567430372216    0.00697032527244    
600000000.0         0.00574459925308    0.00836307581466    0.994158417087      -0.0212972735263    0.994158417087      -0.0212972735263    0.00574459925308    0.00836307581466    
700000000.0         0.00582326552066    0.00975526595196    0.994047453605      -0.0248452428789    0.994047453605      -0.0248452428789    0.00582326552066    0.00975526595196    
800000000.0         0.00591065248152    0.0111468292594     0.993923110657      -0.0283926142452    0.993923110657      -0.0283926142452    0.00591065248151    0.0111468292594     
900000000.0         0.00600699984067    0.0125376972241     0.993785147759      -0.0319393202861    0.993785147759      -0.0319393202861    0.00600699984067    0.0125376972241     
1000000000.0        0.00611247909807    0.013927799889      0.993633392569      -0.0354852919127    0.993633392569      -0.0354852919127    0.00611247909807    0.013927799889      
1100000000.0        0.00622721691993    0.015317066262      0.993467717514      -0.0390304587394    0.993467717514      -0.0390304587394    0.00622721691993    0.015317066262      
1200000000.0        0.00635130906398    0.0167054245916     0.993288025866      -0.0425747493918    0.993288025866      -0.0425747493918    0.00635130906398    0.0167054245916     
1300000000.0        0.00648482913976    0.0180928025601     0.993094242983      -0.0461180917259    0.993094242983      -0.0461180917259    0.00648482913976    0.0180928025601     
1400000000.0        0.00662783436631    0.0194791274246     0.992886310553      -0.0496604129897    0.992886310553      -0.0496604129897    0.00662783436631    0.0194791274246     
1500000000.0        0.00678036949535    0.0208643261224     0.992664182674      -0.0532016399454    0.992664182674      -0.0532016399454    0.00678036949535    0.0208643261224     
1600000000.0        0.00694246956655    0.0222483253527     0.992427823095      -0.0567416989656    0.992427823095      -0.0567416989656    0.00694246956655    0.0222483253527     
1700000000.0        0.00711416189313    0.023631051641      0.992177203236      -0.0602805161088    0.992177203236      -0.0602805161088    0.00711416189313    0.023631051641      
1800000000.0        0.00729546752491    0.0250124313901     0.991912300723      -0.0638180171817    0.991912300723      -0.0638180171817    0.00729546752491    0.0250124313901     
1900000000.0        0.00748640234751    0.0263923909236     0.991633098294      -0.06735412779      0.991633098294      -0.06735412779      0.00748640234751    0.0263923909236     
2000000000.0        0.00768697792234    0.0277708565202     0.991339582952      -0.0708887733817    0.991339582952      -0.0708887733817    0.00768697792234    0.0277708565202     
2100000000.0        0.00789720213839    0.0291477544444     0.991031745321      -0.0744218792835    0.991031745321      -0.0744218792835    0.00789720213839    0.0291477544444     
2200000000.0        0.00811707972487    0.0305230109722     0.990709579132      -0.0779533707324    0.990709579132      -0.0779533707324    0.00811707972487    0.0305230109722     
2300000000.0        0.00834661265933    0.0318965524131     0.990373080815      -0.0814831729034    0.990373080815      -0.0814831729034    0.00834661265934    0.0318965524131     
2400000000.0        0.0085858004963     0.0332683051302     0.990022249171      -0.0850112109343    0.990022249171      -0.0850112109343    0.0085858004963     0.0332683051302     
2500000000.0        0.00883464063452    0.034638195558      0.989657085105      -0.0885374099467    0.989657085105      -0.0885374099467    0.00883464063452    0.034638195558      
2600000000.0        0.00909312853639    0.0360061502178     0.98927759141       -0.0920616950663    0.98927759141       -0.0920616950663    0.00909312853639    0.0360061502178     
2700000000.0        0.00936125790962    0.0373720957325     0.98888377258       -0.0955839914405    0.98888377258       -0.0955839914405    0.00936125790962    0.0373720957325     
2800000000.0        0.00963902085885    0.0387359588394     0.988475634666      -0.0991042242544    0.988475634666      -0.0991042242544    0.00963902085885    0.0387359588394     
2900000000.0        0.00992640801322    0.0400976664031     0.988053185145      -0.102622318746     0.988053185145      -0.102622318746     0.00992640801322    0.0400976664031     
3000000000.0        0.0102234086343     0.041457145426      0.987616432812      -0.106138200222     0.987616432812      -0.106138200222     0.0102234086343     0.041457145426      
3100000000.0        0.0105300107082     0.0428143230596     0.987165387689      -0.109651794065     0.987165387689      -0.109651794065     0.0105300107082     0.0428143230596     
3200000000.0        0.0108462010246     0.044169126614      0.98670006095       -0.113163025755     0.98670006095       -0.113163025755     0.0108462010246     0.044169126614      
3300000000.0        0.0111719652447     0.0455214835678     0.986220464846      -0.11667182087      0.986220464846      -0.11667182087      0.0111719652447     0.0455214835678     
3400000000.0        0.0115072879606     0.046871321577      0.985726612655      -0.120178105108     0.985726612655      -0.120178105108     0.0115072879606     0.046871321577      
3500000000.0        0.0118521527469     0.0482185684835     0.985218518622      -0.123681804287     0.985218518622      -0.123681804287     0.0118521527469     0.0482185684835     
3600000000.0        0.0122065422056     0.0495631523233     0.984696197921      -0.127182844362     0.984696197921      -0.127182844362     0.0122065422056     0.0495631523233     
3700000000.0        0.0125704380067     0.0509050013346     0.984159666614      -0.130681151433     0.984159666614      -0.130681151433     0.0125704380067     0.0509050013346     
3800000000.0        0.0129438209232     0.0522440439655     0.98360894161       -0.13417665175      0.98360894161       -0.13417665175      0.0129438209232     0.0522440439655     
3900000000.0        0.0133266708627     0.0535802088813     0.983044040644      -0.137669271728     0.983044040644      -0.137669271728     0.0133266708627     0.0535802088813     
4000000000.0        0.0137189668955     0.0549134249716     0.982464982241      -0.141158937951     0.982464982241      -0.141158937951     0.0137189668955     0.0549134249716     
4100000000.0        0.0141206872803     0.0562436213576     0.981871785694      -0.14464557718      0.981871785694      -0.14464557718      0.0141206872803     0.0562436213576     
4200000000.0        0.0145318094868     0.0575707273987     0.98126447104       -0.148129116364     0.98126447104       -0.148129116364     0.0145318094868     0.0575707273987     
4300000000.0        0.0149523102167     0.0588946726989     0.980643059043      -0.151609482646     0.980643059043      -0.151609482646     0.0149523102167     0.0588946726989     
4400000000.0        0.0153821654226     0.0602153871138     0.98000757117       -0.155086603367     0.98000757117       -0.155086603367     0.0153821654226     0.0602153871138     
4500000000.0        0.0158213503253     0.0615328007566     0.97935802958       -0.158560406081     0.97935802958       -0.158560406081     0.0158213503253     0.0615328007566     
4600000000.0        0.0162698394299     0.0628468440043     0.978694457102      -0.162030818554     0.978694457102      -0.162030818554     0.0162698394299     0.0628468440043     
4700000000.0        0.0167276065404     0.064157447504      0.978016877226      -0.165497768775     0.978016877226      -0.165497768775     0.0167276065404     0.064157447504      
4800000000.0        0.0171946247735     0.0654645421785     0.977325314087      -0.168961184964     0.977325314087      -0.168961184964     0.0171946247735     0.0654645421785     
4900000000.0        0.0176708665713     0.0667680592326     0.97661979245       -0.172420995574     0.97661979245       -0.172420995574     0.0176708665713     0.0667680592326     
5000000000.0        0.0181563037132     0.0680679301585     0.975900337705      -0.175877129301     0.975900337705      -0.175877129301     0.0181563037132     0.0680679301585     
5100000000.0        0.0186509073269     0.0693640867416     0.975166975849      -0.179329515088     0.975166975849      -0.179329515088     0.0186509073269     0.0693640867416     
5200000000.0        0.0191546478992     0.070656461066      0.974419733482      -0.182778082135     0.974419733482      -0.182778082135     0.0191546478992     0.070656461066      
5300000000.0        0.0196674952859     0.0719449855201     0.973658637791      -0.186222759899     0.973658637791      -0.186222759899     0.0196674952859     0.0719449855201     
5400000000.0        0.0201894187211     0.0732295928018     0.972883716546      -0.189663478106     0.972883716546      -0.189663478106     0.0201894187211     0.0732295928018     
5500000000.0        0.0207203868265     0.0745102159237     0.972094998088      -0.193100166752     0.972094998088      -0.193100166752     0.0207203868265     0.0745102159237     
5600000000.0        0.0212603676195     0.0757867882189     0.971292511322      -0.196532756111     0.971292511322      -0.196532756111     0.0212603676195     0.0757867882189     
5700000000.0        0.021809328522      0.0770592433453     0.97047628571       -0.199961176741     0.97047628571       -0.199961176741     0.021809328522      0.0770592433453     
5800000000.0        0.0223672363681     0.0783275152912     0.96964635126       -0.203385359489     0.96964635126       -0.203385359489     0.0223672363681     0.0783275152912     
5900000000.0        0.0229340574117     0.0795915383802     0.968802738521      -0.206805235493     0.968802738521      -0.206805235493     0.0229340574117     0.0795915383802     
6000000000.0        0.0235097573339     0.080851247276      0.967945478575      -0.210220736194     0.967945478575      -0.210220736194     0.0235097573339     0.080851247276      
6100000000.0        0.0240943012504     0.0821065769873     0.967074603033      -0.213631793336     0.967074603033      -0.213631793336     0.0240943012504     0.0821065769873     
6200000000.0        0.0246876537183     0.0833574628724     0.966190144021      -0.217038338972     0.966190144021      -0.217038338972     0.0246876537183     0.0833574628724     
6300000000.0        0.0252897787428     0.0846038406443     0.965292134182      -0.220440305469     0.965292134182      -0.220440305469     0.0252897787428     0.0846038406443     
6400000000.0        0.0259006397842     0.0858456463747     0.964380606662      -0.223837625515     0.964380606662      -0.223837625515     0.0259006397842     0.0858456463747     
6500000000.0        0.0265201997641     0.0870828164991     0.963455595109      -0.227230232122     0.963455595109      -0.227230232122     0.0265201997641     0.0870828164991     
6600000000.0        0.0271484210719     0.0883152878211     0.962517133664      -0.230618058629     0.962517133664      -0.230618058629     0.0271484210719     0.0883152878211     
6700000000.0        0.0277852655708     0.0895429975166     0.961565256957      -0.234001038712     0.961565256957      -0.234001038712     0.0277852655708     0.0895429975166     
6800000000.0        0.0284306946047     0.0907658831384     0.960600000098      -0.237379106381     0.960600000098      -0.237379106381     0.0284306946047     0.0907658831384     
6900000000.0        0.0290846690033     0.0919838826204     0.959621398674      -0.240752195993     0.959621398674      -0.240752195993     0.0290846690033     0.0919838826204     
7000000000.0        0.0297471490889     0.0931969342818     0.95862948874       -0.244120242249     0.95862948874       -0.244120242249     0.0297471490889     0.0931969342818     
7100000000.0        0.0304180946819     0.0944049768313     0.957624306818      -0.247483180202     0.957624306818      -0.247483180202     0.0304180946819     0.0944049768313     
7200000000.0        0.0310974651066     0.095607949371      0.956605889887      -0.250840945262     0.956605889887      -0.250840945262     0.0310974651066     0.095607949371      
7300000000.0        0.0317852191975     0.0968057914007     0.955574275378      -0.254193473198     0.955574275378      -0.254193473198     0.0317852191975     0.0968057914007     
7400000000.0        0.0324813153045     0.0979984428215     0.95452950117       -0.257540700141     0.95452950117       -0.257540700141     0.0324813153045     0.0979984428215     
7500000000.0        0.033185711299      0.0991858439401     0.953471605584      -0.260882562593     0.953471605584      -0.260882562593     0.033185711299      0.0991858439401     
7600000000.0        0.0338983645791     0.100367935472      0.952400627377      -0.264218997426     0.952400627377      -0.264218997426     0.0338983645791     0.100367935472      
7700000000.0        0.034619232076      0.101544658546      0.951316605734      -0.267549941889     0.951316605734      -0.267549941889     0.034619232076      0.101544658546      
7800000000.0        0.0353482702588     0.102715954707      0.950219580269      -0.27087533361      0.950219580269      -0.27087533361      0.0353482702588     0.102715954707      
7900000000.0        0.0360854351406     0.103881765921      0.949109591012      -0.274195110598     0.949109591012      -0.274195110598     0.0360854351406     0.103881765921      
8000000000.0        0.0368306822839     0.105042034577      0.94798667841       -0.277509211253     0.94798667841       -0.277509211253     0.0368306822839     0.105042034577      
8100000000.0        0.0375839668061     0.106196703491      0.946850883317      -0.280817574363     0.946850883317      -0.280817574363     0.0375839668061     0.106196703491      
8200000000.0        0.0383452433851     0.107345715911      0.94570224699       -0.28412013911      0.94570224699       -0.28412013911      0.0383452433851     0.107345715911      
8300000000.0        0.0391144662648     0.108489015518      0.944540811086      -0.287416845074     0.944540811086      -0.287416845074     0.0391144662648     0.108489015518      
8400000000.0        0.0398915892604     0.10962654643       0.943366617653      -0.290707632235     0.943366617653      -0.290707632235     0.0398915892604     0.10962654643       
8500000000.0        0.0406765657642     0.110758253207      0.942179709126      -0.293992440977     0.942179709126      -0.293992440977     0.0406765657642     0.110758253207      
8600000000.0        0.0414693487507     0.11188408085       0.940980128321      -0.297271212093     0.940980128321      -0.297271212093     0.0414693487507     0.11188408085       
8700000000.0        0.0422698907826     0.113003974811      0.939767918434      -0.300543886785     0.939767918434      -0.300543886785     0.0422698907826     0.113003974811      
8800000000.0        0.0430781440156     0.114117880987      0.938543123029      -0.303810406667     0.938543123029      -0.303810406667     0.0430781440156     0.114117880987      
8900000000.0        0.0438940602043     0.115225745732      0.937305786035      -0.307070713772     0.937305786035      -0.307070713772     0.0438940602043     0.115225745732      
9000000000.0        0.0447175907074     0.116327515853      0.936055951745      -0.31032475055      0.936055951745      -0.31032475055      0.0447175907074     0.116327515853      
9100000000.0        0.0455486864936     0.117423138617      0.934793664804      -0.313572459875     0.934793664804      -0.313572459875     0.0455486864936     0.117423138617      
9200000000.0        0.0463872981462     0.118512561751      0.933518970207      -0.316813785045     0.933518970207      -0.316813785045     0.0463872981462     0.118512561751      
9300000000.0        0.0472333758693     0.119595733448      0.932231913295      -0.320048669786     0.932231913295      -0.320048669786     0.0472333758693     0.119595733448      
9400000000.0        0.0480868694929     0.120672602365      0.930932539747      -0.323277058254     0.930932539747      -0.323277058254     0.0480868694929     0.120672602365      
9500000000.0        0.0489477284783     0.121743117631      0.929620895576      -0.326498895037     0.929620895576      -0.326498895037     0.0489477284783     0.121743117631      
9600000000.0        0.0498159019237     0.122807228844      0.928297027123      -0.329714125159     0.928297027123      -0.329714125159     0.0498159019237     0.122807228844      
9700000000.0        0.0506913385695     0.123864886079      0.926960981053      -0.332922694084     0.926960981053      -0.332922694084     0.0506913385695     0.123864886079      
9800000000.0        0.0515739868036     0.124916039885      0.925612804346      -0.336124547712     0.925612804346      -0.336124547712     0.0515739868036     0.124916039885      
9900000000.0        0.0524637946671     0.125960641291      0.924252544299      -0.339319632388     0.924252544299      -0.339319632388     0.0524637946671     0.125960641291      
10000000000.0       0.0533607098595     0.126998641807      0.922880248511      -0.342507894901     0.922880248511      -0.342507894901     0.0533607098595     0.126998641807      
