# Hz S RI R 50.00 
100000000.0         -3.46521124128e-07  -6.09168217393e-05  0.999999217013      -6.22719272709e-05  0.999999217013      -6.22719272708e-05  -3.46521123906e-07  -6.09168217392e-05  
200000000.0         -4.17293706811e-07  -0.000121833354742  0.999999143267      -0.000124543701471  0.999999143267      -0.000124543701471  -4.17293706811e-07  -0.000121833354742  
300000000.0         -4.96050553522e-07  -0.000182749529233  0.999999062289      -0.00018681532215   0.999999062289      -0.00018681532215   -4.96050553633e-07  -0.000182749529233  
400000000.0         -5.8260240976e-07   -0.000243665093634  0.999998973893      -0.000249086590834  0.999998973893      -0.000249086590834  -5.82602409982e-07  -0.000243665093634  
500000000.0         -6.76853951442e-07  -0.000304580228407  0.999998878029      -0.000311357732803  0.999998878029      -0.000311357732803  -6.76853951997e-07  -0.000304580228407  
600000000.0         -7.78776393595e-07  -0.0003654946479    0.999998774654      -0.000373628501716  0.999998774654      -0.000373628501716  -7.78776393928e-07  -0.0003654946479    
700000000.0         -8.88346720629e-07  -0.000426408327948  0.999998663748      -0.000435898908644  0.999998663748      -0.000435898908644  -8.88346721073e-07  -0.000426408327948  
800000000.0         -1.00554646221e-06  -0.000487321181864  0.999998545301      -0.000498168898908  0.999998545301      -0.000498168898908  -1.00554646254e-06  -0.000487321181864  
900000000.0         -1.13037152605e-06  -0.000548233151378  0.999998419298      -0.000560438443579  0.999998419298      -0.000560438443579  -1.13037152571e-06  -0.000548233151378  
1000000000.0        -1.2628110273e-06   -0.000609144166859  0.999998285737      -0.000622707500106  0.999998285737      -0.000622707500106  -1.26281102686e-06  -0.000609144166859  
1100000000.0        -1.40286011008e-06  -0.00067005417573   0.999998144612      -0.000684976041021  0.999998144612      -0.000684976041021  -1.40286011019e-06  -0.00067005417573   
1200000000.0        -1.5505156381e-06   -0.000730963102673  0.999997995918      -0.000747244014372  0.999997995918      -0.000747244014372  -1.55051563799e-06  -0.000730963102673  
1300000000.0        -1.70577450709e-06  -0.000791870861004  0.999997839653      -0.000809511355281  0.999997839653      -0.000809511355281  -1.70577450687e-06  -0.000791870861004  
1400000000.0        -1.86863218776e-06  -0.000852777437939  0.999997675816      -0.000871778071354  0.999997675816      -0.000871778071354  -1.86863218787e-06  -0.000852777437939  
1500000000.0        -2.03908773144e-06  -0.000913682741111  0.999997504404      -0.000934044089319  0.999997504404      -0.000934044089319  -2.03908773144e-06  -0.000913682741111  
1600000000.0        -2.21713862147e-06  -0.000974586717942  0.999997325415      -0.000996309374506  0.999997325415      -0.000996309374506  -2.21713862136e-06  -0.000974586717942  
1700000000.0        -2.40278298602e-06  -0.00103548929596   0.99999713885       -0.00105857387125   0.99999713885       -0.00105857387125   -2.40278298602e-06  -0.00103548929596   
1800000000.0        -2.59601898089e-06  -0.00109639045102   0.999996944707      -0.00112083757117   0.999996944707      -0.00112083757117   -2.59601898089e-06  -0.00109639045102   
1900000000.0        -2.79684528259e-06  -0.00115729010213   0.999996742986      -0.00118310040809   0.999996742986      -0.00118310040809   -2.7968452827e-06   -0.00115729010213   
2000000000.0        -3.00526078545e-06  -0.00121818819954   0.999996533687      -0.0012453623462    0.999996533687      -0.0012453623462    -3.00526078545e-06  -0.00121818819954   
2100000000.0        -3.22126369057e-06  -0.00127908471058   0.999996316809      -0.00130762336588   0.999996316809      -0.00130762336588   -3.22126369057e-06  -0.00127908471058   
2200000000.0        -3.44485317894e-06  -0.00133997954288   0.999996092352      -0.00136988338704   0.999996092352      -0.00136988338704   -3.44485317894e-06  -0.00133997954288   
2300000000.0        -3.6760277996e-06   -0.00140087266378   0.999995860317      -0.00143214238853   0.999995860317      -0.00143214238853   -3.6760277996e-06   -0.00140087266378   
2400000000.0        -3.91478665673e-06  -0.00146176402354   0.999995620703      -0.00149440033141   0.999995620703      -0.00149440033141   -3.91478665707e-06  -0.00146176402354   
2500000000.0        -4.16112853918e-06  -0.00152265357811   0.99999537351       -0.00155665718174   0.99999537351       -0.00155665718174   -4.16112853929e-06  -0.00152265357811   
2600000000.0        -4.41505240212e-06  -0.00158354125219   0.99999511874       -0.00161891287371   0.99999511874       -0.00161891287371   -4.41505240223e-06  -0.00158354125219   
2700000000.0        -4.67655712832e-06  -0.00164442701309   0.999994856392      -0.00168116738349   0.999994856392      -0.00168116738349   -4.6765571281e-06   -0.00164442701309   
2800000000.0        -4.94564173259e-06  -0.00170531081962   0.999994586467      -0.00174342067816   0.999994586467      -0.00174342067816   -4.94564173259e-06  -0.00170531081962   
2900000000.0        -5.22230526612e-06  -0.00176619260215   0.999994308965      -0.0018056726958    0.999994308965      -0.0018056726958    -5.22230526601e-06  -0.00176619260215   
3000000000.0        -5.50654653875e-06  -0.00182707231948   0.999994023886      -0.00186792340239   0.999994023886      -0.00186792340239   -5.50654653875e-06  -0.00182707231948   
3100000000.0        -5.79836467385e-06  -0.00188794993041   0.999993731232      -0.00193017276342   0.999993731232      -0.00193017276342   -5.79836467385e-06  -0.00188794993041   
3200000000.0        -6.09775852589e-06  -0.00194882538095   0.999993431003      -0.00199242073106   0.999993431003      -0.00199242073106   -6.09775852589e-06  -0.00194882538095   
3300000000.0        -6.40472704716e-06  -0.00200969863701   0.9999931232        -0.00205466727696   0.9999931232        -0.00205466727696   -6.40472704716e-06  -0.00200969863701   
3400000000.0        -6.71926947216e-06  -0.00207056963464   0.999992807822      -0.00211691234244   0.999992807822      -0.00211691234244   -6.71926947227e-06  -0.00207056963464   
3500000000.0        -7.04138458696e-06  -0.00213143833691   0.999992484872      -0.00217915589543   0.999992484872      -0.00217915589543   -7.04138458718e-06  -0.00213143833691   
3600000000.0        -7.37107115434e-06  -0.00219230470546   0.99999215435       -0.002241397902     0.99999215435       -0.002241397902     -7.37107115412e-06  -0.00219230470546   
3700000000.0        -7.70832844765e-06  -0.00225316868915   0.999991816256      -0.00230363831506   0.999991816256      -0.00230363831506   -7.70832844765e-06  -0.00225316868915   
3800000000.0        -8.05315522712e-06  -0.00231403024109   0.999991470591      -0.0023658770914    0.999991470591      -0.0023658770914    -8.05315522712e-06  -0.00231403024109   
3900000000.0        -8.40555049819e-06  -0.00237488932435   0.999991117357      -0.00242811419741   0.999991117357      -0.00242811419741   -8.40555049808e-06  -0.00237488932435   
4000000000.0        -8.76551309226e-06  -0.0024357458949    0.999990756553      -0.00249034959203   0.999990756553      -0.00249034959203   -8.76551309248e-06  -0.0024357458949    
4100000000.0        -9.13304200956e-06  -0.00249659990868   0.999990388182      -0.00255258323385   0.999990388182      -0.00255258323385   -9.13304200922e-06  -0.00249659990868   
4200000000.0        -9.5081360828e-06   -0.00255745132592   0.999990012244      -0.00261481508543   0.999990012244      -0.00261481508543   -9.50813608258e-06  -0.00255745132592   
4300000000.0        -9.89079417435e-06  -0.0026183001097    0.999989628739      -0.00267704511188   0.999989628739      -0.00267704511188   -9.89079417435e-06  -0.0026183001097    
4400000000.0        -1.02810152315e-05  -0.00267914620461   0.99998923767       -0.00273927325951   0.99998923767       -0.00273927325951   -1.02810152313e-05  -0.00267914620461   
4500000000.0        -1.06787980031e-05  -0.00273998958934   0.999988839037      -0.00280149950849   0.999988839037      -0.00280149950849   -1.06787980032e-05  -0.00273998958934   
4600000000.0        -1.10841414667e-05  -0.00280083021701   0.99998843284       -0.00286372381314   0.99998843284       -0.00286372381314   -1.10841414667e-05  -0.00280083021701   
4700000000.0        -1.1497044324e-05   -0.00286166803791   0.999988019082      -0.00292594612467   0.999988019082      -0.00292594612467   -1.14970443241e-05  -0.00286166803791   
4800000000.0        -1.19175054939e-05  -0.00292250303359   0.999987597762      -0.00298816642532   0.999987597762      -0.00298816642532   -1.19175054933e-05  -0.00292250303359   
4900000000.0        -1.23455236939e-05  -0.00298333515004   0.999987168883      -0.00305038466159   0.999987168883      -0.00305038466159   -1.23455236939e-05  -0.00298333515004   
5000000000.0        -1.27810977516e-05  -0.0030441643532    0.999986732446      -0.0031126007996    0.999986732446      -0.0031126007996    -1.27810977516e-05  -0.0030441643532    
5100000000.0        -1.3224226468e-05   -0.00310499061039   0.99998628845       -0.00317481480673   0.99998628845       -0.00317481480673   -1.32242264681e-05  -0.00310499061039   
5200000000.0        -1.36749085812e-05  -0.00316581388753   0.999985836899      -0.00323702664872   0.999985836899      -0.00323702664872   -1.36749085814e-05  -0.00316581388753   
5300000000.0        -1.41331428296e-05  -0.00322663413916   0.999985377792      -0.00329923627972   0.999985377792      -0.00329923627972   -1.41331428297e-05  -0.00322663413916   
5400000000.0        -1.45989279844e-05  -0.00328745132836   0.999984911131      -0.00336144366224   0.999984911131      -0.00336144366224   -1.45989279844e-05  -0.00328745132836   
5500000000.0        -1.50722627535e-05  -0.00334826542956   0.999984436918      -0.00342364877      0.999984436918      -0.00342364877      -1.50722627537e-05  -0.00334826542956   
5600000000.0        -1.55531458855e-05  -0.00340907641011   0.999983955153      -0.0034858515694    0.999983955153      -0.0034858515694    -1.55531458856e-05  -0.00340907641011   
5700000000.0        -1.60415760109e-05  -0.00346988422029   0.999983465837      -0.00354805200966   0.999983465837      -0.00354805200966   -1.60415760108e-05  -0.00346988422029   
5800000000.0        -1.65375518475e-05  -0.00353068883881   0.999982968973      -0.00361025006825   0.999982968973      -0.00361025006825   -1.65375518478e-05  -0.00353068883881   
5900000000.0        -1.70410720938e-05  -0.00359149022802   0.999982464561      -0.00367244570616   0.999982464561      -0.00367244570616   -1.70410720937e-05  -0.00359149022802   
6000000000.0        -1.7552135368e-05   -0.00365228835599   0.999981952602      -0.00373463888989   0.999981952602      -0.00373463888989   -1.75521353681e-05  -0.00365228835599   
6100000000.0        -1.80707403991e-05  -0.00371308319076   0.999981433099      -0.00379682958586   0.999981433099      -0.00379682958586   -1.80707403991e-05  -0.00371308319076   
6200000000.0        -1.8596885727e-05   -0.00377387469967   0.999980906051      -0.00385901775959   0.999980906051      -0.00385901775959   -1.85968857274e-05  -0.00377387469967   
6300000000.0        -1.91305700276e-05  -0.00383466284792   0.999980371461      -0.0039212033744    0.999980371461      -0.0039212033744    -1.91305700274e-05  -0.00383466284792   
6400000000.0        -1.96717919246e-05  -0.00389544761069   0.99997982933       -0.0039833864034    0.99997982933       -0.0039833864034    -1.9671791925e-05   -0.00389544761069   
6500000000.0        -2.02205500036e-05  -0.00395622895105   0.99997927966       -0.00404556680753   0.99997927966       -0.00404556680753   -2.02205500034e-05  -0.00395622895105   
6600000000.0        -2.07768428603e-05  -0.00401700684059   0.99997872245       -0.00410774455615   0.99997872245       -0.00410774455615   -2.07768428603e-05  -0.00401700684059   
6700000000.0        -2.13406690773e-05  -0.00407778124952   0.999978157704      -0.00416991961709   0.999978157704      -0.00416991961709   -2.13406690773e-05  -0.00407778124952   
6800000000.0        -2.19120272199e-05  -0.00413855215085   0.999977585423      -0.00423209196094   0.999977585423      -0.00423209196094   -2.19120272199e-05  -0.00413855215085   
6900000000.0        -2.2490915823e-05   -0.0041993195098    0.999977005607      -0.00429426155036   0.999977005607      -0.00429426155036   -2.24909158231e-05  -0.0041993195098    
7000000000.0        -2.30773334917e-05  -0.00426008330224   0.999976418259      -0.00435642835862   0.999976418259      -0.00435642835862   -2.30773334917e-05  -0.00426008330224   
7100000000.0        -2.36712787238e-05  -0.00432084349623   0.999975823379      -0.00441859235105   0.999975823379      -0.00441859235105   -2.36712787242e-05  -0.00432084349623   
7200000000.0        -2.42727500416e-05  -0.0043816000655    0.99997522097       -0.00448075349863   0.99997522097       -0.00448075349863   -2.42727500414e-05  -0.0043816000655    
7300000000.0        -2.48817459529e-05  -0.00444235298097   0.999974611032      -0.00454291176939   0.999974611032      -0.00454291176939   -2.48817459529e-05  -0.00444235298097   
7400000000.0        -2.5498264991e-05   -0.00450310221636   0.999973993568      -0.00460506713415   0.999973993568      -0.00460506713415   -2.54982649907e-05  -0.00450310221636   
7500000000.0        -2.61223056326e-05  -0.00456384774543   0.999973368578      -0.00466721956367   0.999973368578      -0.00466721956367   -2.61223056325e-05  -0.00456384774543   
7600000000.0        -2.67538663848e-05  -0.00462458954121   0.999972736064      -0.00472936902793   0.999972736064      -0.00472936902793   -2.6753866385e-05   -0.00462458954121   
7700000000.0        -2.73929456815e-05  -0.00468532757601   0.999972096028      -0.00479151549614   0.999972096028      -0.00479151549614   -2.73929456814e-05  -0.00468532757601   
7800000000.0        -2.80395420599e-05  -0.00474606182856   0.999971448471      -0.00485365894387   0.999971448471      -0.00485365894387   -2.803954206e-05    -0.00474606182856   
7900000000.0        -2.86936538876e-05  -0.00480679226408   0.999970793396      -0.00491579933313   0.999970793396      -0.00491579933313   -2.86936538876e-05  -0.00480679226408   
8000000000.0        -2.9355279707e-05   -0.00486751886839   0.999970130802      -0.00497793664646   0.999970130802      -0.00497793664646   -2.9355279707e-05   -0.00486751886839   
8100000000.0        -3.00244178584e-05  -0.00492824160601   0.999969460692      -0.0050400708451    0.999969460692      -0.0050400708451    -3.00244178584e-05  -0.00492824160601   
8200000000.0        -3.0701066858e-05   -0.00498896045991   0.999968783068      -0.00510220190866   0.999968783068      -0.00510220190866   -3.07010668578e-05  -0.00498896045991   
8300000000.0        -3.13852250803e-05  -0.00504967540456   0.99996809793       -0.00516432980824   0.99996809793       -0.00516432980824   -3.13852250802e-05  -0.00504967540456   
8400000000.0        -3.20768909422e-05  -0.0051103864137    0.999967405281      -0.00522645451416   0.999967405281      -0.00522645451416   -3.20768909423e-05  -0.0051103864137    
8500000000.0        -3.27760628607e-05  -0.00517109346464   0.999966705123      -0.00528857600027   0.999966705123      -0.00528857600027   -3.27760628602e-05  -0.00517109346464   
8600000000.0        -3.34827392146e-05  -0.00523179653468   0.999965997456      -0.0053506942404    0.999965997456      -0.0053506942404    -3.34827392146e-05  -0.00523179653468   
8700000000.0        -3.41969184492e-05  -0.00529249560467   0.999965282283      -0.00541280921188   0.999965282283      -0.00541280921188   -3.41969184486e-05  -0.00529249560467   
8800000000.0        -3.49185988734e-05  -0.00535319064624   0.999964559604      -0.00547492088282   0.999964559604      -0.00547492088282   -3.49185988736e-05  -0.00535319064624   
8900000000.0        -3.56477788658e-05  -0.00541388163597   0.999963829422      -0.00553702922624   0.999963829422      -0.00553702922624   -3.56477788658e-05  -0.00541388163597   
9000000000.0        -3.63844568139e-05  -0.00547456855616   0.999963091739      -0.00559913422084   0.999963091739      -0.00559913422084   -3.63844568141e-05  -0.00547456855616   
9100000000.0        -3.71286310997e-05  -0.00553525138765   0.999962346555      -0.0056612358439    0.999962346555      -0.0056612358439    -3.71286311001e-05  -0.00553525138765   
9200000000.0        -3.78803000471e-05  -0.00559593010421   0.999961593873      -0.00572333406554   0.999961593873      -0.00572333406554   -3.7880300047e-05   -0.00559593010421   
9300000000.0        -3.86394619684e-05  -0.00565660468242   0.999960833694      -0.00578542885875   0.999960833694      -0.00578542885875   -3.86394619684e-05  -0.00565660468242   
9400000000.0        -3.94061152412e-05  -0.00571727510813   0.999960066021      -0.00584752020571   0.999960066021      -0.00584752020571   -3.94061152411e-05  -0.00571727510813   
9500000000.0        -4.01802581821e-05  -0.0057779413565    0.999959290853      -0.00590960807795   0.999959290853      -0.00590960807795   -4.01802581821e-05  -0.0057779413565    
9600000000.0        -4.09618890883e-05  -0.00583860340628   0.999958508194      -0.00597169245054   0.999958508194      -0.00597169245054   -4.09618890884e-05  -0.00583860340628   
9700000000.0        -4.17510063369e-05  -0.00589926124401   0.999957718045      -0.00603377330636   0.999957718045      -0.00603377330636   -4.17510063366e-05  -0.00589926124401   
9800000000.0        -4.25476081608e-05  -0.00595991484131   0.999956920408      -0.00609585061336   0.999956920408      -0.00609585061336   -4.25476081602e-05  -0.00595991484131   
9900000000.0        -4.33516929048e-05  -0.00602056418544   0.999956115283      -0.00615792435513   0.999956115283      -0.00615792435513   -4.33516929048e-05  -0.00602056418544   
10000000000.0       -4.41632588867e-05  -0.00608120925585   0.999955302674      -0.00621999450742   0.999955302674      -0.00621999450742   -4.41632588867e-05  -0.00608120925585   
