# Hz S RI R 50.00 
100000000.0         0.00842832175243    0.00153039007244    0.991569650353      -0.00230417868001   0.991569650353      -0.00230417868001   0.00842832175243    0.00153039007244    
200000000.0         0.00849403053158    0.00306032197725    0.991502313171      -0.0046079128985    0.991502313171      -0.0046079128985    0.00849403053158    0.00306032197725    
300000000.0         0.00855198510267    0.00458993355081    0.991442129605      -0.0069113483062    0.991442129605      -0.0069113483062    0.00855198510267    0.00458993355081    
400000000.0         0.00860946324582    0.00611924893679    0.991381821781      -0.00921451514971   0.991381821781      -0.00921451514971   0.00860946324582    0.00611924893679    
500000000.0         0.00866927066246    0.0076482656891     0.991318583889      -0.0115174162159    0.991318583889      -0.0115174162159    0.00866927066246    0.0076482656891     
600000000.0         0.00873283929935    0.00917696955655    0.991250983863      -0.0138200419126    0.991250983863      -0.0138200419126    0.00873283929935    0.00917696955655    
700000000.0         0.00880101536734    0.0107053398121     0.99117817536       -0.0161223757496    0.99117817536       -0.0161223757496    0.00880101536734    0.0107053398121     
800000000.0         0.00887434707057    0.0122333517327     0.991099610032      -0.018424396909     0.991099610032      -0.018424396909     0.00887434707057    0.0122333517327     
900000000.0         0.00895321277182    0.0137609779352     0.991014909365      -0.0207260816418    0.991014909365      -0.0207260816418    0.00895321277182    0.0137609779352     
1000000000.0        0.0090378859826     0.0152881891698     0.990923799684      -0.0230274041029    0.990923799684      -0.0230274041029    0.0090378859826     0.0152881891698     
1100000000.0        0.00912857150446    0.0168149548251     0.990826076015      -0.025328336888     0.990826076015      -0.025328336888     0.00912857150446    0.0168149548251     
1200000000.0        0.00922542697264    0.0183412432673     0.990721580541      -0.0276288513972    0.990721580541      -0.0276288513972    0.00922542697264    0.0183412432673     
1300000000.0        0.00932857641535    0.0198670220782     0.990610189045      -0.029928918091     0.990610189045      -0.029928918091     0.00932857641535    0.0198670220782     
1400000000.0        0.00943811916941    0.0213922582267     0.990491801993      -0.0322285066781    0.990491801993      -0.0322285066781    0.00943811916941    0.0213922582267     
1500000000.0        0.00955413595788    0.0229169181977     0.990366338454      -0.0345275862563    0.990366338454      -0.0345275862563    0.00955413595788    0.0229169181977     
1600000000.0        0.0096766931601     0.0244409680893     0.990233731837      -0.0368261254203    0.990233731837      -0.0368261254203    0.0096766931601     0.0244409680893     
1700000000.0        0.00980584589006    0.0259643736893     0.990093926808      -0.0391240923477    0.990093926808      -0.0391240923477    0.00980584589006    0.0259643736893     
1800000000.0        0.00994164026544    0.0274871005355     0.98994687702       -0.0414214548661    0.98994687702       -0.0414214548661    0.00994164026544    0.0274871005355     
1900000000.0        0.0100841151127     0.0290091139638     0.989792543415      -0.0437181805088    0.989792543415      -0.0437181805088    0.0100841151127     0.0290091139638     
2000000000.0        0.0102333032705     0.0305303791485     0.989630892912      -0.0460142365601    0.989630892912      -0.0460142365601    0.0102333032705     0.0305303791485     
2100000000.0        0.0103892326009     0.0320508611343     0.989461897404      -0.0483095900931    0.989461897404      -0.0483095900931    0.0103892326009     0.0320508611343     
2200000000.0        0.0105519267852     0.0335705248641     0.989285532955      -0.0506042080017    0.989285532955      -0.0506042080017    0.0105519267852     0.0335705248641     
2300000000.0        0.0107214059566     0.0350893352018     0.989101779176      -0.0528980570276    0.989101779176      -0.0528980570276    0.0107214059566     0.0350893352018     
2400000000.0        0.0108976872104     0.0366072569518     0.988910618705      -0.0551911037836    0.988910618705      -0.0551911037836    0.0108976872104     0.0366072569518     
2500000000.0        0.0110807850181     0.0381242548762     0.988712036804      -0.057483314774     0.988712036804      -0.057483314774     0.0110807850181     0.0381242548762     
2600000000.0        0.011270711567      0.0396402937092     0.988506021009      -0.0597746564117    0.988506021009      -0.0597746564117    0.011270711567      0.0396402937092     
2700000000.0        0.0114674770419     0.0411553381696     0.988292560857      -0.0620650950344    0.988292560857      -0.0620650950344    0.0114674770419     0.0411553381696     
2800000000.0        0.0116710898586     0.0426693529723     0.988071647648      -0.0643545969178    0.988071647648      -0.0643545969178    0.0116710898586     0.0426693529723     
2900000000.0        0.0118815568614     0.0441823028382     0.987843274248      -0.0666431282877    0.987843274248      -0.0666431282877    0.0118815568614     0.0441823028382     
3000000000.0        0.0120988834888     0.0456941525026     0.987607434925      -0.0689306553316    0.987607434925      -0.0689306553316    0.0120988834888     0.0456941525026     
3100000000.0        0.0123230739149     0.0472048667235     0.987364125207      -0.0712171442076    0.987364125207      -0.0712171442076    0.0123230739149     0.0472048667235     
3200000000.0        0.0125541311704     0.0487144102881     0.987113341762      -0.0735025610543    0.987113341762      -0.0735025610543    0.0125541311704     0.0487144102881     
3300000000.0        0.0127920572463     0.0502227480201     0.986855082292      -0.0757868719982    0.986855082292      -0.0757868719982    0.0127920572463     0.0502227480201     
3400000000.0        0.0130368531839     0.0517298447844     0.986589345445      -0.0780700431614    0.986589345445      -0.0780700431614    0.0130368531839     0.0517298447844     
3500000000.0        0.0132885191523     0.0532356654934     0.98631613074       -0.0803520406683    0.98631613074       -0.0803520406683    0.0132885191523     0.0532356654934     
3600000000.0        0.0135470545169     0.0547401751111     0.986035438492      -0.082632830652     0.986035438492      -0.082632830652     0.0135470545169     0.0547401751111     
3700000000.0        0.0138124578984     0.056243338658      0.985747269759      -0.0849123792602    0.985747269759      -0.0849123792602    0.0138124578984     0.056243338658      
3800000000.0        0.0140847272254     0.0577451212153     0.985451626289      -0.08719065266      0.985451626289      -0.08719065266      0.0140847272254     0.0577451212153     
3900000000.0        0.0143638597807     0.0592454879284     0.985148510471      -0.0894676170438    0.985148510471      -0.0894676170438    0.0143638597807     0.0592454879284     
4000000000.0        0.014649852242      0.0607444040107     0.984837925295      -0.0917432386333    0.984837925295      -0.0917432386333    0.014649852242      0.0607444040107     
4100000000.0        0.0149427007183     0.0622418347469     0.984519874319      -0.0940174836842    0.984519874319      -0.0940174836842    0.0149427007183     0.0622418347469     
4200000000.0        0.0152424007827     0.0637377454962     0.984194361631      -0.0962903184901    0.984194361631      -0.0962903184901    0.0152424007827     0.0637377454962     
4300000000.0        0.0155489475009     0.0652321016951     0.983861391827      -0.0985617093869    0.983861391827      -0.0985617093869    0.0155489475009     0.0652321016951     
4400000000.0        0.0158623354579     0.0667248688605     0.983520969977      -0.100831622756     0.983520969977      -0.100831622756     0.0158623354579     0.0667248688605     
4500000000.0        0.0161825587811     0.0682160125919     0.983173101609      -0.103100025028     0.983173101609      -0.103100025028     0.0161825587811     0.0682160125919     
4600000000.0        0.0165096111615     0.0697054985743     0.982817792683      -0.105366882685     0.982817792683      -0.105366882685     0.0165096111615     0.0697054985743     
4700000000.0        0.0168434858733     0.0711932925804     0.982455049574      -0.107632162267     0.982455049574      -0.107632162267     0.0168434858733     0.0711932925804     
4800000000.0        0.0171841757909     0.0726793604728     0.982084879055      -0.109895830371     0.982084879055      -0.109895830371     0.0171841757909     0.0726793604728     
4900000000.0        0.0175316734052     0.0741636682065     0.981707288279      -0.112157853656     0.981707288279      -0.112157853656     0.0175316734052     0.0741636682065     
5000000000.0        0.017885970838      0.0756461818306     0.981322284767      -0.114418198844     0.981322284767      -0.114418198844     0.017885970838      0.0756461818306     
5100000000.0        0.018247059855      0.0771268674905     0.980929876393      -0.116676832726     0.980929876393      -0.116676832726     0.018247059855      0.0771268674905     
5200000000.0        0.0186149318785     0.0786056914297     0.980530071372      -0.118933722162     0.980530071372      -0.118933722162     0.0186149318785     0.0786056914297     
5300000000.0        0.0189895779983     0.0800826199918     0.980122878251      -0.121188834082     0.980122878251      -0.121188834082     0.0189895779983     0.0800826199918     
5400000000.0        0.0193709889823     0.0815576196222     0.979708305897      -0.123442135493     0.979708305897      -0.123442135493     0.0193709889823     0.0815576196222     
5500000000.0        0.0197591552857     0.08303065687       0.979286363485      -0.125693593478     0.979286363485      -0.125693593478     0.0197591552857     0.08303065687       
5600000000.0        0.0201540670604     0.0845016983894     0.978857060495      -0.127943175196     0.978857060495      -0.127943175196     0.0201540670604     0.0845016983894     
5700000000.0        0.0205557141627     0.0859707109414     0.978420406699      -0.130190847891     0.978420406699      -0.130190847891     0.0205557141627     0.0859707109414     
5800000000.0        0.0209640861614     0.0874376613954     0.977976412156      -0.132436578888     0.977976412156      -0.132436578888     0.0209640861614     0.0874376613954     
5900000000.0        0.0213791723447     0.0889025167309     0.977525087204      -0.134680335595     0.977525087204      -0.134680335595     0.0213791723447     0.0889025167309     
6000000000.0        0.021800961727      0.0903652440388     0.977066442452      -0.13692208551      0.977066442452      -0.13692208551      0.021800961727      0.0903652440388     
6100000000.0        0.0222294430552     0.0918258105228     0.976600488777      -0.139161796219     0.976600488777      -0.139161796219     0.0222294430552     0.0918258105228     
6200000000.0        0.0226646048146     0.0932841835008     0.976127237315      -0.141399435398     0.976127237315      -0.141399435398     0.0226646048146     0.0932841835008     
6300000000.0        0.0231064352343     0.0947403304067     0.975646699456      -0.143634970816     0.975646699456      -0.143634970816     0.0231064352343     0.0947403304067     
6400000000.0        0.0235549222926     0.0961942187912     0.975158886844      -0.145868370334     0.975158886844      -0.145868370334     0.0235549222926     0.0961942187912     
6500000000.0        0.0240100537218     0.0976458163233     0.974663811362      -0.148099601913     0.974663811362      -0.148099601913     0.0240100537218     0.0976458163233     
6600000000.0        0.024471817013      0.0990950907917     0.974161485138      -0.150328633607     0.974161485138      -0.150328633607     0.024471817013      0.0990950907917     
6700000000.0        0.0249401994206     0.100542010106      0.973651920534      -0.152555433572     0.973651920534      -0.152555433572     0.0249401994206     0.100542010106      
6800000000.0        0.0254151879661     0.101986542298      0.973135130142      -0.154779970063     0.973135130142      -0.154779970063     0.0254151879661     0.101986542298      
6900000000.0        0.0258967694426     0.103428655522      0.972611126784      -0.15700221144      0.972611126784      -0.15700221144      0.0258967694426     0.103428655522      
7000000000.0        0.0263849304186     0.104868318058      0.972079923507      -0.159222126162     0.972079923507      -0.159222126162     0.0263849304186     0.104868318058      
7100000000.0        0.0268796572411     0.106305498312      0.971541533575      -0.161439682798     0.971541533575      -0.161439682798     0.0268796572411     0.106305498312      
7200000000.0        0.02738093604       0.107740164814      0.970995970471      -0.16365485002      0.970995970471      -0.16365485002      0.02738093604       0.107740164814      
7300000000.0        0.0278887527306     0.109172286226      0.970443247892      -0.165867596609     0.970443247892      -0.165867596609     0.0278887527306     0.109172286226      
7400000000.0        0.0284030930174     0.110601831335      0.969883379745      -0.168077891457     0.969883379745      -0.168077891457     0.0284030930174     0.110601831335      
7500000000.0        0.028923942397      0.112028769061      0.969316380143      -0.170285703566     0.969316380143      -0.170285703566     0.028923942397      0.112028769061      
7600000000.0        0.0294512861609     0.113453068454      0.968742263405      -0.172491002048     0.968742263405      -0.172491002048     0.0294512861609     0.113453068454      
7700000000.0        0.029985109399      0.114874698697      0.968161044052      -0.17469375613      0.968161044052      -0.17469375613      0.029985109399      0.114874698697      
7800000000.0        0.0305253970016     0.116293629104      0.967572736803      -0.176893935154     0.967572736803      -0.176893935154     0.0305253970016     0.116293629104      
7900000000.0        0.0310721336629     0.117709829125      0.966977356574      -0.179091508578     0.966977356574      -0.179091508578     0.0310721336629     0.117709829125      
8000000000.0        0.0316253038829     0.119123268346      0.966374918472      -0.181286445976     0.966374918472      -0.181286445976     0.0316253038829     0.119123268346      
8100000000.0        0.0321848919705     0.120533916487      0.9657654378        -0.18347871704      0.9657654378        -0.18347871704      0.0321848919705     0.120533916487      
8200000000.0        0.0327508820457     0.121941743407      0.965148930045      -0.185668291583     0.965148930045      -0.185668291583     0.0327508820457     0.121941743407      
8300000000.0        0.0333232580421     0.123346719103      0.964525410884      -0.187855139537     0.964525410884      -0.187855139537     0.0333232580421     0.123346719103      
8400000000.0        0.0339020037092     0.124748813709      0.963894896175      -0.190039230957     0.963894896175      -0.190039230957     0.0339020037092     0.124748813709      
8500000000.0        0.0344871026148     0.1261479975        0.96325740196       -0.192220536021     0.96325740196       -0.192220536021     0.0344871026148     0.1261479975        
8600000000.0        0.0350785381473     0.127544240894      0.96261294446       -0.194399025029     0.96261294446       -0.194399025029     0.0350785381473     0.127544240894      
8700000000.0        0.0356762935174     0.128937514447      0.961961540074      -0.196574668409     0.961961540074      -0.196574668409     0.0356762935174     0.128937514447      
8800000000.0        0.0362803517611     0.13032778886       0.961303205375      -0.198747436712     0.961303205375      -0.198747436712     0.0362803517611     0.13032778886       
8900000000.0        0.036890695741      0.131715034978      0.96063795711       -0.200917300618     0.96063795711       -0.200917300618     0.036890695741      0.131715034978      
9000000000.0        0.0375073081489     0.133099223787      0.959965812198      -0.203084230935     0.959965812198      -0.203084230935     0.0375073081489     0.133099223787      
9100000000.0        0.0381301715075     0.134480326422      0.959286787727      -0.205248198599     0.959286787727      -0.205248198599     0.0381301715075     0.134480326422      
9200000000.0        0.0387592681728     0.13585831416       0.958600900952      -0.207409174678     0.958600900952      -0.207409174678     0.0387592681728     0.13585831416       
9300000000.0        0.0393945803355     0.137233158429      0.957908169294      -0.209567130369     0.957908169294      -0.209567130369     0.0393945803355     0.137233158429      
9400000000.0        0.0400360900234     0.138604830802      0.957208610336      -0.211722037001     0.957208610336      -0.211722037001     0.0400360900234     0.138604830802      
9500000000.0        0.0406837791032     0.139973303         0.956502241826      -0.213873866039     0.956502241826      -0.213873866039     0.0406837791032     0.139973303         
9600000000.0        0.0413376292823     0.141338546893      0.955789081668      -0.216022589078     0.955789081668      -0.216022589078     0.0413376292823     0.141338546893      
9700000000.0        0.0419976221105     0.142700534503      0.955069147927      -0.21816817785      0.955069147927      -0.21816817785      0.0419976221105     0.142700534503      
9800000000.0        0.0426637389824     0.144059238001      0.954342458822      -0.220310604222     0.954342458822      -0.220310604222     0.0426637389824     0.144059238001      
9900000000.0        0.0433359611386     0.145414629708      0.953609032729      -0.222449840197     0.953609032729      -0.222449840197     0.0433359611386     0.145414629708      
10000000000.0       0.0440142696677     0.1467666821        0.952868888176      -0.224585857916     0.952868888176      -0.224585857916     0.0440142696677     0.1467666821        
