# Hz S RI R 50.00 
100000000.0         5.9565989202e-05    -0.000312249885164  0.999938142127      -0.000599247787575  0.999938142127      -0.000599247787575  5.9565989202e-05    -0.000312249885164  
200000000.0         5.89758469978e-05   -0.000624514283361  0.999936609427      -0.00119851654875   0.999936609427      -0.00119851654875   5.89758469978e-05   -0.000624514283361  
300000000.0         5.79054179455e-05   -0.000936800475102  0.999934725882      -0.00179781732531   0.999934725882      -0.00179781732531   5.79054179453e-05   -0.000936800475102  
400000000.0         5.64070483029e-05   -0.0012491138949    0.999932438925      -0.00239715839374   0.999932438925      -0.00239715839374   5.64070483029e-05   -0.0012491138949    
500000000.0         5.45007635502e-05   -0.00156145900777   0.999929728269      -0.00299654663699   0.999929728269      -0.00299654663699   5.45007635497e-05   -0.00156145900777   
600000000.0         5.2196674627e-05    -0.00187383963084   0.999926583512      -0.00359598802252   0.999926583512      -0.00359598802252   5.2196674627e-05    -0.00187383963084   
700000000.0         4.95006686383e-05   -0.00218625909571   0.999922998443      -0.00419548784186   0.999922998443      -0.00419548784186   4.95006686385e-05   -0.00218625909571   
800000000.0         4.64164840166e-05   -0.00249872035232   0.999918968977      -0.00479505085978   0.999918968977      -0.00479505085978   4.64164840166e-05   -0.00249872035232   
900000000.0         4.29466340111e-05   -0.00281122603294   0.99991449223       -0.00539468140763   0.99991449223       -0.00539468140763   4.29466340111e-05   -0.00281122603294   
1000000000.0        3.90928746821e-05   -0.00312377850152   0.999909566053      -0.00599438345327   0.999909566053      -0.00599438345327   3.90928746821e-05   -0.00312377850152   
1100000000.0        3.48564650898e-05   -0.00343637988855   0.999904188777      -0.00659416065079   0.999904188777      -0.00659416065079   3.48564650896e-05   -0.00343637988855   
1200000000.0        3.02383224624e-05   -0.00374903211858   0.999898359055      -0.00719401637938   0.999898359055      -0.00719401637938   3.02383224624e-05   -0.00374903211858   
1300000000.0        2.52391198239e-05   -0.00406173693212   0.99989207577       -0.00779395377407   0.99989207577       -0.00779395377407   2.52391198237e-05   -0.00406173693212   
1400000000.0        1.98593503611e-05   -0.00437449590336   0.999885337969      -0.00839397575052   0.999885337969      -0.00839397575052   1.98593503611e-05   -0.00437449590336   
1500000000.0        1.40993713136e-05   -0.00468731045496   0.999878144824      -0.00899408502556   0.999878144824      -0.00899408502556   1.40993713134e-05   -0.00468731045496   
1600000000.0        7.95943493714e-06   -0.00500018187056   0.999870495596      -0.00959428413448   0.999870495596      -0.00959428413448   7.95943493692e-06   -0.00500018187056   
1700000000.0        1.43971085387e-06   -0.00531311130515   0.999862389621      -0.0101945754454    0.999862389621      -0.0101945754454    1.43971085365e-06   -0.00531311130515   
1800000000.0        -5.45969736143e-06  -0.00562609979474   0.999853826288      -0.0107949611724    0.999853826288      -0.0107949611724    -5.45969736143e-06  -0.00562609979474   
1900000000.0        -1.27387396945e-05  -0.00593914826405   0.999844805033      -0.0113954433859    0.999844805033      -0.0113954433859    -1.27387396947e-05  -0.00593914826405   
2000000000.0        -2.03974100617e-05  -0.00625225753399   0.999835325324      -0.0119960240231    0.999835325324      -0.0119960240231    -2.03974100618e-05  -0.00625225753399   
2100000000.0        -2.84357388035e-05  -0.00656542832762   0.999825386661      -0.0125967048957    0.999825386661      -0.0125967048957    -2.84357388034e-05  -0.00656542832762   
2200000000.0        -3.68537867219e-05  -0.0068786612761    0.999814988565      -0.0131974876981    0.999814988565      -0.0131974876981    -3.68537867216e-05  -0.0068786612761    
2300000000.0        -4.56516403025e-05  -0.0071919569237    0.999804130578      -0.0137983740142    0.999804130578      -0.0137983740142    -4.56516403022e-05  -0.0071919569237    
2400000000.0        -5.48294078185e-05  -0.00750531573254   0.999792812257      -0.0143993653233    0.999792812257      -0.0143993653233    -5.48294078185e-05  -0.00750531573254   
2500000000.0        -6.4387216138e-05   -0.00781873808668   0.999781033172      -0.0150004630059    0.999781033172      -0.0150004630059    -6.4387216138e-05   -0.00781873808668   
2600000000.0        -7.43252080672e-05  -0.00813222429621   0.999768792906      -0.0156016683491    0.999768792906      -0.0156016683491    -7.43252080677e-05  -0.00813222429621   
2700000000.0        -8.46435401273e-05  -0.00844577460066   0.999756091051      -0.0162029825508    0.999756091051      -0.0162029825508    -8.46435401273e-05  -0.00844577460066   
2800000000.0        -9.53423806668e-05  -0.00875938917237   0.999742927206      -0.0168044067244    0.999742927206      -0.0168044067244    -9.53423806668e-05  -0.00875938917237   
2900000000.0        -0.000106421908265  -0.0090730681196    0.99972930098       -0.0174059419027    0.99972930098       -0.0174059419027    -0.000106421908265  -0.0090730681196    
3000000000.0        -0.00011788231035   -0.00938681148929   0.999715211987      -0.0180075890414    0.999715211987      -0.0180075890414    -0.00011788231035   -0.00938681148929   
3100000000.0        -0.000129723782004  -0.00970061926969   0.999700659845      -0.018609349023     0.999700659845      -0.018609349023     -0.000129723782004  -0.00970061926969   
3200000000.0        -0.000141946524933  -0.0100144913931    0.999685644179      -0.0192112226596    0.999685644179      -0.0192112226596    -0.000141946524933  -0.0100144913931    
3300000000.0        -0.000154550746547  -0.0103284277377    0.999670164618      -0.019813210696     0.999670164618      -0.019813210696     -0.000154550746547  -0.0103284277377    
3400000000.0        -0.000167536659164  -0.0106424281303    0.999654220796      -0.0204153138127    0.999654220796      -0.0204153138127    -0.000167536659164  -0.0106424281303    
3500000000.0        -0.000180904479299  -0.0109564923482    0.999637812348      -0.0210175326282    0.999637812348      -0.0210175326282    -0.000180904479298  -0.0109564923482    
3600000000.0        -0.000194654427026  -0.0112706201208    0.999620938914      -0.0216198677017    0.999620938914      -0.0216198677017    -0.000194654427026  -0.0112706201208    
3700000000.0        -0.000208786725418  -0.0115848111319    0.999603600139      -0.0222223195355    0.999603600139      -0.0222223195355    -0.000208786725418  -0.0115848111319    
3800000000.0        -0.000223301600031  -0.0118990650212    0.999585795668      -0.0228248885771    0.999585795668      -0.0228248885771    -0.000223301600031  -0.0118990650212    
3900000000.0        -0.000238199278445  -0.0122133813862    0.999567525151      -0.0234275752213    0.999567525151      -0.0234275752213    -0.000238199278445  -0.0122133813862    
4000000000.0        -0.00025347998985   -0.0125277597832    0.999548788239      -0.0240303798121    0.999548788239      -0.0240303798121    -0.00025347998985   -0.0125277597832    
4100000000.0        -0.000269143964661  -0.0128421997297    0.999529584587      -0.0246333026446    0.999529584587      -0.0246333026446    -0.000269143964661  -0.0128421997297    
4200000000.0        -0.000285191434174  -0.0131567007048    0.999509913853      -0.0252363439672    0.999509913853      -0.0252363439672    -0.000285191434174  -0.0131567007048    
4300000000.0        -0.000301622630245  -0.0134712621513    0.999489775696      -0.0258395039826    0.999489775696      -0.0258395039826    -0.000301622630245  -0.0134712621513    
4400000000.0        -0.000318437785006  -0.0137858834768    0.999469169778      -0.0264427828498    0.999469169778      -0.0264427828498    -0.000318437785007  -0.0137858834768    
4500000000.0        -0.000335637130584  -0.0141005640548    0.999448095764      -0.0270461806859    0.999448095764      -0.0270461806859    -0.000335637130584  -0.0141005640548    
4600000000.0        -0.000353220898858  -0.0144153032259    0.999426553321      -0.0276496975668    0.999426553321      -0.0276496975668    -0.000353220898857  -0.0144153032259    
4700000000.0        -0.00037118932123   -0.014730100299     0.999404542119      -0.0282533335295    0.999404542119      -0.0282533335295    -0.00037118932123   -0.014730100299     
4800000000.0        -0.000389542628408  -0.0150449545526    0.999382061829      -0.0288570885728    0.999382061829      -0.0288570885728    -0.000389542628408  -0.0150449545526    
4900000000.0        -0.000408281050209  -0.0153598652354    0.999359112127      -0.029460962659     0.999359112127      -0.029460962659     -0.000408281050209  -0.0153598652354    
5000000000.0        -0.00042740481537   -0.0156748315676    0.999335692688      -0.0300649557147    0.999335692688      -0.0300649557147    -0.00042740481537   -0.0156748315676    
5100000000.0        -0.000446914151378  -0.0159898527418    0.999311803193      -0.0306690676325    0.999311803193      -0.0306690676325    -0.000446914151378  -0.0159898527418    
5200000000.0        -0.000466809284301  -0.0163049279238    0.999287443323      -0.0312732982718    0.999287443323      -0.0312732982718    -0.000466809284301  -0.0163049279238    
5300000000.0        -0.000487090438648  -0.0166200562537    0.999262612763      -0.0318776474597    0.999262612763      -0.0318776474597    -0.000487090438648  -0.0166200562537    
5400000000.0        -0.000507757837212  -0.0169352368467    0.999237311199      -0.0324821149928    0.999237311199      -0.0324821149928    -0.000507757837212  -0.0169352368467    
5500000000.0        -0.000528811700944  -0.0172504687937    0.999211538321      -0.0330867006372    0.999211538321      -0.0330867006372    -0.000528811700944  -0.0172504687937    
5600000000.0        -0.000550252248825  -0.0175657511624    0.999185293821      -0.0336914041305    0.999185293821      -0.0336914041305    -0.000550252248825  -0.0175657511624    
5700000000.0        -0.000572079697744  -0.0178810829978    0.999158577394      -0.0342962251817    0.999158577394      -0.0342962251817    -0.000572079697744  -0.0178810829978    
5800000000.0        -0.00059429426239   -0.0181964633231    0.999131388736      -0.0349011634731    0.999131388736      -0.0349011634731    -0.00059429426239   -0.0181964633231    
5900000000.0        -0.000616896155139  -0.0185118911405    0.999103727549      -0.0355062186603    0.999103727549      -0.0355062186603    -0.000616896155139  -0.0185118911405    
6000000000.0        -0.000639885585963  -0.0188273654315    0.999075593534      -0.0361113903737    0.999075593534      -0.0361113903737    -0.000639885585963  -0.0188273654315    
6100000000.0        -0.000663262762324  -0.0191428851581    0.999046986397      -0.0367166782188    0.999046986397      -0.0367166782188    -0.000663262762325  -0.0191428851581    
6200000000.0        -0.000687027889093  -0.0194584492628    0.999017905847      -0.0373220817775    0.999017905847      -0.0373220817775    -0.000687027889093  -0.0194584492628    
6300000000.0        -0.000711181168458  -0.0197740566698    0.998988351594      -0.0379276006081    0.998988351594      -0.0379276006081    -0.000711181168458  -0.0197740566698    
6400000000.0        -0.000735722799848  -0.0200897062855    0.998958323352      -0.038533234247     0.998958323352      -0.038533234247     -0.000735722799848  -0.0200897062855    
6500000000.0        -0.000760652979854  -0.0204053969986    0.998927820838      -0.0391389822086    0.998927820838      -0.0391389822086    -0.000760652979854  -0.0204053969986    
6600000000.0        -0.000785971902155  -0.0207211276812    0.998896843772      -0.0397448439861    0.998896843772      -0.0397448439861    -0.000785971902154  -0.0207211276812    
6700000000.0        -0.000811679757451  -0.0210368971892    0.998865391876      -0.0403508190527    0.998865391876      -0.0403508190527    -0.000811679757451  -0.0210368971892    
6800000000.0        -0.000837776733394  -0.0213527043626    0.998833464876      -0.0409569068615    0.998833464876      -0.0409569068615    -0.000837776733394  -0.0213527043626    
6900000000.0        -0.000864263014529  -0.0216685480262    0.998801062501      -0.0415631068467    0.998801062501      -0.0415631068467    -0.000864263014529  -0.0216685480262    
7000000000.0        -0.000891138782233  -0.0219844269902    0.998768184482      -0.0421694184237    0.998768184482      -0.0421694184237    -0.000891138782233  -0.0219844269902    
7100000000.0        -0.000918404214657  -0.0223003400504    0.998734830553      -0.0427758409902    0.998734830553      -0.0427758409902    -0.000918404214657  -0.0223003400504    
7200000000.0        -0.000946059486674  -0.0226162859888    0.998701000453      -0.0433823739262    0.998701000453      -0.0433823739262    -0.000946059486674  -0.0226162859888    
7300000000.0        -0.000974104769827  -0.0229322635741    0.998666693922      -0.043989016595     0.998666693922      -0.043989016595     -0.000974104769827  -0.0229322635741    
7400000000.0        -0.00100254023228   -0.0232482715621    0.998631910704      -0.0445957683434    0.998631910704      -0.0445957683434    -0.00100254023228   -0.0232482715621    
7500000000.0        -0.00103136603877   -0.023564308696     0.998596650547      -0.0452026285025    0.998596650547      -0.0452026285025    -0.00103136603877   -0.023564308696     
7600000000.0        -0.00106058235056   -0.0238803737069    0.9985609132        -0.0458095963879    0.9985609132        -0.0458095963879    -0.00106058235056   -0.0238803737069    
7700000000.0        -0.00109018932542   -0.0241964653143    0.998524698417      -0.0464166713002    0.998524698417      -0.0464166713002    -0.00109018932542   -0.0241964653143    
7800000000.0        -0.00112018711754   -0.0245125822263    0.998488005956      -0.0470238525259    0.998488005956      -0.0470238525259    -0.00112018711754   -0.0245125822263    
7900000000.0        -0.00115057587754   -0.02482872314      0.998450835575      -0.0476311393371    0.998450835575      -0.0476311393371    -0.00115057587754   -0.02482872314      
8000000000.0        -0.00118135575241   -0.025144886742     0.998413187038      -0.0482385309926    0.998413187038      -0.0482385309926    -0.00118135575241   -0.025144886742     
8100000000.0        -0.00121252688547   -0.0254610717086    0.998375060112      -0.048846026738     0.998375060112      -0.048846026738     -0.00121252688547   -0.0254610717086    
8200000000.0        -0.00124408941636   -0.0257772767063    0.998336454567      -0.049453625806     0.998336454567      -0.049453625806     -0.00124408941636   -0.0257772767063    
8300000000.0        -0.00127604348098   -0.0260935003918    0.998297370175      -0.0500613274172    0.998297370175      -0.0500613274172    -0.00127604348098   -0.0260935003918    
8400000000.0        -0.00130838921148   -0.0264097414127    0.998257806714      -0.0506691307801    0.998257806714      -0.0506691307801    -0.00130838921148   -0.0264097414127    
8500000000.0        -0.00134112673622   -0.0267259984077    0.998217763963      -0.0512770350917    0.998217763963      -0.0512770350917    -0.00134112673622   -0.0267259984077    
8600000000.0        -0.00137425617977   -0.0270422700067    0.998177241705      -0.0518850395375    0.998177241705      -0.0518850395375    -0.00137425617977   -0.0270422700067    
8700000000.0        -0.00140777766283   -0.0273585548315    0.998136239728      -0.0524931432925    0.998136239728      -0.0524931432925    -0.00140777766283   -0.0273585548315    
8800000000.0        -0.00144169130226   -0.0276748514955    0.998094757821      -0.053101345521     0.998094757821      -0.053101345521     -0.00144169130226   -0.0276748514955    
8900000000.0        -0.00147599721104   -0.0279911586046    0.998052795779      -0.0537096453769    0.998052795779      -0.0537096453769    -0.00147599721104   -0.0279911586046    
9000000000.0        -0.00151069549824   -0.028307474757     0.998010353397      -0.0543180420046    0.998010353397      -0.0543180420046    -0.00151069549824   -0.028307474757     
9100000000.0        -0.00154578626898   -0.0286237985437    0.997967430477      -0.0549265345385    0.997967430477      -0.0549265345385    -0.00154578626898   -0.0286237985437    
9200000000.0        -0.00158126962445   -0.0289401285487    0.997924026822      -0.0555351221041    0.997924026822      -0.0555351221041    -0.00158126962445   -0.0289401285487    
9300000000.0        -0.00161714566189   -0.0292564633494    0.99788014224       -0.0561438038177    0.99788014224       -0.0561438038177    -0.00161714566189   -0.0292564633494    
9400000000.0        -0.00165341447453   -0.0295728015163    0.997835776541      -0.0567525787869    0.997835776541      -0.0567525787869    -0.00165341447453   -0.0295728015163    
9500000000.0        -0.00169007615162   -0.0298891416139    0.997790929541      -0.057361446111     0.997790929541      -0.057361446111     -0.00169007615162   -0.0298891416139    
9600000000.0        -0.00172713077837   -0.0302054822007    0.997745601057      -0.0579704048811    0.997745601057      -0.0579704048811    -0.00172713077837   -0.0302054822007    
9700000000.0        -0.00176457843597   -0.0305218218292    0.997699790911      -0.0585794541805    0.997699790911      -0.0585794541805    -0.00176457843597   -0.0305218218292    
9800000000.0        -0.00180241920157   -0.0308381590463    0.997653498927      -0.0591885930846    0.997653498927      -0.0591885930846    -0.00180241920157   -0.0308381590463    
9900000000.0        -0.00184065314825   -0.0311544923936    0.997606724935      -0.0597978206618    0.997606724935      -0.0597978206618    -0.00184065314825   -0.0311544923936    
10000000000.0       -0.00187928034504   -0.0314708204072    0.997559468766      -0.0604071359731    0.997559468766      -0.0604071359731    -0.00187928034504   -0.0314708204072    
