# Hz S RI R 50.00 
100000000.0         0.00396788127898    0.000522908954693   0.996012450665      -0.00575495775597   0.996012450665      -0.00575495775597   0.00396788127898    0.000522908954693   
200000000.0         0.00400101642396    0.00104542451917    0.995933235702      -0.0115094109486    0.995933235702      -0.0115094109486    0.00400101642396    0.00104542451917    
300000000.0         0.00403330129608    0.0015675999425     0.995827458224      -0.0172633196946    0.995827458224      -0.0172633196946    0.00403330129608    0.0015675999425     
400000000.0         0.00406816144666    0.00208940372891    0.99569169166       -0.0230165511222    0.99569169166       -0.0230165511222    0.00406816144666    0.00208940372891    
500000000.0         0.00410691235008    0.00261078535145    0.995524619556      -0.0287689491495    0.995524619556      -0.0287689491495    0.00410691235008    0.00261078535145    
600000000.0         0.0041502215928     0.00313168615059    0.995325573422      -0.0345203468102    0.995325573422      -0.0345203468102    0.0041502215928     0.00313168615059    
700000000.0         0.00419848042111    0.00365204319311    0.995094161219      -0.0402705708379    0.995094161219      -0.0402705708379    0.00419848042111    0.00365204319311    
800000000.0         0.00425193928869    0.00417179103823    0.994830131836      -0.0460194438667    0.994830131836      -0.0460194438667    0.00425193928869    0.00417179103823    
900000000.0         0.00431076818475    0.00469086267483    0.994533314786      -0.0517667856532    0.994533314786      -0.0517667856532    0.00431076818475    0.00469086267483    
1000000000.0        0.00437508720121    0.00520919007044    0.994203589661      -0.0575124138256    0.994203589661      -0.0575124138256    0.00437508720121    0.00520919007044    
1100000000.0        0.00444498351827    0.005726704517      0.993840869157      -0.0632561443761    0.993840869157      -0.0632561443761    0.00444498351827    0.005726704517      
1200000000.0        0.00452052152234    0.00624333686103    0.993445088979      -0.0689977920032    0.993445088979      -0.0689977920032    0.00452052152234    0.00624333686103    
1300000000.0        0.00460174916992    0.00675901766393    0.993016201487      -0.0747371703599    0.993016201487      -0.0747371703599    0.00460174916992    0.00675901766393    
1400000000.0        0.00468870216977    0.00727367731795    0.992554171526      -0.0804740922396    0.992554171526      -0.0804740922396    0.00468870216977    0.00727367731795    
1500000000.0        0.0047814068324     0.00778724613279    0.992058973594      -0.0862083697201    0.992058973594      -0.0862083697201    0.0047814068324     0.00778724613279    
1600000000.0        0.0048798820715     0.00829965440212    0.991530589841      -0.0919398142782    0.991530589841      -0.0919398142782    0.0048798820715     0.00829965440212    
1700000000.0        0.00498414084652    0.00881083245615    0.99096900865       -0.0976682368819    0.99096900865       -0.0976682368819    0.00498414084652    0.00881083245615    
1800000000.0        0.00509419122602    0.00932071070389    0.990374223569      -0.103393448068     0.990374223569      -0.103393448068     0.00509419122602    0.00932071070389    
1900000000.0        0.005210037187      0.00982921966813    0.989746232533      -0.109115258003     0.989746232533      -0.109115258003     0.005210037187      0.00982921966813    
2000000000.0        0.00533167922621    0.0103362900148     0.989085037252      -0.114833476545     0.989085037252      -0.114833476545     0.00533167922621    0.0103362900148     
2100000000.0        0.00545911483495    0.0108418525779     0.988390642752      -0.120547913282     0.988390642752      -0.120547913282     0.00545911483495    0.0108418525779     
2200000000.0        0.00559233887299    0.0113458383816     0.987663057         -0.126258377582     0.987663057         -0.126258377582     0.00559233887299    0.0113458383816     
2300000000.0        0.00573134386683    0.0118481786593     0.986902290623      -0.131964678624     0.986902290623      -0.131964678624     0.00573134386683    0.0118481786593     
2400000000.0        0.00587612025023    0.0123488048712     0.986108356665      -0.137666625433     0.986108356665      -0.137666625433     0.00587612025023    0.0123488048712     
2500000000.0        0.00602665656035    0.0128476487195     0.985281270405      -0.143364026912     0.985281270405      -0.143364026912     0.00602665656035    0.0128476487195     
2600000000.0        0.0061829395993     0.0133446421632     0.984421049199      -0.149056691864     0.984421049199      -0.149056691864     0.00618293959929    0.0133446421632     
2700000000.0        0.00634495456824    0.0138397174311     0.983527712351      -0.154744429022     0.983527712351      -0.154744429022     0.00634495456824    0.0138397174311     
2800000000.0        0.0065126851799     0.0143328070343     0.982601281008      -0.160427047068     0.982601281008      -0.160427047068     0.0065126851799     0.0143328070343     
2900000000.0        0.00668611375356    0.014823843778      0.981641778074      -0.166104354658     0.981641778074      -0.166104354658     0.00668611375356    0.014823843778      
3000000000.0        0.00686522129593    0.0153127607724     0.980649228128      -0.171776160439     0.980649228128      -0.171776160439     0.00686522129593    0.0153127607724     
3100000000.0        0.00704998757057    0.0157994914433     0.979623657367      -0.177442273068     0.979623657367      -0.177442273068     0.00704998757057    0.0157994914433     
3200000000.0        0.00724039115777    0.0162839695422     0.978565093546      -0.183102501233     0.978565093546      -0.183102501233     0.00724039115777    0.0162839695422     
3300000000.0        0.00743640950673    0.0167661291563     0.977473565938      -0.188756653665     0.977473565938      -0.188756653665     0.00743640950673    0.0167661291563     
3400000000.0        0.00763801898115    0.0172459047175     0.976349105285      -0.194404539158     0.976349105285      -0.194404539158     0.00763801898115    0.0172459047175     
3500000000.0        0.00784519489947    0.017723231012      0.975191743771      -0.200045966583     0.975191743771      -0.200045966583     0.00784519489947    0.017723231012      
3600000000.0        0.00805791157051    0.0181980431887     0.974001514986      -0.205680744901     0.974001514986      -0.205680744901     0.00805791157051    0.0181980431887     
3700000000.0        0.00827614232528    0.0186702767683     0.972778453902      -0.211308683181     0.972778453902      -0.211308683181     0.00827614232528    0.0186702767683     
3800000000.0        0.00849985954554    0.0191398676516     0.971522596848      -0.216929590609     0.971522596848      -0.216929590609     0.00849985954554    0.0191398676516     
3900000000.0        0.00872903468957    0.0196067521278     0.970233981489      -0.222543276506     0.970233981489      -0.222543276506     0.00872903468957    0.0196067521278     
4000000000.0        0.00896363831556    0.0200708668826     0.968912646808      -0.228149550335     0.968912646808      -0.228149550335     0.00896363831556    0.0200708668826     
4100000000.0        0.00920364010299    0.0205321490062     0.967558633088      -0.233748221721     0.967558633088      -0.233748221721     0.00920364010299    0.0205321490062     
4200000000.0        0.00944900887225    0.0209905360013     0.9661719819        -0.239339100455     0.9661719819        -0.239339100455     0.00944900887225    0.0209905360013     
4300000000.0        0.00969971260273    0.0214459657908     0.964752736083      -0.244921996512     0.964752736083      -0.244921996512     0.00969971260273    0.0214459657908     
4400000000.0        0.00995571844967    0.0218983767252     0.96330093974       -0.25049672006      0.96330093974       -0.25049672006      0.00995571844967    0.0218983767252     
4500000000.0        0.0102169927598     0.0223477075903     0.961816638219      -0.25606308147      0.961816638219      -0.25606308147      0.0102169927598     0.0223477075903     
4600000000.0        0.0104835010859     0.0227938976146     0.960299878108      -0.26162089133      0.960299878108      -0.26162089133      0.0104835010859     0.0227938976146     
4700000000.0        0.010755208201      0.0232368864767     0.958750707223      -0.267169960453     0.958750707223      -0.267169960453     0.010755208201      0.0232368864767     
4800000000.0        0.011032078111      0.0236766143122     0.957169174599      -0.27271009989      0.957169174599      -0.27271009989      0.011032078111      0.0236766143122     
4900000000.0        0.0113140740673     0.0241130217213     0.955555330482      -0.278241120937     0.955555330482      -0.278241120937     0.0113140740673     0.0241130217213     
5000000000.0        0.0116011585787     0.0245460497751     0.953909226322      -0.283762835149     0.953909226322      -0.283762835149     0.0116011585787     0.0245460497751     
5100000000.0        0.0118932934227     0.0249756400236     0.952230914765      -0.289275054348     0.952230914765      -0.289275054348     0.0118932934227     0.0249756400236     
5200000000.0        0.0121904396564     0.0254017345015     0.950520449648      -0.294777590633     0.950520449648      -0.294777590633     0.0121904396564     0.0254017345015     
5300000000.0        0.0124925576268     0.0258242757358     0.948777885986      -0.30027025639      0.948777885986      -0.30027025639      0.0124925576268     0.0258242757358     
5400000000.0        0.0127996069814     0.0262432067521     0.947003279977      -0.305752864301     0.947003279977      -0.305752864301     0.0127996069814     0.0262432067521     
5500000000.0        0.0131115466777     0.0266584710812     0.945196688984      -0.311225227355     0.945196688984      -0.311225227355     0.0131115466777     0.0266584710812     
5600000000.0        0.013428334993      0.027070012766      0.943358171538      -0.316687158855     0.943358171538      -0.316687158855     0.013428334993      0.027070012766      
5700000000.0        0.0137499295337     0.0274777763675     0.941487787328      -0.322138472428     0.941487787328      -0.322138472428     0.0137499295337     0.0274777763675     
5800000000.0        0.0140762872445     0.0278817069718     0.939585597198      -0.327578982035     0.939585597198      -0.327578982035     0.0140762872445     0.0278817069718     
5900000000.0        0.0144073644173     0.0282817501957     0.93765166314       -0.33300850198      0.93765166314       -0.33300850198      0.0144073644173     0.0282817501957     
6000000000.0        0.0147431167002     0.0286778521938     0.93568604829       -0.338426846916     0.93568604829       -0.338426846916     0.0147431167002     0.0286778521938     
6100000000.0        0.0150834991061     0.0290699596638     0.933688816923      -0.343833831859     0.933688816923      -0.343833831859     0.0150834991061     0.0290699596638     
6200000000.0        0.0154284660212     0.0294580198532     0.931660034447      -0.34922927219      0.931660034447      -0.34922927219      0.0154284660212     0.0294580198532     
6300000000.0        0.0157779712136     0.0298419805654     0.9295997674        -0.354612983669     0.9295997674        -0.354612983669     0.0157779712136     0.0298419805654     
6400000000.0        0.0161319678417     0.030221790165      0.927508083445      -0.359984782441     0.927508083445      -0.359984782441     0.0161319678417     0.030221790165      
6500000000.0        0.0164904084624     0.0305973975844     0.925385051362      -0.365344485044     0.925385051362      -0.365344485044     0.0164904084624     0.0305973975844     
6600000000.0        0.0168532450393     0.0309687523292     0.92323074105       -0.370691908418     0.92323074105       -0.370691908418     0.0168532450393     0.0309687523292     
6700000000.0        0.0172204289511     0.031335804484      0.921045223516      -0.376026869914     0.921045223516      -0.376026869914     0.0172204289511     0.031335804484      
6800000000.0        0.0175919109994     0.0316985047183     0.918828570873      -0.381349187299     0.918828570873      -0.381349187299     0.0175919109994     0.0316985047183     
6900000000.0        0.0179676414171     0.0320568042917     0.916580856336      -0.386658678769     0.916580856336      -0.386658678769     0.0179676414171     0.0320568042917     
7000000000.0        0.0183475698762     0.0324106550597     0.914302154219      -0.39195516295      0.914302154219      -0.39195516295      0.0183475698762     0.0324106550597     
7100000000.0        0.018731645496      0.0327600094789     0.911992539926      -0.397238458913     0.911992539926      -0.397238458913     0.018731645496      0.0327600094789     
7200000000.0        0.0191198168509     0.0331048206125     0.909652089949      -0.402508386177     0.909652089949      -0.402508386177     0.0191198168509     0.0331048206125     
7300000000.0        0.0195120319788     0.0334450421358     0.907280881866      -0.407764764717     0.907280881866      -0.407764764717     0.0195120319788     0.0334450421358     
7400000000.0        0.0199082383883     0.0337806283409     0.904878994331      -0.413007414975     0.904878994331      -0.413007414975     0.0199082383883     0.0337806283409     
7500000000.0        0.0203083830676     0.0341115341423     0.902446507077      -0.418236157861     0.902446507077      -0.418236157861     0.0203083830676     0.0341115341423     
7600000000.0        0.0207124124917     0.0344377150814     0.899983500902      -0.423450814769     0.899983500902      -0.423450814769     0.0207124124917     0.0344377150814     
7700000000.0        0.0211202726308     0.0347591273322     0.897490057673      -0.428651207577     0.897490057673      -0.428651207577     0.0211202726308     0.0347591273322     
7800000000.0        0.0215319089578     0.0350757277057     0.894966260319      -0.433837158656     0.894966260319      -0.433837158656     0.0215319089578     0.0350757277057     
7900000000.0        0.0219472664568     0.0353874736547     0.892412192822      -0.439008490881     0.892412192822      -0.439008490881     0.0219472664568     0.0353874736547     
8000000000.0        0.0223662896306     0.0356943232789     0.889827940219      -0.444165027633     0.889827940219      -0.444165027633     0.0223662896306     0.0356943232789     
8100000000.0        0.022788922509      0.035996235329      0.887213588594      -0.449306592808     0.887213588594      -0.449306592808     0.022788922509      0.035996235329      
8200000000.0        0.0232151086564     0.036293169212      0.884569225074      -0.454433010825     0.884569225074      -0.454433010825     0.0232151086564     0.036293169212      
8300000000.0        0.0236447911802     0.0365850849949     0.881894937825      -0.459544106633     0.881894937825      -0.459544106633     0.0236447911802     0.0365850849949     
8400000000.0        0.0240779127385     0.0368719434099     0.879190816044      -0.464639705714     0.879190816044      -0.464639705714     0.0240779127385     0.0368719434099     
8500000000.0        0.024514415548      0.0371537058581     0.876456949961      -0.469719634095     0.876456949961      -0.469719634095     0.024514415548      0.0371537058581     
8600000000.0        0.0249542413925     0.0374303344141     0.873693430828      -0.474783718351     0.873693430828      -0.474783718351     0.0249542413925     0.0374303344141     
8700000000.0        0.0253973316305     0.0377017918303     0.870900350917      -0.479831785613     0.870900350917      -0.479831785613     0.0253973316305     0.0377017918303     
8800000000.0        0.0258436272032     0.0379680415405     0.868077803517      -0.484863663574     0.868077803517      -0.484863663574     0.0258436272032     0.0379680415405     
8900000000.0        0.026293068643      0.0382290476643     0.865225882925      -0.489879180497     0.865225882925      -0.489879180497     0.026293068643      0.0382290476643     
9000000000.0        0.0267455960812     0.0384847750112     0.862344684446      -0.494878165218     0.862344684446      -0.494878165218     0.0267455960812     0.0384847750112     
9100000000.0        0.0272011492563     0.0387351890839     0.859434304383      -0.499860447156     0.859434304383      -0.499860447156     0.0272011492563     0.0387351890839     
9200000000.0        0.0276596675217     0.0389802560826     0.856494840037      -0.504825856318     0.856494840037      -0.504825856318     0.0276596675217     0.0389802560826     
9300000000.0        0.0281210898546     0.0392199429082     0.8535263897        -0.509774223303     0.8535263897        -0.509774223303     0.0281210898546     0.0392199429082     
9400000000.0        0.0285853548634     0.0394542171665     0.850529052649      -0.514705379312     0.850529052649      -0.514705379312     0.0285853548634     0.0394542171665     
9500000000.0        0.0290524007961     0.0396830471712     0.847502929146      -0.519619156151     0.847502929146      -0.519619156151     0.0290524007961     0.0396830471712     
9600000000.0        0.0295221655488     0.0399064019475     0.844448120425      -0.524515386238     0.844448120425      -0.524515386238     0.0295221655488     0.0399064019475     
9700000000.0        0.0299945866734     0.0401242512355     0.841364728695      -0.52939390261      0.841364728695      -0.52939390261      0.0299945866734     0.0401242512355     
9800000000.0        0.0304696013861     0.0403365654935     0.83825285713       -0.534254538926     0.83825285713       -0.534254538926     0.0304696013861     0.0403365654935     
9900000000.0        0.0309471465756     0.0405433159013     0.835112609866      -0.539097129475     0.835112609866      -0.539097129475     0.0309471465756     0.0405433159013     
10000000000.0       0.0314271588112     0.0407444743627     0.831944091996      -0.543921509183     0.831944091996      -0.543921509183     0.0314271588112     0.0407444743627     
