# Hz S RI R 50.00 
100000000.0         -0.000167787641028  -0.0140683308578    0.99972648349       -0.0146316317786    0.99972648349       -0.0146316317786    -0.000167787641028  -0.0140683308578    
200000000.0         -0.000798808883197  -0.0281192292588    0.99909426761       -0.029245950767     0.99909426761       -0.029245950767     -0.000798808883196  -0.0281192292588    
300000000.0         -0.00183980840709   -0.0421356373728    0.998051937756      -0.0438259624601    0.998051937756      -0.0438259624601    -0.00183980840709   -0.0421356373728    
400000000.0         -0.00328837003329   -0.0561004976016    0.996601818749      -0.0583546580688    0.996601818749      -0.0583546580688    -0.00328837003329   -0.0561004976016    
500000000.0         -0.0051411585653    -0.0699968792288    0.994747210404      -0.0728151481903    0.994747210404      -0.0728151481903    -0.0051411585653    -0.0699968792288    
600000000.0         -0.00739391292156   -0.0838080657678    0.9924923555        -0.0871907526088    0.9924923555        -0.0871907526088    -0.00739391292156   -0.0838080657678    
700000000.0         -0.0100414609375    -0.0975176304474    0.989842415127      -0.10146507704      0.989842415127      -0.10146507704      -0.0100414609375    -0.0975176304474    
800000000.0         -0.0130777435198    -0.111109505157     0.986803440939      -0.11562208284      0.986803440939      -0.11562208284      -0.0130777435198    -0.111109505157     
900000000.0         -0.0164958453968    -0.124568044397     0.983382342813      -0.129646151461     0.983382342813      -0.129646151461     -0.0164958453968    -0.124568044397     
1000000000.0        -0.0202880313421    -0.13787808467      0.979586851822      -0.143522144213     0.979586851822      -0.143522144213     -0.0202880313421    -0.13787808467      
1100000000.0        -0.0244457871562    -0.151024999336     0.975425478807      -0.157235457391     0.975425478807      -0.157235457391     -0.0244457871562    -0.151024999336     
1200000000.0        -0.0289598648188    -0.163994748822     0.970907468968      -0.1707720727       0.970907468968      -0.1707720727       -0.0289598648188    -0.163994748822     
1300000000.0        -0.0338203312545    -0.176773926012     0.966042752924      -0.184118602822     0.966042752924      -0.184118602822     -0.0338203312545    -0.176773926012     
1400000000.0        -0.0390166201699    -0.189349796662     0.960841894778      -0.197262331969     0.960841894778      -0.197262331969     -0.0390166201699    -0.189349796662     
1500000000.0        -0.0445375864121    -0.201710334698     0.955316037683      -0.210191251315     0.955316037683      -0.210191251315     -0.0445375864121    -0.201710334698     
1600000000.0        -0.0503715623088    -0.213844252319     0.94947684745       -0.222894089186     0.94947684745       -0.222894089186     -0.0503715623088    -0.213844252319     
1700000000.0        -0.0565064154458    -0.225741024837     0.943336454737      -0.235360336012     0.943336454737      -0.235360336012     -0.0565064154458    -0.225741024837     
1800000000.0        -0.0629296073549    -0.237390910286     0.936907396338      -0.247580263998     0.936907396338      -0.247580263998     -0.0629296073549    -0.237390910286     
1900000000.0        -0.0696282525954    -0.248784963834     0.930202556076      -0.259544941619     0.930202556076      -0.259544941619     -0.0696282525954    -0.248784963834     
2000000000.0        -0.0765891777362    -0.259915047115     0.923235105813      -0.271246243015     0.923235105813      -0.271246243015     -0.0765891777362    -0.259915047115     
2100000000.0        -0.0837989797696    -0.27077383263      0.916018447021      -0.282676852447     0.916018447021      -0.282676852447     -0.0837989797696    -0.27077383263      
2200000000.0        -0.0912440835194    -0.281354803414     0.908566153369      -0.29383026402      0.908566153369      -0.29383026402      -0.0912440835194    -0.281354803414     
2300000000.0        -0.0989107976402    -0.291652248189     0.900891914716      -0.304700776884     0.900891914716      -0.304700776884     -0.0989107976402    -0.291652248189     
2400000000.0        -0.106785368842     -0.301661252283     0.893009482879      -0.3152834862       0.893009482879      -0.3152834862       -0.106785368842     -0.301661252283     
2500000000.0        -0.114854034011     -0.311377684596     0.884932619514      -0.325574270141     0.884932619514      -0.325574270141     -0.114854034011     -0.311377684596     
2600000000.0        -0.123103069949     -0.320798180927     0.876675046367      -0.335569773267     0.876675046367      -0.335569773267     -0.123103069949     -0.320798180927     
2700000000.0        -0.131518840477     -0.329920123998     0.868250398172      -0.345267386575     0.868250398172      -0.345267386575     -0.131518840477     -0.329920123998     
2800000000.0        -0.140087840717     -0.338741620512     0.859672178368      -0.354665224595     0.859672178368      -0.354665224595     -0.140087840717     -0.338741620512     
2900000000.0        -0.148796738375     -0.34726147559      0.85095371781       -0.363762099862     0.85095371781       -0.363762099862     -0.148796738375     -0.34726147559      
3000000000.0        -0.157632411923     -0.355479164944     0.842108136591      -0.372557495108     0.842108136591      -0.372557495108     -0.157632411923     -0.355479164944     
3100000000.0        -0.166581985588     -0.363394805126     0.833148309045      -0.381051533544     0.833148309045      -0.381051533544     -0.166581985588     -0.363394805126     
3200000000.0        -0.175632861111     -0.371009122186     0.824086831996      -0.389244947545     0.824086831996      -0.389244947545     -0.175632861111     -0.371009122186     
3300000000.0        -0.184772746263     -0.378323419083     0.814935996234      -0.39713904608      0.814935996234      -0.39713904608      -0.184772746263     -0.378323419083     
3400000000.0        -0.193989680136     -0.385339542148     0.805707761227      -0.404735681201     0.805707761227      -0.404735681201     -0.193989680136     -0.385339542148     
3500000000.0        -0.203272055266     -0.39205984691      0.796413732994      -0.412037213888     0.796413732994      -0.412037213888     -0.203272055266     -0.39205984691      
3600000000.0        -0.212608636658     -0.398487163552     0.787065145085      -0.419046479526     0.787065145085      -0.419046479526     -0.212608636658     -0.398487163552     
3700000000.0        -0.22198857781      -0.404624762272     0.777672842555      -0.425766753282     0.777672842555      -0.425766753282     -0.22198857781      -0.404624762272     
3800000000.0        -0.231401433845     -0.410476318778     0.768247268825      -0.432201715619     0.768247268825      -0.432201715619     -0.231401433845     -0.410476318778     
3900000000.0        -0.240837171899     -0.416045880138     0.758798455302      -0.438355418166     0.758798455302      -0.438355418166     -0.240837171899     -0.416045880138     
4000000000.0        -0.25028617889      -0.42133783119      0.749336013608      -0.444232250135     0.749336013608      -0.444232250135     -0.25028617889      -0.42133783119      
4100000000.0        -0.25973926683      -0.426356861663     0.739869130264      -0.449836905465     0.739869130264      -0.449836905465     -0.25973926683      -0.426356861663     
4200000000.0        -0.269187675844     -0.431107934189     0.730406563676      -0.455174350843     0.730406563676      -0.455174350843     -0.269187675844     -0.431107934189     
4300000000.0        -0.278623075051     -0.435596253322     0.720956643245      -0.460249794735     0.720956643245      -0.460249794735     -0.278623075051     -0.435596253322     
4400000000.0        -0.288037561492     -0.439827235668     0.711527270454      -0.465068657533     0.711527270454      -0.465068657533     -0.288037561492     -0.439827235668     
4500000000.0        -0.297423657249     -0.443806481233     0.70212592173       -0.46963654291      0.70212592173       -0.46963654291      -0.297423657249     -0.443806481233     
4600000000.0        -0.306774304951     -0.447539746057     0.692759652955      -0.473959210466     0.692759652955      -0.473959210466     -0.306774304951     -0.447539746057     
4700000000.0        -0.316082861802     -0.451032916177     0.683435105424      -0.478042549701     0.683435105424      -0.478042549701     -0.316082861802     -0.451032916177     
4800000000.0        -0.325343092319     -0.454291982975     0.674158513119      -0.481892555374     0.674158513119      -0.481892555374     -0.325343092319     -0.454291982975     
4900000000.0        -0.334549159909     -0.457323019928     0.66493571112       -0.485515304262     0.66493571112       -0.485515304262     -0.334549159909     -0.457323019928     
5000000000.0        -0.343695617452     -0.460132160776     0.655772145031      -0.48891693333      0.655772145031      -0.48891693333      -0.343695617452     -0.460132160776     
5100000000.0        -0.352777397024     -0.462725579095     0.646672881254      -0.492103619323     0.646672881254      -0.492103619323     -0.352777397024     -0.462725579095     
5200000000.0        -0.361789798886     -0.465109469287     0.637642617996      -0.495081559755     0.637642617996      -0.495081559755     -0.361789798886     -0.465109469287     
5300000000.0        -0.370728479881     -0.467290028947     0.628685696876      -0.497856955286     0.628685696876      -0.497856955286     -0.370728479881     -0.467290028947     
5400000000.0        -0.379589441344     -0.469273442586     0.619806115018      -0.500435993449     0.619806115018      -0.500435993449     -0.379589441344     -0.469273442586     
5500000000.0        -0.388369016629     -0.471065866677     0.611007537512      -0.50282483371      0.611007537512      -0.50282483371      -0.388369016629     -0.471065866677     
5600000000.0        -0.397063858374     -0.472673415986     0.602293310163      -0.505029593793     0.602293310163      -0.505029593793     -0.397063858374     -0.472673415986     
5700000000.0        -0.405670925568     -0.474102151129     0.593666472413      -0.507056337253     0.593666472413      -0.507056337253     -0.405670925568     -0.474102151129     
5800000000.0        -0.414187470528     -0.475358067325     0.58512977037       -0.50891106223      0.58512977037       -0.50891106223      -0.414187470528     -0.475358067325     
5900000000.0        -0.422611025845     -0.476447084277     0.57668566986       -0.510599691331     0.57668566986       -0.510599691331     -0.422611025845     -0.476447084277     
6000000000.0        -0.430939391375     -0.477375037135     0.568336369435      -0.512128062605     0.568336369435      -0.512128062605     -0.430939391375     -0.477375037135     
6100000000.0        -0.439170621332     -0.478147668486     0.560083813279      -0.513501921532     0.560083813279      -0.513501921532     -0.439170621332     -0.478147668486     
6200000000.0        -0.447303011536     -0.478770621304     0.551929703964      -0.514726913978     0.551929703964      -0.514726913978     -0.447303011536     -0.478770621304     
6300000000.0        -0.455335086866     -0.479249432822     0.543875514989      -0.515808580074     0.543875514989      -0.515808580074     -0.455335086866     -0.479249432822     
6400000000.0        -0.463265588958     -0.479589529252     0.535922503093      -0.516752348934     0.535922503093      -0.516752348934     -0.463265588958     -0.479589529252     
6500000000.0        -0.471093464172     -0.479796221306     0.528071720277      -0.517563534181     0.528071720277      -0.517563534181     -0.471093464172     -0.479796221306     
6600000000.0        -0.478817851876     -0.479874700461     0.520324025525      -0.518247330219     0.520324025525      -0.518247330219     -0.478817851876     -0.479874700461     
6700000000.0        -0.486438073057     -0.479830035914     0.512680096195      -0.518808809187     0.512680096195      -0.518808809187     -0.486438073057     -0.479830035914     
6800000000.0        -0.493953619278     -0.479667172185     0.505140439054      -0.519252918565     0.505140439054      -0.519252918565     -0.493953619278     -0.479667172185     
6900000000.0        -0.501364142014     -0.479390927293     0.497705400951      -0.519584479355     0.497705400951      -0.519584479355     -0.501364142014     -0.479390927293     
7000000000.0        -0.508669442347     -0.479005991493     0.490375179114      -0.519808184814     0.490375179114      -0.519808184814     -0.508669442347     -0.479005991493     
7100000000.0        -0.515869461067     -0.478516926492     0.483149831054      -0.519928599682     0.483149831054      -0.519928599682     -0.515869461067     -0.478516926492     
7200000000.0        -0.52296426915      -0.477928165127     0.476029284084      -0.519950159854     0.476029284084      -0.519950159854     -0.52296426915      -0.477928165127     
7300000000.0        -0.529954058639     -0.47724401145      0.469013344441      -0.519877172469     0.469013344441      -0.519877172469     -0.529954058639     -0.47724401145      
7400000000.0        -0.536839133909     -0.476468641184     0.462101706015      -0.519713816369     0.462101706015      -0.519713816369     -0.536839133909     -0.476468641184     
7500000000.0        -0.543619903335     -0.475606102511     0.455293958688      -0.519464142889     0.455293958688      -0.519464142889     -0.543619903335     -0.475606102511     
7600000000.0        -0.550296871339     -0.474660317163     0.448589596279      -0.519132076946     0.448589596279      -0.519132076946     -0.550296871339     -0.474660317163     
7700000000.0        -0.556870630824     -0.473635081777     0.441988024117      -0.518721418399     0.441988024117      -0.518721418399     -0.556870630824     -0.473635081777     
7800000000.0        -0.563341855983     -0.472534069483     0.435488566227      -0.518235843638     0.435488566227      -0.518235843638     -0.563341855983     -0.472534069483     
7900000000.0        -0.569711295472     -0.471360831704     0.429090472161      -0.517678907385     0.429090472161      -0.517678907385     -0.569711295472     -0.471360831704     
8000000000.0        -0.575979765942     -0.470118800137     0.422792923457      -0.517054044672     0.422792923457      -0.517054044672     -0.575979765942     -0.470118800137     
8100000000.0        -0.582148145927     -0.468811288883     0.416595039765      -0.516364572978     0.416595039765      -0.516364572978     -0.582148145927     -0.468811288883     
8200000000.0        -0.588217370055     -0.46744149672      0.410495884621      -0.515613694501     0.410495884621      -0.515613694501     -0.588217370055     -0.46744149672      
8300000000.0        -0.5941884236       -0.46601250948      0.404494470906      -0.514804498535     0.404494470906      -0.514804498535     -0.5941884236       -0.46601250948      
8400000000.0        -0.60006233734      -0.464527302532     0.398589765981      -0.513939963952     0.398589765981      -0.513939963952     -0.60006233734      -0.464527302532     
8500000000.0        -0.605840182723     -0.462988743323     0.392780696523      -0.513022961749     0.392780696523      -0.513022961749     -0.605840182723     -0.462988743323     
8600000000.0        -0.611523067323     -0.461399594001     0.387066153069      -0.512056257666     0.387066153069      -0.512056257666     -0.611523067323     -0.461399594001     
8700000000.0        -0.61711213058      -0.45976251406      0.381444994277      -0.511042514836     0.381444994277      -0.511042514836     -0.61711213058      -0.45976251406      
8800000000.0        -0.6226085398       -0.458080063042     0.375916050924      -0.509984296483     0.375916050924      -0.509984296483     -0.6226085398       -0.458080063042     
8900000000.0        -0.628013486417     -0.456354703235     0.37047812964       -0.508884068629     0.37047812964       -0.508884068629     -0.628013486417     -0.456354703235     
9000000000.0        -0.633328182504     -0.454588802401     0.365130016408      -0.507744202811     0.365130016408      -0.507744202811     -0.633328182504     -0.454588802401     
9100000000.0        -0.638553857505     -0.452784636491     0.359870479821      -0.506566978805     0.359870479821      -0.506566978805     -0.638553857505     -0.452784636491     
9200000000.0        -0.643691755198     -0.450944392358     0.354698274119      -0.505354587334     0.354698274119      -0.505354587334     -0.643691755198     -0.450944392358     
9300000000.0        -0.648743130869     -0.449070170447     0.349612142025      -0.504109132766     0.349612142025      -0.504109132766     -0.648743130869     -0.449070170447     
9400000000.0        -0.653709248682     -0.447163987471     0.344610817365      -0.502832635781     0.344610817365      -0.502832635781     -0.653709248682     -0.447163987471     
9500000000.0        -0.658591379238     -0.445227779048     0.339693027509      -0.501527036012     0.339693027509      -0.501527036012     -0.658591379238     -0.445227779048     
9600000000.0        -0.66339079732      -0.443263402307     0.334857495635      -0.500194194657     0.334857495635      -0.500194194657     -0.66339079732      -0.443263402307     
9700000000.0        -0.6681087798       -0.441272638462     0.330102942807      -0.498835897042     0.330102942807      -0.498835897042     -0.6681087798       -0.441272638462     
9800000000.0        -0.672746603716     -0.439257195326     0.325428089916      -0.497453855147     0.325428089916      -0.497453855147     -0.672746603716     -0.439257195326     
9900000000.0        -0.677305544486     -0.4372187098       0.320831659446      -0.496049710083     0.320831659446      -0.496049710083     -0.677305544486     -0.4372187098       
10000000000.0       -0.681786874282     -0.435158750291     0.316312377118      -0.494625034523     0.316312377118      -0.494625034523     -0.681786874282     -0.435158750291     
