# Hz S RI R 50.00 
100000000.0         -0.013272312805     -0.113931280914     0.986706770217      -0.11403482051      0.986706770217      -0.11403482051      -0.013272312805     -0.113931280914     
200000000.0         -0.050861843167     -0.219133982025     0.9491170805        -0.219341109666     0.9491170805        -0.219341109666     -0.050861843167     -0.219133982025     
300000000.0         -0.107438202683     -0.309028054397     0.892540586638      -0.309338842873     0.892540586638      -0.309338842873     -0.107438202683     -0.309028054397     
400000000.0         -0.176117743281     -0.380222440332     0.823860918707      -0.380636980209     0.823860918707      -0.380636980209     -0.176117743281     -0.380222440332     
500000000.0         -0.250225421323     -0.432389929339     0.74975311343       -0.432908325212     0.74975311343       -0.432908325212     -0.250225421323     -0.432389929339     
600000000.0         -0.32443182384      -0.467355019035     0.675546580246      -0.467977386825     0.675546580246      -0.467977386825     -0.32443182384      -0.467355019035     
700000000.0         -0.395122600923     -0.488015898352     0.604855666969      -0.488742363162     0.604855666969      -0.488742363162     -0.395122600923     -0.488015898352     
800000000.0         -0.460237871011     -0.497501574131     0.539740253795      -0.498332268477     0.539740253795      -0.498332268477     -0.460237871011     -0.497501574131     
900000000.0         -0.51888712623      -0.498674570906     0.481090847642      -0.499609633214     0.481090847642      -0.499609633214     -0.51888712623      -0.498674570906     
1000000000.0        -0.57094897698      -0.493918417753     0.429028837408      -0.494957991076     0.429028837408      -0.494957991076     -0.57094897698      -0.493918417753     
1100000000.0        -0.616749575804     -0.485102626552     0.383228070013      -0.486246857462     0.383228070013      -0.486246857462     -0.616749575804     -0.485102626552     
1200000000.0        -0.656838538696     -0.473635312815     0.343138929039      -0.474884350445     0.343138929039      -0.474884350445     -0.656838538696     -0.473635312815     
1300000000.0        -0.691847708088     -0.460546593249     0.308129571708      -0.461900588469     0.308129571708      -0.461900588469     -0.691847708088     -0.460546593249     
1400000000.0        -0.722409658646     -0.446573140854     0.277567423072      -0.448032245557     0.277567423072      -0.448032245557     -0.722409658646     -0.446573140854     
1500000000.0        -0.74911526511      -0.432231449639     0.250861608146      -0.433795816136     0.250861608146      -0.433795816136     -0.74911526511      -0.432231449639     
1600000000.0        -0.772495050754     -0.417876493234     0.227481603451      -0.419546273735     0.227481603451      -0.419546273735     -0.772495050754     -0.417876493234     
1700000000.0        -0.793014115242     -0.403746601931     0.206962309141      -0.405521948107     0.206962309141      -0.405521948107     -0.793014115242     -0.403746601931     
1800000000.0        -0.811074265087     -0.389996852032     0.188901918545      -0.391877914652     0.188901918545      -0.391877914652     -0.811074265087     -0.389996852032     
1900000000.0        -0.827019556438     -0.376723472543     0.172956375371      -0.378710401168     0.172956375371      -0.378710401168     -0.827019556438     -0.376723472543     
2000000000.0        -0.841143101009     -0.36398148199      0.158832567781      -0.36607442473      0.158832567781      -0.36607442473      -0.841143101009     -0.36398148199      
2100000000.0        -0.853693981944     -0.351797335675     0.146281412512      -0.353996438993     0.146281412512      -0.353996438993     -0.853693981944     -0.351797335675     
2200000000.0        -0.864883709587     -0.340177945815     0.135091399117      -0.342483354378     0.135091399117      -0.342483354378     -0.864883709587     -0.340177945815     
2300000000.0        -0.874891976592     -0.329117087279     0.125082834843      -0.331528943841     0.125082834843      -0.331528943841     -0.874891976592     -0.329117087279     
2400000000.0        -0.883871650315     -0.318599928533     0.116102852247      -0.321118373857     0.116102852247      -0.321118373857     -0.883871650315     -0.318599928533     
2500000000.0        -0.891953031133     -0.308606222294     0.10802115087       -0.311231395103     0.10802115087       -0.311231395103     -0.891953031133     -0.308606222294     
2600000000.0        -0.899247446633     -0.299112539725     0.100726403044      -0.301844576677     0.100726403044      -0.301844576677     -0.899247446633     -0.299112539725     
2700000000.0        -0.905850265805     -0.290093822915     0.0941232397098     -0.292932858602     0.0941232397098     -0.292932858602     -0.905850265805     -0.290093822915     
2800000000.0        -0.911843417543     -0.28152445198      0.0881297319037     -0.284470618939     0.0881297319037     -0.284470618939     -0.911843417543     -0.28152445198      
2900000000.0        -0.917297491243     -0.273378967044     0.0826752901648     -0.276432395795     0.0826752901648     -0.276432395795     -0.917297491243     -0.273378967044     
3000000000.0        -0.922273488073     -0.265632545355     0.0776989132638     -0.268793364442     0.0776989132638     -0.268793364442     -0.922273488073     -0.265632545355     
3100000000.0        -0.926824281772     -0.258261305168     0.0731477274049     -0.261529641218     0.0731477274049     -0.261529641218     -0.926824281772     -0.258261305168     
3200000000.0        -0.930995838629     -0.251242487712     0.0689757662414     -0.2546184655       0.0689757662414     -0.2546184655       -0.930995838629     -0.251242487712     
3300000000.0        -0.934828238101     -0.244554553911     0.065142950263      -0.248038296431     0.065142950263      -0.248038296431     -0.934828238101     -0.244554553911     
3400000000.0        -0.938356528402     -0.238177222146     0.0616142312059     -0.241768850693     0.0616142312059     -0.241768850693     -0.938356528402     -0.238177222146     
3500000000.0        -0.941611445414     -0.232091465829     0.0583588731361     -0.235791100082     0.0583588731361     -0.235791100082     -0.941611445414     -0.232091465829     
3600000000.0        -0.944620018279     -0.22627948422      0.0553498468633     -0.230087242327     0.0553498468633     -0.230087242327     -0.944620018279     -0.22627948422      
3700000000.0        -0.947406080855     -0.220724655998     0.0525633184848     -0.224640654671     0.0525633184848     -0.224640654671     -0.947406080855     -0.220724655998     
3800000000.0        -0.949990704831     -0.215411482392     0.0499782162644     -0.219435836992     0.0499782162644     -0.219435836992     -0.949990704831     -0.215411482392     
3900000000.0        -0.952392567516     -0.210325524583     0.0475758628483     -0.214458349217     0.0475758628483     -0.214458349217     -0.952392567516     -0.210325524583     
4000000000.0        -0.954628265        -0.205453338725     0.0453396621035     -0.209694746336     0.0453396621035     -0.209694746336     -0.954628265        -0.205453338725     
4100000000.0        -0.956712579534     -0.200782410832     0.0432548317363     -0.205132513292     0.0432548317363     -0.205132513292     -0.956712579534     -0.200782410832     
4200000000.0        -0.958658708444     -0.196301093068     0.0413081743774     -0.20076000127      0.0413081743774     -0.20076000127      -0.958658708444     -0.196301093068     
4300000000.0        -0.960478460643     -0.191998542427     0.0394878810739     -0.196566366376     0.0394878810739     -0.196566366376     -0.960478460643     -0.191998542427     
4400000000.0        -0.962182425761     -0.187864662404     0.0377833621531     -0.192541511303     0.0377833621531     -0.192541511303     -0.962182425761     -0.187864662404     
4500000000.0        -0.963780120105     -0.183890048003     0.0361851012675     -0.188676030345     0.0361851012675     -0.188676030345     -0.963780120105     -0.183890048003     
4600000000.0        -0.965280112928     -0.180065934231     0.0346845291233     -0.184961157882     0.0346845291233     -0.184961157882     -0.965280112928     -0.180065934231     
4700000000.0        -0.966690135947     -0.176384148088     0.033273913964      -0.18138872037      0.033273913964      -0.18138872037      -0.966690135947     -0.176384148088     
4800000000.0        -0.968017178555     -0.172837063993     0.031946266356      -0.177951091766     0.031946266356      -0.177951091766     -0.968017178555     -0.172837063993     
4900000000.0        -0.969267570802     -0.169417562514     0.03069525621       -0.174641152257     0.03069525621       -0.174641152257     -0.969267570802     -0.169417562514     
5000000000.0        -0.970447055874     -0.166118992244     0.0295151402986     -0.17145225013      0.0295151402986     -0.17145225013      -0.970447055874     -0.166118992244     
5100000000.0        -0.971560853554     -0.162935134634     0.0284006987987     -0.168378166604     0.0284006987987     -0.168378166604     -0.971560853554     -0.162935134634     
5200000000.0        -0.972613715901     -0.159860171599     0.0273471796129     -0.165413083436     0.0273471796129     -0.165413083436     -0.972613715901     -0.159860171599     
5300000000.0        -0.973609976204     -0.156888655694     0.0263502494104     -0.162551553091     0.0263502494104     -0.162551553091     -0.973609976204     -0.156888655694     
5400000000.0        -0.974553592127     -0.154015482679     0.0254059504877     -0.15978847131      0.0254059504877     -0.15978847131      -0.974553592127     -0.154015482679     
5500000000.0        -0.975448183795     -0.151235866288     0.024510662678      -0.157119051868     0.024510662678      -0.157119051868     -0.975448183795     -0.151235866288     
5600000000.0        -0.976297067495     -0.14854531502      0.023661069654      -0.154538803373     0.023661069654      -0.154538803373     -0.976297067495     -0.14854531502      
5700000000.0        -0.977103285544     -0.145939610802     0.0228541290576     -0.152043507918     0.0228541290576     -0.152043507918     -0.977103285544     -0.145939610802     
5800000000.0        -0.977869632815     -0.143414789358     0.0220870459736     -0.149629201453     0.0220870459736     -0.149629201453     -0.977869632815     -0.143414789358     
5900000000.0        -0.97859868034      -0.140967122148     0.0213572493293     -0.147292155722     0.0213572493293     -0.147292155722     -0.97859868034      -0.140967122148     
6000000000.0        -0.97929279634      -0.138593099749     0.0206623708601     -0.145028861638     0.0206623708601     -0.145028861638     -0.97929279634      -0.138593099749     
6100000000.0        -0.97995416501      -0.136289416548     0.0200002263293     -0.142836013976     0.0200002263293     -0.142836013976     -0.97995416501      -0.136289416548     
6200000000.0        -0.98058480331      -0.134052956641     0.0193687987328     -0.140710497273     0.0193687987328     -0.140710497273     -0.98058480331      -0.134052956641     
6300000000.0        -0.981186576014     -0.131880780842     0.0187662232532     -0.13864937283      0.0187662232532     -0.13864937283      -0.981186576014     -0.131880780842     
6400000000.0        -0.981761209208     -0.129770114693     0.0181907737613     -0.136649866724     0.0181907737613     -0.136649866724     -0.981761209208     -0.129770114693     
6500000000.0        -0.982310302419     -0.127718337407     0.0176408506845     -0.134709358748     0.0176408506845     -0.134709358748     -0.982310302419     -0.127718337407     
6600000000.0        -0.982835339536     -0.125722971655     0.0171149700896     -0.132825372196     0.0171149700896     -0.132825372196     -0.982835339536     -0.125722971655     
6700000000.0        -0.983337698646     -0.123781674128     0.0166117538419     -0.130995564423     0.0166117538419     -0.130995564423     -0.983337698646     -0.123781674128     
6800000000.0        -0.983818660923     -0.121892226813     0.0161299207233     -0.12921771812      0.0161299207233     -0.12921771812      -0.983818660923     -0.121892226813     
6900000000.0        -0.984279418649     -0.120052528919     0.0156682784033     -0.127489733241     0.0156682784033     -0.127489733241     -0.984279418649     -0.120052528919     
7000000000.0        -0.984721082488     -0.118260589404     0.0152257161721     -0.125809619526     0.0152257161721     -0.125809619526     -0.984721082488     -0.118260589404     
7100000000.0        -0.985144688066     -0.116514520051     0.0148011983541     -0.12417548957      0.0148011983541     -0.12417548957      -0.985144688066     -0.116514520051     
7200000000.0        -0.985551201953     -0.11481252904      0.0143937583305     -0.122585552409     0.0143937583305     -0.122585552409     -0.985551201953     -0.11481252904      
7300000000.0        -0.985941527094     -0.113152915        0.0140024931078     -0.121038107554     0.0140024931078     -0.121038107554     -0.985941527094     -0.113152915        
7400000000.0        -0.986316507749     -0.111534061468     0.013626558376      -0.119531539459     0.013626558376      -0.119531539459     -0.986316507749     -0.111534061468     
7500000000.0        -0.986676933994     -0.109954431756     0.0132651640071     -0.118064312384     0.0132651640071     -0.118064312384     -0.986676933994     -0.109954431756     
7600000000.0        -0.987023545829     -0.108412564167     0.0129175699503     -0.116634965611     0.0129175699503     -0.116634965611     -0.987023545829     -0.108412564167     
7700000000.0        -0.987357036925     -0.106907067555     0.0125830824832     -0.115242108999     0.0125830824832     -0.115242108999     -0.987357036925     -0.106907067555     
7800000000.0        -0.987678058048     -0.105436617176     0.0122610507858     -0.113884418841     0.0122610507858     -0.113884418841     -0.987678058048     -0.105436617176     
7900000000.0        -0.987987220197     -0.103999950838     0.0119508638055     -0.112560634006     0.0119508638055     -0.112560634006     -0.987987220197     -0.103999950838     
8000000000.0        -0.988285097475     -0.102595865304     0.0116519473849     -0.111269552344     0.0116519473849     -0.111269552344     -0.988285097475     -0.102595865304     
8100000000.0        -0.988572229723     -0.101223212929     0.0113637616281     -0.110010027327     0.0113637616281     -0.110010027327     -0.988572229723     -0.101223212929     
8200000000.0        -0.988849124937     -0.0998808985389    0.0110857984832     -0.108780964915     0.0110857984832     -0.108780964915     -0.988849124937     -0.0998808985389    
8300000000.0        -0.989116261491     -0.098567876493     0.0108175795205     -0.107581320633     0.0108175795205     -0.107581320633     -0.989116261491     -0.098567876493     
8400000000.0        -0.989374090176     -0.097283147955     0.0105586538892     -0.106410096829     0.0105586538892     -0.106410096829     -0.989374090176     -0.097283147955     
8500000000.0        -0.989623036088     -0.0960257583309    0.0103085964364     -0.105266340116     0.0103085964364     -0.105266340116     -0.989623036088     -0.0960257583309    
8600000000.0        -0.989863500357     -0.0947947948738    0.0100670059732     -0.104149138978     0.0100670059732     -0.104149138978     -0.989863500357     -0.0947947948738    
8700000000.0        -0.990095861747     -0.0935893844402    0.00983350367561    -0.103057621522     0.00983350367561    -0.103057621522     -0.990095861747     -0.0935893844402    
8800000000.0        -0.990320478132     -0.0924086913873    0.00960773160841    -0.101990953378     0.00960773160841    -0.101990953378     -0.990320478132     -0.0924086913873    
8900000000.0        -0.99053768786      -0.0912519156003    0.00938935136092    -0.100948335721     0.00938935136092    -0.100948335721     -0.99053768786      -0.0912519156003    
9000000000.0        -0.990747811018     -0.0901182906427    0.00917804278545    -0.0999290034276    0.00917804278545    -0.0999290034276    -0.990747811018     -0.0901182906427    
9100000000.0        -0.990951150595     -0.089007082018     0.00897350282956    -0.0989322233318    0.00897350282956    -0.0989322233318    -0.990951150595     -0.089007082018     
9200000000.0        -0.991147993565     -0.0879175855385    0.00877544445432    -0.0979572925952    0.00877544445432    -0.0979572925952    -0.991147993565     -0.0879175855385    
9300000000.0        -0.99133861189      -0.0868491257899    0.00858359563143    -0.0970035371714    0.00858359563143    -0.0970035371714    -0.99133861189      -0.0868491257899    
9400000000.0        -0.991523263455     -0.0858010546893    0.00839769841269    -0.0960703103631    0.00839769841269    -0.0960703103631    -0.991523263455     -0.0858010546893    
9500000000.0        -0.991702192923     -0.0847727501262    0.00821750806588    -0.095156991463     0.00821750806588    -0.095156991463     -0.991702192923     -0.0847727501262    
9600000000.0        -0.991875632547     -0.0837636146844    0.00804279227183    -0.0942629844754    0.00804279227183    -0.0942629844754    -0.991875632547     -0.0837636146844    
9700000000.0        -0.992043802909     -0.0827730744374    0.00787333037772    -0.0933877169109    0.00787333037772    -0.0933877169109    -0.992043802909     -0.0827730744374    
9800000000.0        -0.992206913623     -0.0818005778124    0.00770891270205    -0.0925306386504    0.00770891270205    -0.0925306386504    -0.992206913623     -0.0818005778124    
9900000000.0        -0.992365163974     -0.0808455945197    0.00754933988744    -0.0916912208744    0.00754933988744    -0.0916912208744    -0.992365163974     -0.0808455945197    
10000000000.0       -0.992518743529     -0.0799076145423    0.00739442229746    -0.0908689550516    0.00739442229746    -0.0908689550516    -0.992518743529     -0.0799076145423    
