# Hz S RI R 50.00 
100000000.0         -5.79750416861e-05  -0.0077322919289    0.999921359808      -0.0077718099879    0.999921359808      -0.0077718099879    -5.79750416861e-05  -0.0077322919289    
200000000.0         -0.000245852949986  -0.0154613514444    0.999733338594      -0.0155403908564    0.999733338594      -0.0155403908564    -0.000245852949986  -0.0154613514444    
300000000.0         -0.000553737712103  -0.0231842872774    0.999425344576      -0.0233028530431    0.999425344576      -0.0233028530431    -0.000553737712103  -0.0231842872774    
400000000.0         -0.000981377337068  -0.0308982398493    0.998997611974      -0.0310563382844    0.998997611974      -0.0310563382844    -0.000981377337068  -0.0308982398493    
500000000.0         -0.00152843571186   -0.0386003731338    0.998450470091      -0.0387980116702    0.998450470091      -0.0387980116702    -0.00152843571186   -0.0386003731338    
600000000.0         -0.00219448997351   -0.0462878740359    0.997784338335      -0.0465250610907    0.997784338335      -0.0465250610907    -0.00219448997351   -0.0462878740359    
700000000.0         -0.0029790307193    -0.0539579537365    0.996999724076      -0.0542346986148    0.996999724076      -0.0542346986148    -0.0029790307193    -0.0539579537365    
800000000.0         -0.00388146290254   -0.0616078497929    0.996097221051      -0.0619241626114    0.996097221051      -0.0619241626114    -0.00388146290254   -0.0616078497929    
900000000.0         -0.00490110701622   -0.0692348285932    0.995077507868      -0.069590720217     0.995077507868      -0.069590720217     -0.00490110701622   -0.0692348285932    
1000000000.0        -0.00603720046618   -0.0768361879777    0.993941346472      -0.0772316699665    0.993941346472      -0.0772316699665    -0.00603720046618   -0.0768361879777    
1100000000.0        -0.00728889909331   -0.0844092599358    0.992689580537      -0.0848443444974    0.992689580537      -0.0848443444974    -0.00728889909331   -0.0844092599358    
1200000000.0        -0.00865527883012   -0.0919514133044    0.99132313376       -0.0924261132535    0.99132313376       -0.0924261132535    -0.00865527883012   -0.0919514133044    
1300000000.0        -0.0101353374832    -0.0994600564471    0.989843008039      -0.0999743851679    0.989843008039      -0.0999743851679    -0.0101353374832    -0.0994600564471    
1400000000.0        -0.0117279966324    -0.106932639874     0.988250281561      -0.107486611287     0.988250281561      -0.107486611287     -0.0117279966324    -0.106932639874     
1500000000.0        -0.0134321036447    -0.114366658807     0.986546106767      -0.114960287336     0.986546106767      -0.114960287336     -0.0134321036447    -0.114366658807     
1600000000.0        -0.0152464337917    -0.121759655644     0.984731708226      -0.122392956192     0.984731708226      -0.122392956192     -0.0152464337917    -0.121759655644     
1700000000.0        -0.0171696924692    -0.129109222347     0.982808380411      -0.129782210266     0.982808380411      -0.129782210266     -0.0171696924692    -0.129109222347     
1800000000.0        -0.0192005175081    -0.136413002713     0.980777485378      -0.137125693779     0.980777485378      -0.137125693779     -0.0192005175081    -0.136413002713     
1900000000.0        -0.0213374815747    -0.143668694541     0.978640450364      -0.144421104933     0.978640450364      -0.144421104933     -0.0213374815747    -0.143668694541     
2000000000.0        -0.0235790946484    -0.150874051686     0.976398765308      -0.151666197963     0.976398765308      -0.151666197963     -0.0235790946484    -0.150874051686     
2100000000.0        -0.0259238065741    -0.158026885985     0.974053980294      -0.158858785067     0.974053980294      -0.158858785067     -0.0259238065741    -0.158026885985     
2200000000.0        -0.0283700096785    -0.165125069063     0.971607702931      -0.165996738209     0.971607702931      -0.165996738209     -0.0283700096785    -0.165125069063     
2300000000.0        -0.0309160414465    -0.172166534011     0.96906159568       -0.173077990801     0.96906159568       -0.173077990801     -0.0309160414465    -0.172166534011     
2400000000.0        -0.0335601872468    -0.179149276927     0.966417373124      -0.180100539244     0.966417373124      -0.180100539244     -0.0335601872468    -0.179149276927     
2500000000.0        -0.0363006831013    -0.186071358332     0.963676799196      -0.187062444348     0.963676799196      -0.187062444348     -0.0363006831013    -0.186071358332     
2600000000.0        -0.0391357184906    -0.192930904447     0.960841684379      -0.193961832604     0.960841684379      -0.193961832604     -0.0391357184906    -0.192930904447     
2700000000.0        -0.0420634391877    -0.199726108338     0.957913882863      -0.200796897332     0.957913882863      -0.200796897332     -0.0420634391877    -0.199726108338     
2800000000.0        -0.045081950113     -0.206455230922     0.954895289699      -0.20756589969      0.954895289699      -0.20756589969      -0.045081950113     -0.206455230922     
2900000000.0        -0.0481893182028    -0.213116601844     0.95178783792       -0.21426716955      0.95178783792       -0.21426716955      -0.0481893182028    -0.213116601844     
3000000000.0        -0.0513835752846    -0.219708620212     0.948593495673      -0.220899106233     0.948593495673      -0.220899106233     -0.0513835752846    -0.219708620212     
3100000000.0        -0.0546627209523    -0.22622975521      0.945314263342      -0.227460179121     0.945314263342      -0.227460179121     -0.0546627209523    -0.22622975521      
3200000000.0        -0.0580247254346    -0.232678546568     0.941952170676      -0.233948928133     0.941952170676      -0.233948928133     -0.0580247254346    -0.232678546568     
3300000000.0        -0.0614675324487    -0.239053604912     0.938509273938      -0.24036396407      0.938509273938      -0.24036396407      -0.0614675324487    -0.239053604912     
3400000000.0        -0.0649890620359    -0.245353611983     0.93498765307       -0.246703968836     0.93498765307       -0.246703968836     -0.0649890620359    -0.245353611983     
3500000000.0        -0.0685872133694    -0.251577320732     0.93138940888       -0.252967695535     0.93138940888       -0.252967695535     -0.0685872133694    -0.251577320732     
3600000000.0        -0.0722598675309    -0.257723555296     0.927716660273      -0.259153968445     0.927716660273      -0.259153968445     -0.0722598675309    -0.257723555296     
3700000000.0        -0.0760048902503    -0.263791210853     0.923971541503      -0.265261682875     0.923971541503      -0.265261682875     -0.0760048902503    -0.263791210853     
3800000000.0        -0.0798201346019    -0.269779253368     0.920156199483      -0.271289804912     0.920156199483      -0.271289804912     -0.0798201346019    -0.269779253368     
3900000000.0        -0.0837034436528    -0.275686719224     0.916272791135      -0.277237371049     0.916272791135      -0.277237371049     -0.0837034436528    -0.275686719224     
4000000000.0        -0.0876526530605    -0.281512714747     0.912323480788      -0.283103487718     0.912323480788      -0.283103487718     -0.0876526530605    -0.281512714747     
4100000000.0        -0.0916655936117    -0.287256415638     0.908310437645      -0.28888733071      0.908310437645      -0.28888733071      -0.0916655936117    -0.287256415638     
4200000000.0        -0.0957400937021    -0.292917066291     0.9042358333        -0.294588144507     0.9042358333        -0.294588144507     -0.0957400937021    -0.292917066291     
4300000000.0        -0.0998739817509    -0.298493979036     0.900101839326      -0.300205241513     0.900101839326      -0.300205241513     -0.0998739817509    -0.298493979036     
4400000000.0        -0.104065088548     -0.303986533282     0.895910624921      -0.305738001208     0.895910624921      -0.305738001208     -0.104065088548     -0.303986533282     
4500000000.0        -0.108311249531     -0.309394174581     0.891664354643      -0.311185869202     0.891664354643      -0.311185869202     -0.108311249531     -0.309394174581     
4600000000.0        -0.112610306986     -0.314716413612     0.887365186194      -0.31654835623      0.887365186194      -0.31654835623      -0.112610306986     -0.314716413612     
4700000000.0        -0.116960112178     -0.319952825092     0.883015268304      -0.321825037056     0.883015268304      -0.321825037056     -0.116960112178     -0.319952825092     
4800000000.0        -0.121358527396     -0.325103046623     0.878616738675      -0.32701554932      0.878616738675      -0.32701554932      -0.121358527396     -0.325103046623     
4900000000.0        -0.125803427925     -0.330166777466     0.874171722016      -0.332119592314     0.874171722016      -0.332119592314     -0.125803427925     -0.330166777466     
5000000000.0        -0.130292703936     -0.335143777261     0.869682328152      -0.337136925709     0.869682328152      -0.337136925709     -0.130292703936     -0.335143777261     
5100000000.0        -0.134824262284     -0.340033864696     0.865150650218      -0.342067368211     0.865150650218      -0.342067368211     -0.134824262284     -0.340033864696     
5200000000.0        -0.13939602824      -0.344836916125     0.860578762938      -0.346910796188     0.860578762938      -0.346910796188     -0.13939602824      -0.344836916125     
5300000000.0        -0.144005947125     -0.349552864137     0.855968720987      -0.351667142238     0.855968720987      -0.351667142238     -0.144005947125     -0.349552864137     
5400000000.0        -0.148651985864     -0.35418169609      0.851322557435      -0.356336393723     0.851322557435      -0.356336393723     -0.148651985864     -0.35418169609      
5500000000.0        -0.153332134457     -0.358723452613     0.846642282274      -0.36091859127      0.846642282274      -0.36091859127      -0.153332134457     -0.358723452613     
5600000000.0        -0.158044407368     -0.363178226072     0.841929881037      -0.365413827236     0.841929881037      -0.365413827236     -0.158044407368     -0.363178226072     
5700000000.0        -0.162786844822     -0.367546159009     0.837187313495      -0.369822244153     0.837187313495      -0.369822244153     -0.162786844822     -0.367546159009     
5800000000.0        -0.16755751403      -0.371827442566     0.832416512431      -0.374144033146     0.832416512431      -0.374144033146     -0.16755751403      -0.371827442566     
5900000000.0        -0.17235451032      -0.376022314889     0.827619382513      -0.378379432338     0.827619382513      -0.378379432338     -0.17235451032      -0.376022314889     
6000000000.0        -0.177175958199     -0.380131059511     0.822797799231      -0.382528725239     0.822797799231      -0.382528725239     -0.177175958199     -0.380131059511     
6100000000.0        -0.182020012322     -0.384154003738     0.817953607924      -0.386592239124     0.817953607924      -0.386592239124     -0.182020012322     -0.384154003738     
6200000000.0        -0.186884858394     -0.38809151702      0.813088622885      -0.390570343408     0.813088622885      -0.390570343408     -0.186884858394     -0.38809151702      
6300000000.0        -0.191768713984     -0.391944009318     0.808204626539      -0.394463448017     0.808204626539      -0.394463448017     -0.191768713984     -0.391944009318     
6400000000.0        -0.196669829273     -0.395711929483     0.803303368704      -0.398272001759     0.803303368704      -0.398272001759     -0.196669829273     -0.395711929483     
6500000000.0        -0.201586487719     -0.399395763628     0.798386565917      -0.401996490703     0.798386565917      -0.401996490703     -0.201586487719     -0.399395763628     
6600000000.0        -0.206517006659     -0.402996033511     0.793455900838      -0.405637436558     0.793455900838      -0.405637436558     -0.206517006659     -0.402996033511     
6700000000.0        -0.21145973783      -0.406513294928     0.788513021727      -0.40919539507      0.788513021727      -0.40919539507      -0.21145973783      -0.406513294928     
6800000000.0        -0.216413067831     -0.409948136123     0.78355954198       -0.412670954427     0.78355954198       -0.412670954427     -0.216413067831     -0.409948136123     
6900000000.0        -0.221375418517     -0.413301176203     0.778597039742      -0.416064733679     0.778597039742      -0.416064733679     -0.221375418517     -0.413301176203     
7000000000.0        -0.226345247323     -0.416573063582     0.773627057572      -0.419377381181     0.773627057572      -0.419377381181     -0.226345247323     -0.416573063582     
7100000000.0        -0.231321047536     -0.41976447444      0.768651102183      -0.422609573049     0.768651102183      -0.422609573049     -0.231321047536     -0.41976447444      
7200000000.0        -0.236301348497     -0.4228761112       0.763670644228      -0.425762011641     0.763670644228      -0.425762011641     -0.236301348497     -0.4228761112       
7300000000.0        -0.241284715758     -0.425908701037     0.758687118155      -0.428835424063     0.758687118155      -0.428835424063     -0.241284715758     -0.425908701037     
7400000000.0        -0.246269751171     -0.428862994407     0.753701922109      -0.431830560701     0.753701922109      -0.431830560701     -0.246269751171     -0.428862994407     
7500000000.0        -0.251255092935     -0.431739763601     0.748716417886      -0.434748193775     0.748716417886      -0.434748193775     -0.251255092935     -0.431739763601     
7600000000.0        -0.256239415589     -0.434539801339     0.743731930947      -0.437589115928     0.743731930947      -0.437589115928     -0.256239415589     -0.434539801339     
7700000000.0        -0.261221429956     -0.437263919377     0.738749750466      -0.440354138842     0.738749750466      -0.440354138842     -0.261221429956     -0.437263919377     
7800000000.0        -0.266199883042     -0.439912947162     0.733771129433      -0.443044091883     0.733771129433      -0.443044091883     -0.266199883042     -0.439912947162     
7900000000.0        -0.271173557896     -0.442487730504     0.728797284798      -0.445659820782     0.728797284798      -0.445659820782     -0.271173557896     -0.442487730504     
8000000000.0        -0.276141273425     -0.444989130293     0.723829397652      -0.448202186347     0.723829397652      -0.448202186347     -0.276141273425     -0.444989130293     
8100000000.0        -0.281101884169     -0.447418021242     0.718868613453      -0.450672063206     0.718868613453      -0.450672063206     -0.281101884169     -0.447418021242     
8200000000.0        -0.286054280045     -0.449775290666     0.71391604228       -0.45307033859      0.71391604228       -0.45307033859      -0.286054280045     -0.449775290666     
8300000000.0        -0.290997386054     -0.452061837299     0.708972759131      -0.455397911146     0.708972759131      -0.455397911146     -0.290997386054     -0.452061837299     
8400000000.0        -0.295930161956     -0.45427857014      0.704039804245      -0.457655689786     0.704039804245      -0.457655689786     -0.295930161956     -0.45427857014      
8500000000.0        -0.300851601915     -0.456426407343     0.699118183454      -0.459844592572     0.699118183454      -0.459844592572     -0.300851601915     -0.456426407343     
8600000000.0        -0.305760734119     -0.458506275132     0.694208868569      -0.46196554564      0.694208868569      -0.46196554564      -0.305760734119     -0.458506275132     
8700000000.0        -0.31065662037      -0.46051910676      0.689312797785      -0.46401948215      0.689312797785      -0.46401948215      -0.31065662037      -0.46051910676      
8800000000.0        -0.315538355654     -0.462465841501     0.684430876116      -0.466007341286     0.684430876116      -0.466007341286     -0.315538355654     -0.462465841501     
8900000000.0        -0.320405067688     -0.46434742368      0.679563975843      -0.467930067275     0.679563975843      -0.467930067275     -0.320405067688     -0.46434742368      
9000000000.0        -0.325255916445     -0.466164801732     0.674712936989      -0.46978860846      0.674712936989      -0.46978860846      -0.325255916445     -0.466164801732     
9100000000.0        -0.330090093664     -0.467918927302     0.669878567814      -0.471583916391     0.669878567814      -0.471583916391     -0.330090093664     -0.467918927302     
9200000000.0        -0.334906822345     -0.469610754382     0.665061645318      -0.473316944964     0.665061645318      -0.473316944964     -0.334906822345     -0.469610754382     
9300000000.0        -0.33970535622      -0.471241238475     0.660262915765      -0.474988649584     0.660262915765      -0.474988649584     -0.33970535622      -0.471241238475     
9400000000.0        -0.344484979224     -0.472811335802     0.65548309522       -0.476599986375     0.65548309522       -0.476599986375     -0.344484979224     -0.472811335802     
9500000000.0        -0.349245004943     -0.474322002536     0.650722870094      -0.478151911411     0.650722870094      -0.478151911411     -0.349245004943     -0.474322002536     
9600000000.0        -0.353984776058     -0.47577419407      0.645982897705      -0.479645379989     0.645982897705      -0.479645379989     -0.353984776058     -0.47577419407      
9700000000.0        -0.358703663781     -0.477168864328     0.641263806839      -0.481081345931     0.641263806839      -0.481081345931     -0.358703663781     -0.477168864328     
9800000000.0        -0.363401067277     -0.47850696509      0.636566198331      -0.48246076092      0.636566198331      -0.48246076092      -0.363401067277     -0.47850696509      
9900000000.0        -0.368076413086     -0.479789445368     0.631890645637      -0.483784573865     0.631890645637      -0.483784573865     -0.368076413086     -0.479789445368     
10000000000.0       -0.372729154541     -0.481017250796     0.627237695424      -0.485053730304     0.627237695424      -0.485053730304     -0.372729154541     -0.481017250796     
