# Hz S RI R 50.00 
100000000.0         0.000720024839896   -0.00184018363639   0.999256190847      -0.00401515882793   0.999256190847      -0.00401515882793   0.000720024839896   -0.00184018363639   
200000000.0         0.000699957311128   -0.00368028085645   0.999219180188      -0.00803021607462   0.999219180188      -0.00803021607462   0.000699957311128   -0.00368028085645   
300000000.0         0.00066383600353    -0.00552018087761   0.999163930256      -0.0120450911866    0.999163930256      -0.0120450911866    0.00066383600353    -0.00552018087761   
400000000.0         0.000612294006326   -0.00735977167049   0.999089810181      -0.0160596879964    0.999089810181      -0.0160596879964    0.000612294006326   -0.00735977167049   
500000000.0         0.000545576347181   -0.00919893904161   0.998996578778      -0.0200739039728    0.998996578778      -0.0200739039728    0.000545576347181   -0.00919893904161   
600000000.0         0.000463809777416   -0.0110375670981    0.998884114894      -0.0240876327008    0.998884114894      -0.0240876327008    0.000463809777416   -0.0110375670981    
700000000.0         0.000367071314239   -0.0128755386008    0.998752348975      -0.0281007650437    0.998752348975      -0.0281007650437    0.000367071314239   -0.0128755386008    
800000000.0         0.000255413250959   -0.0147127352161    0.998601238118      -0.0321131898089    0.998601238118      -0.0321131898089    0.000255413250958   -0.0147127352161    
900000000.0         0.000128874294946   -0.0165490377017    0.998430755005      -0.0361247941763    0.998430755005      -0.0361247941763    0.000128874294946   -0.0165490377017    
1000000000.0        -1.25147829161e-05  -0.0183843260488    0.998240882296      -0.0401354639972    0.998240882296      -0.0401354639972    -1.25147829161e-05  -0.0183843260488    
1100000000.0        -0.000168728003882  -0.0202184795952    0.998031609532      -0.0441450840132    0.998031609532      -0.0441450840132    -0.000168728003881  -0.0202184795952    
1200000000.0        -0.000339742304179  -0.022051377117     0.99780293129       -0.0481535380254    0.99780293129       -0.0481535380254    -0.000339742304179  -0.022051377117     
1300000000.0        -0.000525536350966  -0.0238828969062    0.997554846035      -0.0521607090291    0.997554846035      -0.0521607090291    -0.000525536350966  -0.0238828969062    
1400000000.0        -0.000726089761484  -0.0257129168362    0.997287355365      -0.0561664793236    0.997287355365      -0.0561664793236    -0.000726089761484  -0.0257129168362    
1500000000.0        -0.000941382568833  -0.0275413144202    0.997000463501      -0.0601707306044    0.997000463501      -0.0601707306044    -0.000941382568833  -0.0275413144202    
1600000000.0        -0.00117139484497   -0.0293679668618    0.996694176934      -0.0641733440428    0.996694176934      -0.0641733440428    -0.00117139484497   -0.0293679668618    
1700000000.0        -0.00141610642758   -0.0311927511014    0.996368504169      -0.0681742003541    0.996368504169      -0.0681742003541    -0.00141610642758   -0.0311927511014    
1800000000.0        -0.00167549671758   -0.0330155438579    0.996023455543      -0.0721731798587    0.996023455543      -0.0721731798587    -0.00167549671758   -0.0330155438579    
1900000000.0        -0.00194954452609   -0.0348362216676    0.995659043082      -0.0761701625362    0.995659043082      -0.0761701625362    -0.00194954452609   -0.0348362216676    
2000000000.0        -0.00223822795671   -0.0366546609196    0.995275280404      -0.0801650280752    0.995275280404      -0.0801650280752    -0.00223822795671   -0.0366546609196    
2100000000.0        -0.00254152431361   -0.0384707378899    0.994872182634      -0.0841576559178    0.994872182634      -0.0841576559178    -0.00254152431361   -0.0384707378899    
2200000000.0        -0.00285941002887   -0.0402843287725    0.994449766344      -0.0881479253014    0.994449766344      -0.0881479253014    -0.00285941002887   -0.0402843287725    
2300000000.0        -0.00319186060429   -0.0420953097103    0.994008049504      -0.0921357152977    0.994008049504      -0.0921357152977    -0.00319186060429   -0.0420953097103    
2400000000.0        -0.0035388505645    -0.0439035568227    0.993547051444      -0.0961209048483    0.993547051444      -0.0961209048483    -0.0035388505645    -0.0439035568227    
2500000000.0        -0.00390035341862   -0.0457089462341    0.993066792819      -0.100103372799     0.993066792819      -0.100103372799     -0.00390035341862   -0.0457089462341    
2600000000.0        -0.00427634162904   -0.0475113540997    0.992567295589      -0.104082997934     0.992567295589      -0.104082997934     -0.00427634162904   -0.0475113540997    
2700000000.0        -0.00466678658549   -0.0493106566313    0.992048582994      -0.108059659002     0.992048582994      -0.108059659002     -0.00466678658549   -0.0493106566313    
2800000000.0        -0.00507165858383   -0.0511067301221    0.991510679536      -0.112033234751     0.991510679536      -0.112033234751     -0.00507165858383   -0.0511067301221    
2900000000.0        -0.00549092680831   -0.0528994509705    0.990953610968      -0.116003603953     0.990953610968      -0.116003603953     -0.00549092680831   -0.0528994509705    
3000000000.0        -0.005924559317     -0.0546886957039    0.990377404275      -0.119970645434     0.990377404275      -0.119970645434     -0.005924559317     -0.0546886957039    
3100000000.0        -0.00637252302975   -0.0564743410012    0.98978208767       -0.123934238095     0.98978208767       -0.123934238095     -0.00637252302975   -0.0564743410012    
3200000000.0        -0.0068347837183    -0.0582562637151    0.989167690577      -0.127894260945     0.989167690577      -0.127894260945     -0.0068347837183    -0.0582562637151    
3300000000.0        -0.00731130599822   -0.0600343408943    0.988534243628      -0.131850593118     0.988534243628      -0.131850593118     -0.00731130599822   -0.0600343408943    
3400000000.0        -0.00780205332251   -0.0618084498045    0.98788177865       -0.135803113904     0.98788177865       -0.135803113904     -0.00780205332251   -0.0618084498045    
3500000000.0        -0.00830698797651   -0.0635784679498    0.98721032866       -0.139751702765     0.98721032866       -0.139751702765     -0.00830698797651   -0.0635784679498    
3600000000.0        -0.00882607107412   -0.065344273093     0.98651992786       -0.143696239365     0.98651992786       -0.143696239365     -0.00882607107412   -0.065344273093     
3700000000.0        -0.00935926255501   -0.0671057432762    0.985810611626      -0.147636603587     0.985810611626      -0.147636603587     -0.00935926255501   -0.0671057432762    
3800000000.0        -0.00990652118286   -0.0688627568405    0.985082416502      -0.151572675556     0.985082416502      -0.151572675556     -0.00990652118286   -0.0688627568405    
3900000000.0        -0.0104678045445    -0.0706151924459    0.984335380196      -0.155504335663     0.984335380196      -0.155504335663     -0.0104678045445    -0.0706151924459    
4000000000.0        -0.0110430690496    -0.0723629290905    0.983569541575      -0.15943146458      0.983569541575      -0.15943146458      -0.0110430690496    -0.0723629290905    
4100000000.0        -0.0116322699315    -0.0741058461296    0.982784940651      -0.163353943288     0.982784940651      -0.163353943288     -0.0116322699315    -0.0741058461296    
4200000000.0        -0.0122353612486    -0.0758438232949    0.981981618585      -0.16727165309      0.981981618585      -0.16727165309      -0.0122353612486    -0.0758438232949    
4300000000.0        -0.0128522958856    -0.0775767407122    0.981159617672      -0.171184475637     0.981159617672      -0.171184475637     -0.0128522958856    -0.0775767407122    
4400000000.0        -0.0134830255566    -0.0793044789208    0.980318981341      -0.17509229294      0.980318981341      -0.17509229294      -0.0134830255566    -0.0793044789208    
4500000000.0        -0.0141275008078    -0.0810269188907    0.979459754144      -0.178994987396     0.979459754144      -0.178994987396     -0.0141275008078    -0.0810269188907    
4600000000.0        -0.014785671021     -0.0827439420408    0.97858198175       -0.182892441803     0.97858198175       -0.182892441803     -0.014785671021     -0.0827439420408    
4700000000.0        -0.0154574844174    -0.0844554302565    0.977685710942      -0.186784539381     0.977685710942      -0.186784539381     -0.0154574844174    -0.0844554302565    
4800000000.0        -0.0161428880621    -0.0861612659069    0.976770989604      -0.190671163786     0.976770989604      -0.190671163786     -0.0161428880621    -0.0861612659069    
4900000000.0        -0.0168418278689    -0.0878613318623    0.975837866721      -0.19455219913      0.975837866721      -0.19455219913      -0.0168418278689    -0.0878613318623    
5000000000.0        -0.0175542486056    -0.0895555115105    0.974886392364      -0.198427530002     0.974886392364      -0.198427530002     -0.0175542486056    -0.0895555115105    
5100000000.0        -0.0182800938993    -0.0912436887743    0.973916617689      -0.202297041478     0.973916617689      -0.202297041478     -0.0182800938993    -0.0912436887743    
5200000000.0        -0.0190193062423    -0.0929257481271    0.972928594925      -0.206160619144     0.972928594925      -0.206160619144     -0.0190193062423    -0.0929257481271    
5300000000.0        -0.0197718269988    -0.0946015746099    0.971922377369      -0.210018149112     0.971922377369      -0.210018149112     -0.0197718269988    -0.0946015746099    
5400000000.0        -0.0205375964112    -0.0962710538471    0.970898019376      -0.213869518032     0.970898019376      -0.213869518032     -0.0205375964112    -0.0962710538471    
5500000000.0        -0.0213165536071    -0.097934072062     0.969855576352      -0.217714613114     0.969855576352      -0.217714613114     -0.0213165536071    -0.097934072062     
5600000000.0        -0.0221086366065    -0.0995905160928    0.968795104744      -0.221553322139     0.968795104744      -0.221553322139     -0.0221086366065    -0.0995905160928    
5700000000.0        -0.0229137823295    -0.101240273408     0.967716662035      -0.22538553348      0.967716662035      -0.22538553348      -0.0229137823295    -0.101240273408     
5800000000.0        -0.023731926604     -0.102883232121     0.966620306729      -0.229211136113     0.966620306729      -0.229211136113     -0.023731926604     -0.102883232121     
5900000000.0        -0.024563004174     -0.104519281007     0.965506098349      -0.233030019632     0.965506098349      -0.233030019632     -0.024563004174     -0.104519281007     
6000000000.0        -0.0254069487078    -0.106148309514     0.964374097421      -0.236842074267     0.964374097421      -0.236842074267     -0.0254069487078    -0.106148309514     
6100000000.0        -0.0262636928066    -0.10777020778      0.96322436547       -0.240647190899     0.96322436547       -0.240647190899     -0.0262636928066    -0.10777020778      
6200000000.0        -0.0271331680138    -0.10938486665      0.962056965007      -0.244445261071     0.962056965007      -0.244445261071     -0.0271331680138    -0.10938486665      
6300000000.0        -0.0280153048239    -0.110992177683     0.96087195952       -0.248236177003     0.96087195952       -0.248236177003     -0.0280153048239    -0.110992177683     
6400000000.0        -0.0289100326918    -0.112592033171     0.959669413466      -0.25201983161      0.959669413466      -0.25201983161      -0.0289100326918    -0.112592033171     
6500000000.0        -0.0298172800426    -0.114184326154     0.958449392258      -0.255796118509     0.958449392258      -0.255796118509     -0.0298172800426    -0.114184326154     
6600000000.0        -0.0307369742816    -0.115768950426     0.957211962254      -0.25956493204      0.957211962254      -0.25956493204      -0.0307369742816    -0.115768950426     
6700000000.0        -0.0316690418041    -0.117345800559     0.955957190751      -0.263326167272     0.955957190751      -0.263326167272     -0.0316690418041    -0.117345800559     
6800000000.0        -0.0326134080058    -0.118914771905     0.954685145967      -0.267079720022     0.954685145967      -0.267079720022     -0.0326134080058    -0.118914771905     
6900000000.0        -0.0335699972934    -0.120475760617     0.953395897039      -0.270825486863     0.953395897039      -0.270825486863     -0.0335699972934    -0.120475760617     
7000000000.0        -0.0345387330951    -0.122028663657     0.952089514004      -0.274563365141     0.952089514004      -0.274563365141     -0.0345387330951    -0.122028663657     
7100000000.0        -0.0355195378718    -0.123573378809     0.950766067791      -0.278293252984     0.950766067791      -0.278293252984     -0.0355195378718    -0.123573378809     
7200000000.0        -0.036512333128     -0.125109804695     0.949425630211      -0.282015049313     0.949425630211      -0.282015049313     -0.036512333128     -0.125109804695     
7300000000.0        -0.037517039423     -0.126637840779     0.948068273942      -0.285728653858     0.948068273942      -0.285728653858     -0.037517039423     -0.126637840779     
7400000000.0        -0.0385335763825    -0.128157387387     0.946694072519      -0.289433967167     0.946694072519      -0.289433967167     -0.0385335763825    -0.128157387387     
7500000000.0        -0.0395618627102    -0.129668345713     0.945303100323      -0.293130890617     0.945303100323      -0.293130890617     -0.0395618627102    -0.129668345713     
7600000000.0        -0.0406018161995    -0.131170617831     0.943895432567      -0.296819326425     0.943895432567      -0.296819326425     -0.0406018161995    -0.131170617831     
7700000000.0        -0.0416533537455    -0.132664106707     0.942471145285      -0.30049917766      0.942471145285      -0.30049917766      -0.0416533537455    -0.132664106707     
7800000000.0        -0.0427163913572    -0.13414871621      0.941030315319      -0.304170348251     0.941030315319      -0.304170348251     -0.0427163913572    -0.13414871621      
7900000000.0        -0.0437908441695    -0.135624351122     0.939573020307      -0.307832743003     0.939573020307      -0.307832743003     -0.0437908441695    -0.135624351122     
8000000000.0        -0.0448766264559    -0.137090917146     0.93809933867       -0.3114862676       0.93809933867       -0.3114862676       -0.0448766264559    -0.137090917146     
8100000000.0        -0.0459736516409    -0.138548320918     0.936609349599      -0.315130828617     0.936609349599      -0.315130828617     -0.0459736516409    -0.138548320918     
8200000000.0        -0.0470818323124    -0.13999647002      0.935103133042      -0.318766333533     0.935103133042      -0.318766333533     -0.0470818323124    -0.13999647002      
8300000000.0        -0.048201080235     -0.141435272981     0.933580769693      -0.322392690737     0.933580769693      -0.322392690737     -0.048201080235     -0.141435272981     
8400000000.0        -0.0493313063627    -0.142864639294     0.932042340976      -0.326009809536     0.932042340976      -0.326009809536     -0.0493313063627    -0.142864639294     
8500000000.0        -0.0504724208516    -0.144284479423     0.930487929033      -0.329617600166     0.930487929033      -0.329617600166     -0.0504724208516    -0.144284479423     
8600000000.0        -0.0516243330737    -0.14569470481      0.928917616711      -0.333215973802     0.928917616711      -0.333215973802     -0.0516243330737    -0.14569470481      
8700000000.0        -0.0527869516296    -0.147095227882     0.927331487547      -0.336804842562     0.927331487547      -0.336804842562     -0.0527869516296    -0.147095227882     
8800000000.0        -0.0539601843621    -0.148485962066     0.925729625758      -0.340384119518     0.925729625758      -0.340384119518     -0.0539601843621    -0.148485962066     
8900000000.0        -0.0551439383697    -0.14986682179      0.924112116224      -0.343953718702     0.924112116224      -0.343953718702     -0.0551439383697    -0.14986682179      
9000000000.0        -0.0563381200199    -0.151237722495     0.922479044474      -0.347513555116     0.922479044474      -0.347513555116     -0.0563381200199    -0.151237722495     
9100000000.0        -0.0575426349633    -0.152598580639     0.920830496674      -0.351063544736     0.920830496674      -0.351063544736     -0.0575426349633    -0.152598580639     
9200000000.0        -0.0587573881467    -0.153949313709     0.919166559614      -0.354603604522     0.919166559614      -0.354603604522     -0.0587573881467    -0.153949313709     
9300000000.0        -0.0599822838275    -0.155289840223     0.917487320691      -0.358133652423     0.917487320691      -0.358133652423     -0.0599822838275    -0.155289840223     
9400000000.0        -0.0612172255871    -0.156620079741     0.915792867898      -0.361653607384     0.915792867898      -0.361653607384     -0.0612172255871    -0.156620079741     
9500000000.0        -0.0624621163452    -0.157939952869     0.914083289806      -0.365163389352     0.914083289806      -0.365163389352     -0.0624621163452    -0.157939952869     
9600000000.0        -0.0637168583734    -0.159249381266     0.912358675556      -0.368662919281     0.912358675556      -0.368662919281     -0.0637168583734    -0.159249381266     
9700000000.0        -0.0649813533097    -0.16054828765      0.910619114838      -0.372152119141     0.910619114838      -0.372152119141     -0.0649813533097    -0.16054828765      
9800000000.0        -0.0662555021723    -0.161836595804     0.908864697882      -0.37563091192      0.908864697882      -0.37563091192      -0.0662555021723    -0.161836595804     
9900000000.0        -0.0675392053739    -0.163114230582     0.907095515439      -0.37909922163      0.907095515439      -0.37909922163      -0.0675392053739    -0.163114230582     
10000000000.0       -0.0688323627359    -0.164381117913     0.905311658772      -0.382556973316     0.905311658772      -0.382556973316     -0.0688323627359    -0.164381117913     
