# Hz S RI R 50.00 
100000000.0         0.00302400777189    0.000300087942742   0.996974766701      -0.00051771645636   0.996974766701      -0.00051771645636   0.00302400777189    0.000300087942742   
200000000.0         0.00304434133966    0.000600142972221   0.996954160195      -0.00103540039416   0.996954160195      -0.00103540039416   0.00304434133966    0.000600142972221   
300000000.0         0.00305961239394    0.000900178037415   0.996938568788      -0.00155306501388   0.996938568788      -0.00155306501388   0.00305961239394    0.000900178037415   
400000000.0         0.00307244928259    0.00120019744009    0.996925364134      -0.00207071481362   0.996925364134      -0.00207071481362   0.00307244928259    0.00120019744009    
500000000.0         0.00308386593325    0.00150020346891    0.996913532302      -0.00258835225097   0.996913532302      -0.00258835225097   0.00308386593325    0.00150020346891    
600000000.0         0.0030943802792     0.00180019752035    0.996902555358      -0.00310597887354   0.996902555358      -0.00310597887354   0.0030943802792     0.00180019752035    
700000000.0         0.00310429876549    0.00210018050142    0.996892126855      -0.00362359572652   0.996892126855      -0.00362359572652   0.00310429876549    0.00210018050142    
800000000.0         0.00311382024866    0.00240015301631    0.996882047936      -0.00414120354245   0.996882047936      -0.00414120354245   0.00311382024866    0.00240015301631    
900000000.0         0.00312308228597    0.00270011546668    0.996872181042      -0.00465880284337   0.996872181042      -0.00465880284337   0.00312308228597    0.00270011546668    
1000000000.0        0.00313218461189    0.00300006811106    0.996862426435      -0.00517639400157   0.996862426435      -0.00517639400157   0.00313218461189    0.00300006811106    
1100000000.0        0.00314120219599    0.00330001110256    0.996852709146      -0.00569397727819   0.996852709146      -0.00569397727819   0.00314120219599    0.00330001110256    
1200000000.0        0.00315019302849    0.00359994451396    0.996842971182      -0.0062115528493    0.996842971182      -0.0062115528493    0.00315019302849    0.00359994451396    
1300000000.0        0.00315920302093    0.00389986835548    0.996833166629      -0.00672912082398   0.996833166629      -0.00672912082398   0.00315920302093    0.00389986835548    
1400000000.0        0.00316826922952    0.00419978258735    0.99682325843       -0.00724668125759   0.99682325843       -0.00724668125759   0.00316826922952    0.00419978258735    
1500000000.0        0.00317742205276    0.00449968712925    0.996813216184      -0.00776423416152   0.996813216184      -0.00776423416152   0.00317742205276    0.00449968712925    
1600000000.0        0.0031866867756     0.00479958186752    0.996803014604      -0.00828177951069   0.996803014604      -0.00828177951069   0.0031866867756     0.00479958186752    
1700000000.0        0.00319608468319    0.00509946666062    0.996792632402      -0.00879931724937   0.996792632402      -0.00879931724937   0.00319608468319    0.00509946666062    
1800000000.0        0.00320563388156    0.0053993413436     0.99678205147       -0.00931684729568   0.99678205147       -0.00931684729568   0.00320563388156    0.0053993413436     
1900000000.0        0.00321534991485    0.00569920573144    0.996771256263      -0.00983436954548   0.996771256263      -0.00983436954548   0.00321534991485    0.00569920573144    
2000000000.0        0.00322524623683    0.00599905962203    0.996760233323      -0.0103518838752    0.996760233323      -0.0103518838752    0.00322524623683    0.00599905962203    
2100000000.0        0.00323533457702    0.00629890279844    0.996748970919      -0.0108693901442    0.996748970919      -0.0108693901442    0.00323533457702    0.00629890279844    
2200000000.0        0.0032456252286     0.00659873503073    0.996737458755      -0.0113868881974    0.996737458755      -0.0113868881974    0.0032456252286     0.00659873503073    
2300000000.0        0.00325612727762    0.00689855607774    0.996725687743      -0.011904377866     0.996725687743      -0.011904377866     0.00325612727762    0.00689855607774    
2400000000.0        0.00326684878749    0.00719836568832    0.996713649817      -0.0124218589701    0.996713649817      -0.0124218589701    0.00326684878749    0.00719836568832    
2500000000.0        0.00327779694892    0.00749816360248    0.996701337782      -0.012939331319     0.996701337782      -0.012939331319     0.00327779694892    0.00749816360248    
2600000000.0        0.00328897820289    0.00779794955245    0.996688745197      -0.0134567947128    0.996688745197      -0.0134567947128    0.00328897820289    0.00779794955245    
2700000000.0        0.00330039834239    0.00809772326344    0.996675866264      -0.0139742489431    0.996675866264      -0.0139742489431    0.00330039834239    0.00809772326344    
2800000000.0        0.00331206259712    0.00839748445443    0.996662695751      -0.0144916937938    0.996662695751      -0.0144916937938    0.00331206259712    0.00839748445443    
2900000000.0        0.0033239757046     0.00869723283878    0.996649228919      -0.015009129042     0.996649228919      -0.015009129042     0.0033239757046     0.00869723283878    
3000000000.0        0.00333614197027    0.0089969681248     0.996635461458      -0.0155265544585    0.996635461458      -0.0155265544585    0.00333614197027    0.0089969681248     
3100000000.0        0.00334856531847    0.00929669001626    0.996621389441      -0.0160439698082    0.996621389441      -0.0160439698082    0.00334856531847    0.00929669001626    
3200000000.0        0.00336124933604    0.00959639821274    0.996607009279      -0.0165613748508    0.996607009279      -0.0165613748508    0.00336124933604    0.00959639821274    
3300000000.0        0.0033741973098     0.00989609241014    0.996592317681      -0.0170787693411    0.996592317681      -0.0170787693411    0.0033741973098     0.00989609241014    
3400000000.0        0.00338741225881    0.0101957723009     0.996577311626      -0.0175961530294    0.996577311626      -0.0175961530294    0.00338741225881    0.0101957723009     
3500000000.0        0.00340089696241    0.0104954375743     0.99656198833       -0.018113525662     0.99656198833       -0.018113525662     0.00340089696241    0.0104954375743     
3600000000.0        0.00341465398463    0.010795087917      0.996546345227      -0.0186308869812    0.996546345227      -0.0186308869812    0.00341465398463    0.010795087917      
3700000000.0        0.00342868569546    0.0110947230129     0.996530379944      -0.0191482367258    0.996530379944      -0.0191482367258    0.00342868569546    0.0110947230129     
3800000000.0        0.00344299428964    0.0113943425435     0.996514090282      -0.0196655746315    0.996514090282      -0.0196655746315    0.00344299428964    0.0113943425435     
3900000000.0        0.00345758180305    0.0116939461883     0.996497474202      -0.0201829004307    0.996497474202      -0.0201829004307    0.00345758180305    0.0116939461883     
4000000000.0        0.00347245012737    0.0119935336246     0.996480529809      -0.0207002138531    0.996480529809      -0.0207002138531    0.00347245012737    0.0119935336246     
4100000000.0        0.00348760102288    0.0122931045281     0.996463255339      -0.0212175146256    0.996463255339      -0.0212175146256    0.00348760102288    0.0122931045281     
4200000000.0        0.00350303613005    0.0125926585726     0.996445649149      -0.0217348024728    0.996445649149      -0.0217348024728    0.00350303613005    0.0125926585726     
4300000000.0        0.00351875697969    0.0128921954305     0.996427709704      -0.0222520771168    0.996427709704      -0.0222520771168    0.00351875697969    0.0128921954305     
4400000000.0        0.00353476500216    0.0131917147728     0.99640943557       -0.0227693382776    0.99640943557       -0.0227693382776    0.00353476500216    0.0131917147728     
4500000000.0        0.00355106153554    0.0134912162692     0.996390825406      -0.0232865856731    0.996390825406      -0.0232865856731    0.00355106153554    0.0134912162692     
4600000000.0        0.00356764783303    0.0137906995881     0.996371877954      -0.0238038190194    0.996371877954      -0.0238038190194    0.00356764783303    0.0137906995881     
4700000000.0        0.00358452506959    0.0140901643968     0.996352592036      -0.0243210380307    0.996352592036      -0.0243210380307    0.00358452506958    0.0140901643968     
4800000000.0        0.00360169434793    0.0143896103616     0.996332966546      -0.0248382424195    0.996332966546      -0.0248382424195    0.00360169434793    0.0143896103616     
4900000000.0        0.00361915670396    0.0146890371481     0.996313000444      -0.0253554318967    0.996313000444      -0.0253554318967    0.00361915670396    0.0146890371481     
5000000000.0        0.00363691311169    0.0149884444206     0.996292692751      -0.0258726061717    0.996292692751      -0.0258726061717    0.00363691311169    0.0149884444206     
5100000000.0        0.00365496448776    0.0152878318429     0.996272042548      -0.0263897649524    0.996272042548      -0.0263897649524    0.00365496448776    0.0152878318429     
5200000000.0        0.0036733116954     0.0155871990781     0.996251048968      -0.0269069079456    0.996251048968      -0.0269069079456    0.00367331169541    0.0155871990781     
5300000000.0        0.0036919555483     0.0158865457886     0.996229711192      -0.0274240348565    0.996229711192      -0.0274240348565    0.0036919555483     0.0158865457886     
5400000000.0        0.00371089681386    0.0161858716359     0.99620802845       -0.0279411453893    0.99620802845       -0.0279411453893    0.00371089681386    0.0161858716359     
5500000000.0        0.00373013621638    0.0164851762813     0.996186000013      -0.028458239247     0.996186000013      -0.028458239247     0.00373013621638    0.0164851762813     
5600000000.0        0.00374967443989    0.0167844593855     0.996163625193      -0.0289753161315    0.996163625193      -0.0289753161315    0.00374967443989    0.0167844593855     
5700000000.0        0.00376951213077    0.0170837206085     0.99614090334       -0.0294923757437    0.99614090334       -0.0294923757437    0.00376951213077    0.0170837206085     
5800000000.0        0.00378964990012    0.0173829596103     0.996117833839      -0.0300094177836    0.996117833839      -0.0300094177836    0.00378964990012    0.0173829596103     
5900000000.0        0.00381008832601    0.0176821760501     0.996094416106      -0.0305264419501    0.996094416106      -0.0305264419501    0.00381008832601    0.0176821760501     
6000000000.0        0.00383082795551    0.0179813695869     0.996070649592      -0.0310434479414    0.996070649592      -0.0310434479414    0.00383082795551    0.0179813695869     
6100000000.0        0.00385186930658    0.0182805398794     0.996046533774      -0.0315604354548    0.996046533774      -0.0315604354548    0.00385186930658    0.0182805398794     
6200000000.0        0.00387321286979    0.0185796865859     0.996022068156      -0.0320774041868    0.996022068156      -0.0320774041868    0.00387321286979    0.0185796865859     
6300000000.0        0.00389485910996    0.0188788093647     0.995997252271      -0.0325943538332    0.995997252271      -0.0325943538332    0.00389485910996    0.0188788093647     
6400000000.0        0.00391680846765    0.0191779078736     0.995972085673      -0.033111284089     0.995972085673      -0.033111284089     0.00391680846765    0.0191779078736     
6500000000.0        0.00393906136052    0.0194769817703     0.995946567939      -0.0336281946485    0.995946567939      -0.0336281946485    0.00393906136052    0.0194769817703     
6600000000.0        0.00396161818467    0.0197760307122     0.995920698671      -0.0341450852056    0.995920698671      -0.0341450852056    0.00396161818467    0.0197760307122     
6700000000.0        0.00398447931578    0.0200750543568     0.995894477487      -0.0346619554532    0.995894477487      -0.0346619554532    0.00398447931578    0.0200750543568     
6800000000.0        0.00400764511027    0.0203740523611     0.995867904027      -0.035178805084     0.995867904027      -0.035178805084     0.00400764511027    0.0203740523611     
6900000000.0        0.00403111590633    0.0206730243824     0.995840977948      -0.0356956337899    0.995840977948      -0.0356956337899    0.00403111590633    0.0206730243824     
7000000000.0        0.00405489202487    0.0209719700775     0.995813698924      -0.0362124412623    0.995813698924      -0.0362124412623    0.00405489202487    0.0209719700775     
7100000000.0        0.00407897377045    0.0212708891033     0.995786066647      -0.0367292271921    0.995786066647      -0.0367292271921    0.00407897377045    0.0212708891033     
7200000000.0        0.00410336143212    0.0215697811168     0.995758080823      -0.0372459912699    0.995758080823      -0.0372459912699    0.00410336143212    0.0215697811168     
7300000000.0        0.00412805528422    0.0218686457745     0.995729741173      -0.0377627331855    0.995729741173      -0.0377627331855    0.00412805528422    0.0218686457745     
7400000000.0        0.00415305558709    0.0221674827334     0.995701047432      -0.0382794526286    0.995701047432      -0.0382794526286    0.00415305558709    0.0221674827334     
7500000000.0        0.0041783625878     0.0224662916501     0.995671999349      -0.0387961492883    0.995671999349      -0.0387961492883    0.0041783625878     0.0224662916501     
7600000000.0        0.00420397652079    0.0227650721813     0.995642596684      -0.0393128228533    0.995642596684      -0.0393128228533    0.00420397652079    0.0227650721813     
7700000000.0        0.0042298976085     0.0230638239838     0.995612839209      -0.039829473012     0.995612839209      -0.039829473012     0.0042298976085     0.0230638239838     
7800000000.0        0.00425612606189    0.0233625467142     0.995582726711      -0.0403460994524    0.995582726711      -0.0403460994524    0.00425612606189    0.0233625467142     
7900000000.0        0.00428266208105    0.0236612400294     0.995552258983      -0.0408627018622    0.995552258983      -0.0408627018622    0.00428266208105    0.0236612400294     
8000000000.0        0.00430950585568    0.0239599035861     0.995521435831      -0.0413792799286    0.995521435831      -0.0413792799286    0.00430950585568    0.0239599035861     
8100000000.0        0.00433665756555    0.0242585370413     0.99549025707       -0.0418958333387    0.99549025707       -0.0418958333387    0.00433665756555    0.0242585370413     
8200000000.0        0.00436411738097    0.0245571400517     0.995458722526      -0.0424123617792    0.995458722526      -0.0424123617792    0.00436411738097    0.0245571400517     
8300000000.0        0.00439188546324    0.0248557122745     0.995426832032      -0.0429288649367    0.995426832032      -0.0429288649367    0.00439188546324    0.0248557122745     
8400000000.0        0.004419961965      0.0251542533666     0.995394585431      -0.0434453424971    0.995394585431      -0.0434453424971    0.004419961965      0.0251542533666     
8500000000.0        0.00444834703065    0.0254527629852     0.995361982574      -0.0439617941466    0.995361982574      -0.0439617941466    0.00444834703065    0.0254527629852     
8600000000.0        0.0044770407967     0.0257512407876     0.995329023318      -0.0444782195707    0.995329023318      -0.0444782195707    0.0044770407967     0.0257512407876     
8700000000.0        0.00450604339209    0.026049686431      0.99529570753       -0.0449946184549    0.99529570753       -0.0449946184549    0.00450604339209    0.026049686431      
8800000000.0        0.00453535493854    0.026348099573      0.995262035083      -0.0455109904845    0.995262035083      -0.0455109904845    0.00453535493854    0.026348099573      
8900000000.0        0.00456497555083    0.026646479871      0.995228005858      -0.0460273353444    0.995228005858      -0.0460273353444    0.00456497555083    0.026646479871      
9000000000.0        0.0045949053371     0.0269448269828     0.995193619741      -0.0465436527194    0.995193619741      -0.0465436527194    0.0045949053371     0.0269448269828     
9100000000.0        0.00462514439912    0.0272431405661     0.995158876626      -0.0470599422943    0.995158876626      -0.0470599422943    0.00462514439912    0.0272431405661     
9200000000.0        0.00465569283255    0.027541420279      0.995123776412      -0.0475762037535    0.995123776412      -0.0475762037535    0.00465569283255    0.027541420279      
9300000000.0        0.00468655072718    0.0278396657794     0.995088319003      -0.0480924367813    0.995088319003      -0.0480924367813    0.00468655072718    0.0278396657794     
9400000000.0        0.00471771816717    0.0281378767256     0.995052504311      -0.0486086410617    0.995052504311      -0.0486086410617    0.00471771816717    0.0281378767256     
9500000000.0        0.00474919523125    0.028436052776      0.995016332251      -0.0491248162789    0.995016332251      -0.0491248162789    0.00474919523125    0.028436052776      
9600000000.0        0.00478098199298    0.028734193589      0.994979802745      -0.0496409621166    0.994979802745      -0.0496409621166    0.00478098199298    0.028734193589      
9700000000.0        0.00481307852089    0.0290322988234     0.99494291572       -0.0501570782585    0.99494291572       -0.0501570782585    0.00481307852089    0.0290322988234     
9800000000.0        0.00484548487871    0.029330368138      0.994905671105      -0.0506731643883    0.994905671105      -0.0506731643883    0.00484548487871    0.029330368138      
9900000000.0        0.00487820112552    0.0296284011918     0.994868068838      -0.0511892201894    0.994868068838      -0.0511892201894    0.00487820112552    0.0296284011918     
10000000000.0       0.00491122731596    0.0299263976439     0.994830108857      -0.0517052453451    0.994830108857      -0.0517052453451    0.00491122731596    0.0299263976439     
