# Hz S RI R 50.00 
100000000.0         0.000156273020286   -0.0043903940284    0.999782939901      -0.00561597908917   0.999782939901      -0.00561597908917   0.000156273020286   -0.0043903940284    
200000000.0         7.87023095425e-05   -0.00878023000255   0.999700591272      -0.0112314508908    0.999700591272      -0.0112314508908    7.87023095425e-05   -0.00878023000255   
300000000.0         -4.84964448552e-05  -0.0131689143806    0.999567757896      -0.0168458558266    0.999567757896      -0.0168458558266    -4.84964448552e-05  -0.0131689143806    
400000000.0         -0.000225143042515  -0.0175558226713    0.999384298029      -0.0224585956938    0.999384298029      -0.0224585956938    -0.000225143042515  -0.0175558226713    
500000000.0         -0.000451145903454  -0.021940314453     0.999150179271      -0.0280690529437    0.999150179271      -0.0280690529437    -0.000451145903454  -0.021940314453     
600000000.0         -0.00072643284678   -0.0263217389682    0.998865410394      -0.0336765975493    0.998865410394      -0.0336765975493    -0.00072643284678   -0.0263217389682    
700000000.0         -0.00105093329219   -0.0306994381465    0.998530024266      -0.0392805906446    0.998530024266      -0.0392805906446    -0.00105093329219   -0.0306994381465    
800000000.0         -0.00142457163613   -0.0350727485461    0.998144071772      -0.0448803868259    0.998144071772      -0.0448803868259    -0.00142457163613   -0.0350727485461    
900000000.0         -0.00184726421886   -0.0394410027439    0.997707619205      -0.0504753357739    0.997707619205      -0.0504753357739    -0.00184726421886   -0.0394410027439    
1000000000.0        -0.00231891773201   -0.0438035304087    0.997220746998      -0.0560647834882    0.997220746998      -0.0560647834882    -0.00231891773201   -0.0438035304087    
1100000000.0        -0.00283942829769   -0.0481596591772    0.996683549059      -0.0616480732812    0.996683549059      -0.0616480732812    -0.00283942829769   -0.0481596591772    
1200000000.0        -0.00340868089818   -0.0525087153991    0.996096132402      -0.0672245466131    0.996096132402      -0.0672245466131    -0.00340868089818   -0.0525087153991    
1300000000.0        -0.00402654900594   -0.0568500247928    0.995458616927      -0.0727935438162    0.995458616927      -0.0727935438162    -0.00402654900594   -0.0568500247928    
1400000000.0        -0.00469289433737   -0.061182913034     0.994771135274      -0.0783544047407    0.994771135274      -0.0783544047407    -0.00469289433737   -0.061182913034     
1500000000.0        -0.00540756668823   -0.0655067062966    0.994033832729      -0.083906469341     0.994033832729      -0.083906469341     -0.00540756668823   -0.0655067062966    
1600000000.0        -0.0061704038265    -0.0698207317557    0.993246867144      -0.0894490782168    0.993246867144      -0.0894490782168    -0.0061704038265    -0.0698207317557    
1700000000.0        -0.00698123142766   -0.0741243180608    0.99241040887       -0.0949815731181    0.99241040887       -0.0949815731181    -0.00698123142766   -0.0741243180608    
1800000000.0        -0.00783986304313   -0.0784167957849    0.991524640694      -0.100503297423     0.991524640694      -0.100503297423     -0.00783986304313   -0.0784167957849    
1900000000.0        -0.00874610009545   -0.0826974978538    0.990589757767      -0.106013596588     0.990589757767      -0.106013596588     -0.00874610009545   -0.0826974978538    
2000000000.0        -0.00969973189597   -0.0869657599581    0.989605967533      -0.111511818584     0.989605967533      -0.111511818584     -0.00969973189597   -0.0869657599581    
2100000000.0        -0.010700535682     -0.0912209209507    0.98857348965       -0.11699731431      0.98857348965       -0.11699731431      -0.010700535682     -0.0912209209507    
2200000000.0        -0.0117482766714    -0.0954623232311    0.987492555903      -0.122469437993     0.987492555903      -0.122469437993     -0.0117482766714    -0.0954623232311    
2300000000.0        -0.0128427081324    -0.0996893131175    0.986363410105      -0.127927547577     0.986363410105      -0.127927547577     -0.0128427081324    -0.0996893131175    
2400000000.0        -0.0139835714678    -0.103901241209     0.985186307992      -0.133371005096     0.985186307992      -0.133371005096     -0.0139835714678    -0.103901241209     
2500000000.0        -0.0151705963128    -0.108097462735     0.983961517112      -0.138799177034     0.983961517112      -0.138799177034     -0.0151705963128    -0.108097462735     
2600000000.0        -0.0164035006448    -0.112277337901     0.982689316696      -0.144211434683     0.982689316696      -0.144211434683     -0.0164035006448    -0.112277337901     
2700000000.0        -0.0176819909047    -0.116440232217     0.981369997531      -0.149607154482     0.981369997531      -0.149607154482     -0.0176819909047    -0.116440232217     
2800000000.0        -0.0190057621301    -0.120585516822     0.980003861812      -0.15498571835      0.980003861812      -0.15498571835      -0.0190057621301    -0.120585516822     
2900000000.0        -0.0203744980976    -0.1247125688       0.978591222996      -0.160346514006     0.978591222996      -0.160346514006     -0.0203744980976    -0.1247125688       
3000000000.0        -0.0217878714766    -0.128820771485     0.97713240564       -0.165688935286     0.97713240564       -0.165688935286     -0.0217878714766    -0.128820771485     
3100000000.0        -0.0232455439914    -0.13290951476      0.975627745234      -0.171012382449     0.975627745234      -0.171012382449     -0.0232455439914    -0.13290951476      
3200000000.0        -0.0247471665933    -0.136978195342     0.974077588021      -0.176316262465     0.974077588021      -0.176316262465     -0.0247471665933    -0.136978195342     
3300000000.0        -0.0262923796406    -0.14102621707      0.97248229082       -0.18159998931      0.97248229082       -0.18159998931      -0.0262923796406    -0.14102621707      
3400000000.0        -0.0278808130874    -0.145052991168     0.970842220828      -0.186862984238     0.970842220828      -0.186862984238     -0.0278808130874    -0.145052991168     
3500000000.0        -0.0295120866799    -0.149057936515     0.969157755423      -0.192104676052     0.969157755423      -0.192104676052     -0.0295120866799    -0.149057936515     
3600000000.0        -0.031185810161     -0.153040479899     0.967429281955      -0.197324501361     0.967429281955      -0.197324501361     -0.031185810161     -0.153040479899     
3700000000.0        -0.0329015834809    -0.15700005626      0.965657197536      -0.202521904837     0.965657197536      -0.202521904837     -0.0329015834809    -0.15700005626      
3800000000.0        -0.0346589970153    -0.160936108932     0.96384190882       -0.207696339451     0.96384190882       -0.207696339451     -0.0346589970153    -0.160936108932     
3900000000.0        -0.03645763179      -0.164848089868     0.961983831774      -0.212847266706     0.961983831774      -0.212847266706     -0.03645763179      -0.164848089868     
4000000000.0        -0.0382970597112    -0.168735459862     0.960083391447      -0.217974156865     0.960083391447      -0.217974156865     -0.0382970597112    -0.168735459862     
4100000000.0        -0.040176843802     -0.172597688762     0.958141021735      -0.223076489163     0.958141021735      -0.223076489163     -0.040176843802     -0.172597688762     
4200000000.0        -0.0420965384437    -0.176434255669     0.956157165136      -0.228153752013     0.956157165136      -0.228153752013     -0.0420965384437    -0.176434255669     
4300000000.0        -0.0440556896227    -0.18024464913      0.954132272502      -0.233205443204     0.954132272502      -0.233205443204     -0.0440556896227    -0.18024464913      
4400000000.0        -0.0460538351817    -0.184028367327     0.952066802788      -0.238231070084     0.952066802788      -0.238231070084     -0.0460538351817    -0.184028367327     
4500000000.0        -0.0480905050757    -0.187784918248     0.949961222796      -0.243230149743     0.949961222796      -0.243230149743     -0.0480905050757    -0.187784918248     
4600000000.0        -0.0501652216314    -0.191513819855     0.947816006913      -0.248202209183     0.947816006913      -0.248202209183     -0.0501652216314    -0.191513819855     
4700000000.0        -0.0522774998107    -0.195214600239     0.945631636847      -0.253146785471     0.945631636847      -0.253146785471     -0.0522774998107    -0.195214600239     
4800000000.0        -0.0544268474775    -0.198886797772     0.943408601362      -0.258063425895     0.943408601362      -0.258063425895     -0.0544268474775    -0.198886797772     
4900000000.0        -0.0566127656672    -0.202529961241     0.941147396006      -0.262951688104     0.941147396006      -0.262951688104     -0.0566127656672    -0.202529961241     
5000000000.0        -0.0588347488594    -0.206143649983     0.938848522836      -0.26781114024      0.938848522836      -0.26781114024      -0.0588347488594    -0.206143649983     
5100000000.0        -0.0610922852524    -0.209727434002     0.936512490149      -0.272641361061     0.936512490149      -0.272641361061     -0.0610922852524    -0.209727434002     
5200000000.0        -0.0633848570398    -0.213280894079     0.934139812198      -0.277441940052     0.934139812198      -0.277441940052     -0.0633848570398    -0.213280894079     
5300000000.0        -0.0657119406894    -0.21680362188      0.931731008918      -0.282212477534     0.931731008918      -0.282212477534     -0.0657119406894    -0.21680362188      
5400000000.0        -0.0680730072224    -0.220295220044     0.929286605644      -0.286952584757     0.929286605644      -0.286952584757     -0.0680730072224    -0.220295220044     
5500000000.0        -0.0704675224948    -0.223755302272     0.926807132829      -0.291661883984     0.926807132829      -0.291661883984     -0.0704675224948    -0.223755302272     
5600000000.0        -0.0728949474786    -0.227183493398     0.924293125765      -0.296340008574     0.924293125765      -0.296340008574     -0.0728949474786    -0.227183493398     
5700000000.0        -0.0753547385443    -0.23057942946      0.921745124296      -0.300986603044     0.921745124296      -0.300986603044     -0.0753547385443    -0.23057942946      
5800000000.0        -0.0778463477426    -0.233942757754     0.919163672541      -0.305601323133     0.919163672541      -0.305601323133     -0.0778463477426    -0.233942757754     
5900000000.0        -0.080369223087     -0.237273136887     0.916549318608      -0.310183835852     0.916549318608      -0.310183835852     -0.080369223087     -0.237273136887     
6000000000.0        -0.082922808835     -0.240570236815     0.913902614312      -0.314733819523     0.913902614312      -0.314733819523     -0.082922808835     -0.240570236815     
6100000000.0        -0.0855065457697    -0.243833738875     0.911224114896      -0.319250963818     0.911224114896      -0.319250963818     -0.0855065457697    -0.243833738875     
6200000000.0        -0.088119871479     -0.24706333581      0.908514378749      -0.323734969779     0.908514378749      -0.323734969779     -0.088119871479     -0.24706333581      
6300000000.0        -0.0907622206349    -0.250258731785     0.905773967128      -0.328185549838     0.905773967128      -0.328185549838     -0.0907622206349    -0.250258731785     
6400000000.0        -0.0934330252707    -0.253419642393     0.90300344388       -0.332602427823     0.90300344388       -0.332602427823     -0.0934330252707    -0.253419642393     
6500000000.0        -0.0961317150561    -0.256545794653     0.900203375166      -0.336985338962     0.900203375166      -0.336985338962     -0.0961317150561    -0.256545794653     
6600000000.0        -0.0988577175712    -0.259636927006     0.897374329189      -0.341334029872     0.897374329189      -0.341334029872     -0.0988577175712    -0.259636927006     
6700000000.0        -0.101610458578     -0.262692789294     0.894516875921      -0.345648258546     0.894516875921      -0.345648258546     -0.101610458578     -0.262692789294     
6800000000.0        -0.104389362287     -0.265713142736     0.891631586832      -0.349927794331     0.891631586832      -0.349927794331     -0.104389362287     -0.265713142736     
6900000000.0        -0.107193851627     -0.268697759903     0.88871903463       -0.354172417894     0.88871903463       -0.354172417894     -0.107193851627     -0.268697759903     
7000000000.0        -0.110023348506     -0.271646424672     0.885779792989      -0.358381921189     0.885779792989      -0.358381921189     -0.110023348506     -0.271646424672     
7100000000.0        -0.11287727407      -0.274558932185     0.882814436299      -0.36255610741      0.882814436299      -0.36255610741      -0.11287727407      -0.274558932185     
7200000000.0        -0.115755048965     -0.277435088792     0.879823539397      -0.366694790938     0.879823539397      -0.366694790938     -0.115755048965     -0.277435088792     
7300000000.0        -0.118656093583     -0.280274711999     0.876807677323      -0.370797797286     0.876807677323      -0.370797797286     -0.118656093583     -0.280274711999     
7400000000.0        -0.121579828317     -0.283077630395     0.873767425068      -0.374864963033     0.873767425068      -0.374864963033     -0.121579828317     -0.283077630395     
7500000000.0        -0.124525673807     -0.285843683582     0.870703357324      -0.378896135751     0.870703357324      -0.378896135751     -0.124525673807     -0.285843683582     
7600000000.0        -0.127493051178     -0.288572722101     0.867616048247      -0.382891173931     0.867616048247      -0.382891173931     -0.127493051178     -0.288572722101     
7700000000.0        -0.130481382281     -0.291264607342     0.864506071214      -0.386849946893     0.864506071214      -0.386849946893     -0.130481382281     -0.291264607342     
7800000000.0        -0.133490089925     -0.293919211455     0.861373998595      -0.390772334706     0.861373998595      -0.390772334706     -0.133490089925     -0.293919211455     
7900000000.0        -0.136518598107     -0.296536417257     0.858220401519      -0.394658228085     0.858220401519      -0.394658228085     -0.136518598107     -0.296536417257     
8000000000.0        -0.139566332235     -0.299116118129     0.855045849653      -0.398507528295     0.855045849653      -0.398507528295     -0.139566332235     -0.299116118129     
8100000000.0        -0.142632719349     -0.301658217913     0.85185091098       -0.402320147045     0.85185091098       -0.402320147045     -0.142632719349     -0.301658217913     
8200000000.0        -0.145717188335     -0.304162630793     0.848636151583      -0.406096006376     0.848636151583      -0.406096006376     -0.145717188335     -0.304162630793     
8300000000.0        -0.148819170137     -0.30662928119      0.845402135436      -0.409835038547     0.845402135436      -0.409835038547     -0.148819170137     -0.30662928119      
8400000000.0        -0.151938097959     -0.309058103632     0.842149424199      -0.413537185916     0.842149424199      -0.413537185916     -0.151938097959     -0.309058103632     
8500000000.0        -0.155073407469     -0.311449042637     0.838878577018      -0.417202400815     0.838878577018      -0.417202400815     -0.155073407469     -0.311449042637     
8600000000.0        -0.15822453699      -0.313802052576     0.835590150327      -0.42083064542      0.835590150327      -0.42083064542      -0.15822453699      -0.313802052576     
8700000000.0        -0.161390927694     -0.316117097549     0.832284697661      -0.424421891623     0.832284697661      -0.424421891623     -0.161390927694     -0.316117097549     
8800000000.0        -0.164572023781     -0.318394151241     0.828962769471      -0.427976120891     0.828962769471      -0.427976120891     -0.164572023781     -0.318394151241     
8900000000.0        -0.167767272664     -0.320633196787     0.825624912941      -0.43149332413      0.825624912941      -0.43149332413      -0.167767272664     -0.320633196787     
9000000000.0        -0.17097612514      -0.322834226626     0.822271671819      -0.434973501542     0.822271671819      -0.434973501542     -0.17097612514      -0.322834226626     
9100000000.0        -0.174198035558     -0.324997242355     0.818903586247      -0.438416662477     0.818903586247      -0.438416662477     -0.174198035558     -0.324997242355     
9200000000.0        -0.177432461982     -0.327122254581     0.815521192593      -0.441822825286     0.815521192593      -0.441822825286     -0.177432461982     -0.327122254581     
9300000000.0        -0.180678866352     -0.329209282765     0.8121250233        -0.445192017167     0.8121250233        -0.445192017167     -0.180678866352     -0.329209282765     
9400000000.0        -0.18393671463      -0.331258355075     0.808715606729      -0.448524274014     0.808715606729      -0.448524274014     -0.18393671463      -0.331258355075     
9500000000.0        -0.187205476954     -0.333269508218     0.805293467013      -0.451819640258     0.805293467013      -0.451819640258     -0.187205476954     -0.333269508218     
9600000000.0        -0.190484627772     -0.335242787294     0.801859123919      -0.455078168711     0.801859123919      -0.455078168711     -0.190484627772     -0.335242787294     
9700000000.0        -0.193773645984     -0.337178245622     0.798413092704      -0.458299920402     0.798413092704      -0.458299920402     -0.193773645984     -0.337178245622     
9800000000.0        -0.197072015069     -0.339075944588     0.794955883994      -0.461484964417     0.794955883994      -0.461484964417     -0.197072015069     -0.339075944588     
9900000000.0        -0.20037922321      -0.340935953473     0.791488003651      -0.464633377733     0.791488003651      -0.464633377733     -0.20037922321      -0.340935953473     
10000000000.0       -0.203694763413     -0.342758349293     0.788009952658      -0.467745245057     0.788009952658      -0.467745245057     -0.203694763413     -0.342758349293     
