# Hz S RI R 50.00 
100000000.0         0.00139588432647    -0.0058529923803    0.998493217751      -0.00803060317304   0.998493217751      -0.00803060317304   0.00139588432647    -0.0058529923803    
200000000.0         0.00125788142211    -0.0117039694613    0.998328518102      -0.0160591324051    0.998328518102      -0.0160591324051    0.00125788142211    -0.0117039694613    
300000000.0         0.00102341363076    -0.0175510253837    0.998067632779      -0.0240837372581    0.998067632779      -0.0240837372581    0.00102341363076    -0.0175510253837    
400000000.0         0.00069385926548    -0.0233922637436    0.997709435498      -0.0321025537477    0.997709435498      -0.0321025537477    0.00069385926548    -0.0233922637436    
500000000.0         0.000269874712635   -0.0292257931526    0.997253619717      -0.0401137173201    0.997253619717      -0.0401137173201    0.000269874712635   -0.0292257931526    
600000000.0         -0.00024807102702   -0.0350497282524    0.996700163806      -0.0481153668887    0.996700163806      -0.0481153668887    -0.00024807102702   -0.0350497282524    
700000000.0         -0.000859560799064  -0.0408621912179    0.996049195054      -0.0561056474452    0.996049195054      -0.0561056474452    -0.000859560799064  -0.0408621912179    
800000000.0         -0.00156418009878   -0.0466613133469    0.995300939877      -0.0640827121752    0.995300939877      -0.0640827121752    -0.00156418009878   -0.0466613133469    
900000000.0         -0.00236149542463   -0.0524452366574    0.99445570144       -0.0720447243421    0.99445570144       -0.0720447243421    -0.00236149542463   -0.0524452366574    
1000000000.0        -0.00325104356502   -0.0582121154668    0.993513848071      -0.0799898590402    0.993513848071      -0.0799898590402    -0.00325104356502   -0.0582121154668    
1100000000.0        -0.00423232590519   -0.0639601179463    0.992475806582      -0.0879163048617    0.992475806582      -0.0879163048617    -0.00423232590519   -0.0639601179463    
1200000000.0        -0.00530480530045   -0.0696874276469    0.991342058025      -0.0958222654988    0.991342058025      -0.0958222654988    -0.00530480530045   -0.0696874276469    
1300000000.0        -0.00646790437718   -0.0753922449927    0.990113134761      -0.103705961293     0.990113134761      -0.103705961293     -0.00646790437718   -0.0753922449927    
1400000000.0        -0.00772100468605   -0.081072788743     0.988789618265      -0.111565630734     0.988789618265      -0.111565630734     -0.00772100468605   -0.081072788743     
1500000000.0        -0.00906344639572   -0.0867272974172    0.987372137366      -0.11939953192      0.987372137366      -0.11939953192      -0.00906344639572   -0.0867272974172    
1600000000.0        -0.0104945283485    -0.0923540306846    0.985861366736      -0.127205943967     0.985861366736      -0.127205943967     -0.0104945283485    -0.0923540306846    
1700000000.0        -0.0120135083703    -0.097951270715     0.98425802554       -0.13498316838      0.98425802554       -0.13498316838      -0.0120135083703    -0.097951270715     
1800000000.0        -0.013619603768     -0.103517323488     0.982562876164      -0.142729530377     0.982562876164      -0.142729530377     -0.013619603768     -0.103517323488     
1900000000.0        -0.0153119919689    -0.109050520064     0.980776723         -0.150443380168     0.980776723         -0.150443380168     -0.0153119919689    -0.109050520064     
2000000000.0        -0.017089811274     -0.114549217805     0.978900411254      -0.158123094196     0.978900411254      -0.158123094196     -0.017089811274     -0.114549217805     
2100000000.0        -0.0189521617028    -0.120011801558     0.97693482576       -0.165767076318     0.97693482576       -0.165767076318     -0.0189521617028    -0.120011801558     
2200000000.0        -0.0208981059149    -0.125436684787     0.974880889788      -0.173373758948     0.974880889788      -0.173373758948     -0.0208981059149    -0.125436684787     
2300000000.0        -0.022926670197     -0.130822310656     0.972739563843      -0.18094160415      0.972739563843      -0.18094160415      -0.022926670197     -0.130822310656     
2400000000.0        -0.0250368455054    -0.136167153069     0.970511844456      -0.188469104679     0.970511844456      -0.188469104679     -0.0250368455054    -0.136167153069     
2500000000.0        -0.0272275885587    -0.141469717655     0.968198762948      -0.195954784968     0.968198762948      -0.195954784968     -0.0272275885587    -0.141469717655     
2600000000.0        -0.0294978229724    -0.1467285427       0.965801384184      -0.203397202071     0.965801384184      -0.203397202071     -0.0294978229724    -0.1467285427       
2700000000.0        -0.0318464404312    -0.151942200034     0.963320805303      -0.210794946547     0.963320805303      -0.210794946547     -0.0318464404312    -0.151942200034     
2800000000.0        -0.0342723018955    -0.157109295856     0.960758154439      -0.218146643292     0.960758154439      -0.218146643292     -0.0342723018955    -0.157109295856     
2900000000.0        -0.0367742388355    -0.162228471515     0.958114589413      -0.225450952321     0.958114589413      -0.225450952321     -0.0367742388355    -0.162228471515     
3000000000.0        -0.0393510544917    -0.167298404227     0.955391296426      -0.232706569488     0.955391296426      -0.232706569488     -0.0393510544917    -0.167298404227     
3100000000.0        -0.0420015251568    -0.17231780775      0.952589488723      -0.239912227161     0.952589488723      -0.239912227161     -0.0420015251568    -0.17231780775      
3200000000.0        -0.0447244014756    -0.177285432989     0.949710405257      -0.247066694834     0.949710405257      -0.247066694834     -0.0447244014756    -0.177285432989     
3300000000.0        -0.0475184097613    -0.18220006856      0.946755309333      -0.254168779687     0.946755309333      -0.254168779687     -0.0475184097613    -0.18220006856      
3400000000.0        -0.0503822533232    -0.187060541294     0.943725487257      -0.261217327093     0.943725487257      -0.261217327093     -0.0503822533232    -0.187060541294     
3500000000.0        -0.053314613804     -0.191865716681     0.940622246969      -0.268211221068     0.940622246969      -0.268211221068     -0.053314613804     -0.191865716681     
3600000000.0        -0.0563141525245    -0.196614499271     0.937446916673      -0.275149384667     0.937446916673      -0.275149384667     -0.0563141525245    -0.196614499271     
3700000000.0        -0.0593795118314    -0.201305833011     0.934200843474      -0.282030780323     0.934200843474      -0.282030780323     -0.0593795118314    -0.201305833011     
3800000000.0        -0.0625093164473    -0.205938701533     0.93088539201       -0.288854410143     0.93088539201       -0.288854410143     -0.0625093164473    -0.205938701533     
3900000000.0        -0.0657021748192    -0.210512128387     0.927501943083      -0.295619316132     0.927501943083      -0.295619316132     -0.0657021748192    -0.210512128387     
4000000000.0        -0.0689566804638    -0.215025177228     0.924051892305      -0.302324580388     0.924051892305      -0.302324580388     -0.0689566804638    -0.215025177228     
4100000000.0        -0.0722714133073    -0.219476951938     0.920536648744      -0.308969325222     0.920536648744      -0.308969325222     -0.0722714133073    -0.219476951938     
4200000000.0        -0.0756449410168    -0.223866596716     0.916957633583      -0.315552713248     0.916957633583      -0.315552713248     -0.0756449410168    -0.223866596716     
4300000000.0        -0.0790758203216    -0.228193296098     0.913316278785      -0.322073947409     0.913316278785      -0.322073947409     -0.0790758203216    -0.228193296098     
4400000000.0        -0.082562598323     -0.232456274949     0.909614025777      -0.328532270957     0.909614025777      -0.328532270957     -0.082562598323     -0.232456274949     
4500000000.0        -0.0861038137894    -0.236654798387     0.905852324147      -0.334926967396     0.905852324147      -0.334926967396     -0.0861038137894    -0.236654798387     
4600000000.0        -0.0896979984353    -0.240788171681     0.902032630358      -0.341257360363     0.902032630358      -0.341257360363     -0.0896979984353    -0.240788171681     
4700000000.0        -0.0933436781834    -0.244855740085     0.898156406475      -0.347522813474     0.898156406475      -0.347522813474     -0.0933436781834    -0.244855740085     
4800000000.0        -0.0970393744066    -0.248856888645     0.894225118923      -0.353722730125     0.894225118923      -0.353722730125     -0.0970393744066    -0.248856888645     
4900000000.0        -0.100783605149     -0.252791041954     0.890240237253      -0.359856553251     0.890240237253      -0.359856553251     -0.100783605149     -0.252791041954     
5000000000.0        -0.104574886324     -0.256657663864     0.886203232946      -0.365923765037     0.886203232946      -0.365923765037     -0.104574886324     -0.256657663864     
5100000000.0        -0.108411732891     -0.260456257172     0.882115578226      -0.371923886604     0.882115578226      -0.371923886604     -0.108411732891     -0.260456257172     
5200000000.0        -0.112292660002     -0.264186363252     0.87797874491       -0.377856477642     0.87797874491       -0.377856477642     -0.112292660002     -0.264186363252     
5300000000.0        -0.116216184127     -0.267847561663     0.873794203281      -0.383721136017     0.873794203281      -0.383721136017     -0.116216184127     -0.267847561663     
5400000000.0        -0.120180824151     -0.271439469717     0.869563420983      -0.389517497342     0.869563420983      -0.389517497342     -0.120180824151     -0.271439469717     
5500000000.0        -0.124185102435     -0.274961742014     0.865287861958      -0.395245234508     0.865287861958      -0.395245234508     -0.124185102435     -0.274961742014     
5600000000.0        -0.128227545861     -0.27841406995      0.860968985398      -0.400904057195     0.860968985398      -0.400904057195     -0.128227545861     -0.27841406995      
5700000000.0        -0.132306686835     -0.281796181186     0.856608244737      -0.406493711343     0.856608244737      -0.406493711343     -0.132306686835     -0.281796181186     
5800000000.0        -0.136421064265     -0.285107839105     0.852207086672      -0.412013978602     0.852207086672      -0.412013978602     -0.136421064265     -0.285107839105     
5900000000.0        -0.140569224504     -0.288348842223     0.847766950214      -0.417464675752     0.847766950214      -0.417464675752     -0.140569224504     -0.288348842223     
6000000000.0        -0.144749722264     -0.291519023592     0.843289265773      -0.422845654102     0.843289265773      -0.422845654102     -0.144749722264     -0.291519023592     
6100000000.0        -0.148961121494     -0.294618250174     0.838775454275      -0.42815679886      0.838775454275      -0.42815679886      -0.148961121494     -0.294618250174     
6200000000.0        -0.15320199623      -0.297646422188     0.834226926313      -0.433398028487     0.834226926313      -0.433398028487     -0.15320199623      -0.297646422188     
6300000000.0        -0.157470931405     -0.300603472447     0.829645081331      -0.438569294031     0.829645081331      -0.438569294031     -0.157470931405     -0.300603472447     
6400000000.0        -0.161766523629     -0.303489365674     0.825031306842      -0.44367057844      0.825031306842      -0.44367057844      -0.161766523629     -0.303489365674     
6500000000.0        -0.166087381936     -0.306304097796     0.820386977679      -0.448701895862     0.820386977679      -0.448701895862     -0.166087381936     -0.306304097796     
6600000000.0        -0.170432128493     -0.309047695231     0.81571345528       -0.453663290928     0.81571345528       -0.453663290928     -0.170432128493     -0.309047695231     
6700000000.0        -0.174799399284     -0.311720214157     0.811012087012      -0.45855483802      0.811012087012      -0.45855483802      -0.174799399284     -0.311720214157     
6800000000.0        -0.179187844748     -0.31432173977      0.806284205516      -0.463376640534     0.806284205516      -0.463376640534     -0.179187844748     -0.31432173977      
6900000000.0        -0.183596130392     -0.316852385535     0.801531128103      -0.468128830125     0.801531128103      -0.468128830125     -0.183596130392     -0.316852385535     
7000000000.0        -0.18802293737      -0.319312292423     0.796754156167      -0.472811565946     0.796754156167      -0.472811565946     -0.18802293737      -0.319312292423     
7100000000.0        -0.192466963023     -0.321701628145     0.791954574644      -0.477425033882     0.791954574644      -0.477425033882     -0.192466963023     -0.321701628145     
7200000000.0        -0.196926921392     -0.324020586376     0.787133651498      -0.481969445779     0.787133651498      -0.481969445779     -0.196926921392     -0.324020586376     
7300000000.0        -0.201401543698     -0.32626938598      0.782292637237      -0.486445038656     0.782292637237      -0.486445038656     -0.201401543698     -0.32626938598      
7400000000.0        -0.205889578785     -0.328448270225     0.777432764469      -0.490852073935     0.777432764469      -0.490852073935     -0.205889578785     -0.328448270225     
7500000000.0        -0.210389793536     -0.330557506003     0.77255524748       -0.495190836648     0.77255524748       -0.495190836648     -0.210389793536     -0.330557506003     
7600000000.0        -0.214900973257     -0.332597383041     0.767661281856      -0.499461634656     0.767661281856      -0.499461634656     -0.214900973257     -0.332597383041     
7700000000.0        -0.219421922029     -0.334568213119     0.762752044121      -0.503664797863     0.762752044121      -0.503664797863     -0.219421922029     -0.334568213119     
7800000000.0        -0.223951463028     -0.336470329288     0.757828691416      -0.507800677436     0.757828691416      -0.507800677436     -0.223951463028     -0.336470329288     
7900000000.0        -0.228488438823     -0.338304085086     0.752892361201      -0.511869645019     0.752892361201      -0.511869645019     -0.228488438823     -0.338304085086     
8000000000.0        -0.233031711636     -0.340069853767     0.747944170994      -0.515872091958     0.747944170994      -0.515872091958     -0.233031711636     -0.340069853767     
8100000000.0        -0.237580163581     -0.341768027521     0.742985218125      -0.519808428531     0.742985218125      -0.519808428531     -0.237580163581     -0.341768027521     
8200000000.0        -0.242132696869     -0.343399016711     0.738016579532      -0.523679083176     0.738016579532      -0.523679083176     -0.242132696869     -0.343399016711     
8300000000.0        -0.246688233993     -0.344963249113     0.733039311574      -0.527484501731     0.733039311574      -0.527484501731     -0.246688233993     -0.344963249113     
8400000000.0        -0.251245717883     -0.346461169158     0.728054449872      -0.53122514668      0.728054449872      -0.53122514668      -0.251245717883     -0.346461169158     
8500000000.0        -0.255804112035     -0.347893237189     0.72306300918       -0.534901496406     0.72306300918       -0.534901496406     -0.255804112035     -0.347893237189     
8600000000.0        -0.260362400618     -0.349259928724     0.718065983272      -0.538514044456     0.718065983272      -0.538514044456     -0.260362400618     -0.349259928724     
8700000000.0        -0.264919588557     -0.350561733723     0.713064344861      -0.542063298806     0.713064344861      -0.542063298806     -0.264919588557     -0.350561733723     
8800000000.0        -0.269474701589     -0.351799155876     0.708059045536      -0.545549781147     0.708059045536      -0.545549781147     -0.269474701589     -0.351799155876     
8900000000.0        -0.274026786306     -0.35297271189      0.703051015723      -0.548974026176     0.703051015723      -0.548974026176     -0.274026786306     -0.35297271189      
9000000000.0        -0.278574910163     -0.354082930793     0.698041164668      -0.552336580896     0.698041164668      -0.552336580896     -0.278574910163     -0.354082930793     
9100000000.0        -0.283118161481     -0.355130353252     0.693030380437      -0.555638003935     0.693030380437      -0.555638003935     -0.283118161481     -0.355130353252     
9200000000.0        -0.287655649415     -0.356115530894     0.68801952994       -0.558878864864     0.68801952994       -0.558878864864     -0.287655649415     -0.356115530894     
9300000000.0        -0.292186503918     -0.357039025649     0.683009458971      -0.562059743544     0.683009458971      -0.562059743544     -0.292186503918     -0.357039025649     
9400000000.0        -0.296709875671     -0.357901409102     0.678000992268      -0.565181229472     0.678000992268      -0.565181229472     -0.296709875671     -0.357901409102     
9500000000.0        -0.301224936013     -0.358703261852     0.672994933591      -0.568243921145     0.672994933591      -0.568243921145     -0.301224936013     -0.358703261852     
9600000000.0        -0.305730876837     -0.359445172899     0.667992065813      -0.57124842544      0.667992065813      -0.57124842544      -0.305730876837     -0.359445172899     
9700000000.0        -0.310226910483     -0.36012773903      0.662993151028      -0.574195357006     0.662993151028      -0.574195357006     -0.310226910483     -0.36012773903      
9800000000.0        -0.314712269612     -0.360751564225     0.657998930678      -0.577085337666     0.657998930678      -0.577085337666     -0.314712269612     -0.360751564225     
9900000000.0        -0.319186207063     -0.361317259079     0.65301012569       -0.579918995836     0.65301012569       -0.579918995836     -0.319186207063     -0.361317259079     
10000000000.0       -0.3236479957       -0.361825440236     0.648027436627      -0.582696965964     0.648027436627      -0.582696965964     -0.3236479957       -0.361825440236     
