# Hz S RI R 50.00 
100000000.0         1.80743507316e-06   -0.0109290500032    0.999705129883      -0.0122789402434    0.999705129883      -0.0122789402434    1.80743507316e-06   -0.0109290500032    
200000000.0         -0.000411024537933  -0.0218492041905    0.999287552528      -0.0245491153419    0.999287552528      -0.0245491153419    -0.000411024537933  -0.0218492041905    
300000000.0         -0.00109181236977   -0.032751694314     0.99860070522       -0.0368018371112    0.99860070522       -0.0368018371112    -0.00109181236977   -0.032751694314     
400000000.0         -0.00203948248106   -0.043627688399     0.997645405326      -0.0490283381037    0.997645405326      -0.0490283381037    -0.00203948248106   -0.043627688399     
500000000.0         -0.00325265128358   -0.0544683614776    0.996422937053      -0.0612198503755    0.996422937053      -0.0612198503755    -0.00325265128358   -0.0544683614776    
600000000.0         -0.00472957133551   -0.0652649348116    0.9949349963        -0.0733676473432    0.9949349963        -0.0733676473432    -0.00472957133551   -0.0652649348116    
700000000.0         -0.00646812074651   -0.0760087064759    0.993183673604      -0.0854630756888    0.993183673604      -0.0854630756888    -0.00646812074651   -0.0760087064759    
800000000.0         -0.00846580343533   -0.0866910780452    0.991171443822      -0.0974975828313    0.991171443822      -0.0974975828313    -0.00846580343533   -0.0866910780452    
900000000.0         -0.0107197539837    -0.0973035789789    0.988901156806      -0.109462741831     0.988901156806      -0.109462741831     -0.0107197539837    -0.0973035789789    
1000000000.0        -0.0132267452215    -0.107837889348     0.986376027562      -0.121350274477     0.986376027562      -0.121350274477     -0.0132267452215    -0.107837889348     
1100000000.0        -0.015983197808     -0.118285861176     0.983599625414      -0.133152072904     0.983599625414      -0.133152072904     -0.015983197808     -0.118285861176     
1200000000.0        -0.018985191442     -0.12863953851      0.980575862061      -0.144860219866     0.980575862061      -0.144860219866     -0.018985191442     -0.12863953851      
1300000000.0        -0.0222284774754    -0.138891176256     0.97730897849       -0.156467007739     0.97730897849       -0.156467007739     -0.0222284774754    -0.138891176256     
1400000000.0        -0.0257084927637    -0.149033257772     0.97380353083       -0.167964956247     0.97380353083       -0.167964956247     -0.0257084927637    -0.149033257772     
1500000000.0        -0.0294203746118    -0.159058511207     0.970064375197      -0.17934682891      0.970064375197      -0.17934682891      -0.0294203746118    -0.159058511207     
1600000000.0        -0.033358976689     -0.168959924542     0.966096651638      -0.190605648187     0.966096651638      -0.190605648187     -0.033358976689     -0.168959924542     
1700000000.0        -0.037518885789     -0.178730759326     0.961905767268      -0.201734709279     0.961905767268      -0.201734709279     -0.037518885789     -0.178730759326     
1800000000.0        -0.0418944393174    -0.188364563058     0.957497378709      -0.212727592591     0.957497378709      -0.212727592591     -0.0418944393174    -0.188364563058     
1900000000.0        -0.0464797433872    -0.19785518021      0.952877373938      -0.22357817481      0.952877373938      -0.22357817481      -0.0464797433872    -0.19785518021      
2000000000.0        -0.0512686914078    -0.207196761871     0.948051853657      -0.234280638604     0.948051853657      -0.234280638604     -0.0512686914078    -0.207196761871     
2100000000.0        -0.0562549830515    -0.216383774004     0.943027112296      -0.244829480931     0.943027112296      -0.244829480931     -0.0562549830515    -0.216383774004     
2200000000.0        -0.061432143487     -0.225411004328     0.937809618751      -0.255219519958     0.937809618751      -0.255219519958     -0.061432143487     -0.225411004328     
2300000000.0        -0.0667935427677    -0.234273567819     0.932405996982      -0.265445900601     0.932405996982      -0.265445900601     -0.0667935427677    -0.234273567819     
2400000000.0        -0.0723324152712    -0.242966910861     0.926823006552      -0.275504098717     0.926823006552      -0.275504098717     -0.0723324152712    -0.242966910861     
2500000000.0        -0.0780418790856    -0.25148681407      0.921067523233      -0.285389923954     0.921067523233      -0.285389923954     -0.0780418790856    -0.25148681407      
2600000000.0        -0.0839149552469    -0.259829393815     0.915146519754      -0.295099521308     0.915146519754      -0.295099521308     -0.0839149552469    -0.259829393815     
2700000000.0        -0.0899445867326    -0.267991102498     0.909067046807      -0.304629371421     0.909067046807      -0.304629371421     -0.0899445867326    -0.267991102498     
2800000000.0        -0.0961236571278    -0.27596872761      0.902836214364      -0.313976289674     0.902836214364      -0.313976289674     -0.0961236571278    -0.27596872761      
2900000000.0        -0.102445008879     -0.283759389642     0.896461173426      -0.32313742411      0.896461173426      -0.32313742411      -0.102445008879     -0.283759389642     
3000000000.0        -0.108901461069     -0.291360538892     0.889949098242      -0.332110252272     0.889949098242      -0.332110252272     -0.108901461069     -0.291360538892     
3100000000.0        -0.115485826629     -0.298769951238     0.883307169087      -0.340892576992     0.883307169087      -0.340892576992     -0.115485826629     -0.298769951238     
3200000000.0        -0.122190928953     -0.305985722936     0.876542555652      -0.349482521206     0.876542555652      -0.349482521206     -0.122190928953     -0.305985722936     
3300000000.0        -0.129009617837     -0.313006264516     0.869662401099      -0.357878521875     0.869662401099      -0.357878521875     -0.129009617837     -0.313006264516     
3400000000.0        -0.135934784703     -0.319830293848     0.862673806832      -0.36607932306      0.862673806832      -0.36607932306      -0.135934784703     -0.319830293848     
3500000000.0        -0.142959377082     -0.326456828439     0.855583818017      -0.37408396824      0.855583818017      -0.37408396824      -0.142959377082     -0.326456828439     
3600000000.0        -0.150076412298     -0.332885177053     0.848399409889      -0.381891791946     0.848399409889      -0.381891791946     -0.150076412298     -0.332885177053     
3700000000.0        -0.157278990354     -0.339114930705     0.84112747487       -0.389502410767     0.84112747487       -0.389502410767     -0.157278990354     -0.339114930705     
3800000000.0        -0.164560305979     -0.345145953118     0.833774810521      -0.396915713824     0.833774810521      -0.396915713824     -0.164560305979     -0.345145953118     
3900000000.0        -0.171913659836     -0.350978370711     0.826348108327      -0.404131852768     0.826348108327      -0.404131852768     -0.171913659836     -0.350978370711     
4000000000.0        -0.179332468875     -0.356612562183     0.818853943348      -0.411151231377     0.818853943348      -0.411151231377     -0.179332468875     -0.356612562183     
4100000000.0        -0.186810275838     -0.362049147764     0.811298764707      -0.417974494819     0.811298764707      -0.417974494819     -0.186810275838     -0.362049147764     
4200000000.0        -0.194340757913     -0.36728897821      0.803688886943      -0.424602518658     0.803688886943      -0.424602518658     -0.194340757913     -0.36728897821      
4300000000.0        -0.201917734547     -0.372333123585     0.796030482188      -0.431036397645     0.796030482188      -0.431036397645     -0.201917734547     -0.372333123585     
4400000000.0        -0.209535174429     -0.37718286191      0.788329573187      -0.437277434378     0.788329573187      -0.437277434378     -0.209535174429     -0.37718286191      
4500000000.0        -0.217187201671     -0.381839667725     0.78059202712       -0.443327127875     0.78059202712       -0.443327127875     -0.217187201671     -0.381839667725     
4600000000.0        -0.224868101185     -0.386305200627     0.772823550212      -0.449187162117     0.772823550212      -0.449187162117     -0.224868101185     -0.386305200627     
4700000000.0        -0.232572323307     -0.390581293825     0.765029683123      -0.454859394618     0.765029683123      -0.454859394618     -0.232572323307     -0.390581293825     
4800000000.0        -0.240294487666     -0.394669942768     0.757215797063      -0.460345845055     0.757215797063      -0.460345845055     -0.240294487666     -0.394669942768     
4900000000.0        -0.248029386356     -0.398573293889     0.749387090632      -0.465648684022     0.749387090632      -0.465648684022     -0.248029386356     -0.398573293889     
5000000000.0        -0.255771986415     -0.402293633492     0.741548587329      -0.470770221929     0.741548587329      -0.470770221929     -0.255771986415     -0.402293633492     
5100000000.0        -0.263517431662     -0.405833376846     0.733705133722      -0.475712898096     0.733705133722      -0.475712898096     -0.263517431662     -0.405833376846     
5200000000.0        -0.271261043912     -0.409195057483     0.725861398226      -0.480479270063     0.725861398226      -0.480479270063     -0.271261043912     -0.409195057483     
5300000000.0        -0.27899832362      -0.412381316759     0.718021870464      -0.485072003159     0.718021870464      -0.485072003159     -0.27899832362      -0.412381316759     
5400000000.0        -0.286724949966     -0.41539489369      0.710190861171      -0.489493860337     0.710190861171      -0.489493860337     -0.286724949966     -0.41539489369      
5500000000.0        -0.29443678044      -0.418238615084     0.702372502619      -0.493747692323     0.702372502619      -0.493747692323     -0.29443678044      -0.418238615084     
5600000000.0        -0.302129849948     -0.420915385997     0.694570749503      -0.497836428067     0.694570749503      -0.497836428067     -0.302129849948     -0.420915385997     
5700000000.0        -0.309800369472     -0.423428180515     0.686789380278      -0.501763065541     0.686789380278      -0.501763065541     -0.309800369472     -0.423428180515     
5800000000.0        -0.317444724337     -0.425780032893     0.679031998898      -0.505530662874     0.679031998898      -0.505530662874     -0.317444724337     -0.425780032893     
5900000000.0        -0.325059472094     -0.427974029043     0.671302036926      -0.509142329855     0.671302036926      -0.509142329855     -0.325059472094     -0.427974029043     
6000000000.0        -0.33264134007      -0.430013298393     0.663602755983      -0.512601219789     0.663602755983      -0.512601219789     -0.33264134007      -0.430013298393     
6100000000.0        -0.340187222615     -0.431901006113     0.655937250502      -0.515910521733     0.655937250502      -0.515910521733     -0.340187222615     -0.431901006113     
6200000000.0        -0.34769417807      -0.433640345714     0.648308450756      -0.519073453098     0.648308450756      -0.519073453098     -0.34769417807      -0.433640345714     
6300000000.0        -0.355159425496     -0.435234532027     0.64071912613       -0.52209325263      0.64071912613       -0.52209325263      -0.355159425496     -0.435234532027     
6400000000.0        -0.362580341181     -0.436686794543     0.63317188861       -0.524973173765     0.63317188861       -0.524973173765     -0.362580341181     -0.436686794543     
6500000000.0        -0.369954454968     -0.43800037114      0.625669196456      -0.527716478344     0.625669196456      -0.527716478344     -0.369954454968     -0.43800037114      
6600000000.0        -0.377279446413     -0.43917850216      0.61821335804       -0.530326430709     0.61821335804       -0.530326430709     -0.377279446413     -0.43917850216      
6700000000.0        -0.384553140818     -0.44022442486      0.610806535813      -0.532806292148     0.610806535813      -0.532806292148     -0.384553140818     -0.44022442486      
6800000000.0        -0.391773505139     -0.441141368205     0.603450750393      -0.535159315703     0.603450750393      -0.535159315703     -0.391773505139     -0.441141368205     
6900000000.0        -0.398938643815     -0.441932548022     0.596147884739      -0.537388741314     0.596147884739      -0.537388741314     -0.398938643815     -0.441932548022     
7000000000.0        -0.406046794521     -0.442601162475     0.588899688393      -0.539497791307     0.588899688393      -0.539497791307     -0.406046794521     -0.442601162475     
7100000000.0        -0.41309632387      -0.44315038788      0.581707781775      -0.541489666211     0.581707781775      -0.541489666211     -0.41309632387      -0.44315038788      
7200000000.0        -0.420085723088     -0.44358337483      0.574573660509      -0.543367540888     0.574573660509      -0.543367540888     -0.420085723088     -0.44358337483      
7300000000.0        -0.427013603668     -0.443903244634     0.567498699768      -0.54513456097      0.567498699768      -0.54513456097      -0.427013603668     -0.443903244634     
7400000000.0        -0.433878693026     -0.444113086045     0.560484158611      -0.546793839596     0.560484158611      -0.546793839596     -0.433878693026     -0.444113086045     
7500000000.0        -0.440679830167     -0.444215952278     0.553531184321      -0.548348454428     0.553531184321      -0.548348454428     -0.440679830167     -0.444215952278     
7600000000.0        -0.447415961386     -0.444214858293     0.546640816699      -0.549801444943     0.546640816699      -0.549801444943     -0.447415961386     -0.444214858293     
7700000000.0        -0.454086135992     -0.444112778347     0.539813992337      -0.551155809986     0.539813992337      -0.551155809986     -0.454086135992     -0.444112778347     
7800000000.0        -0.460689502097     -0.44391264379      0.533051548832      -0.552414505566     0.533051548832      -0.552414505566     -0.460689502097     -0.44391264379      
7900000000.0        -0.467225302446     -0.443617341099     0.526354228948      -0.553580442895     0.526354228948      -0.553580442895     -0.467225302446     -0.443617341099     
8000000000.0        -0.473692870325     -0.443229710136     0.519722684709      -0.554656486651     0.519722684709      -0.554656486651     -0.473692870325     -0.443229710136     
8100000000.0        -0.480091625537     -0.442752542621     0.513157481423      -0.55564545345      0.513157481423      -0.55564545345      -0.480091625537     -0.442752542621     
8200000000.0        -0.486421070454     -0.442188580804     0.506659101621      -0.556550110521     0.506659101621      -0.556550110521     -0.486421070454     -0.442188580804     
8300000000.0        -0.492680786163     -0.441540516329     0.50022794892       -0.55737317458      0.50022794892       -0.55737317458      -0.492680786163     -0.441540516329     
8400000000.0        -0.49887042869      -0.440810989277     0.493864351782      -0.558117310863     0.493864351782      -0.558117310863     -0.49887042869      -0.440810989277     
8500000000.0        -0.50498972533      -0.440002587377     0.487568567197      -0.558785132351     0.487568567197      -0.558785132351     -0.50498972533      -0.440002587377     
8600000000.0        -0.511038471061     -0.439117845376     0.481340784255      -0.559379199133     0.481340784255      -0.559379199133     -0.511038471061     -0.439117845376     
8700000000.0        -0.517016525069     -0.438159244548     0.475181127626      -0.559902017929     0.475181127626      -0.559902017929     -0.517016525069     -0.438159244548     
8800000000.0        -0.522923807369     -0.437129212359     0.469089660934      -0.560356041743     0.469089660934      -0.560356041743     -0.522923807369     -0.437129212359     
8900000000.0        -0.528760295526     -0.436030122236     0.463066390031      -0.560743669649     0.463066390031      -0.560743669649     -0.528760295526     -0.436030122236     
9000000000.0        -0.53452602149      -0.434864293476     0.457111266167      -0.561067246689     0.457111266167      -0.561067246689     -0.53452602149      -0.434864293476     
9100000000.0        -0.540221068522     -0.433633991253     0.451224189051      -0.561329063892     0.451224189051      -0.561329063892     -0.540221068522     -0.433633991253     
9200000000.0        -0.54584556824      -0.432341426728     0.445405009814      -0.561531358383     0.445405009814      -0.561531358383     -0.54584556824      -0.432341426728     
9300000000.0        -0.551399697755     -0.430988757257     0.439653533862      -0.56167631359      0.439653533862      -0.56167631359      -0.551399697755     -0.430988757257     
9400000000.0        -0.55688367692      -0.429578086681     0.433969523626      -0.561766059542     0.433969523626      -0.561766059542     -0.55688367692      -0.429578086681     
9500000000.0        -0.562297765681     -0.428111465694     0.428352701211      -0.561802673234     0.428352701211      -0.561802673234     -0.562297765681     -0.428111465694     
9600000000.0        -0.567642261526     -0.426590892287     0.422802750944      -0.561788179078     0.422802750944      -0.561788179078     -0.567642261526     -0.426590892287     
9700000000.0        -0.572917497039     -0.425018312251     0.417319321816      -0.561724549402     0.417319321816      -0.561724549402     -0.572917497039     -0.425018312251     
9800000000.0        -0.578123837546     -0.423395619746     0.411902029832      -0.561613705025     0.411902029832      -0.561613705025     -0.578123837546     -0.423395619746     
9900000000.0        -0.583261678868     -0.421724657915     0.406550460257      -0.561457515874     0.406550460257      -0.561457515874     -0.583261678868     -0.421724657915     
10000000000.0       -0.588331445161     -0.42000721955      0.401264169774      -0.561257801649     0.401264169774      -0.561257801649     -0.588331445161     -0.42000721955      
