# Hz S RI R 50.00 
100000000.0         0.0074402058424     0.00187834950291    0.992548920356      -0.00547096086249   0.992548920356      -0.00547096086249   0.0074402058424     0.00187834950291    
200000000.0         0.00751886448427    0.00375573902819    0.992447447942      -0.0109409583869    0.992447447942      -0.0109409583869    0.00751886448427    0.00375573902819    
300000000.0         0.00760525186788    0.00563221593313    0.992325305522      -0.0164100401713    0.992325305522      -0.0164100401713    0.00760525186788    0.00563221593313    
400000000.0         0.00770576866211    0.00750763765534    0.992176090824      -0.021878058821     0.992176090824      -0.021878058821     0.00770576866211    0.00750763765534    
500000000.0         0.00782287103431    0.00938181787467    0.991997345746      -0.0273448206149    0.991997345746      -0.0273448206149    0.00782287103431    0.00938181787467    
600000000.0         0.00795780253716    0.0112545511425     0.99178782447       -0.0328101110141    0.99178782447       -0.0328101110141    0.00795780253716    0.0112545511425     
700000000.0         0.00811128850792    0.0131256217261     0.991546799075      -0.0382737039527    0.991546799075      -0.0382737039527    0.00811128850792    0.0131256217261     
800000000.0         0.00828378946654    0.0149948077191     0.991273806145      -0.0437353662152    0.991273806145      -0.0437353662152    0.00828378946654    0.0149948077191     
900000000.0         0.00847561392337    0.0168618832612     0.990968533969      -0.0491948598318    0.990968533969      -0.0491948598318    0.00847561392337    0.0168618832612     
1000000000.0        0.0086869755498     0.0187266198652     0.990630765375      -0.0546519435265    0.990630765375      -0.0546519435265    0.0086869755498     0.0187266198652     
1100000000.0        0.00891802495403    0.0205887872706     0.990260345964      -0.0601063736621    0.990260345964      -0.0601063736621    0.00891802495403    0.0205887872706     
1200000000.0        0.00916886861354    0.0224481540285     0.98985716518       -0.0655579048916    0.98985716518       -0.0655579048916    0.00916886861354    0.0224481540285     
1300000000.0        0.00943958078629    0.0243044879196     0.989421144404      -0.0710062906302    0.989421144404      -0.0710062906302    0.00943958078629    0.0243044879196     
1400000000.0        0.00973021134082    0.0261575562676     0.988952229133      -0.0764512834105    0.988952229133      -0.0764512834105    0.00973021134082    0.0261575562676     
1500000000.0        0.0100407910935     0.0280071261808     0.988450383639      -0.0818926351584    0.988450383639      -0.0818926351584    0.0100407910935     0.0280071261808     
1600000000.0        0.0103713355592     0.0298529647457     0.987915587229      -0.0873300974148    0.987915587229      -0.0873300974148    0.0103713355592     0.0298529647457     
1700000000.0        0.0107218476572     0.0316948391853     0.987347831541      -0.0927634215173    0.987347831541      -0.0927634215173    0.0107218476572     0.0316948391853     
1800000000.0        0.0110923197066     0.033532516992      0.98674711855       -0.0981923587534    0.98674711855       -0.0981923587534    0.0110923197066     0.033532516992      
1900000000.0        0.01148273493       0.0353657660426     0.98611345907       -0.103616660491     0.98611345907       -0.103616660491     0.01148273493       0.0353657660426     
2000000000.0        0.0118930686038     0.0371943546978     0.985446871605      -0.109036078295     0.985446871605      -0.109036078295     0.0118930686038     0.0371943546978     
2100000000.0        0.0123232889549     0.0390180518914     0.984747381458      -0.114450364023     0.984747381458      -0.114450364023     0.0123232889549     0.0390180518914     
2200000000.0        0.0127733578684     0.0408366272107     0.984015020021      -0.119859269924     0.984015020021      -0.119859269924     0.0127733578684     0.0408366272107     
2300000000.0        0.0132432314546     0.0426498509699     0.983249824217      -0.125262548716     0.983249824217      -0.125262548716     0.0132432314546     0.0426498509699     
2400000000.0        0.0137328605079     0.0444574942781     0.982451836037      -0.130659953662     0.982451836037      -0.130659953662     0.0137328605079     0.0444574942781     
2500000000.0        0.0142421908839     0.0462593291023     0.98162110217       -0.136051238642     0.98162110217       -0.136051238642     0.0142421908839     0.0462593291023     
2600000000.0        0.0147711638116     0.0480551283273     0.980757673693      -0.14143615822      0.980757673693      -0.14143615822      0.0147711638116     0.0480551283273     
2700000000.0        0.0153197161549     0.0498446658116     0.979861605808      -0.146814467701     0.979861605808      -0.146814467701     0.0153197161549     0.0498446658116     
2800000000.0        0.0158877806347     0.0516277164414     0.978932957624      -0.152185923195     0.978932957624      -0.152185923195     0.0158877806347     0.0516277164414     
2900000000.0        0.0164752860179     0.0534040561819     0.977971791972      -0.157550281667     0.977971791972      -0.157550281667     0.0164752860179     0.0534040561819     
3000000000.0        0.017082157281      0.0551734621261     0.97697817524       -0.162907300994     0.97697817524       -0.162907300994     0.017082157281      0.0551734621261     
3100000000.0        0.0177083157527     0.056935712543      0.975952177235      -0.168256740016     0.975952177235      -0.168256740016     0.0177083157527     0.056935712543      
3200000000.0        0.0183536792389     0.0586905869231     0.974893871057      -0.173598358579     0.974893871057      -0.173598358579     0.0183536792389     0.0586905869231     
3300000000.0        0.0190181621341     0.0604378660228     0.973803332991      -0.178931917589     0.973803332991      -0.178931917589     0.0190181621341     0.0604378660228     
3400000000.0        0.0197016755206     0.062177331908      0.972680642412      -0.184257179054     0.972680642412      -0.184257179054     0.0197016755206     0.062177331908      
3500000000.0        0.0204041272583     0.0639087679958     0.971525881691      -0.189573906128     0.971525881691      -0.189573906128     0.0204041272583     0.0639087679958     
3600000000.0        0.0211254220665     0.0656319590956     0.970339136119      -0.194881863151     0.970339136119      -0.194881863151     0.0211254220665     0.0656319590956     
3700000000.0        0.0218654615984     0.067346691449      0.969120493834      -0.200180815696     0.969120493834      -0.200180815696     0.0218654615984     0.067346691449      
3800000000.0        0.022624144511      0.0690527527685     0.967870045751      -0.205470530604     0.967870045751      -0.205470530604     0.022624144511      0.0690527527685     
3900000000.0        0.0234013665287     0.0707499322761     0.966587885499      -0.210750776026     0.966587885499      -0.210750776026     0.0234013665287     0.0707499322761     
4000000000.0        0.0241970205044     0.0724380207397     0.965274109366      -0.216021321456     0.965274109366      -0.216021321456     0.0241970205044     0.0724380207397     
4100000000.0        0.0250109964759     0.0741168105101     0.963928816239      -0.221281937776     0.963928816239      -0.221281937776     0.0250109964759     0.0741168105101     
4200000000.0        0.0258431817208     0.075786095556      0.96255210755       -0.226532397284     0.96255210755       -0.226532397284     0.0258431817208     0.075786095556      
4300000000.0        0.0266934608072     0.0774456714993     0.961144087234      -0.231772473732     0.961144087234      -0.231772473732     0.0266934608072     0.0774456714993     
4400000000.0        0.027561715644      0.0790953356485     0.959704861671      -0.237001942362     0.959704861671      -0.237001942362     0.027561715644      0.0790953356485     
4500000000.0        0.0284478255284     0.0807348870323     0.958234539645      -0.242220579936     0.958234539645      -0.242220579936     0.0284478255284     0.0807348870323     
4600000000.0        0.0293516671919     0.0823641264317     0.956733232298      -0.24742816477      0.956733232298      -0.24742816477      0.0293516671919     0.0823641264317     
4700000000.0        0.0302731148461     0.0839828564124     0.955201053085      -0.252624476765     0.955201053085      -0.252624476765     0.0302731148461     0.0839828564124     
4800000000.0        0.0312120402258     0.0855908813552     0.953638117733      -0.257809297437     0.953638117733      -0.257809297437     0.0312120402258     0.0855908813552     
4900000000.0        0.0321683126322     0.0871880074867     0.952044544199      -0.262982409949     0.952044544199      -0.262982409949     0.0321683126322     0.0871880074867     
5000000000.0        0.0331417989753     0.0887740429088     0.950420452626      -0.268143599139     0.950420452626      -0.268143599139     0.0331417989753     0.0887740429088     
5100000000.0        0.0341323638154     0.0903487976278     0.948765965308      -0.273292651545     0.948765965308      -0.273292651545     0.0341323638154     0.0903487976278     
5200000000.0        0.0351398694039     0.0919120835825     0.947081206645      -0.27842935544      0.947081206645      -0.27842935544      0.0351398694039     0.0919120835825     
5300000000.0        0.0361641757238     0.0934637146719     0.945366303106      -0.28355350085      0.945366303106      -0.28355350085      0.0361641757238     0.0934637146719     
5400000000.0        0.0372051405298     0.0950035067819     0.943621383193      -0.288664879588     0.943621383193      -0.288664879588     0.0372051405298     0.0950035067819     
5500000000.0        0.0382626193882     0.0965312778117     0.941846577394      -0.293763285273     0.941846577394      -0.293763285273     0.0382626193882     0.0965312778117     
5600000000.0        0.0393364657163     0.0980468476992     0.940042018154      -0.298848513358     0.940042018154      -0.298848513358     0.0393364657163     0.0980468476992     
5700000000.0        0.0404265308215     0.0995500384458     0.938207839832      -0.303920361153     0.938207839832      -0.303920361153     0.0404265308215     0.0995500384458     
5800000000.0        0.0415326639405     0.101040674141      0.936344178661      -0.308978627848     0.936344178661      -0.308978627848     0.0415326639405     0.101040674141      
5900000000.0        0.042654712278      0.102518580985      0.934451172716      -0.314023114535     0.934451172716      -0.314023114535     0.042654712278      0.102518580985      
6000000000.0        0.0437925210458     0.103983587312      0.932528961872      -0.31905362423      0.932528961872      -0.31905362423      0.0437925210458     0.103983587312      
6100000000.0        0.0449459335009     0.105435523613      0.930577687768      -0.324069961892     0.930577687768      -0.324069961892     0.0449459335009     0.105435523613      
6200000000.0        0.0461147909848     0.106874222556      0.928597493767      -0.329071934449     0.928597493767      -0.329071934449     0.0461147909848     0.106874222556      
6300000000.0        0.0472989329611     0.108299519008      0.926588524924      -0.334059350808     0.926588524924      -0.334059350808     0.0472989329611     0.108299519008      
6400000000.0        0.0484981970547     0.109711250054      0.924550927942      -0.339032021883     0.924550927942      -0.339032021883     0.0484981970547     0.109711250054      
6500000000.0        0.0497124190897     0.111109255016      0.922484851139      -0.343989760605     0.922484851139      -0.343989760605     0.0497124190897     0.111109255016      
6600000000.0        0.0509414331282     0.112493375474      0.920390444411      -0.348932381947     0.920390444411      -0.348932381947     0.0509414331282     0.112493375474      
6700000000.0        0.0521850715079     0.113863455284      0.91826785919       -0.353859702934     0.91826785919       -0.353859702934     0.0521850715079     0.113863455284      
6800000000.0        0.0534431648811     0.11521934059       0.916117248412      -0.358771542662     0.916117248412      -0.358771542662     0.0534431648811     0.11521934059       
6900000000.0        0.0547155422524     0.11656087985       0.913938766477      -0.363667722312     0.913938766477      -0.363667722312     0.0547155422524     0.11656087985       
7000000000.0        0.0560020310176     0.117887923842      0.911732569213      -0.368548065167     0.911732569213      -0.368548065167     0.0560020310176     0.117887923842      
7100000000.0        0.0573024570009     0.119200325689      0.909498813837      -0.373412396621     0.909498813837      -0.373412396621     0.0573024570009     0.119200325689      
7200000000.0        0.0586166444941     0.120497940866      0.90723765892       -0.378260544196     0.90723765892       -0.378260544196     0.0586166444941     0.120497940866      
7300000000.0        0.059944416294      0.121780627219      0.904949264349      -0.383092337553     0.904949264349      -0.383092337553     0.059944416294      0.121780627219      
7400000000.0        0.061285593741      0.123048244975      0.902633791288      -0.387907608503     0.902633791288      -0.387907608503     0.061285593741      0.123048244975      
7500000000.0        0.0626399967567     0.124300656757      0.900291402145      -0.39270619102      0.900291402145      -0.39270619102      0.0626399967567     0.124300656757      
7600000000.0        0.0640074438824     0.125537727598      0.897922260532      -0.397487921248     0.897922260532      -0.397487921248     0.0640074438824     0.125537727598      
7700000000.0        0.0653877523167     0.126759324946      0.895526531227      -0.402252637513     0.895526531227      -0.402252637513     0.0653877523167     0.126759324946      
7800000000.0        0.0667807379536     0.127965318682      0.89310438014       -0.407000180331     0.89310438014       -0.407000180331     0.0667807379536     0.127965318682      
7900000000.0        0.0681862154204     0.129155581125      0.890655974275      -0.411730392417     0.890655974275      -0.411730392417     0.0681862154204     0.129155581125      
8000000000.0        0.0696039981155     0.130329987045      0.888181481693      -0.416443118692     0.888181481693      -0.416443118692     0.0696039981155     0.130329987045      
8100000000.0        0.0710338982456     0.131488413669      0.885681071475      -0.421138206289     0.885681071475      -0.421138206289     0.0710338982456     0.131488413669      
8200000000.0        0.0724757268643     0.132630740693      0.883154913686      -0.425815504561     0.883154913686      -0.425815504561     0.0724757268643     0.132630740693      
8300000000.0        0.0739292939088     0.133756850284      0.880603179339      -0.430474865085     0.880603179339      -0.430474865085     0.0739292939088     0.133756850284      
8400000000.0        0.0753944082378     0.134866627093      0.878026040356      -0.435116141667     0.878026040356      -0.435116141667     0.0753944082378     0.134866627093      
8500000000.0        0.0768708776686     0.135959958258      0.875423669534      -0.439739190348     0.875423669534      -0.439739190348     0.0768708776686     0.135959958258      
8600000000.0        0.0783585090145     0.137036733409      0.872796240509      -0.444343869406     0.872796240509      -0.444343869406     0.0783585090145     0.137036733409      
8700000000.0        0.0798571081217     0.138096844677      0.87014392772       -0.448930039358     0.87014392772       -0.448930039358     0.0798571081217     0.138096844677      
8800000000.0        0.0813664799066     0.139140186695      0.86746690637       -0.453497562965     0.86746690637       -0.453497562965     0.0813664799066     0.139140186695      
8900000000.0        0.0828864283922     0.140166656602      0.864765352395      -0.458046305232     0.864765352395      -0.458046305232     0.0828864283922     0.140166656602      
9000000000.0        0.0844167567452     0.141176154048      0.862039442423      -0.46257613341      0.862039442423      -0.46257613341      0.0844167567452     0.141176154048      
9100000000.0        0.0859572673122     0.142168581199      0.859289353743      -0.467086916994     0.859289353743      -0.467086916994     0.0859572673122     0.142168581199      
9200000000.0        0.0875077616564     0.143143842732      0.85651526427       -0.471578527727     0.85651526427       -0.471578527727     0.0875077616564     0.143143842732      
9300000000.0        0.0890680405935     0.144101845843      0.853717352504      -0.476050839595     0.853717352504      -0.476050839595     0.0890680405935     0.144101845843      
9400000000.0        0.0906379042276     0.145042500247      0.850895797502      -0.48050372883      0.850895797502      -0.48050372883      0.0906379042276     0.145042500247      
9500000000.0        0.0922171519875     0.145965718176      0.84805077884       -0.484937073904     0.84805077884       -0.484937073904     0.0922171519875     0.145965718176      
9600000000.0        0.093805582662      0.14687141438       0.845182476578      -0.489350755528     0.845182476578      -0.489350755528     0.093805582662      0.14687141438       
9700000000.0        0.0954029944353     0.147759506128      0.842291071227      -0.493744656651     0.842291071227      -0.493744656651     0.0954029944353     0.147759506128      
9800000000.0        0.0970091849224     0.148629913205      0.839376743715      -0.498118662452     0.839376743715      -0.498118662452     0.0970091849224     0.148629913205      
9900000000.0        0.0986239512036     0.149482557911      0.836439675352      -0.502472660341     0.836439675352      -0.502472660341     0.0986239512036     0.149482557911      
10000000000.0       0.10024708986       0.150317365057      0.833480047797      -0.506806539949     0.833480047797      -0.506806539949     0.10024708986       0.150317365057      
