# Hz S RI R 50.00 
100000000.0         0.0033648658159     0.00157321314376    0.996629536571      -0.00380741811547   0.996629536571      -0.00380741811547   0.0033648658159     0.00157321314376    
200000000.0         0.00340423260974    0.00314609363343    0.996580574507      -0.00761453923418   0.996580574507      -0.00761453923418   0.00340423260974    0.00314609363343    
300000000.0         0.00344971833352    0.00471863992044    0.996520495225      -0.0114213831306    0.996520495225      -0.0114213831306    0.00344971833352    0.00471863992044    
400000000.0         0.00350422885297    0.00629078740251    0.996446392039      -0.0152279007078    0.996446392039      -0.0152279007078    0.00350422885297    0.00629078740251    
500000000.0         0.00356888075424    0.00786245693465    0.996357147375      -0.0190340253552    0.996357147375      -0.0190340253552    0.00356888075424    0.00786245693465    
600000000.0         0.00364424101869    0.00943356302497    0.996252193113      -0.0228396821497    0.996252193113      -0.0228396821497    0.00364424101869    0.00943356302497    
700000000.0         0.00373064208807    0.0110040167793     0.996131195527      -0.0266447913149    0.996131195527      -0.0266447913149    0.00373064208807    0.0110040167793     
800000000.0         0.00382829682434    0.0125737272678     0.995993940341      -0.0304492698982    0.995993940341      -0.0304492698982    0.00382829682434    0.0125737272678     
900000000.0         0.00393734968199    0.0141426022606     0.99584028156       -0.0342530327116    0.99584028156       -0.0342530327116    0.00393734968199    0.0141426022606     
1000000000.0        0.00405790263881    0.0157105486647     0.995670115547      -0.0380559929136    0.995670115547      -0.0380559929136    0.00405790263881    0.0157105486647     
1100000000.0        0.0041900296065     0.0172774728022     0.99548336662       -0.0418580623956    0.99548336662       -0.0418580623956    0.0041900296065     0.0172774728022     
1200000000.0        0.00433378501501    0.0188432805996     0.995279978469      -0.0456591520532    0.995279978469      -0.0456591520532    0.00433378501501    0.0188432805996     
1300000000.0        0.00448920921207    0.0204078777196     0.995059908763      -0.0494591719844    0.995059908763      -0.0494591719844    0.00448920921207    0.0204078777196     
1400000000.0        0.00465633201142    0.0219711696595     0.994823125605      -0.0532580316401    0.994823125605      -0.0532580316401    0.00465633201142    0.0219711696595     
1500000000.0        0.00483517511032    0.0235330618243     0.99456960512       -0.0570556399415    0.99456960512       -0.0570556399415    0.00483517511032    0.0235330618243     
1600000000.0        0.00502575378734    0.0250934595844     0.994299329758      -0.0608519053742    0.994299329758      -0.0608519053742    0.00502575378734    0.0250934595844     
1700000000.0        0.00522807812587    0.0266522683214     0.994012287075      -0.0646467360651    0.994012287075      -0.0646467360651    0.00522807812587    0.0266522683214     
1800000000.0        0.00544215391586    0.0282093934655     0.993708468832      -0.0684400398466    0.993708468832      -0.0684400398466    0.00544215391586    0.0282093934655     
1900000000.0        0.00566798333151    0.0297647405265     0.993387870325      -0.072231724311     0.993387870325      -0.072231724311     0.00566798333151    0.0297647405265     
2000000000.0        0.00590556544934    0.0313182151205     0.993050489863      -0.0760216968576    0.993050489863      -0.0760216968576    0.00590556544934    0.0313182151205     
2100000000.0        0.00615489665047    0.0328697229927     0.992696328372      -0.0798098647332    0.992696328372      -0.0798098647332    0.00615489665047    0.0328697229927     
2200000000.0        0.00641597093738    0.0344191700374     0.992325389078      -0.0835961350684    0.992325389078      -0.0835961350684    0.00641597093738    0.0344191700374     
2300000000.0        0.00668878018631    0.0359664623157     0.991937677261      -0.0873804149096    0.991937677261      -0.0873804149096    0.00668878018631    0.0359664623157     
2400000000.0        0.00697331435086    0.0375115060719     0.991533200046      -0.0911626112482    0.991533200046      -0.0911626112482    0.00697331435086    0.0375115060719     
2500000000.0        0.00726956162791    0.0390542077475     0.991111966247      -0.0949426310468    0.991111966247      -0.0949426310468    0.00726956162791    0.0390542077475     
2600000000.0        0.0075775085941     0.0405944739955     0.990673986227      -0.0987203812633    0.990673986227      -0.0987203812633    0.0075775085941     0.0405944739955     
2700000000.0        0.00789714031927    0.0421322116923     0.990219271785      -0.102495768873     0.990219271785      -0.102495768873     0.00789714031927    0.0421322116923     
2800000000.0        0.00822844046135    0.0436673279494     0.989747836068      -0.10626870089      0.989747836068      -0.10626870089      0.00822844046135    0.0436673279494     
2900000000.0        0.00857139134665    0.0451997301248     0.989259693489      -0.110039084384     0.989259693489      -0.110039084384     0.00857139134665    0.0451997301248     
3000000000.0        0.00892597403803    0.0467293258332     0.98875485966       -0.113806826503     0.98875485966       -0.113806826503     0.00892597403803    0.0467293258332     
3100000000.0        0.00929216839346    0.0482560229564     0.988233351334      -0.117571834484     0.988233351334      -0.117571834484     0.00929216839346    0.0482560229564     
3200000000.0        0.00966995311656    0.0497797296522     0.987695186358      -0.121334015675     0.987695186358      -0.121334015675     0.00966995311656    0.0497797296522     
3300000000.0        0.0100593058005     0.0513003543642     0.98714038363       -0.125093277548     0.98714038363       -0.125093277548     0.0100593058005     0.0513003543642     
3400000000.0        0.0104602029664     0.0528178058308     0.98656896306       -0.128849527711     0.98656896306       -0.128849527711     0.0104602029664     0.0528178058308     
3500000000.0        0.0108726200974     0.0543319930934     0.985980945538      -0.132602673927     0.985980945538      -0.132602673927     0.0108726200974     0.0543319930934     
3600000000.0        0.0112965316685     0.0558428255051     0.985376352905      -0.136352624122     0.985376352905      -0.136352624122     0.0112965316685     0.0558428255051     
3700000000.0        0.0117319111735     0.0573502127392     0.984755207929      -0.140099286402     0.984755207929      -0.140099286402     0.0117319111735     0.0573502127392     
3800000000.0        0.012178731149      0.0588540647965     0.984117534277      -0.143842569065     0.984117534277      -0.143842569065     0.012178731149      0.0588540647965     
3900000000.0        0.012636963196      0.0603542920137     0.983463356502      -0.147582380609     0.983463356502      -0.147582380609     0.012636963196      0.0603542920137     
4000000000.0        0.0131065780002     0.0618508050711     0.982792700015      -0.151318629748     0.982792700015      -0.151318629748     0.0131065780002     0.0618508050711     
4100000000.0        0.0135875453492     0.0633435149999     0.982105591076      -0.155051225422     0.982105591076      -0.155051225422     0.0135875453492     0.0633435149999     
4200000000.0        0.01407983415       0.0648323331896     0.981402056771      -0.158780076807     0.981402056771      -0.158780076807     0.01407983415       0.0648323331896     
4300000000.0        0.0145834124434     0.0663171713953     0.980682125006      -0.162505093324     0.980682125006      -0.162505093324     0.0145834124434     0.0663171713953     
4400000000.0        0.0150982474191     0.0677979417453     0.979945824484      -0.166226184655     0.979945824484      -0.166226184655     0.0150982474191     0.0677979417453     
4500000000.0        0.0156243054286     0.0692745567474     0.979193184698      -0.169943260744     0.979193184698      -0.169943260744     0.0156243054286     0.0692745567474     
4600000000.0        0.0161615519974     0.0707469292963     0.978424235922      -0.173656231817     0.978424235922      -0.173656231817     0.0161615519974     0.0707469292963     
4700000000.0        0.0167099518375     0.0722149726806     0.977639009191      -0.177365008384     0.977639009191      -0.177365008384     0.0167099518375     0.0722149726806     
4800000000.0        0.0172694688578     0.0736786005891     0.976837536299      -0.181069501249     0.976837536299      -0.181069501249     0.0172694688578     0.0736786005891     
4900000000.0        0.0178400661754     0.0751377271176     0.976019849785      -0.184769621524     0.976019849785      -0.184769621524     0.0178400661754     0.0751377271176     
5000000000.0        0.0184217061251     0.0765922667757     0.975185982923      -0.188465280632     0.975185982923      -0.188465280632     0.0184217061251     0.0765922667757     
5100000000.0        0.0190143502697     0.0780421344929     0.974335969716      -0.19215639032      0.974335969716      -0.19215639032      0.0190143502697     0.0780421344929     
5200000000.0        0.019617959409      0.0794872456255     0.973469844884      -0.195842862663     0.973469844884      -0.195842862663     0.019617959409      0.0794872456255     
5300000000.0        0.0202324935891     0.0809275159622     0.972587643857      -0.199524610078     0.972587643857      -0.199524610078     0.0202324935891     0.0809275159622     
5400000000.0        0.020857912111      0.0823628617308     0.971689402767      -0.203201545327     0.971689402767      -0.203201545327     0.020857912111      0.0823628617308     
5500000000.0        0.0214941735393     0.0837931996044     0.970775158438      -0.206873581527     0.970775158438      -0.206873581527     0.0214941735393     0.0837931996044     
5600000000.0        0.0221412357105     0.0852184467071     0.969844948381      -0.210540632159     0.969844948381      -0.210540632159     0.0221412357105     0.0852184467071     
5700000000.0        0.022799055741      0.08663852062       0.968898810784      -0.214202611074     0.968898810784      -0.214202611074     0.022799055741      0.08663852062       
5800000000.0        0.0234675900353     0.0880533393875     0.967936784507      -0.217859432499     0.967936784507      -0.217859432499     0.0234675900353     0.0880533393875     
5900000000.0        0.0241467942937     0.0894628215227     0.966958909072      -0.221511011049     0.966958909072      -0.221511011049     0.0241467942937     0.0894628215227     
6000000000.0        0.0248366235202     0.0908668860131     0.965965224656      -0.225157261729     0.965965224656      -0.225157261729     0.0248366235202     0.0908668860131     
6100000000.0        0.0255370320299     0.0922654523267     0.964955772085      -0.228798099945     0.964955772085      -0.228798099945     0.0255370320299     0.0922654523267     
6200000000.0        0.0262479734565     0.0936584404169     0.963930592828      -0.232433441508     0.963930592828      -0.232433441508     0.0262479734565     0.0936584404169     
6300000000.0        0.0269694007601     0.0950457707288     0.962889728988      -0.236063202644     0.962889728988      -0.236063202644     0.0269694007601     0.0950457707288     
6400000000.0        0.0277012662339     0.0964273642036     0.961833223292      -0.239687299996     0.961833223292      -0.239687299996     0.0277012662339     0.0964273642036     
6500000000.0        0.0284435215125     0.097803142285      0.960761119093      -0.243305650636     0.960761119093      -0.243305650636     0.0284435215125     0.097803142285      
6600000000.0        0.029196117578      0.0991730269236     0.959673460353      -0.246918172067     0.959673460353      -0.246918172067     0.029196117578      0.0991730269236     
6700000000.0        0.029959004768      0.100536940583      0.958570291644      -0.250524782232     0.958570291644      -0.250524782232     0.029959004768      0.100536940583      
6800000000.0        0.0307321327827     0.101894806242      0.957451658136      -0.254125399517     0.957451658136      -0.254125399517     0.0307321327827     0.101894806242      
6900000000.0        0.0315154506917     0.103246547406      0.956317605592      -0.257719942762     0.956317605592      -0.257719942762     0.0315154506917     0.103246547406      
7000000000.0        0.0323089069412     0.104592088104      0.955168180364      -0.261308331261     0.955168180364      -0.261308331261     0.0323089069412     0.104592088104      
7100000000.0        0.0331124493614     0.105931352899      0.954003429381      -0.264890484773     0.954003429381      -0.264890484773     0.0331124493614     0.105931352899      
7200000000.0        0.0339260251732     0.107264266891      0.952823400145      -0.268466323525     0.952823400145      -0.268466323525     0.0339260251732     0.107264266891      
7300000000.0        0.0347495809955     0.108590755722      0.951628140724      -0.272035768216     0.951628140724      -0.272035768216     0.0347495809955     0.108590755722      
7400000000.0        0.035583062852      0.109910745578      0.950417699748      -0.275598740027     0.950417699748      -0.275598740027     0.035583062852      0.109910745578      
7500000000.0        0.0364264161785     0.111224163199      0.949192126395      -0.279155160623     0.949192126395      -0.279155160623     0.0364264161785     0.111224163199      
7600000000.0        0.0372795858297     0.112530935878      0.947951470393      -0.282704952157     0.947951470393      -0.282704952157     0.0372795858297     0.112530935878      
7700000000.0        0.0381425160865     0.113830991469      0.946695782006      -0.28624803728      0.946695782006      -0.28624803728      0.0381425160865     0.113830991469      
7800000000.0        0.0390151506626     0.115124258389      0.945425112032      -0.289784339141     0.945425112032      -0.289784339141     0.0390151506626     0.115124258389      
7900000000.0        0.0398974327119     0.116410665624      0.944139511793      -0.293313781393     0.944139511793      -0.293313781393     0.0398974327119     0.116410665624      
8000000000.0        0.0407893048355     0.11769014273       0.942839033131      -0.296836288203     0.942839033131      -0.296836288203     0.0407893048355     0.11769014273       
8100000000.0        0.0416907090883     0.118962619843      0.941523728399      -0.300351784246     0.941523728399      -0.300351784246     0.0416907090883     0.118962619843      
8200000000.0        0.0426015869866     0.120228027675      0.940193650456      -0.303860194721     0.940193650456      -0.303860194721     0.0426015869866     0.120228027675      
8300000000.0        0.0435218795147     0.121486297524      0.938848852658      -0.307361445348     0.938848852658      -0.307361445348     0.0435218795147     0.121486297524      
8400000000.0        0.0444515271322     0.122737361277      0.937489388854      -0.310855462375     0.937489388854      -0.310855462375     0.0444515271322     0.122737361277      
8500000000.0        0.0453904697807     0.12398115141       0.936115313376      -0.314342172582     0.936115313376      -0.314342172582     0.0453904697807     0.12398115141       
8600000000.0        0.0463386468912     0.125217600995      0.934726681034      -0.317821503284     0.934726681034      -0.317821503284     0.0463386468912     0.125217600995      
8700000000.0        0.047295997391      0.126446643704      0.933323547109      -0.321293382337     0.933323547109      -0.321293382337     0.047295997391      0.126446643704      
8800000000.0        0.0482624597107     0.127668213808      0.931905967348      -0.324757738141     0.931905967348      -0.324757738141     0.0482624597107     0.127668213808      
8900000000.0        0.0492379717911     0.128882246186      0.930473997953      -0.328214499644     0.930473997953      -0.328214499644     0.0492379717911     0.128882246186      
9000000000.0        0.0502224710908     0.130088676325      0.929027695576      -0.331663596344     0.929027695576      -0.331663596344     0.0502224710908     0.130088676325      
9100000000.0        0.0512158945926     0.131287440324      0.927567117314      -0.335104958296     0.927567117314      -0.335104958296     0.0512158945926     0.131287440324      
9200000000.0        0.0522181788109     0.132478474895      0.926092320699      -0.338538516111     0.926092320699      -0.338538516111     0.0522181788109     0.132478474895      
9300000000.0        0.0532292597987     0.133661717371      0.924603363694      -0.341964200964     0.924603363694      -0.341964200964     0.0532292597987     0.133661717371      
9400000000.0        0.0542490731547     0.134837105703      0.923100304683      -0.345381944595     0.923100304683      -0.345381944595     0.0542490731547     0.134837105703      
9500000000.0        0.0552775540305     0.136004578468      0.921583202468      -0.348791679312     0.921583202468      -0.348791679312     0.0552775540305     0.136004578468      
9600000000.0        0.0563146371372     0.137164074868      0.920052116258      -0.352193337996     0.920052116258      -0.352193337996     0.0563146371372     0.137164074868      
9700000000.0        0.057360256753      0.138315534735      0.918507105665      -0.3555868541       0.918507105665      -0.3555868541       0.057360256753      0.138315534735      
9800000000.0        0.0584143467301     0.139458898532      0.916948230694      -0.358972161656     0.916948230694      -0.358972161656     0.0584143467301     0.139458898532      
9900000000.0        0.0594768405016     0.140594107358      0.91537555174       -0.362349195278     0.91537555174       -0.362349195278     0.0594768405016     0.140594107358      
10000000000.0       0.0605476710887     0.141721102945      0.913789129578      -0.365717890159     0.913789129578      -0.365717890159     0.0605476710887     0.141721102945      
