# Hz S RI R 50.00 
100000000.0         -1.64124398561e-06  -0.00155201410019   0.999992649727      -0.0015768449577    0.999992649727      -0.0015768449577    -1.64124398561e-06  -0.00155201410019   
200000000.0         -1.0511591093e-05   -0.00310394961884   0.999983739557      -0.00315361581971   0.999983739557      -0.00315361581971   -1.05115910929e-05  -0.00310394961884   
300000000.0         -2.42801429405e-05  -0.00465576021555   0.999969940417      -0.00473026851951   0.999969940417      -0.00473026851951   -2.42801429405e-05  -0.00465576021555   
400000000.0         -4.29431825779e-05  -0.00620740510428   0.999951251112      -0.00630676399333   0.999951251112      -0.00630676399333   -4.29431825781e-05  -0.00620740510428   
500000000.0         -6.64981914598e-05  -0.00775884638268   0.999927672276      -0.00788306577384   0.999927672276      -0.00788306577384   -6.64981914598e-05  -0.00775884638268   
600000000.0         -9.49428288937e-05  -0.00931004808644   0.999899205295      -0.0094591391378    0.999899205295      -0.0094591391378    -9.49428288934e-05  -0.00931004808644   
700000000.0         -0.000128274682475  -0.0108609757161    0.999865852018      -0.0110349506807    0.999865852018      -0.0110349506807    -0.000128274682474  -0.0108609757161    
800000000.0         -0.000166491186601  -0.0124115959386    0.999827614648      -0.0126104680471    0.999827614648      -0.0126104680471    -0.000166491186601  -0.0124115959386    
900000000.0         -0.000209589590547  -0.0139618764044    0.999784495684      -0.0141856597675    0.999784495684      -0.0141856597675    -0.000209589590547  -0.0139618764044    
1000000000.0        -0.000257566947544  -0.015511785612     0.999736497895      -0.0157604951361    0.999736497895      -0.0157604951361    -0.000257566947544  -0.015511785612     
1100000000.0        -0.000310420111836  -0.0170612928056    0.99968362429       -0.0173349441193    0.99968362429       -0.0173349441193    -0.000310420111835  -0.0170612928056    
1200000000.0        -0.000368145739466  -0.0186103679009    0.999625878109      -0.0189089772894    0.999625878109      -0.0189089772894    -0.000368145739466  -0.0186103679009    
1300000000.0        -0.00043074029113   -0.0201589814169    0.99956326281       -0.0204825657629    0.99956326281       -0.0204825657629    -0.00043074029113   -0.0201589814169    
1400000000.0        -0.000498200035975  -0.0217071044322    0.999495782057      -0.0220556811624    0.999495782057      -0.0220556811624    -0.000498200035975  -0.0217071044322    
1500000000.0        -0.000570521055734  -0.0232547085371    0.999423439715      -0.0236282955729    0.999423439715      -0.0236282955729    -0.000570521055734  -0.0232547085371    
1600000000.0        -0.000647699248927  -0.0248017657984    0.99934623984       -0.0252003815113    0.99934623984       -0.0252003815113    -0.000647699248928  -0.0248017657984    
1700000000.0        -0.000729730335194  -0.0263482487298    0.999264186675      -0.0267719118991    0.999264186675      -0.0267719118991    -0.000729730335194  -0.0263482487298    
1800000000.0        -0.000816609859502  -0.0278941302642    0.999177284642      -0.0283428600389    0.999177284642      -0.0283428600389    -0.000816609859502  -0.0278941302642    
1900000000.0        -0.000908333195944  -0.0294393837244    0.999085538341      -0.0299131995867    0.999085538341      -0.0299131995867    -0.000908333195944  -0.0294393837244    
2000000000.0        -0.00100489555194   -0.0309839828088    0.998988952538      -0.0314829045411    0.998988952538      -0.0314829045411    -0.00100489555194   -0.0309839828088    
2100000000.0        -0.00110629197167   -0.0325279015661    0.998887532171      -0.0330519492193    0.998887532171      -0.0330519492193    -0.00110629197167   -0.0325279015661    
2200000000.0        -0.00121251733963   -0.0340711143778    0.998781282334      -0.0346203082422    0.998781282334      -0.0346203082422    -0.00121251733963   -0.0340711143778    
2300000000.0        -0.00132356638415   -0.0356135959451    0.998670208285      -0.0361879565228    0.998670208285      -0.0361879565228    -0.00132356638415   -0.0356135959451    
2400000000.0        -0.00143943368034   -0.0371553212696    0.998554315433      -0.037754869249     0.998554315433      -0.037754869249     -0.00143943368034   -0.0371553212696    
2500000000.0        -0.00156011365337   -0.0386962656433    0.99843360934       -0.0393210218747    0.99843360934       -0.0393210218747    -0.00156011365337   -0.0386962656433    
2600000000.0        -0.00168560058099   -0.0402364046308    0.998308095716      -0.0408863901039    0.998308095716      -0.0408863901039    -0.00168560058099   -0.0402364046308    
2700000000.0        -0.00181588859661   -0.0417757140623    0.998177780418      -0.0424509498849    0.998177780418      -0.0424509498849    -0.00181588859661   -0.0417757140623    
2800000000.0        -0.00195097169155   -0.0433141700181    0.998042669444      -0.0440146773961    0.998042669444      -0.0440146773961    -0.00195097169155   -0.0433141700181    
2900000000.0        -0.00209084371774   -0.0448517488208    0.997902768934      -0.0455775490394    0.997902768934      -0.0455775490394    -0.00209084371774   -0.0448517488208    
3000000000.0        -0.00223549838995   -0.0463884270254    0.997758085165      -0.0471395414315    0.997758085165      -0.0471395414315    -0.00223549838995   -0.0463884270254    
3100000000.0        -0.00238492928784   -0.0479241814076    0.997608624549      -0.0487006313931    0.997608624549      -0.0487006313931    -0.00238492928784   -0.0479241814076    
3200000000.0        -0.00253912985817   -0.0494589889568    0.997454393633      -0.0502607959434    0.997454393633      -0.0502607959434    -0.00253912985817   -0.0494589889568    
3300000000.0        -0.00269809341671   -0.0509928268674    0.997295399095      -0.0518200122917    0.997295399095      -0.0518200122917    -0.00269809341671   -0.0509928268674    
3400000000.0        -0.00286181315031   -0.052525672533     0.997131647742      -0.0533782578329    0.997131647742      -0.0533782578329    -0.00286181315031   -0.052525672533     
3500000000.0        -0.0030302821183    -0.0540575035356    0.996963146509      -0.0549355101374    0.996963146509      -0.0549355101374    -0.0030302821183    -0.0540575035356    
3600000000.0        -0.00320349325437   -0.0555882976404    0.996789902457      -0.0564917469469    0.996789902457      -0.0564917469469    -0.00320349325437   -0.0555882976404    
3700000000.0        -0.00338143936833   -0.0571180327909    0.996611922772      -0.05804694617      0.996611922772      -0.05804694617      -0.00338143936833   -0.0571180327909    
3800000000.0        -0.00356411314724   -0.0586466870995    0.996429214762      -0.0596010858738    0.996429214762      -0.0596010858738    -0.00356411314724   -0.0586466870995    
3900000000.0        -0.00375150715726   -0.0601742388451    0.996241785856      -0.0611541442818    0.996241785856      -0.0611541442818    -0.00375150715726   -0.0601742388451    
4000000000.0        -0.00394361384462   -0.061700666464     0.996049643604      -0.062706099766     0.996049643604      -0.062706099766     -0.00394361384462   -0.061700666464     
4100000000.0        -0.00414042553728   -0.0632259485484    0.995852795675      -0.0642569308456    0.995852795675      -0.0642569308456    -0.00414042553729   -0.0632259485484    
4200000000.0        -0.0043419344459    -0.0647500638385    0.995651249854      -0.0658066161796    0.995651249854      -0.0658066161796    -0.0043419344459    -0.0647500638385    
4300000000.0        -0.00454813266522   -0.0662729912203    0.995445014043      -0.0673551345656    0.995445014043      -0.0673551345656    -0.00454813266522   -0.0662729912203    
4400000000.0        -0.00475901217508   -0.0677947097194    0.995234096259      -0.0689024649339    0.995234096259      -0.0689024649339    -0.00475901217508   -0.0677947097194    
4500000000.0        -0.00497456484149   -0.0693151984976    0.995018504632      -0.0704485863444    0.995018504632      -0.0704485863444    -0.00497456484149   -0.0693151984976    
4600000000.0        -0.00519478241766   -0.0708344368491    0.994798247407      -0.0719934779834    0.994798247407      -0.0719934779834    -0.00519478241766   -0.0708344368491    
4700000000.0        -0.00541965654515   -0.0723524041973    0.994573332939      -0.0735371191612    0.994573332939      -0.0735371191612    -0.00541965654515   -0.0723524041973    
4800000000.0        -0.00564917875456   -0.0738690800904    0.994343769695      -0.0750794893075    0.994343769695      -0.0750794893075    -0.00564917875456   -0.0738690800904    
4900000000.0        -0.00588334046656   -0.0753844441983    0.994109566251      -0.0766205679692    0.994109566251      -0.0766205679692    -0.00588334046656   -0.0753844441983    
5000000000.0        -0.00612213299291   -0.0768984763111    0.993870731294      -0.0781603348091    0.993870731294      -0.0781603348091    -0.00612213299291   -0.0768984763111    
5100000000.0        -0.00636554753694   -0.0784111563334    0.993627273617      -0.0796987696004    0.993627273617      -0.0796987696004    -0.00636554753694   -0.0784111563334    
5200000000.0        -0.00661357519477   -0.0799224642846    0.993379202123      -0.0812358522278    0.993379202123      -0.0812358522278    -0.00661357519477   -0.0799224642846    
5300000000.0        -0.00686620695584   -0.0814323802948    0.993126525819      -0.0827715626832    0.993126525819      -0.0827715626832    -0.00686620695584   -0.0814323802948    
5400000000.0        -0.0071234337037    -0.0829408846023    0.99286925382       -0.0843058810637    0.99286925382       -0.0843058810637    -0.0071234337037    -0.0829408846023    
5500000000.0        -0.0073852462168    -0.0844479575519    0.992607395346      -0.0858387875705    0.992607395346      -0.0858387875705    -0.0073852462168    -0.0844479575519    
5600000000.0        -0.00765163516924   -0.0859535795933    0.99234095972       -0.0873702625071    0.99234095972       -0.0873702625071    -0.00765163516924   -0.0859535795933    
5700000000.0        -0.00792259113129   -0.0874577312778    0.99206995637       -0.0889002862764    0.99206995637       -0.0889002862764    -0.00792259113129   -0.0874577312778    
5800000000.0        -0.00819810457037   -0.0889603932584    0.991794394827      -0.0904288393813    0.991794394827      -0.0904288393813    -0.00819810457037   -0.0889603932584    
5900000000.0        -0.00847816585131   -0.0904615462859    0.991514284724      -0.0919559024206    0.991514284724      -0.0919559024206    -0.00847816585131   -0.0904615462859    
6000000000.0        -0.00876276523748   -0.09196117121      0.991229635797      -0.0934814560909    0.991229635797      -0.0934814560909    -0.00876276523748   -0.09196117121      
6100000000.0        -0.00905189289089   -0.0934592489748    0.990940457881      -0.0950054811816    0.990940457881      -0.0950054811816    -0.00905189289089   -0.0934592489748    
6200000000.0        -0.00934553887331   -0.0949557606205    0.990646760914      -0.0965279585775    0.990646760914      -0.0965279585775    -0.00934553887331   -0.0949557606205    
6300000000.0        -0.00964369314656   -0.0964506872801    0.990348554932      -0.0980488692548    0.990348554932      -0.0980488692548    -0.00964369314656   -0.0964506872801    
6400000000.0        -0.00994634557327   -0.0979440101792    0.99004585007       -0.0995681942822    0.99004585007       -0.0995681942822    -0.00994634557327   -0.0979440101792    
6500000000.0        -0.0102534859174    -0.0994357106347    0.989738656564      -0.101085914819     0.989738656564      -0.101085914819     -0.0102534859174    -0.0994357106347    
6600000000.0        -0.0105651038451    -0.100925770054     0.989426984746      -0.102602012115     0.989426984746      -0.102602012115     -0.0105651038451    -0.100925770054     
6700000000.0        -0.0108811889245    -0.102414169934     0.989110845046      -0.104116467508     0.989110845046      -0.104116467508     -0.0108811889245    -0.102414169934     
6800000000.0        -0.0112017306273    -0.103900891861     0.988790247991      -0.105629262425     0.988790247991      -0.105629262425     -0.0112017306273    -0.103900891861     
6900000000.0        -0.011526718329     -0.105385917508     0.988465204205      -0.107140378383     0.988465204205      -0.107140378383     -0.011526718329     -0.105385917508     
7000000000.0        -0.0118561413089    -0.106869228636     0.988135724407      -0.108649796984     0.988135724407      -0.108649796984     -0.0118561413089    -0.106869228636     
7100000000.0        -0.0121899887518    -0.108350807095     0.987801819411      -0.110157499919     0.987801819411      -0.110157499919     -0.0121899887518    -0.108350807095     
7200000000.0        -0.0125282497472    -0.109830634818     0.987463500126      -0.111663468964     0.987463500126      -0.111663468964     -0.0125282497472    -0.109830634818     
7300000000.0        -0.0128709132912    -0.111308693826     0.987120777556      -0.113167685984     0.987120777556      -0.113167685984     -0.0128709132912    -0.111308693826     
7400000000.0        -0.0132179682861    -0.112784966226     0.986773662796      -0.114670132928     0.986773662796      -0.114670132928     -0.0132179682861    -0.112784966226     
7500000000.0        -0.0135694035416    -0.114259434209     0.986422167036      -0.116170791832     0.986422167036      -0.116170791832     -0.0135694035416    -0.114259434209     
7600000000.0        -0.0139252077749    -0.115732080051     0.986066301557      -0.117669644816     0.986066301557      -0.117669644816     -0.0139252077749    -0.115732080051     
7700000000.0        -0.0142853696117    -0.117202886115     0.985706077733      -0.11916667409      0.985706077733      -0.11916667409      -0.0142853696117    -0.117202886115     
7800000000.0        -0.0146498775862    -0.118671834847     0.985341507029      -0.120661861943     0.985341507029      -0.120661861943     -0.0146498775862    -0.118671834847     
7900000000.0        -0.0150187201426    -0.120138908776     0.984972601         -0.122155190756     0.984972601         -0.122155190756     -0.0150187201426    -0.120138908776     
8000000000.0        -0.0153918856347    -0.121604090519     0.98459937129       -0.123646642992     0.98459937129       -0.123646642992     -0.0153918856347    -0.121604090519     
8100000000.0        -0.0157693623269    -0.123067362775     0.984221829635      -0.125136201198     0.984221829635      -0.125136201198     -0.0157693623269    -0.123067362775     
8200000000.0        -0.0161511383952    -0.124528708328     0.983839987857      -0.12662384801      0.983839987857      -0.12662384801      -0.0161511383952    -0.124528708328     
8300000000.0        -0.0165372019269    -0.125988110045     0.983453857869      -0.128109566147     0.983453857869      -0.128109566147     -0.0165372019269    -0.125988110045     
8400000000.0        -0.0169275409221    -0.12744555088      0.983063451669      -0.129593338414     0.983063451669      -0.129593338414     -0.0169275409221    -0.12744555088      
8500000000.0        -0.0173221432936    -0.12890101387      0.982668781343      -0.131075147704     0.982668781343      -0.131075147704     -0.0173221432936    -0.12890101387      
8600000000.0        -0.0177209968679    -0.130354482137     0.982269859065      -0.132554976993     0.982269859065      -0.132554976993     -0.0177209968679    -0.130354482137     
8700000000.0        -0.0181240893858    -0.131805938888     0.981866697093      -0.134032809344     0.981866697093      -0.134032809344     -0.0181240893858    -0.131805938888     
8800000000.0        -0.0185314085027    -0.133255367414     0.98145930777       -0.135508627907     0.98145930777       -0.135508627907     -0.0185314085027    -0.133255367414     
8900000000.0        -0.0189429417897    -0.134702751093     0.981047703525      -0.136982415917     0.981047703525      -0.136982415917     -0.0189429417897    -0.134702751093     
9000000000.0        -0.0193586767337    -0.136148073386     0.98063189687       -0.138454156697     0.98063189687       -0.138454156697     -0.0193586767337    -0.136148073386     
9100000000.0        -0.0197786007384    -0.137591317841     0.980211900401      -0.139923833657     0.980211900401      -0.139923833657     -0.0197786007384    -0.137591317841     
9200000000.0        -0.0202027011248    -0.139032468092     0.979787726796      -0.141391430292     0.979787726796      -0.141391430292     -0.0202027011248    -0.139032468092     
9300000000.0        -0.0206309651319    -0.140471507859     0.979359388814      -0.142856930189     0.979359388814      -0.142856930189     -0.0206309651319    -0.140471507859     
9400000000.0        -0.0210633799173    -0.141908420947     0.978926899299      -0.144320317017     0.978926899299      -0.144320317017     -0.0210633799173    -0.141908420947     
9500000000.0        -0.0214999325577    -0.143343191249     0.978490271172      -0.145781574538     0.978490271172      -0.145781574538     -0.0214999325577    -0.143343191249     
9600000000.0        -0.0219406100499    -0.144775802745     0.978049517436      -0.1472406866       0.978049517436      -0.1472406866       -0.0219406100499    -0.144775802745     
9700000000.0        -0.0223853993111    -0.146206239502     0.977604651174      -0.148697637139     0.977604651174      -0.148697637139     -0.0223853993111    -0.146206239502     
9800000000.0        -0.0228342871799    -0.147634485673     0.977155685546      -0.150152410183     0.977155685546      -0.150152410183     -0.0228342871799    -0.147634485673     
9900000000.0        -0.0232872604165    -0.149060525503     0.97670263379       -0.151604989846     0.97670263379       -0.151604989846     -0.0232872604165    -0.149060525503     
10000000000.0       -0.023744305704     -0.150484343321     0.976245509224      -0.153055360333     0.976245509224      -0.153055360333     -0.023744305704     -0.150484343321     
