# Hz S RI R 50.00 
100000000.0         0.00326935206416    0.000366348970212   0.996728098191      -0.0014242453565    0.996728098191      -0.0014242453565    0.00326935206416    0.000366348970212   
200000000.0         0.00329213631095    0.00073261760396    0.996702643806      -0.00284841006692   0.996702643806      -0.00284841006692   0.00329213631095    0.000732617603959   
300000000.0         0.00331019752013    0.0010988338048     0.996680792039      -0.00427252258557   0.996680792039      -0.00427252258557   0.00331019752013    0.0010988338048     
400000000.0         0.00332636933229    0.00146500512974    0.996659709225      -0.0056965907253    0.996659709225      -0.0056965907253    0.00332636933229    0.00146500512974    
500000000.0         0.00334174341703    0.0018311344325     0.996638303665      -0.00712061744866   0.996638303665      -0.00712061744866   0.00334174341703    0.0018311344325     
600000000.0         0.00335687667516    0.00219722249493    0.996616018427      -0.00854460355124   0.996616018427      -0.00854460355124   0.00335687667516    0.00219722249493    
700000000.0         0.00337209815132    0.00256326896904    0.996592524435      -0.00996854862985   0.996592524435      -0.00996854862985   0.00337209815132    0.00256326896904    
800000000.0         0.00338762105641    0.00292927281223    0.996567608443      -0.0113924515338    0.996567608443      -0.0113924515338    0.00338762105641    0.00292927281223    
900000000.0         0.00340359264888    0.00329523252058    0.996541123153      -0.012816310608     0.996541123153      -0.012816310608     0.00340359264888    0.00329523252058    
1000000000.0        0.00342011952022    0.00366114626597    0.996512961935      -0.0142401238379    0.996512961935      -0.0142401238379    0.00342011952022    0.00366114626597    
1100000000.0        0.00343728165163    0.0040270119834     0.996483044765      -0.0156638889416    0.996483044765      -0.0156638889416    0.00343728165163    0.0040270119834     
1200000000.0        0.00345514079038    0.00439282742876    0.996451309851      -0.0170876034321    0.996451309851      -0.0170876034321    0.00345514079038    0.00439282742876    
1300000000.0        0.00347374572012    0.00475859021931    0.996417708363      -0.0185112646607    0.996417708363      -0.0185112646607    0.00347374572012    0.00475859021931    
1400000000.0        0.00349313572511    0.0051242978626     0.996382200966      -0.0199348698483    0.996382200966      -0.0199348698483    0.00349313572511    0.0051242978626     
1500000000.0        0.00351334295098    0.00548994777801    0.996344755466      -0.0213584161095    0.996344755466      -0.0213584161095    0.00351334295098    0.00548994777801    
1600000000.0        0.00353439406271    0.00585553731294    0.996305345142      -0.0227819004699    0.996305345142      -0.0227819004699    0.00353439406271    0.00585553731294    
1700000000.0        0.00355631143963    0.00622106375528    0.99626394756       -0.0242053198806    0.99626394756       -0.0242053198806    0.00355631143963    0.00622106375528    
1800000000.0        0.00357911405578    0.00658652434339    0.99622054369       -0.0256286712291    0.99622054369       -0.0256286712291    0.00357911405578    0.00658652434339    
1900000000.0        0.00360281814131    0.00695191627384    0.996175117242      -0.0270519513481    0.996175117242      -0.0270519513481    0.00360281814131    0.00695191627384    
2000000000.0        0.00362743768783    0.0073172367078     0.996127654162      -0.0284751570228    0.996127654162      -0.0284751570228    0.00362743768783    0.0073172367078     
2100000000.0        0.00365298484029    0.00768248277614    0.996078142244      -0.0298982849971    0.996078142244      -0.0298982849971    0.00365298484029    0.00768248277614    
2200000000.0        0.0036794702052     0.00804765158383    0.996026570815      -0.0313213319783    0.996026570815      -0.0313213319783    0.00367947020519    0.00804765158383    
2300000000.0        0.00370690309567    0.00841274021341    0.995972930495      -0.0327442946413    0.995972930495      -0.0327442946413    0.00370690309568    0.00841274021341    
2400000000.0        0.00373529172875    0.00877774572799    0.995917213         -0.0341671696325    0.995917213         -0.0341671696325    0.00373529172875    0.00877774572799    
2500000000.0        0.00376464338548    0.00914266517384    0.995859410978      -0.0355899535725    0.995859410978      -0.0355899535725    0.00376464338548    0.00914266517384    
2600000000.0        0.00379496454232    0.00950749558253    0.99579951788       -0.0370126430587    0.99579951788       -0.0370126430587    0.00379496454232    0.00950749558253    
2700000000.0        0.00382626097963    0.00987223397278    0.995737527853      -0.0384352346679    0.995737527853      -0.0384352346679    0.00382626097963    0.00987223397278    
2800000000.0        0.00385853787205    0.010236877352      0.995673435645      -0.039857724958     0.995673435645      -0.039857724958     0.00385853787205    0.010236877352      
2900000000.0        0.00389179986432    0.010601422718      0.995607236537      -0.0412801104698    0.995607236537      -0.0412801104698    0.00389179986432    0.010601422718      
3000000000.0        0.00392605113524    0.0109658670596     0.995538926269      -0.0427023877285    0.995538926269      -0.0427023877285    0.00392605113524    0.0109658670596     
3100000000.0        0.00396129545202    0.0113302073584     0.995468500996      -0.0441245532453    0.995468500996      -0.0441245532453    0.00396129545202    0.0113302073584     
3200000000.0        0.00399753621663    0.0116944405892     0.995395957232      -0.0455466035182    0.995395957232      -0.0455466035182    0.00399753621663    0.0116944405892     
3300000000.0        0.00403477650567    0.0120585637212     0.995321291818      -0.0469685350333    0.995321291818      -0.0469685350333    0.00403477650567    0.0120585637212     
3400000000.0        0.00407301910468    0.0124225737182     0.995244501884      -0.0483903442659    0.995244501884      -0.0483903442659    0.00407301910468    0.0124225737182     
3500000000.0        0.0041122665379     0.0127864675401     0.995165584819      -0.0498120276812    0.995165584819      -0.0498120276812    0.0041122665379     0.0127864675401     
3600000000.0        0.00415252109419    0.0131502421428     0.995084538245      -0.0512335817349    0.995084538245      -0.0512335817349    0.00415252109419    0.0131502421428     
3700000000.0        0.00419378484964    0.0135138944788     0.995001359999      -0.0526550028744    0.995001359999      -0.0526550028744    0.00419378484964    0.0135138944788     
3800000000.0        0.00423605968739    0.0138774214981     0.994916048105      -0.0540762875391    0.994916048105      -0.0540762875391    0.00423605968739    0.0138774214981     
3900000000.0        0.00427934731516    0.0142408201482     0.994828600763      -0.0554974321609    0.994828600763      -0.0554974321609    0.00427934731516    0.0142408201482     
4000000000.0        0.00432364928062    0.0146040873748     0.994739016333      -0.0569184331652    0.994739016333      -0.0569184331652    0.00432364928062    0.0146040873748     
4100000000.0        0.00436896698507    0.0149672201218     0.994647293318      -0.0583392869709    0.994647293318      -0.0583392869709    0.00436896698507    0.0149672201218     
4200000000.0        0.00441530169559    0.0153302153321     0.994553430354      -0.0597599899912    0.994553430354      -0.0597599899912    0.00441530169559    0.0153302153321     
4300000000.0        0.00446265455587    0.0156930699474     0.9944574262        -0.0611805386336    0.9944574262        -0.0611805386336    0.00446265455587    0.0156930699474     
4400000000.0        0.00451102659589    0.0160557809088     0.994359279726      -0.0626009293011    0.994359279726      -0.0626009293011    0.00451102659589    0.0160557809088     
4500000000.0        0.00456041874057    0.0164183451571     0.994258989908      -0.0640211583915    0.994258989908      -0.0640211583915    0.00456041874057    0.0164183451571     
4600000000.0        0.00461083181756    0.0167807596326     0.994156555815      -0.0654412222986    0.994156555815      -0.0654412222986    0.00461083181756    0.0167807596326     
4700000000.0        0.00466226656429    0.017143021276      0.994051976607      -0.0668611174122    0.994051976607      -0.0668611174122    0.00466226656429    0.017143021276      
4800000000.0        0.00471472363424    0.0175051270278     0.993945251526      -0.0682808401181    0.993945251526      -0.0682808401181    0.00471472363424    0.0175051270278     
4900000000.0        0.00476820360272    0.0178670738292     0.993836379892      -0.069700386799     0.993836379892      -0.069700386799     0.00476820360272    0.0178670738292     
5000000000.0        0.00482270697202    0.0182288586217     0.993725361093      -0.0711197538343    0.993725361093      -0.0711197538343    0.00482270697202    0.0182288586217     
5100000000.0        0.00487823417613    0.0185904783477     0.99361219459       -0.0725389376002    0.99361219459       -0.0725389376002    0.00487823417613    0.0185904783477     
5200000000.0        0.00493478558507    0.0189519299505     0.993496879901      -0.0739579344704    0.993496879901      -0.0739579344704    0.00493478558507    0.0189519299505     
5300000000.0        0.00499236150872    0.0193132103742     0.993379416607      -0.0753767408162    0.993379416607      -0.0753767408162    0.00499236150872    0.0193132103742     
5400000000.0        0.00505096220045    0.0196743165642     0.993259804341      -0.0767953530063    0.993259804341      -0.0767953530063    0.00505096220045    0.0196743165642     
5500000000.0        0.0051105878604     0.020035245467      0.993138042792      -0.0782137674075    0.993138042792      -0.0782137674075    0.0051105878604     0.020035245467      
5600000000.0        0.00517123863838    0.0203959940306     0.993014131694      -0.0796319803845    0.993014131694      -0.0796319803845    0.00517123863838    0.0203959940306     
5700000000.0        0.00523291463674    0.0207565592044     0.992888070829      -0.0810499883003    0.992888070829      -0.0810499883003    0.00523291463674    0.0207565592044     
5800000000.0        0.00529561591279    0.0211169379394     0.992759860025      -0.0824677875163    0.992759860025      -0.0824677875163    0.00529561591279    0.0211169379394     
5900000000.0        0.00535934248117    0.0214771271883     0.992629499148      -0.0838853743922    0.992629499148      -0.0838853743922    0.00535934248117    0.0214771271883     
6000000000.0        0.00542409431601    0.0218371239055     0.992496988105      -0.0853027452868    0.992496988105      -0.0853027452868    0.00542409431601    0.0218371239055     
6100000000.0        0.00548987135286    0.0221969250472     0.99236232684       -0.0867198965573    0.99236232684       -0.0867198965573    0.00548987135286    0.0221969250472     
6200000000.0        0.00555667349055    0.0225565275718     0.992225515334      -0.0881368245601    0.992225515334      -0.0881368245601    0.00555667349055    0.0225565275718     
6300000000.0        0.00562450059287    0.0229159284392     0.992086553601      -0.0895535256505    0.992086553601      -0.0895535256505    0.00562450059287    0.0229159284392     
6400000000.0        0.00569335249014    0.0232751246119     0.991945441687      -0.0909699961831    0.991945441687      -0.0909699961831    0.00569335249014    0.0232751246119     
6500000000.0        0.00576322898067    0.0236341130543     0.991802179668      -0.0923862325119    0.991802179668      -0.0923862325119    0.00576322898067    0.0236341130543     
6600000000.0        0.00583412983209    0.023992890733      0.991656767652      -0.09380223099      0.991656767652      -0.09380223099      0.00583412983209    0.023992890733      
6700000000.0        0.00590605478264    0.0243514546169     0.991509205774      -0.0952179879704    0.991509205774      -0.0952179879704    0.00590605478264    0.0243514546169     
6800000000.0        0.00597900354229    0.0247098016774     0.991359494196      -0.0966334998054    0.991359494196      -0.0966334998054    0.00597900354229    0.0247098016774     
6900000000.0        0.00605297579389    0.025067928888      0.991207633106      -0.0980487628472    0.991207633106      -0.0980487628472    0.00605297579389    0.025067928888      
7000000000.0        0.00612797119414    0.025425833225      0.991053622719      -0.0994637734478    0.991053622719      -0.0994637734478    0.00612797119414    0.025425833225      
7100000000.0        0.00620398937455    0.0257835116669     0.990897463271      -0.100878527959     0.990897463271      -0.100878527959     0.00620398937455    0.0257835116669     
7200000000.0        0.00628102994235    0.0261409611951     0.990739155023      -0.102293022733     0.990739155023      -0.102293022733     0.00628102994235    0.0261409611951     
7300000000.0        0.00635909248129    0.0264981787933     0.99057869826       -0.103707254121     0.99057869826       -0.103707254121     0.00635909248129    0.0264981787933     
7400000000.0        0.00643817655242    0.0268551614481     0.990416093286      -0.105121218476     0.990416093286      -0.105121218476     0.00643817655242    0.0268551614481     
7500000000.0        0.00651828169486    0.0272119061487     0.990251340427      -0.10653491215      0.990251340427      -0.10653491215      0.00651828169486    0.0272119061487     
7600000000.0        0.00659940742644    0.0275684098871     0.99008444003       -0.107948331495     0.99008444003       -0.107948331495     0.00659940742644    0.0275684098871     
7700000000.0        0.00668155324434    0.0279246696581     0.98991539246       -0.109361472865     0.98991539246       -0.109361472865     0.00668155324434    0.0279246696581     
7800000000.0        0.00676471862575    0.0282806824594     0.989744198102      -0.110774332613     0.989744198102      -0.110774332613     0.00676471862575    0.0282806824594     
7900000000.0        0.00684890302836    0.0286364452916     0.989570857361      -0.112186907093     0.989570857361      -0.112186907093     0.00684890302836    0.0286364452916     
8000000000.0        0.00693410589096    0.0289919551581     0.989395370657      -0.11359919266      0.989395370657      -0.11359919266      0.00693410589096    0.0289919551581     
8100000000.0        0.00702032663391    0.0293472090655     0.989217738429      -0.11501118567      0.989217738429      -0.11501118567      0.00702032663391    0.0293472090655     
8200000000.0        0.00710756465963    0.0297022040232     0.989037961135      -0.116422882477     0.989037961135      -0.116422882477     0.00710756465963    0.0297022040232     
8300000000.0        0.00719581935304    0.0300569370438     0.988856039245      -0.117834279439     0.988856039245      -0.117834279439     0.00719581935304    0.0300569370438     
8400000000.0        0.00728509008198    0.0304114051431     0.988671973249      -0.119245372914     0.988671973249      -0.119245372914     0.00728509008198    0.0304114051431     
8500000000.0        0.00737537619762    0.0307656053397     0.988485763652      -0.120656159261     0.988485763652      -0.120656159261     0.00737537619762    0.0307656053397     
8600000000.0        0.00746667703487    0.0311195346556     0.988297410973      -0.122066634838     0.988297410973      -0.122066634838     0.00746667703487    0.0311195346556     
8700000000.0        0.00755899191265    0.0314731901161     0.988106915747      -0.123476796006     0.988106915747      -0.123476796006     0.00755899191265    0.0314731901161     
8800000000.0        0.00765232013433    0.0318265687494     0.987914278524      -0.124886639128     0.987914278524      -0.124886639128     0.00765232013433    0.0318265687494     
8900000000.0        0.00774666098798    0.0321796675874     0.987719499868      -0.126296160566     0.987719499868      -0.126296160566     0.00774666098798    0.0321796675874     
9000000000.0        0.00784201374672    0.0325324836649     0.987522580357      -0.127705356683     0.987522580357      -0.127705356683     0.00784201374672    0.0325324836649     
9100000000.0        0.007938377669      0.0328850140204     0.987323520582      -0.129114223846     0.987323520582      -0.129114223846     0.007938377669      0.0328850140204     
9200000000.0        0.00803575199885    0.0332372556954     0.98712232115       -0.130522758421     0.98712232115       -0.130522758421     0.00803575199885    0.0332372556954     
9300000000.0        0.00813413596617    0.0335892057352     0.986918982679      -0.131930956775     0.986918982679      -0.131930956775     0.00813413596617    0.0335892057352     
9400000000.0        0.00823352878697    0.0339408611882     0.9867135058        -0.133338815278     0.9867135058        -0.133338815278     0.00823352878697    0.0339408611882     
9500000000.0        0.0083339296636     0.0342922191065     0.986505891159      -0.1347463303       0.986505891159      -0.1347463303       0.0083339296636     0.0342922191065     
9600000000.0        0.00843533778502    0.0346432765455     0.986296139413      -0.136153498214     0.986296139413      -0.136153498214     0.00843533778502    0.0346432765455     
9700000000.0        0.00853775232692    0.0349940305644     0.98608425123       -0.137560315394     0.98608425123       -0.137560315394     0.00853775232692    0.0349940305644     
9800000000.0        0.00864117245204    0.0353444782257     0.985870227293      -0.138966778215     0.985870227293      -0.138966778215     0.00864117245204    0.0353444782257     
9900000000.0        0.00874559731027    0.0356946165955     0.985654068296      -0.140372883053     0.985654068296      -0.140372883053     0.00874559731027    0.0356946165955     
10000000000.0       0.0088510260389     0.0360444427437     0.985435774944      -0.141778626288     0.985435774944      -0.141778626288     0.0088510260389     0.0360444427437     
