# Hz S RI R 50.00 
100000000.0         0.00067650603876    -0.00803053900084   0.999143437812      -0.00994063452406   0.999143437812      -0.00994063452406   0.000676506038759   -0.00803053900084   
200000000.0         0.000433438188595   -0.0160566903968    0.998884526308      -0.0198768844948    0.998884526308      -0.0198768844948    0.000433438188595   -0.0160566903968    
300000000.0         2.963007976e-05     -0.0240743025823    0.998463870532      -0.0298046464644    0.998463870532      -0.0298046464644    2.96300797595e-05   -0.0240743025823    
400000000.0         -0.000533896462367  -0.0320792274574    0.997881169935      -0.0397198080153    0.997881169935      -0.0397198080153    -0.000533896462368  -0.0320792274574    
500000000.0         -0.00125638541732   -0.0400673295002    0.997136671972      -0.049618265817     0.997136671972      -0.049618265817     -0.00125638541733   -0.0400673295002    
600000000.0         -0.00213706497261   -0.0480344935608    0.996230889042      -0.0594959351418    0.996230889042      -0.0594959351418    -0.00213706497261   -0.0480344935608    
700000000.0         -0.00317507699828   -0.055976631828     0.995164525675      -0.0693487575105    0.995164525675      -0.0693487575105    -0.00317507699828   -0.055976631828     
800000000.0         -0.00436945243298   -0.0638896903454    0.993938450897      -0.0791727075498    0.993938450897      -0.0791727075498    -0.00436945243298   -0.0638896903454    
900000000.0         -0.0057191015122    -0.0717696552241    0.992553684771      -0.0889637994035    0.992553684771      -0.0889637994035    -0.0057191015122    -0.0717696552241    
1000000000.0        -0.00722281004807   -0.0796125586158    0.991011390359      -0.0987180928319    0.991011390359      -0.0987180928319    -0.00722281004807   -0.0796125586158    
1100000000.0        -0.00887923862461   -0.0874144844698    0.989312867993      -0.108431699055     0.989312867993      -0.108431699055     -0.00887923862461   -0.0874144844698    
1200000000.0        -0.0106869233997    -0.095171574085     0.987459550593      -0.118100786366     0.987459550593      -0.118100786366     -0.0106869233997    -0.095171574085     
1300000000.0        -0.0126442779       -0.102880031454     0.98545299943       -0.127721585521     0.98545299943       -0.127721585521     -0.0126442779       -0.102880031454     
1400000000.0        -0.0147495954912    -0.110536128394     0.983294900051      -0.137290394907     0.983294900051      -0.137290394907     -0.0147495954912    -0.110536128394     
1500000000.0        -0.0170010523469    -0.118136209463     0.980987058224      -0.146803585484     0.980987058224      -0.146803585484     -0.0170010523469    -0.118136209463     
1600000000.0        -0.0193967108069    -0.125676696648     0.97853139581       -0.156257605493     0.97853139581       -0.156257605493     -0.0193967108069    -0.125676696648     
1700000000.0        -0.0219345230538    -0.133154093812     0.975929946541      -0.165648984932     0.975929946541      -0.165648984932     -0.0219345230538    -0.133154093812     
1800000000.0        -0.024612335059     -0.140564990909     0.973184851666      -0.174974339773     0.973184851666      -0.174974339773     -0.024612335059     -0.140564990909     
1900000000.0        -0.0274278907586    -0.147906067938     0.970298355472      -0.184230375939     0.970298355472      -0.184230375939     -0.0274278907586    -0.147906067938     
2000000000.0        -0.0303788364279    -0.155174098649     0.967272800677      -0.193413893016     0.967272800677      -0.193413893016     -0.0303788364279    -0.155174098649     
2100000000.0        -0.0334627252292    -0.162365953978     0.964110623705      -0.2025217877       0.964110623705      -0.2025217877       -0.0334627252292    -0.162365953978     
2200000000.0        -0.0366770219078    -0.16947860522      0.960814349846      -0.211551056979     0.960814349846      -0.211551056979     -0.0366770219078    -0.16947860522      
2300000000.0        -0.0400191076151    -0.176509126926     0.95738658832       -0.220498801037     0.95738658832       -0.220498801037     -0.0400191076151    -0.176509126926     
2400000000.0        -0.0434862848377    -0.18345469953      0.953830027264      -0.229362225886     0.953830027264      -0.229362225886     -0.0434862848377    -0.18345469953      
2500000000.0        -0.0470757824137    -0.190312611695     0.950147428634      -0.238138645721     0.950147428634      -0.238138645721     -0.0470757824137    -0.190312611695     
2600000000.0        -0.0507847606162    -0.197080262385     0.946341623066      -0.246825484995     0.946341623066      -0.246825484995     -0.0507847606162    -0.197080262385     
2700000000.0        -0.0546103162874    -0.203755162661     0.942415504693      -0.255420280223     0.942415504693      -0.255420280223     -0.0546103162874    -0.203755162661     
2800000000.0        -0.0585494880046    -0.2103349372       0.938372025934      -0.2639206815       0.938372025934      -0.2639206815       -0.0585494880046    -0.2103349372       
2900000000.0        -0.0625992612618    -0.216817325538     0.934214192282      -0.272324453757     0.934214192282      -0.272324453757     -0.0625992612618    -0.216817325538     
3000000000.0        -0.0667565736505    -0.223200183055     0.929945057088      -0.28062947774      0.929945057088      -0.28062947774      -0.0667565736505    -0.223200183055     
3100000000.0        -0.0710183200239    -0.229481481681     0.925567716378      -0.288833750728     0.925567716378      -0.288833750728     -0.0710183200239    -0.229481481681     
3200000000.0        -0.0753813576299    -0.235659310354     0.921085303694      -0.296935386988     0.921085303694      -0.296935386988     -0.0753813576299    -0.235659310354     
3300000000.0        -0.0798425111979    -0.241731875216     0.91650098499       -0.304932617979     0.91650098499       -0.304932617979     -0.0798425111979    -0.241731875216     
3400000000.0        -0.0843985779668    -0.247697499567     0.911817953587      -0.312823792305     0.911817953587      -0.312823792305     -0.0843985779668    -0.247697499567     
3500000000.0        -0.0890463326399    -0.253554623577     0.907039425207      -0.320607375434     0.907039425207      -0.320607375434     -0.0890463326399    -0.253554623577     
3600000000.0        -0.0937825322561    -0.259301803769     0.902168633084      -0.328281949179     0.902168633084      -0.328281949179     -0.0937825322561    -0.259301803769     
3700000000.0        -0.0986039209643    -0.264937712279     0.897208823185      -0.335846210964     0.897208823185      -0.335846210964     -0.0986039209643    -0.264937712279     
3800000000.0        -0.103507234693     -0.2704611359       0.892163249526      -0.343298972869     0.892163249526      -0.343298972869     -0.103507234693     -0.2704611359       
3900000000.0        -0.108489205701     -0.275870974927     0.887035169613      -0.350639160476     0.887035169613      -0.350639160476     -0.108489205701     -0.275870974927     
4000000000.0        -0.113546567006     -0.281166241803     0.881827840005      -0.357865811521     0.881827840005      -0.357865811521     -0.113546567006     -0.281166241803     
4100000000.0        -0.118676056681     -0.286346059591     0.876544512019      -0.364978074364     0.876544512019      -0.364978074364     -0.118676056681     -0.286346059591     
4200000000.0        -0.123874422002     -0.291409660261     0.871188427561      -0.371975206279     0.871188427561      -0.371975206279     -0.123874422002     -0.291409660261     
4300000000.0        -0.129138423461     -0.29635638283      0.865762815118      -0.378856571598     0.865762815118      -0.378856571598     -0.129138423461     -0.29635638283      
4400000000.0        -0.134464838615     -0.301185671337     0.860270885902      -0.385621639685     0.860270885902      -0.385621639685     -0.134464838615     -0.301185671337     
4500000000.0        -0.139850465787     -0.305897072692     0.85471583014       -0.392269982788     0.85471583014       -0.392269982788     -0.139850465787     -0.305897072692     
4600000000.0        -0.145292127597     -0.310490234387     0.849100813541      -0.398801273753     0.849100813541      -0.398801273753     -0.145292127597     -0.310490234387     
4700000000.0        -0.150786674336     -0.314964902094     0.843428973921      -0.405215283622     0.843428973921      -0.405215283622     -0.150786674336     -0.314964902094     
4800000000.0        -0.156330987165     -0.319320917161     0.837703417992      -0.411511879128     0.837703417992      -0.411511879128     -0.156330987165     -0.319320917161     
4900000000.0        -0.161921981151     -0.323558214001     0.831927218328      -0.417691020094     0.831927218328      -0.417691020094     -0.161921981151     -0.323558214001     
5000000000.0        -0.167556608129     -0.327676817411     0.8261034105        -0.423752756744     0.8261034105        -0.423752756744     -0.167556608129     -0.327676817411     
5100000000.0        -0.173231859393     -0.331676839808     0.820234990378      -0.429697226943     0.820234990378      -0.429697226943     -0.173231859393     -0.331676839808     
5200000000.0        -0.178944768217     -0.335558478402     0.814324911606      -0.435524653377     0.814324911606      -0.435524653377     -0.178944768217     -0.335558478402     
5300000000.0        -0.184692412208     -0.33932201232      0.808376083251      -0.441235340671     0.808376083251      -0.441235340671     -0.184692412208     -0.33932201232      
5400000000.0        -0.190471915485     -0.342967799681     0.802391367617      -0.446829672471     0.802391367617      -0.446829672471     -0.190471915485     -0.342967799681     
5500000000.0        -0.196280450693     -0.34649627464      0.796373578229      -0.452308108486     0.796373578229      -0.452308108486     -0.196280450693     -0.34649627464      
5600000000.0        -0.202115240855     -0.349907944407     0.790325477977      -0.457671181506     0.790325477977      -0.457671181506     -0.202115240855     -0.349907944407     
5700000000.0        -0.207973561055     -0.353203386245     0.784249777431      -0.462919494409     0.784249777431      -0.462919494409     -0.207973561055     -0.353203386245     
5800000000.0        -0.213852739971     -0.356383244465     0.778149133309      -0.46805371715      0.778149133309      -0.46805371715      -0.213852739971     -0.356383244465     
5900000000.0        -0.21975016124      -0.359448227415     0.772026147099      -0.473074583753     0.772026147099      -0.473074583753     -0.21975016124      -0.359448227415     
6000000000.0        -0.225663264686     -0.362399104482     0.765883363842      -0.477982889316     0.765883363842      -0.477982889316     -0.225663264686     -0.362399104482     
6100000000.0        -0.231589547384     -0.3652367031       0.759723271054      -0.482779487021     0.759723271054      -0.482779487021     -0.231589547384     -0.3652367031       
6200000000.0        -0.237526564592     -0.367961905789     0.753548297796      -0.487465285168     0.753548297796      -0.487465285168     -0.237526564592     -0.367961905789     
6300000000.0        -0.24347193054      -0.37057564721      0.747360813882      -0.492041244237     0.747360813882      -0.492041244237     -0.24347193054      -0.37057564721      
6400000000.0        -0.249423319088     -0.373078911259     0.741163129222      -0.496508373983     0.741163129222      -0.496508373983     -0.249423319088     -0.373078911259     
6500000000.0        -0.255378464243     -0.375472728198     0.734957493292      -0.500867730564     0.734957493292      -0.500867730564     -0.255378464243     -0.375472728198     
6600000000.0        -0.261335160571     -0.377758171828     0.728746094734      -0.505120413718     0.728746094734      -0.505120413718     -0.261335160571     -0.377758171828     
6700000000.0        -0.267291263471     -0.37993635671      0.722531061065      -0.509267563984     0.722531061065      -0.509267563984     -0.267291263471     -0.37993635671      
6800000000.0        -0.27324468935      -0.382008435434     0.71631445851       -0.513310359973     0.71631445851       -0.513310359973     -0.27324468935      -0.382008435434     
6900000000.0        -0.279193415679     -0.383975595951     0.710098291939      -0.5172500157       0.710098291939      -0.5172500157       -0.279193415679     -0.383975595951     
7000000000.0        -0.28513548095      -0.385839058956     0.703884504905      -0.521087777967     0.703884504905      -0.521087777967     -0.28513548095      -0.385839058956     
7100000000.0        -0.291068984538     -0.387600075335     0.697674979786      -0.524824923815     0.697674979786      -0.524824923815     -0.291068984538     -0.387600075335     
7200000000.0        -0.296992086467     -0.389259923679     0.691471538011      -0.528462758034     0.691471538011      -0.528462758034     -0.296992086467     -0.389259923679     
7300000000.0        -0.302903007088     -0.39081990786      0.685275940381      -0.532002610742     0.685275940381      -0.532002610742     -0.302903007088     -0.39081990786      
7400000000.0        -0.308800026677     -0.39228135468      0.679089887467      -0.535445835034     0.679089887467      -0.535445835034     -0.308800026677     -0.39228135468      
7500000000.0        -0.314681484957     -0.393645611583     0.672915020087      -0.538793804698     0.672915020087      -0.538793804698     -0.314681484957     -0.393645611583     
7600000000.0        -0.320545780547     -0.394914044449     0.666752919857      -0.542047912005     0.666752919857      -0.542047912005     -0.320545780547     -0.394914044449     
7700000000.0        -0.326391370344     -0.396088035448     0.660605109797      -0.54520956557      0.660605109797      -0.54520956557      -0.326391370344     -0.396088035448     
7800000000.0        -0.332216768843     -0.397168980978     0.654473055019      -0.548280188284     0.654473055019      -0.548280188284     -0.332216768843     -0.397168980978     
7900000000.0        -0.338020547403     -0.398158289671     0.648358163452      -0.551261215323     0.648358163452      -0.551261215323     -0.338020547403     -0.398158289671     
8000000000.0        -0.343801333457     -0.399057380472     0.642261786631      -0.554154092234     0.642261786631      -0.554154092234     -0.343801333457     -0.399057380472     
8100000000.0        -0.349557809673     -0.399867680798     0.636185220529      -0.556960273083     0.636185220529      -0.556960273083     -0.349557809673     -0.399867680798     
8200000000.0        -0.355288713078     -0.400590624762     0.630129706439      -0.559681218691     0.630129706439      -0.559681218691     -0.355288713078     -0.400590624762     
8300000000.0        -0.360992834137     -0.401227651478     0.624096431885      -0.562318394935     0.624096431885      -0.562318394935     -0.360992834137     -0.401227651478     
8400000000.0        -0.366669015794     -0.401780203438     0.618086531576      -0.564873271121     0.618086531576      -0.564873271121     -0.366669015794     -0.401780203438     
8500000000.0        -0.372316152493     -0.402249724954     0.612101088392      -0.567347318437     0.612101088392      -0.567347318437     -0.372316152493     -0.402249724954     
8600000000.0        -0.377933189156     -0.402637660682     0.60614113439       -0.56974200847      0.60614113439       -0.56974200847      -0.377933189156     -0.402637660682     
8700000000.0        -0.383519120152     -0.402945454209     0.600207651844      -0.572058811795     0.600207651844      -0.572058811795     -0.383519120152     -0.402945454209     
8800000000.0        -0.389072988233     -0.403174546711     0.594301574298      -0.574299196636     0.594301574298      -0.574299196636     -0.389072988233     -0.403174546711     
8900000000.0        -0.394593883459     -0.403326375681     0.58842378764       -0.576464627591     0.58842378764       -0.576464627591     -0.394593883459     -0.403326375681     
9000000000.0        -0.400080942106     -0.403402373718     0.582575131188      -0.578556564428     0.582575131188      -0.578556564428     -0.400080942106     -0.403402373718     
9100000000.0        -0.405533345568     -0.403403967394     0.576756398793      -0.580576460943     0.576756398793      -0.580576460943     -0.405533345568     -0.403403967394     
9200000000.0        -0.410950319241     -0.403332576165     0.570968339944      -0.582525763881     0.570968339944      -0.582525763881     -0.410950319241     -0.403332576165     
9300000000.0        -0.416331131406     -0.403189611366     0.565211660881      -0.584405911927     0.565211660881      -0.584405911927     -0.416331131406     -0.403189611366     
9400000000.0        -0.421675092112     -0.402976475248     0.559487025714      -0.586218334743     0.559487025714      -0.586218334743     -0.421675092112     -0.402976475248     
9500000000.0        -0.42698155205      -0.402694560088     0.553795057542      -0.58796445208      0.553795057542      -0.58796445208      -0.42698155205      -0.402694560088     
9600000000.0        -0.432249901434     -0.402345247348     0.548136339571      -0.589645672938     0.548136339571      -0.589645672938     -0.432249901434     -0.402345247348     
9700000000.0        -0.43747956888      -0.401929906891     0.542511416225      -0.59126339478      0.542511416225      -0.59126339478      -0.43747956888      -0.401929906891     
9800000000.0        -0.442670020295     -0.401449896252     0.536920794263      -0.59281900281      0.536920794263      -0.59281900281      -0.442670020295     -0.401449896252     
9900000000.0        -0.447820757768     -0.400906559965     0.531364943877      -0.594313869289     0.531364943877      -0.594313869289     -0.447820757768     -0.400906559965     
10000000000.0       -0.452931318469     -0.400301228929     0.52584429979       -0.595749352915     0.52584429979       -0.595749352915     -0.452931318469     -0.400301228929     
