# Hz S RI R 50.00 
100000000.0         0.00105157908751    -0.00233848776912   0.998902717651      -0.00620182215346   0.998902717651      -0.00620182215346   0.00105157908751    -0.00233848776912   
200000000.0         0.00101116760674    -0.00467669555872   0.998825462273      -0.0124033078777    0.998825462273      -0.0124033078777    0.00101116760674    -0.00467669555872   
300000000.0         0.000939888806339   -0.00701427689147   0.998706116973      -0.018604171498     0.998706116973      -0.018604171498     0.000939888806339   -0.00701427689147   
400000000.0         0.000838676156463   -0.00935088498334   0.998543761709      -0.0248040894232    0.998543761709      -0.0248040894232    0.000838676156463   -0.00935088498334   
500000000.0         0.000707897639217   -0.0116861688824    0.998338049759      -0.0310027228579    0.998338049759      -0.0310027228579    0.000707897639217   -0.0116861688824    
600000000.0         0.000547751068587   -0.0140197741978    0.998088812869      -0.0371997238127    0.998088812869      -0.0371997238127    0.000547751068587   -0.0140197741978    
700000000.0         0.000358364582599   -0.0163513438001    0.997795961093      -0.0433947379255    0.997795961093      -0.0433947379255    0.0003583645826     -0.0163513438001    
800000000.0         0.000139833345324   -0.0186805183682    0.997459446342      -0.0495874060941    0.997459446342      -0.0495874060941    0.000139833345324   -0.0186805183682    
900000000.0         -0.000107764086361  -0.0210069368201    0.997079246223      -0.055777365543     0.997079246223      -0.055777365543     -0.000107764086361  -0.0210069368201    
1000000000.0        -0.000384357446168  -0.0233302366621    0.99665535588       -0.0619642505795    0.99665535588       -0.0619642505795    -0.000384357446168  -0.0233302366621    
1100000000.0        -0.000689880119204  -0.0256500542815    0.996187783495      -0.0681476931655    0.996187783495      -0.0681476931655    -0.000689880119204  -0.0256500542815    
1200000000.0        -0.00102426636532   -0.027966025198     0.995676547622      -0.0743273233671    0.995676547622      -0.0743273233671    -0.00102426636532   -0.027966025198     
1300000000.0        -0.00138744956301   -0.0302777842866    0.99512167553       -0.0805027697254    0.99512167553       -0.0805027697254    -0.00138744956301   -0.0302777842866    
1400000000.0        -0.0017793610485    -0.0325849659772    0.994523202117      -0.0866736595685    0.994523202117      -0.0866736595685    -0.0017793610485    -0.0325849659772    
1500000000.0        -0.00219992932005   -0.0348872044376    0.993881169186      -0.0928396192824    0.993881169186      -0.0928396192824    -0.00219992932005   -0.0348872044376    
1600000000.0        -0.00264907947622   -0.0371841337434    0.993195624936      -0.0990002745504    0.993195624936      -0.0990002745504    -0.00264907947622   -0.0371841337433    
1700000000.0        -0.00312673280954   -0.0394753880366    0.992466623599      -0.105155250568     0.992466623599      -0.105155250568     -0.00312673280954   -0.0394753880366    
1800000000.0        -0.00363280650679   -0.0417606016767    0.991694225176      -0.111304172241     0.991694225176      -0.111304172241     -0.00363280650679   -0.0417606016767    
1900000000.0        -0.0041672134246    -0.0440394093839    0.99087849524       -0.117446664363     0.99087849524       -0.117446664363     -0.0041672134246    -0.0440394093839    
2000000000.0        -0.00472986191942   -0.0463114463764    0.990019504782      -0.123582351792     0.990019504782      -0.123582351792     -0.00472986191942   -0.0463114463764    
2100000000.0        -0.00532065571802   -0.0485763485039    0.98911733009       -0.1297108596       0.98911733009       -0.1297108596       -0.00532065571802   -0.0485763485039    
2200000000.0        -0.00593949381855   -0.0508337523755    0.988172052656      -0.135831813231     0.988172052656      -0.135831813231     -0.00593949381855   -0.0508337523755    
2300000000.0        -0.0065862704153    -0.0530832954842    0.987183759094      -0.141944838643     0.987183759094      -0.141944838643     -0.0065862704153    -0.0530832954842    
2400000000.0        -0.00726087484218   -0.0553246163293    0.986152541073      -0.148049562444     0.986152541073      -0.148049562444     -0.00726087484218   -0.0553246163293    
2500000000.0        -0.00796319153117   -0.0575573545342    0.985078495257      -0.154145612023     0.985078495257      -0.154145612023     -0.00796319153117   -0.0575573545342    
2600000000.0        -0.00869309998307   -0.0597811509626    0.983961723256      -0.160232615683     0.983961723256      -0.160232615683     -0.00869309998307   -0.0597811509626    
2700000000.0        -0.00945047474844   -0.0619956478323    0.982802331573      -0.166310202758     0.982802331573      -0.166310202758     -0.00945047474844   -0.0619956478323    
2800000000.0        -0.0102351854172    -0.0642004888263    0.981600431562      -0.172378003736     0.981600431562      -0.172378003736     -0.0102351854172    -0.0642004888263    
2900000000.0        -0.0110470966155    -0.0663953192022    0.980356139382      -0.178435650375     0.980356139382      -0.178435650375     -0.0110470966155    -0.0663953192022    
3000000000.0        -0.0118860680092    -0.0685797858992    0.979069575955      -0.184482775816     0.979069575955      -0.184482775816     -0.0118860680092    -0.0685797858992    
3100000000.0        -0.0127519543128    -0.070753537644     0.977740866925      -0.190519014692     0.977740866925      -0.190519014692     -0.0127519543128    -0.070753537644     
3200000000.0        -0.0136446053034    -0.0729162250542    0.976370142615      -0.196544003238     0.976370142615      -0.196544003238     -0.0136446053034    -0.0729162250542    
3300000000.0        -0.0145638658393    -0.0750675007401    0.974957537985      -0.202557379393     0.974957537985      -0.202557379393     -0.0145638658393    -0.0750675007401    
3400000000.0        -0.0155095758828    -0.0772070194046    0.973503192587      -0.208558782904     0.973503192587      -0.208558782904     -0.0155095758828    -0.0772070194046    
3500000000.0        -0.0164815705262    -0.0793344379422    0.972007250523      -0.214547855428     0.972007250523      -0.214547855428     -0.0164815705262    -0.0793344379422    
3600000000.0        -0.0174796800223    -0.0814494155356    0.9704698604        -0.220524240628     0.9704698604        -0.220524240628     -0.0174796800223    -0.0814494155356    
3700000000.0        -0.0185037298167    -0.0835516137504    0.96889117528       -0.226487584269     0.96889117528       -0.226487584269     -0.0185037298167    -0.0835516137504    
3800000000.0        -0.0195535405848    -0.0856406966294    0.967271352637      -0.232437534313     0.967271352637      -0.232437534313     -0.0195535405848    -0.0856406966294    
3900000000.0        -0.0206289282699    -0.0877163307837    0.965610554305      -0.238373741008     0.965610554305      -0.238373741008     -0.0206289282699    -0.0877163307837    
4000000000.0        -0.0217297041254    -0.0897781854834    0.963908946427      -0.244295856983     0.963908946427      -0.244295856983     -0.0217297041254    -0.0897781854834    
4100000000.0        -0.0228556747588    -0.0918259327462    0.962166699407      -0.25020353733      0.962166699407      -0.25020353733      -0.0228556747588    -0.0918259327462    
4200000000.0        -0.024006642178     -0.0938592474239    0.960383987851      -0.256096439692     0.960383987851      -0.256096439692     -0.024006642178     -0.0938592474239    
4300000000.0        -0.0251824038403    -0.0958778072882    0.958560990518      -0.26197422435      0.958560990518      -0.26197422435      -0.0251824038403    -0.0958778072882    
4400000000.0        -0.0263827527033    -0.0978812931139    0.956697890258      -0.267836554299     0.956697890258      -0.267836554299     -0.0263827527033    -0.0978812931139    
4500000000.0        -0.0276074772782    -0.0998693887611    0.954794873959      -0.273683095332     0.954794873959      -0.273683095332     -0.0276074772782    -0.0998693887611    
4600000000.0        -0.0288563616843    -0.101841781255     0.952852132483      -0.279513516117     0.952852132483      -0.279513516117     -0.0288563616843    -0.101841781255     
4700000000.0        -0.0301291857066    -0.103798160865     0.950869860611      -0.285327488273     0.950869860611      -0.285327488273     -0.0301291857066    -0.103798160865     
4800000000.0        -0.031425724854     -0.105738221181     0.948848256976      -0.291124686444     0.948848256976      -0.291124686444     -0.031425724854     -0.105738221181     
4900000000.0        -0.0327457504201    -0.107661659188     0.946787524         -0.296904788369     0.946787524         -0.296904788369     -0.0327457504201    -0.107661659188     
5000000000.0        -0.0340890295451    -0.109568175341     0.944687867833      -0.302667474958     0.944687867833      -0.302667474958     -0.0340890295451    -0.109568175341     
5100000000.0        -0.0354553252798    -0.111457473634     0.942549498283      -0.308412430354     0.942549498283      -0.308412430354     -0.0354553252798    -0.111457473634     
5200000000.0        -0.0368443966508    -0.113329261672     0.94037262875       -0.314139342003     0.94037262875       -0.314139342003     -0.0368443966508    -0.113329261672     
5300000000.0        -0.0382559987271    -0.115183250737     0.938157476157      -0.319847900715     0.938157476157      -0.319847900715     -0.0382559987271    -0.115183250737     
5400000000.0        -0.0396898826884    -0.117019155855     0.935904260882      -0.325537800732     0.935904260882      -0.325537800732     -0.0396898826884    -0.117019155855     
5500000000.0        -0.0411457958943    -0.11883669586      0.933613206683      -0.331208739783     0.933613206683      -0.331208739783     -0.0411457958943    -0.11883669586      
5600000000.0        -0.0426234819553    -0.120635593458     0.931284540631      -0.336860419143     0.931284540631      -0.336860419143     -0.0426234819553    -0.120635593458     
5700000000.0        -0.0441226808043    -0.122415575282     0.928918493032      -0.342492543692     0.928918493032      -0.342492543692     -0.0441226808043    -0.122415575282     
5800000000.0        -0.0456431287703    -0.124176371959     0.926515297357      -0.348104821969     0.926515297357      -0.348104821969     -0.0456431287703    -0.124176371959     
5900000000.0        -0.0471845586518    -0.125917718158     0.924075190164      -0.353696966221     0.924075190164      -0.353696966221     -0.0471845586518    -0.125917718158     
6000000000.0        -0.0487466997925    -0.127639352653     0.921598411025      -0.359268692458     0.921598411025      -0.359268692458     -0.0487466997925    -0.127639352653     
6100000000.0        -0.0503292781572    -0.129341018367     0.919085202444      -0.364819720498     0.919085202444      -0.364819720498     -0.0503292781572    -0.129341018367     
6200000000.0        -0.0519320164087    -0.131022462432     0.916535809787      -0.370349774013     0.916535809787      -0.370349774013     -0.0519320164087    -0.131022462432     
6300000000.0        -0.053554633986     -0.132683436232     0.913950481196      -0.375858580577     0.913950481196      -0.375858580577     -0.053554633986     -0.132683436232     
6400000000.0        -0.0551968471829    -0.134323695451     0.911329467514      -0.381345871704     0.911329467514      -0.381345871704     -0.0551968471829    -0.134323695451     
6500000000.0        -0.0568583692272    -0.135943000122     0.908673022206      -0.386811382891     0.908673022206      -0.386811382891     -0.0568583692272    -0.135943000122     
6600000000.0        -0.0585389103609    -0.137541114665     0.905981401275      -0.392254853656     0.905981401275      -0.392254853656     -0.0585389103609    -0.137541114665     
6700000000.0        -0.0602381779211    -0.139117807932     0.903254863185      -0.397676027572     0.903254863185      -0.397676027572     -0.0602381779211    -0.139117807932     
6800000000.0        -0.0619558764209    -0.140672853245     0.900493668776      -0.403074652304     0.900493668776      -0.403074652304     -0.0619558764209    -0.140672853245     
6900000000.0        -0.0636917076319    -0.142206028434     0.897698081185      -0.408450479639     0.897698081185      -0.408450479639     -0.0636917076319    -0.142206028434     
7000000000.0        -0.0654453706658    -0.14371711587      0.894868365762      -0.413803265517     0.894868365762      -0.413803265517     -0.0654453706658    -0.14371711587      
7100000000.0        -0.0672165620573    -0.145205902505     0.892004789988      -0.419132770059     0.892004789988      -0.419132770059     -0.0672165620573    -0.145205902505     
7200000000.0        -0.0690049758473    -0.146672179897     0.889107623393      -0.424438757594     0.889107623393      -0.424438757594     -0.0690049758473    -0.146672179897     
7300000000.0        -0.0708103036664    -0.148115744241     0.886177137471      -0.42972099668      0.886177137471      -0.42972099668      -0.0708103036664    -0.148115744241     
7400000000.0        -0.0726322348181    -0.149536396402     0.883213605596      -0.434979260131     0.883213605596      -0.434979260131     -0.0726322348181    -0.149536396402     
7500000000.0        -0.0744704563631    -0.150933941933     0.880217302941      -0.440213325031     0.880217302941      -0.440213325031     -0.0744704563631    -0.150933941933     
7600000000.0        -0.0763246532028    -0.152308191107     0.877188506393      -0.445422972759     0.877188506393      -0.445422972759     -0.0763246532028    -0.152308191107     
7700000000.0        -0.0781945081641    -0.153658958932     0.87412749447       -0.450607988999     0.87412749447       -0.450607988999     -0.0781945081641    -0.153658958932     
7800000000.0        -0.0800797020829    -0.154986065178     0.871034547236      -0.455768163758     0.871034547236      -0.455768163758     -0.0800797020829    -0.154986065178     
7900000000.0        -0.0819799138887    -0.156289334388     0.867909946217      -0.460903291377     0.867909946217      -0.460903291377     -0.0819799138887    -0.156289334388     
8000000000.0        -0.0838948206888    -0.157568595903     0.864753974319      -0.46601317054      0.864753974319      -0.46601317054      -0.0838948206888    -0.157568595903     
8100000000.0        -0.085824097852     -0.15882368387      0.861566915743      -0.471097604286     0.861566915743      -0.471097604286     -0.085824097852     -0.15882368387      
8200000000.0        -0.087767419093     -0.160054437257     0.858349055905      -0.476156400013     0.858349055905      -0.476156400013     -0.087767419093     -0.160054437257     
8300000000.0        -0.0897244565561    -0.161260699866     0.855100681346      -0.48118936948      0.855100681346      -0.48118936948      -0.0897244565561    -0.161260699866     
8400000000.0        -0.0916948808986    -0.16244232034      0.851822079657      -0.486196328817     0.851822079657      -0.486196328817     -0.0916948808986    -0.16244232034      
8500000000.0        -0.0936783613742    -0.163599152172     0.848513539391      -0.491177098519     0.848513539391      -0.491177098519     -0.0936783613742    -0.163599152172     
8600000000.0        -0.0956745659164    -0.164731053708     0.845175349982      -0.496131503448     0.845175349982      -0.496131503448     -0.0956745659164    -0.164731053708     
8700000000.0        -0.0976831612207    -0.165837888157     0.841807801666      -0.501059372831     0.841807801666      -0.501059372831     -0.0976831612207    -0.165837888157     
8800000000.0        -0.0997038128273    -0.166919523587     0.838411185395      -0.505960540256     0.838411185395      -0.505960540256     -0.0997038128273    -0.166919523587     
8900000000.0        -0.101736185203     -0.16797583293      0.834985792758      -0.510834843661     0.834985792758      -0.510834843661     -0.101736185203     -0.16797583293      
9000000000.0        -0.103779941822     -0.169006693977     0.831531915904      -0.515682125332     0.831531915904      -0.515682125332     -0.103779941822     -0.169006693977     
9100000000.0        -0.105834745249     -0.170011989382     0.828049847456      -0.520502231891     0.828049847456      -0.520502231891     -0.105834745249     -0.170011989382     
9200000000.0        -0.107900257216     -0.17099160665      0.824539880436      -0.525295014283     0.824539880436      -0.525295014283     -0.107900257216     -0.17099160665      
9300000000.0        -0.109976138705     -0.171945438136     0.821002308184      -0.530060327767     0.821002308184      -0.530060327767     -0.109976138705     -0.171945438136     
9400000000.0        -0.112062050029     -0.172873381039     0.817437424282      -0.534798031896     0.817437424282      -0.534798031896     -0.112062050029     -0.172873381039     
9500000000.0        -0.114157650905     -0.173775337386     0.813845522474      -0.539507990506     0.813845522474      -0.539507990506     -0.114157650905     -0.173775337386     
9600000000.0        -0.116262600537     -0.174651214032     0.810226896593      -0.544190071696     0.810226896593      -0.544190071696     -0.116262600537     -0.174651214032     
9700000000.0        -0.118376557691     -0.175500922637     0.806581840481      -0.548844147806     0.806581840481      -0.548844147806     -0.118376557691     -0.175500922637     
9800000000.0        -0.120499180774     -0.176324379662     0.802910647915      -0.553470095401     0.802910647915      -0.553470095401     -0.120499180774     -0.176324379662     
9900000000.0        -0.122630127905     -0.177121506349     0.799213612536      -0.558067795246     0.799213612536      -0.558067795246     -0.122630127905     -0.177121506349     
10000000000.0       -0.124769056996     -0.177892228707     0.795491027772      -0.562637132282     0.795491027772      -0.562637132282     -0.124769056996     -0.177892228707     
