# Hz S RI R 50.00 
100000000.0         -0.000426588748223  -0.0214179434067    0.99944933348       -0.0217799987633    0.99944933348       -0.0217799987633    -0.000426588748223  -0.0214179434067    
200000000.0         -0.00184495948196   -0.042773487061     0.998029920375      -0.0434976331053    0.998029920375      -0.0434976331053    -0.00184495948196   -0.042773487061     
300000000.0         -0.00418614759421   -0.0640068173696    0.995687772118      -0.0650931093948    0.995687772118      -0.0650931093948    -0.00418614759421   -0.0640068173696    
400000000.0         -0.00743704857214   -0.0850592922395    0.992435886421      -0.0865078013886    0.992435886421      -0.0865078013886    -0.00743704857214   -0.0850592922395    
500000000.0         -0.0115797115159    -0.105873948707     0.988292173177      -0.107684759918     0.988292173177      -0.107684759918     -0.0115797115159    -0.105873948707     
600000000.0         -0.0165915624363    -0.126395990653     0.983279185489      -0.128569201305     0.983279185489      -0.128569201305     -0.0165915624363    -0.126395990653     
700000000.0         -0.0224457016867    -0.146573239067     0.977423810659      -0.149108957981     0.977423810659      -0.149108957981     -0.0224457016867    -0.146573239067     
800000000.0         -0.0291112550445    -0.166356535624     0.970756914887      -0.169254882277     0.970756914887      -0.169254882277     -0.0291112550445    -0.166356535624     
900000000.0         -0.0365537676578    -0.185700093009     0.963312947448      -0.188961196884     0.963312947448      -0.188961196884     -0.0365537676578    -0.185700093009     
1000000000.0        -0.0447356311321    -0.204561787364     0.955129512664      -0.208185787403     0.955129512664      -0.208185787403     -0.0447356311321    -0.204561787364     
1100000000.0        -0.0536165341082    -0.222903390042     0.946246918793      -0.22689043417      0.946246918793      -0.22689043417      -0.0536165341082    -0.222903390042     
1200000000.0        -0.0631539267782    -0.240690737533     0.936707713207      -0.245040982234     0.936707713207      -0.245040982234     -0.0631539267782    -0.240690737533     
1300000000.0        -0.0733034900911    -0.257893840023     0.926556212986      -0.26260744997      0.926556212986      -0.26260744997      -0.0733034900911    -0.257893840023     
1400000000.0        -0.0840196009454    -0.274486930509     0.915838039601      -0.27956407822      0.915838039601      -0.27956407822      -0.0840196009454    -0.274486930509     
1500000000.0        -0.0952557854144    -0.290448457636     0.904599665598      -0.295889323165     0.904599665598      -0.295889323165     -0.0952557854144    -0.290448457636     
1600000000.0        -0.106965152974     -0.305761026502     0.892887980311      -0.311565797155     0.892887980311      -0.311565797155     -0.106965152974     -0.305761026502     
1700000000.0        -0.119100805742     -0.320411292497     0.88074988058       -0.326580162569     0.88074988058       -0.326580162569     -0.119100805742     -0.320411292497     
1800000000.0        -0.131616217849     -0.334389813849     0.868231891345      -0.34092298438      0.868231891345      -0.34092298438      -0.131616217849     -0.334389813849     
1900000000.0        -0.144465581198     -0.347690868933     0.855379819864      -0.354588547479     0.855379819864      -0.354588547479     -0.144465581198     -0.347690868933     
2000000000.0        -0.157604114986     -0.360312244539     0.842238446175      -0.367574644959     0.842238446175      -0.367574644959     -0.157604114986     -0.360312244539     
2100000000.0        -0.170988337412     -0.372255001306     0.828851251369      -0.379882343563     0.828851251369      -0.379882343563     -0.170988337412     -0.372255001306     
2200000000.0        -0.184576298987     -0.383523222292     0.815260184277      -0.391515732264     0.815260184277      -0.391515732264     -0.184576298987     -0.383523222292     
2300000000.0        -0.198327777712     -0.394123750364     0.801505466272      -0.402481659664     0.801505466272      -0.402481659664     -0.198327777712     -0.394123750364     
2400000000.0        -0.212204437159     -0.404065919598     0.787625433192      -0.41278946541      0.787625433192      -0.41278946541      -0.212204437159     -0.404065919598     
2500000000.0        -0.226169949098     -0.413361285443     0.773656412703      -0.422450710358     0.773656412703      -0.422450710358     -0.226169949098     -0.413361285443     
2600000000.0        -0.240190082811     -0.422023357748     0.759632634976      -0.431478909618     0.759632634976      -0.431478909618     -0.240190082811     -0.422023357748     
2700000000.0        -0.254232763625     -0.430067340251     0.745586174159      -0.439889272041     0.745586174159      -0.439889272041     -0.254232763625     -0.430067340251     
2800000000.0        -0.268268103415     -0.43750987947      0.731546917863      -0.447698449126     0.731546917863      -0.447698449126     -0.268268103415     -0.43750987947      
2900000000.0        -0.282268406022     -0.444368825406     0.717542561749      -0.454924295721     0.717542561749      -0.454924295721     -0.282268406022     -0.444368825406     
3000000000.0        -0.296208150554     -0.450663005904     0.703598626216      -0.461585644398     0.703598626216      -0.461585644398     -0.296208150554     -0.450663005904     
3100000000.0        -0.310063955558     -0.456412016018     0.689738492237      -0.46770209482      0.689738492237      -0.46770209482      -0.310063955558     -0.456412016018     
3200000000.0        -0.323814526921     -0.461636023281     0.675983453446      -0.473293819016     0.675983453446      -0.473293819016     -0.323814526921     -0.461636023281     
3300000000.0        -0.337440592278     -0.466355589354     0.662352781738      -0.478381383036     0.662352781738      -0.478381383036     -0.337440592278     -0.466355589354     
3400000000.0        -0.350924824488     -0.470591508217     0.648863803787      -0.482985585149     0.648863803787      -0.482985585149     -0.350924824488     -0.470591508217     
3500000000.0        -0.364251756569     -0.474364660729     0.635531986111      -0.487127310405     0.635531986111      -0.487127310405     -0.364251756569     -0.474364660729     
3600000000.0        -0.377407690245     -0.477695885176     0.622371026524      -0.490827401187     0.622371026524      -0.490827401187     -0.377407690245     -0.477695885176     
3700000000.0        -0.390380600068     -0.480605863207     0.609392950014      -0.494106543154     0.609392950014      -0.494106543154     -0.390380600068     -0.480605863207     
3800000000.0        -0.403160034803     -0.483115020422     0.596608207356      -0.496985165832     0.596608207356      -0.496985165832     -0.403160034803     -0.483115020422     
3900000000.0        -0.415737017599     -0.485243440763     0.584025774944      -0.499483357007     0.584025774944      -0.499483357007     -0.415737017599     -0.485243440763     
4000000000.0        -0.428103946205     -0.487010793776     0.57165325457       -0.501620789993     0.57165325457       -0.501620789993     -0.428103946205     -0.487010793776     
4100000000.0        -0.440254494334     -0.488436273783     0.559496972062      -0.503416662808     0.559496972062      -0.503416662808     -0.440254494334     -0.488436273783     
4200000000.0        -0.452183515068     -0.489538549969     0.547562073877      -0.504889648262     0.547562073877      -0.504889648262     -0.452183515068     -0.489538549969     
4300000000.0        -0.463886947028     -0.490335726395     0.535852620936      -0.506057853972     0.535852620936      -0.506057853972     -0.463886947028     -0.490335726395     
4400000000.0        -0.475361723897     -0.490845310972     0.52437167909       -0.506938791346     0.52437167909       -0.506938791346     -0.475361723897     -0.490845310972     
4500000000.0        -0.486605687736     -0.491084192464     0.513121405818      -0.507549352582     0.513121405818      -0.507549352582     -0.486605687736     -0.491084192464     
4600000000.0        -0.497617506409     -0.491068624612     0.502103132788      -0.507905794798     0.502103132788      -0.507905794798     -0.497617506409     -0.491068624612     
4700000000.0        -0.508396595344     -0.490814216552     0.491317444107      -0.508023730453     0.491317444107      -0.508023730453     -0.508396595344     -0.490814216552     
4800000000.0        -0.518943043758     -0.490335928729     0.480764250088      -0.507918123261     0.480764250088      -0.507918123261     -0.518943043758     -0.490335928729     
4900000000.0        -0.529257545397     -0.489648073568     0.470442856512      -0.507603288867     0.470442856512      -0.507603288867     -0.529257545397     -0.489648073568     
5000000000.0        -0.539341333792     -0.488764320245     0.460352029375      -0.507092899622     0.460352029375      -0.507092899622     -0.539341333792     -0.488764320245     
5100000000.0        -0.549196121955     -0.487697702932     0.450490055188      -0.506399992827     0.450490055188      -0.506399992827     -0.549196121955     -0.487697702932     
5200000000.0        -0.558824046433     -0.486460631958     0.440854796924      -0.505536981896     0.440854796924      -0.505536981896     -0.558824046433     -0.486460631958     
5300000000.0        -0.568227615568     -0.485064907388     0.431443745759      -0.504515669941     0.431443745759      -0.504515669941     -0.568227615568     -0.485064907388     
5400000000.0        -0.577409661814     -0.483521734568     0.422254068754      -0.503347265319     0.422254068754      -0.503347265319     -0.577409661814     -0.483521734568     
5500000000.0        -0.586373297927     -0.481841741242     0.413282652665      -0.502042398744     0.413282652665      -0.502042398744     -0.586373297927     -0.481841741242     
5600000000.0        -0.595121876839     -0.48003499587      0.404526144069      -0.500611141616     0.404526144069      -0.500611141616     -0.595121876839     -0.48003499587      
5700000000.0        -0.603658955017     -0.478111026862     0.395980986006      -0.499063025252     0.395980986006      -0.499063025252     -0.603658955017     -0.478111026862     
5800000000.0        -0.6119882591       -0.476078842434     0.387643451337      -0.497407060745     0.387643451337      -0.497407060745     -0.6119882591       -0.476078842434     
5900000000.0        -0.620113655615     -0.473946950866     0.379509673036      -0.495651759224     0.379509673036      -0.495651759224     -0.620113655615     -0.473946950866     
6000000000.0        -0.628039123567     -0.47172338095      0.371575671593      -0.493805152302     0.371575671593      -0.493805152302     -0.628039123567     -0.47172338095      
6100000000.0        -0.635768729699     -0.469415702461     0.363837379759      -0.491874812553     0.363837379759      -0.491874812553     -0.635768729699     -0.469415702461     
6200000000.0        -0.643306606244     -0.467031046507     0.356290664788      -0.489867873859     0.356290664788      -0.489867873859     -0.643306606244     -0.467031046507     
6300000000.0        -0.650656930967     -0.464576125624     0.348931348402      -0.487791051509     0.348931348402      -0.487791051509     -0.650656930967     -0.464576125624     
6400000000.0        -0.65782390933      -0.46205725353      0.341755224619      -0.485650661955     0.341755224619      -0.485650661955     -0.65782390933      -0.46205725353      
6500000000.0        -0.664811758609     -0.459480364447     0.334758075643      -0.483452642131     0.334758075643      -0.483452642131     -0.664811758609     -0.459480364447     
6600000000.0        -0.671624693802     -0.456851031917     0.327935685952      -0.481202568276     0.327935685952      -0.481202568276     -0.671624693802     -0.456851031917     
6700000000.0        -0.678266915169     -0.454174487078     0.321283854753      -0.478905674212     0.321283854753      -0.478905674212     -0.678266915169     -0.454174487078     
6800000000.0        -0.684742597288     -0.451455636346     0.314798406938      -0.476566869021     0.314798406938      -0.476566869021     -0.684742597288     -0.451455636346     
6900000000.0        -0.691055879459     -0.448699078479     0.308475202669      -0.474190754113     0.308475202669      -0.474190754113     -0.691055879459     -0.448699078479     
7000000000.0        -0.697210857362     -0.445909120998     0.302310145725      -0.471781639653     0.302310145725      -0.471781639653     -0.697210857362     -0.445909120998     
7100000000.0        -0.70321157584      -0.443089795963     0.296299190717      -0.469343560334     0.296299190717      -0.469343560334     -0.70321157584      -0.443089795963     
7200000000.0        -0.709062022706     -0.440244875095     0.290438349287      -0.466880290495     0.290438349287      -0.466880290495     -0.709062022706     -0.440244875095     
7300000000.0        -0.714766123469     -0.437377884233     0.28472369537       -0.464395358592     0.28472369537       -0.464395358592     -0.714766123469     -0.437377884233     
7400000000.0        -0.720327736899     -0.434492117153     0.279151369641      -0.461892061006     0.279151369641      -0.461892061006     -0.720327736899     -0.434492117153     
7500000000.0        -0.725750651337     -0.431590648736     0.273717583195      -0.459373475219     0.273717583195      -0.459373475219     -0.725750651337     -0.431590648736     
7600000000.0        -0.731038581687     -0.428676347516     0.268418620567      -0.45684247236      0.268418620567      -0.45684247236      -0.731038581687     -0.428676347516     
7700000000.0        -0.736195166996     -0.425751887611     0.263250842136      -0.454301729138     0.263250842136      -0.454301729138     -0.736195166996     -0.425751887611     
7800000000.0        -0.741223968593     -0.422819760055     0.258210686003      -0.451753739174     0.258210686003      -0.451753739174     -0.741223968593     -0.422819760055     
7900000000.0        -0.746128468691     -0.419882283553     0.253294669374      -0.44920082376      0.253294669374      -0.44920082376      -0.746128468691     -0.419882283553     
8000000000.0        -0.750912069425     -0.416941614684     0.248499389533      -0.446645142059     0.248499389533      -0.446645142059     -0.750912069425     -0.416941614684     
8100000000.0        -0.755578092271     -0.413999757556     0.243821524415      -0.444088700764     0.243821524415      -0.444088700764     -0.755578092271     -0.413999757556     
8200000000.0        -0.760129777792     -0.411058572953     0.239257832867      -0.441533363242     0.239257832867      -0.441533363242     -0.760129777792     -0.411058572953     
8300000000.0        -0.764570285686     -0.408119786976     0.234805154595      -0.438980858181     0.234805154595      -0.438980858181     -0.764570285686     -0.408119786976     
8400000000.0        -0.768902695086     -0.405184999223     0.230460409865      -0.436432787764     0.230460409865      -0.436432787764     -0.768902695086     -0.405184999223     
8500000000.0        -0.77313000509      -0.4022556905       0.226220598972      -0.43389063539      0.226220598972      -0.43389063539      -0.77313000509      -0.4022556905       
8600000000.0        -0.777255135486     -0.399333230115     0.222082801518      -0.431355772961     0.222082801518      -0.431355772961     -0.777255135486     -0.399333230115     
8700000000.0        -0.781280927647     -0.396418882749     0.218044175517      -0.428829467756     0.218044175517      -0.428829467756     -0.781280927647     -0.396418882749     
8800000000.0        -0.785210145565     -0.393513814939     0.214101956355      -0.426312888914     0.214101956355      -0.426312888914     -0.785210145565     -0.393513814939     
8900000000.0        -0.789045477022     -0.390619101189     0.210253455627      -0.42380711355      0.210253455627      -0.42380711355      -0.789045477022     -0.390619101189     
9000000000.0        -0.792789534848     -0.38773572973      0.206496059872      -0.42131313251      0.206496059872      -0.42131313251      -0.792789534848     -0.38773572973      
9100000000.0        -0.796444858281     -0.384864607939     0.202827229217      -0.418831855792     0.202827229217      -0.418831855792     -0.796444858281     -0.384864607939     
9200000000.0        -0.800013914393     -0.382006567447     0.199244495952      -0.416364117658     0.199244495952      -0.416364117658     -0.800013914393     -0.382006567447     
9300000000.0        -0.803499099568     -0.379162368942     0.195745463047      -0.413910681433     0.195745463047      -0.413910681433     -0.803499099568     -0.379162368942     
9400000000.0        -0.806902741035     -0.37633270669      0.192327802623      -0.411472244033     0.192327802623      -0.411472244033     -0.806902741035     -0.37633270669      
9500000000.0        -0.810227098429     -0.373518212791     0.188989254389      -0.409049440212     0.188989254389      -0.409049440212     -0.810227098429     -0.373518212791     
9600000000.0        -0.813474365381     -0.370719461175     0.185727624055      -0.406642846564     0.185727624055      -0.406642846564     -0.813474365381     -0.370719461175     
9700000000.0        -0.816646671118     -0.367936971359     0.182540781728      -0.404252985287     0.182540781728      -0.404252985287     -0.816646671118     -0.367936971359     
9800000000.0        -0.819746082078     -0.365171211985     0.179426660297      -0.401880327709     0.179426660297      -0.401880327709     -0.819746082078     -0.365171211985     
9900000000.0        -0.822774603524     -0.362422604142     0.176383253824      -0.399525297616     0.176383253824      -0.399525297616     -0.822774603524     -0.362422604142     
10000000000.0       -0.825734181154     -0.35969152448      0.173408615927      -0.397188274371     0.173408615927      -0.397188274371     -0.825734181154     -0.35969152448      
