# Hz S RI R 50.00 
100000000.0         -1.87959571674e-06  -0.000809072606167  0.999997954864      -0.000809829472153  0.999997954864      -0.000809829472153  -1.87959571629e-06  -0.000809072606167  
200000000.0         -4.65118624771e-06  -0.00161801409216   0.99999518214       -0.00161952811719   0.99999518214       -0.00161952811719   -4.6511862476e-06   -0.00161801409216   
300000000.0         -8.7318609342e-06   -0.00242675888878   0.999991100617      -0.00242903051027   0.999991100617      -0.00242903051027   -8.73186093431e-06  -0.00242675888878   
400000000.0         -1.41202563142e-05  -0.00323525953282   0.999985711514      -0.00323828929272   0.999985711514      -0.00323828929272   -1.41202563144e-05  -0.00323525953282   
500000000.0         -2.08148567495e-05  -0.0040434776183    0.999979016293      -0.00404726614067   0.999979016293      -0.00404726614067   -2.08148567493e-05  -0.0040434776183    
600000000.0         -2.88140001562e-05  -0.00485138202372   0.99997101659       -0.0048559299986    0.99997101659       -0.0048559299986    -2.88140001562e-05  -0.00485138202372   
700000000.0         -3.81159075803e-05  -0.00565894712774   0.999961714165      -0.00566425529842   0.999961714165      -0.00566425529842   -3.81159075803e-05  -0.00565894712774   
800000000.0         -4.87187117635e-05  -0.00646615182049   0.999951110877      -0.00647222097294   0.999951110877      -0.00647222097294   -4.87187117633e-05  -0.00646615182049   
900000000.0         -6.06204834125e-05  -0.00727297896939   0.999939208647      -0.00727980992328   0.999939208647      -0.00727980992328   -6.06204834126e-05  -0.00727297896939   
1000000000.0        -7.38192507591e-05  -0.00807941473715   0.999926009442      -0.00808700833807   0.999926009442      -0.00808700833807   -7.3819250759e-05   -0.00807941473715   
1100000000.0        -8.8313018074e-05   -0.00888544827474   0.999911515254      -0.00889380538744   0.999911515254      -0.00889380538744   -8.8313018074e-05   -0.00888544827474   
1200000000.0        -0.000104099782638  -0.00969107123246   0.999895728083      -0.00970019273491   0.999895728083      -0.00970019273491   -0.000104099782638  -0.00969107123246   
1300000000.0        -0.000121177549655  -0.0104962775607    0.999878649921      -0.0105061643389    0.999878649921      -0.0105061643389    -0.000121177549655  -0.0104962775607    
1400000000.0        -0.000139544341705  -0.0113010631514    0.999860282743      -0.0113117160949    0.999860282743      -0.0113117160949    -0.000139544341705  -0.0113010631514    
1500000000.0        -0.000159198205779  -0.0121054255314    0.999840628501      -0.0121168455292    0.999840628501      -0.0121168455292    -0.00015919820578   -0.0121054255314    
1600000000.0        -0.000180137227361  -0.0129093637987    0.999819689109      -0.0129215517358    0.999819689109      -0.0129215517358    -0.000180137227361  -0.0129093637987    
1700000000.0        -0.00020235952994   -0.0137128782817    0.999797466442      -0.0137258350363    0.999797466442      -0.0137258350363    -0.00020235952994   -0.0137128782817    
1800000000.0        -0.000225863283938  -0.0145159704305    0.999773962329      -0.0145296968712    0.999773962329      -0.0145296968712    -0.000225863283938  -0.0145159704305    
1900000000.0        -0.000250646709387  -0.0153186426177    0.999749178548      -0.0153331396012    0.999749178548      -0.0153331396012    -0.000250646709387  -0.0153186426177    
2000000000.0        -0.000276708076337  -0.0161208979502    0.999723116829      -0.0161361663198    0.999723116829      -0.0161361663198    -0.000276708076337  -0.0161208979502    
2100000000.0        -0.00030404571058   -0.0169227402977    0.999695778847      -0.0169387808813    0.999695778847      -0.0169387808813    -0.000304045710579  -0.0169227402977    
2200000000.0        -0.000332657991071  -0.0177241739848    0.99966716622       -0.017740987594     0.99966716622       -0.017740987594     -0.00033265799107   -0.0177241739848    
2300000000.0        -0.000362543351812  -0.0185252037968    0.999637280516      -0.0185427912253    0.999637280516      -0.0185427912253    -0.000362543351812  -0.0185252037968    
2400000000.0        -0.000393700282039  -0.0193258348768    0.999606123244      -0.0193441969001    0.999606123244      -0.0193441969001    -0.000393700282039  -0.0193258348768    
2500000000.0        -0.000426127323584  -0.020126072606     0.999573695862      -0.0201452099804    0.999573695862      -0.0201452099804    -0.000426127323584  -0.020126072606     
2600000000.0        -0.000459823072091  -0.020925922558     0.999539999774      -0.0209458360202    0.999539999774      -0.0209458360202    -0.000459823072091  -0.020925922558     
2700000000.0        -0.000494786174205  -0.0217253904359    0.999505036334      -0.0217460807027    0.999505036334      -0.0217460807027    -0.000494786174205  -0.0217253904359    
2800000000.0        -0.000531015327363  -0.0225244820353    0.999468806843      -0.0225459498032    0.999468806843      -0.0225459498032    -0.000531015327363  -0.0225244820353    
2900000000.0        -0.000568509275327  -0.0233232031214    0.999431312559      -0.0233454490668    0.999431312559      -0.0233454490668    -0.000568509275327  -0.0233232031214    
3000000000.0        -0.000607266809762  -0.0241215594916    0.999392554688      -0.0241445842706    0.999392554688      -0.0241445842706    -0.000607266809762  -0.0241215594916    
3100000000.0        -0.000647286764652  -0.0249195568419    0.999352534397      -0.0249433610903    0.999352534397      -0.0249433610903    -0.000647286764651  -0.0249195568419    
3200000000.0        -0.000688568016833  -0.0257172008087    0.999311252808      -0.0257417851425    0.999311252808      -0.0257417851425    -0.000688568016833  -0.0257172008087    
3300000000.0        -0.000731109483354  -0.0265144969153    0.999268711005      -0.0265398619305    0.999268711005      -0.0265398619305    -0.000731109483355  -0.0265144969153    
3400000000.0        -0.000774910116604  -0.0273114505088    0.999224910035      -0.0273375967821    0.999224910035      -0.0273375967821    -0.000774910116604  -0.0273114505088    
3500000000.0        -0.000819968906819  -0.0281080668338    0.999179850908      -0.0281349949228    0.999179850908      -0.0281349949228    -0.000819968906819  -0.0281080668338    
3600000000.0        -0.000866284876001  -0.0289043509332    0.999133534602      -0.0289320613765    0.999133534602      -0.0289320613765    -0.000866284876001  -0.0289043509332    
3700000000.0        -0.000913857077358  -0.0297003076762    0.999085962063      -0.0297288009939    0.999085962063      -0.0297288009939    -0.000913857077358  -0.0297003076762    
3800000000.0        -0.000962684592328  -0.0304959417239    0.99903713421       -0.0305252184185    0.99903713421       -0.0305252184185    -0.000962684592328  -0.0304959417239    
3900000000.0        -0.00101276653121   -0.031291257578     0.998987051932      -0.0313213181342    0.998987051932      -0.0313213181342    -0.00101276653121   -0.031291257578     
4000000000.0        -0.00106410202708   -0.0320862594923    0.998935716096      -0.0321171043777    0.998935716096      -0.0321171043777    -0.00106410202708   -0.0320862594923    
4100000000.0        -0.00111669023757   -0.0328809515437    0.998883127545      -0.0329125812094    0.998883127545      -0.0329125812094    -0.00111669023757   -0.0328809515437    
4200000000.0        -0.00117053034046   -0.0336753375782    0.998829287101      -0.0337077524592    0.998829287101      -0.0337077524592    -0.00117053034046   -0.0336753375782    
4300000000.0        -0.00122562153458   -0.0344694212591    0.998774195564      -0.0345026217746    0.998774195564      -0.0345026217746    -0.00122562153458   -0.0344694212591    
4400000000.0        -0.00128196303374   -0.035263205996     0.998717853722      -0.0352971925501    0.998717853722      -0.0352971925501    -0.00128196303374   -0.035263205996     
4500000000.0        -0.00133955407121   -0.0360566950386    0.99866026234       -0.0360914680207    0.99866026234       -0.0360914680207    -0.00133955407121   -0.0360566950386    
4600000000.0        -0.00139839389185   -0.0368498913855    0.998601422175      -0.0368854511707    0.998601422175      -0.0368854511707    -0.00139839389185   -0.0368498913855    
4700000000.0        -0.00145848175652   -0.0376427978723    0.998541333964      -0.0376791448222    0.998541333964      -0.0376791448222    -0.00145848175652   -0.0376427978723    
4800000000.0        -0.00151981693616   -0.0384354171095    0.998479998437      -0.038472551572     0.998479998437      -0.038472551572     -0.00151981693616   -0.0384354171095    
4900000000.0        -0.00158239871156   -0.0392277515019    0.998417416313      -0.0392656738123    0.998417416313      -0.0392656738123    -0.00158239871156   -0.0392277515019    
5000000000.0        -0.00164622637573   -0.0400198033024    0.998353588299      -0.0400585137837    0.998353588299      -0.0400585137837    -0.00164622637573   -0.0400198033024    
5100000000.0        -0.0017112992267    -0.0408115745362    0.998288515097      -0.0408510734993    0.998288515097      -0.0408510734993    -0.0017112992267    -0.0408115745362    
5200000000.0        -0.00177761657101   -0.0416030670638    0.998222197401      -0.041643354808     0.998222197401      -0.041643354808     -0.00177761657101   -0.0416030670638    
5300000000.0        -0.00184517772077   -0.0423942825657    0.998154635897      -0.0424353593795    0.998154635897      -0.0424353593795    -0.00184517772077   -0.0423942825657    
5400000000.0        -0.00191398199342   -0.0431852225513    0.99808583127       -0.0432270887122    0.99808583127       -0.0432270887122    -0.00191398199342   -0.0431852225513    
5500000000.0        -0.00198402871063   -0.0439758883681    0.998015784197      -0.0440185441435    0.998015784197      -0.0440185441435    -0.00198402871063   -0.0439758883681    
5600000000.0        -0.00205531719706   -0.0447662811969    0.997944495354      -0.044809726844     0.997944495354      -0.044809726844     -0.00205531719706   -0.0447662811969    
5700000000.0        -0.00212784677815   -0.0455564020439    0.997871965414      -0.0456006378107    0.997871965414      -0.0456006378107    -0.00212784677815   -0.0455564020439    
5800000000.0        -0.00220161678425   -0.0463462518025    0.997798195048      -0.0463912779275    0.997798195048      -0.0463912779275    -0.00220161678425   -0.0463462518025    
5900000000.0        -0.00227662654353   -0.0471358311847    0.997723184928      -0.0471816478977    0.997723184928      -0.0471816478977    -0.00227662654353   -0.0471358311847    
6000000000.0        -0.00235287538708   -0.0479251407922    0.997646935722      -0.0479717483146    0.997646935722      -0.0479717483146    -0.00235287538708   -0.0479251407922    
6100000000.0        -0.00243036264292   -0.0487141810613    0.997569448102      -0.0487615796062    0.997569448102      -0.0487615796062    -0.00243036264292   -0.0487141810613    
6200000000.0        -0.00250908763943   -0.0495029523125    0.997490722741      -0.0495511420851    0.997490722741      -0.0495511420851    -0.00250908763943   -0.0495029523125    
6300000000.0        -0.00258904970473   -0.0502914547545    0.997410760309      -0.0503404359525    0.997410760309      -0.0503404359525    -0.00258904970473   -0.0502914547545    
6400000000.0        -0.00267024816191   -0.0510796884436    0.997329561484      -0.0511294612574    0.997329561484      -0.0511294612574    -0.00267024816191   -0.0510796884436    
6500000000.0        -0.00275268233423   -0.0518676533485    0.997247126942      -0.0519182179615    0.997247126942      -0.0519182179615    -0.00275268233423   -0.0518676533485    
6600000000.0        -0.00283635154139   -0.0526553493195    0.997163457364      -0.0527067059085    0.997163457364      -0.0527067059085    -0.00283635154139   -0.0526553493195    
6700000000.0        -0.00292125509733   -0.0534427760773    0.997078553436      -0.0534949248124    0.997078553436      -0.0534949248124    -0.00292125509733   -0.0534427760773    
6800000000.0        -0.00300739231533   -0.0542299332705    0.996992415845      -0.0542828743159    0.996992415845      -0.0542828743159    -0.00300739231533   -0.0542299332705    
6900000000.0        -0.00309476250387   -0.0550168204424    0.996905045282      -0.0550705539561    0.996905045282      -0.0550705539561    -0.00309476250387   -0.0550168204424    
7000000000.0        -0.00318336496526   -0.0558034370264    0.996816442444      -0.0558579631607    0.996816442444      -0.0558579631607    -0.00318336496526   -0.0558034370264    
7100000000.0        -0.00327319899811   -0.0565897823758    0.996726608034      -0.0566451012777    0.996726608034      -0.0566451012777    -0.00327319899811   -0.0565897823758    
7200000000.0        -0.00336426389705   -0.0573758557669    0.996635542756      -0.0574319675777    0.996635542756      -0.0574319675777    -0.00336426389705   -0.0573758557669    
7300000000.0        -0.00345655894843   -0.0581616563676    0.996543247324      -0.0582185612239    0.996543247324      -0.0582185612239    -0.00345655894843   -0.0581616563676    
7400000000.0        -0.00355008343573   -0.0589471832901    0.996449722455      -0.0590048813234    0.996449722455      -0.0590048813234    -0.00355008343573   -0.0589471832901    
7500000000.0        -0.00364483663494   -0.0597324355568    0.996354968872      -0.059790926894     0.996354968872      -0.059790926894     -0.00364483663494   -0.0597324355568    
7600000000.0        -0.00374081781703   -0.0605174121258    0.996258987305      -0.0605766968894    0.996258987305      -0.0605766968894    -0.00374081781703   -0.0605174121258    
7700000000.0        -0.00383802624562   -0.0613021118773    0.996161778491      -0.061362190185     0.996161778491      -0.061362190185     -0.00383802624562   -0.0613021118773    
7800000000.0        -0.00393646117817   -0.0620865336268    0.996063343171      -0.0621474055927    0.996063343171      -0.0621474055927    -0.00393646117817   -0.0620865336268    
7900000000.0        -0.00403612186543   -0.0628706761263    0.995963682094      -0.06293234186      0.995963682094      -0.06293234186      -0.00403612186543   -0.0628706761263    
8000000000.0        -0.00413700755201   -0.0636545380719    0.995862796017      -0.0637169976795    0.995862796017      -0.0637169976795    -0.00413700755201   -0.0636545380719    
8100000000.0        -0.00423911747343   -0.0644381180846    0.995760685704      -0.0645013716683    0.995760685704      -0.0645013716683    -0.00423911747343   -0.0644381180846    
8200000000.0        -0.0043424508608    -0.0652214147512    0.995657351924      -0.0652854624097    0.995657351924      -0.0652854624097    -0.0043424508608    -0.0652214147512    
8300000000.0        -0.00444700693758   -0.0660044266016    0.995552795452      -0.0660692684301    0.995552795452      -0.0660692684301    -0.00444700693758   -0.0660044266016    
8400000000.0        -0.00455278491747   -0.0667871520963    0.995447017077      -0.066852788187     0.995447017077      -0.066852788187     -0.00455278491747   -0.0667871520963    
8500000000.0        -0.00465978400839   -0.0675695896606    0.995340017588      -0.067636020102     0.995340017588      -0.067636020102     -0.00465978400839   -0.0675695896606    
8600000000.0        -0.00476800341023   -0.0683517376698    0.995231797788      -0.0684189625478    0.995231797788      -0.0684189625478    -0.00476800341023   -0.0683517376698    
8700000000.0        -0.00487744231613   -0.0691335944612    0.995122358482      -0.0692016138587    0.995122358482      -0.0692016138587    -0.00487744231613   -0.0691335944612    
8800000000.0        -0.00498809990966   -0.0699151583171    0.995011700487      -0.069983972314     0.995011700487      -0.069983972314     -0.00498809990966   -0.0699151583171    
8900000000.0        -0.00509997536731   -0.0706964274844    0.994899824626      -0.0707660361581    0.994899824626      -0.0707660361581    -0.00509997536731   -0.0706964274844    
9000000000.0        -0.00521306786008   -0.0714774001888    0.994786731729      -0.0715478036138    0.994786731729      -0.0715478036138    -0.00521306786008   -0.0714774001888    
9100000000.0        -0.00532737654691   -0.0722580745899    0.994672422636      -0.0723292728385    0.994672422636      -0.0723292728385    -0.00532737654691   -0.0722580745899    
9200000000.0        -0.00544290057965   -0.0730384488192    0.994556898196      -0.0731104419611    0.994556898196      -0.0731104419611    -0.00544290057965   -0.0730384488192    
9300000000.0        -0.00555963910509   -0.0738185209955    0.994440159263      -0.0738913090983    0.994440159263      -0.0738913090983    -0.00555963910509   -0.0738185209955    
9400000000.0        -0.00567759125863   -0.0745982891832    0.994322206699      -0.0746718723119    0.994322206699      -0.0746718723119    -0.00567759125863   -0.0745982891832    
9500000000.0        -0.00579675616716   -0.0753777514142    0.994203041379      -0.0754521296319    0.994203041379      -0.0754521296319    -0.00579675616716   -0.0753777514142    
9600000000.0        -0.0059171329523    -0.0761569057109    0.994082664182      -0.0762320790786    0.994082664182      -0.0762320790786    -0.0059171329523    -0.0761569057109    
9700000000.0        -0.00603872072568   -0.0769357500565    0.993961075994      -0.0770117186332    0.993961075994      -0.0770117186332    -0.00603872072568   -0.0769357500565    
9800000000.0        -0.00616151859002   -0.0777142824039    0.993838277715      -0.0777910462466    0.993838277715      -0.0777910462466    -0.00616151859002   -0.0777142824039    
9900000000.0        -0.00628552564059   -0.0784925006863    0.993714270247      -0.0785700598503    0.993714270247      -0.0785700598503    -0.00628552564059   -0.0784925006863    
10000000000.0       -0.00641074096388   -0.0792704028103    0.993589054506      -0.0793487573488    0.993589054506      -0.0793487573488    -0.00641074096388   -0.0792704028103    
