# Hz S RI R 50.00 
100000000.0         0.00204335225868    -0.00100260570896   0.997929833828      -0.00529092539304   0.997929833828      -0.00529092539304   0.00204335225868    -0.00100260570896   
200000000.0         0.0020382223081     -0.00200520725821   0.997869513898      -0.0105815815426    0.997869513898      -0.0105815815426    0.0020382223081     -0.00200520725821   
300000000.0         0.00201891161867    -0.003007659197     0.997783740504      -0.0158718715482    0.997783740504      -0.0158718715482    0.00201891161867    -0.003007659197     
400000000.0         0.00198719630335    -0.00400984309449   0.997670741066      -0.0211616607398    0.997670741066      -0.0211616607398    0.00198719630335    -0.00400984309449   
500000000.0         0.00194376165196    -0.00501164578866   0.997529835706      -0.0264508037788    0.997529835706      -0.0264508037788    0.00194376165196    -0.00501164578866   
600000000.0         0.00188895920123    -0.00601295605885   0.997360680262      -0.0317391498765    0.997360680262      -0.0317391498765    0.00188895920123    -0.00601295605885   
700000000.0         0.00182299906401    -0.0070136635366    0.997163074014      -0.0370265448582    0.997163074014      -0.0370265448582    0.00182299906401    -0.0070136635366    
800000000.0         0.00174602008361    -0.00801365825208   0.996936889578      -0.0423128322089    0.996936889578      -0.0423128322089    0.00174602008361    -0.00801365825208   
900000000.0         0.00165812105492    -0.00901283042082   0.996682041722      -0.0475978536847    0.996682041722      -0.0475978536847    0.00165812105492    -0.00901283042082   
1000000000.0        0.0015593765434     -0.0100110703373    0.996398471578      -0.0528814497057    0.996398471578      -0.0528814497057    0.0015593765434     -0.0100110703373    
1100000000.0        0.00144984567601    -0.011008268322     0.996086137881      -0.0581634596265    0.996086137881      -0.0581634596265    0.00144984567601    -0.011008268322     
1200000000.0        0.00132957737845    -0.0120043146963    0.99574501175       -0.0634437219329    0.99574501175       -0.0634437219329    0.00132957737845    -0.0120043146963    
1300000000.0        0.00119861366992    -0.0129990997744    0.995375073416      -0.0687220743907    0.995375073416      -0.0687220743907    0.00119861366992    -0.0129990997744    
1400000000.0        0.00105699182876    -0.0139925138642    0.994976310072      -0.0739983541622    0.994976310072      -0.0739983541622    0.00105699182876    -0.0139925138642    
1500000000.0        0.000904745868353   -0.0149844472744    0.994548714416      -0.0792723979002    0.994548714416      -0.0792723979002    0.000904745868353   -0.0149844472744    
1600000000.0        0.00074190757395    -0.0159747903247    0.994092283622      -0.084544041826     0.994092283622      -0.084544041826     0.00074190757395    -0.0159747903247    
1700000000.0        0.000568507250033   -0.0169634333592    0.993607018611      -0.0898131217945    0.993607018611      -0.0898131217945    0.000568507250034   -0.0169634333592    
1800000000.0        0.000384574271129   -0.0179502667608    0.993092923504      -0.095079473351     0.993092923504      -0.095079473351     0.000384574271129   -0.0179502667608    
1900000000.0        0.000190137495673   -0.0189351809664    0.992550005223      -0.10034293178      0.992550005223      -0.10034293178      0.000190137495673   -0.0189351809664    
2000000000.0        -1.47744177345e-05  -0.0199180664831    0.991978273178      -0.105603332149     0.991978273178      -0.105603332149     -1.47744177346e-05  -0.0199180664831    
2100000000.0        -0.000230132765053  -0.0208988139046    0.991377739033      -0.110860509348     0.991377739033      -0.110860509348     -0.000230132765053  -0.0208988139046    
2200000000.0        -0.000455908604058  -0.0218773139279    0.990748416515      -0.116114298123     0.990748416515      -0.116114298123     -0.000455908604058  -0.0218773139279    
2300000000.0        -0.00069207260111   -0.02285345737      0.990090321272      -0.121364533113     0.990090321272      -0.121364533113     -0.00069207260111   -0.02285345737      
2400000000.0        -0.000938594908083  -0.0238271351849    0.989403470745      -0.126611048872     0.989403470745      -0.126611048872     -0.000938594908083  -0.0238271351849    
2500000000.0        -0.00119544506261   -0.0247982384803    0.988687884082      -0.131853679906     0.988687884082      -0.131853679906     -0.00119544506261   -0.0247982384803    
2600000000.0        -0.00146259190657   -0.0257666585343    0.987943582049      -0.137092260693     0.987943582049      -0.137092260693     -0.00146259190657   -0.0257666585343    
2700000000.0        -0.00174000351908   -0.0267322868124    0.987170586973      -0.14232662571      0.987170586973      -0.14232662571      -0.00174000351908   -0.0267322868124    
2800000000.0        -0.00202764716093   -0.0276950149842    0.986368922685      -0.147556609455     0.986368922685      -0.147556609455     -0.00202764716093   -0.0276950149842    
2900000000.0        -0.0023254892285    -0.0286547349394    0.985538614471      -0.152782046469     0.985538614471      -0.152782046469     -0.0023254892285    -0.0286547349394    
3000000000.0        -0.00263349521517   -0.0296113388052    0.98467968904       -0.158002771361     0.98467968904       -0.158002771361     -0.00263349521517   -0.0296113388052    
3100000000.0        -0.00295162967905   -0.0305647189619    0.983792174484      -0.163218618822     0.983792174484      -0.163218618822     -0.00295162967905   -0.0305647189619    
3200000000.0        -0.00327985621587   -0.0315147680596    0.982876100255      -0.16842942365      0.982876100255      -0.16842942365      -0.00327985621587   -0.0315147680596    
3300000000.0        -0.00361813743622   -0.0324613790345    0.981931497138      -0.173635020767     0.981931497138      -0.173635020767     -0.00361813743622   -0.0324613790345    
3400000000.0        -0.0039664349464    -0.0334044451244    0.980958397229      -0.178835245237     0.980958397229      -0.178835245237     -0.0039664349464    -0.0334044451244    
3500000000.0        -0.00432470933243   -0.0343438598854    0.979956833919      -0.184029932283     0.979956833919      -0.184029932283     -0.00432470933243   -0.0343438598854    
3600000000.0        -0.00469292014665   -0.0352795172075    0.978926841871      -0.189218917307     0.978926841871      -0.189218917307     -0.00469292014665   -0.0352795172075    
3700000000.0        -0.00507102589657   -0.03621131133      0.977868457012      -0.194402035905     0.977868457012      -0.194402035905     -0.00507102589657   -0.03621131133      
3800000000.0        -0.00545898403576   -0.0371391368579    0.976781716514      -0.199579123883     0.976781716514      -0.199579123883     -0.00545898403576   -0.0371391368579    
3900000000.0        -0.00585675095633   -0.0380628887768    0.975666658785      -0.204750017273     0.975666658785      -0.204750017273     -0.00585675095633   -0.0380628887768    
4000000000.0        -0.00626428198306   -0.0389824624687    0.974523323455      -0.209914552351     0.974523323455      -0.209914552351     -0.00626428198306   -0.0389824624687    
4100000000.0        -0.0066815313687    -0.0398977537273    0.973351751366      -0.21507256565      0.973351751366      -0.21507256565      -0.0066815313687    -0.0398977537273    
4200000000.0        -0.00710845229051   -0.0408086587732    0.972151984563      -0.220223893976     0.972151984563      -0.220223893976     -0.00710845229051   -0.0408086587732    
4300000000.0        -0.00754499684787   -0.0417150742692    0.970924066284      -0.225368374424     0.970924066284      -0.225368374424     -0.00754499684787   -0.0417150742692    
4400000000.0        -0.00799111606072   -0.0426168973349    0.969668040951      -0.23050584439      0.969668040951      -0.23050584439      -0.00799111606072   -0.0426168973349    
4500000000.0        -0.00844675986897   -0.0435140255623    0.968383954161      -0.235636141586     0.968383954161      -0.235636141586     -0.00844675986897   -0.0435140255623    
4600000000.0        -0.00891187713258   -0.0444063570298    0.967071852679      -0.240759104056     0.967071852679      -0.240759104056     -0.00891187713258   -0.0444063570298    
4700000000.0        -0.00938641563233   -0.0452937903178    0.965731784429      -0.245874570188     0.965731784429      -0.245874570188     -0.00938641563233   -0.0452937903178    
4800000000.0        -0.00987032207129   -0.0461762245224    0.964363798488      -0.250982378728     0.964363798488      -0.250982378728     -0.00987032207129   -0.0461762245224    
4900000000.0        -0.0103635420768    -0.0470535592706    0.962967945076      -0.256082368795     0.962967945076      -0.256082368795     -0.0103635420768    -0.0470535592706    
5000000000.0        -0.0108660202032    -0.0479256947344    0.961544275549      -0.26117437989      0.961544275549      -0.26117437989      -0.0108660202032    -0.0479256947344    
5100000000.0        -0.0113776999344    -0.0487925316447    0.960092842396      -0.266258251914     0.960092842396      -0.266258251914     -0.0113776999344    -0.0487925316447    
5200000000.0        -0.0118985236881    -0.0496539713061    0.958613699224      -0.271333825177     0.958613699224      -0.271333825177     -0.0118985236881    -0.0496539713061    
5300000000.0        -0.012428432819     -0.0505099156106    0.957106900759      -0.276400940412     0.957106900759      -0.276400940412     -0.012428432819     -0.0505099156106    
5400000000.0        -0.0129673676236    -0.0513602670512    0.955572502831      -0.281459438791     0.955572502831      -0.281459438791     -0.0129673676236    -0.0513602670512    
5500000000.0        -0.0135152673451    -0.0522049287364    0.954010562374      -0.286509161929     0.954010562374      -0.286509161929     -0.0135152673451    -0.0522049287364    
5600000000.0        -0.0140720701778    -0.053043804403     0.952421137415      -0.291549951903     0.952421137415      -0.291549951903     -0.0140720701778    -0.053043804403     
5700000000.0        -0.0146377132731    -0.0538767984305    0.950804287065      -0.296581651263     0.950804287065      -0.296581651263     -0.0146377132731    -0.0538767984305    
5800000000.0        -0.0152121327454    -0.0547038158539    0.949160071516      -0.301604103041     0.949160071516      -0.301604103041     -0.0152121327454    -0.0547038158539    
5900000000.0        -0.0157952636773    -0.0555247623771    0.947488552032      -0.306617150765     0.947488552032      -0.306617150765     -0.0157952636773    -0.0555247623771    
6000000000.0        -0.0163870401271    -0.0563395443864    0.945789790942      -0.311620638467     0.945789790942      -0.311620638467     -0.0163870401271    -0.0563395443864    
6100000000.0        -0.0169873951343    -0.0571480689632    0.944063851629      -0.316614410701     0.944063851629      -0.316614410701     -0.0169873951343    -0.0571480689632    
6200000000.0        -0.0175962607276    -0.0579502438968    0.942310798529      -0.321598312547     0.942310798529      -0.321598312547     -0.0175962607276    -0.0579502438968    
6300000000.0        -0.0182135679312    -0.0587459776977    0.940530697118      -0.326572189625     0.940530697118      -0.326572189625     -0.0182135679312    -0.0587459776977    
6400000000.0        -0.0188392467725    -0.0595351796097    0.938723613907      -0.331535888105     0.938723613907      -0.331535888105     -0.0188392467725    -0.0595351796097    
6500000000.0        -0.0194732262899    -0.0603177596226    0.936889616433      -0.336489254719     0.936889616433      -0.336489254719     -0.0194732262899    -0.0603177596226    
6600000000.0        -0.0201154345407    -0.0610936284847    0.935028773254      -0.34143213677      0.935028773254      -0.34143213677      -0.0201154345407    -0.0610936284847    
6700000000.0        -0.0207657986087    -0.0618626977147    0.933141153937      -0.346364382142     0.933141153937      -0.346364382142     -0.0207657986087    -0.0618626977147    
6800000000.0        -0.0214242446132    -0.0626248796142    0.931226829052      -0.351285839313     0.931226829052      -0.351285839313     -0.0214242446132    -0.0626248796142    
6900000000.0        -0.022090697717     -0.0633800872794    0.929285870165      -0.356196357359     0.929285870165      -0.356196357359     -0.022090697717     -0.0633800872794    
7000000000.0        -0.0227650821355    -0.0641282346126    0.927318349828      -0.36109578597      0.927318349828      -0.36109578597      -0.0227650821355    -0.0641282346126    
7100000000.0        -0.0234473211452    -0.0648692363347    0.925324341573      -0.365983975457     0.925324341573      -0.365983975457     -0.0234473211452    -0.0648692363347    
7200000000.0        -0.0241373370934    -0.0656030079959    0.9233039199        -0.37086077676      0.9233039199        -0.37086077676      -0.0241373370934    -0.0656030079959    
7300000000.0        -0.0248350514068    -0.0663294659873    0.921257160274      -0.375726041459     0.921257160274      -0.375726041459     -0.0248350514068    -0.0663294659873    
7400000000.0        -0.0255403846014    -0.0670485275523    0.91918413911       -0.380579621783     0.91918413911       -0.380579621783     -0.0255403846014    -0.0670485275523    
7500000000.0        -0.0262532562922    -0.0677601107975    0.917084933771      -0.38542137062      0.917084933771      -0.38542137062      -0.0262532562922    -0.0677601107975    
7600000000.0        -0.0269735852027    -0.0684641347036    0.914959622553      -0.390251141523     0.914959622553      -0.390251141523     -0.0269735852027    -0.0684641347036    
7700000000.0        -0.0277012891751    -0.0691605191363    0.912808284683      -0.395068788719     0.912808284683      -0.395068788719     -0.0277012891751    -0.0691605191363    
7800000000.0        -0.0284362851803    -0.0698491848566    0.910631000303      -0.399874167122     0.910631000303      -0.399874167122     -0.0284362851803    -0.0698491848566    
7900000000.0        -0.0291784893285    -0.0705300535317    0.908427850467      -0.404667132334     0.908427850467      -0.404667132334     -0.0291784893285    -0.0705300535317    
8000000000.0        -0.029927816879     -0.0712030477447    0.906198917128      -0.409447540659     0.906198917128      -0.409447540659     -0.029927816879     -0.0712030477447    
8100000000.0        -0.0306841822514    -0.0718680910053    0.903944283133      -0.41421524911      0.903944283133      -0.41421524911      -0.0306841822514    -0.0718680910053    
8200000000.0        -0.0314474990361    -0.0725251077595    0.901664032207      -0.418970115412     0.901664032207      -0.418970115412     -0.0314474990361    -0.0725251077595    
8300000000.0        -0.032217680005     -0.0731740233992    0.899358248952      -0.423711998017     0.899358248952      -0.423711998017     -0.032217680005     -0.0731740233992    
8400000000.0        -0.0329946371229    -0.0738147642722    0.897027018832      -0.428440756105     0.897027018832      -0.428440756105     -0.0329946371229    -0.0738147642722    
8500000000.0        -0.0337782815581    -0.0744472576917    0.894670428167      -0.433156249597     0.894670428167      -0.433156249597     -0.0337782815581    -0.0744472576917    
8600000000.0        -0.034568523694     -0.0750714319451    0.892288564119      -0.437858339155     0.892288564119      -0.437858339155     -0.034568523694     -0.0750714319451    
8700000000.0        -0.0353652731405    -0.0756872163039    0.889881514687      -0.442546886197     0.889881514687      -0.442546886197     -0.0353652731405    -0.0756872163039    
8800000000.0        -0.0361684387452    -0.0762945410319    0.887449368697      -0.447221752898     0.887449368697      -0.447221752898     -0.0361684387452    -0.0762945410319    
8900000000.0        -0.0369779286054    -0.0768933373947    0.884992215788      -0.451882802197     0.884992215788      -0.451882802197     -0.0369779286054    -0.0768933373947    
9000000000.0        -0.0377936500794    -0.0774835376678    0.882510146409      -0.456529897808     0.882510146409      -0.456529897808     -0.0377936500794    -0.0774835376678    
9100000000.0        -0.0386155097985    -0.0780650751455    0.880003251801      -0.461162904221     0.880003251801      -0.461162904221     -0.0386155097985    -0.0780650751455    
9200000000.0        -0.0394434136793    -0.078637884149     0.877471623997      -0.465781686711     0.877471623997      -0.465781686711     -0.0394434136793    -0.078637884149     
9300000000.0        -0.040277266935     -0.0792019000344    0.874915355802      -0.470386111343     0.874915355802      -0.470386111343     -0.040277266935     -0.0792019000344    
9400000000.0        -0.0411169740882    -0.079757059201     0.87233454079       -0.474976044976     0.87233454079       -0.474976044976     -0.0411169740882    -0.079757059201     
9500000000.0        -0.0419624389826    -0.0803032990988    0.869729273293      -0.479551355274     0.869729273293      -0.479551355274     -0.0419624389826    -0.0803032990988    
9600000000.0        -0.0428135647959    -0.0808405582363    0.867099648388      -0.484111910706     0.867099648388      -0.484111910706     -0.0428135647959    -0.0808405582363    
9700000000.0        -0.0436702540516    -0.0813687761878    0.864445761888      -0.488657580553     0.864445761888      -0.488657580553     -0.0436702540516    -0.0813687761878    
9800000000.0        -0.0445324086319    -0.0818878936007    0.861767710335      -0.493188234913     0.861767710335      -0.493188234913     -0.0445324086319    -0.0818878936007    
9900000000.0        -0.0453999297901    -0.0823978522027    0.859065590985      -0.497703744707     0.859065590985      -0.497703744707     -0.0453999297901    -0.0823978522027    
10000000000.0       -0.0462727181633    -0.0828985948088    0.856339501803      -0.502203981682     0.856339501803      -0.502203981682     -0.0462727181633    -0.0828985948088    
