# Hz S RI R 50.00 
100000000.0         0.000159685756232   -0.00627128999692   0.99973203791       -0.00743307543066   0.99973203791       -0.00743307543066   0.000159685756232   -0.00627128999692   
200000000.0         1.46121572788e-05   -0.0125407672225    0.99958204398       -0.0148643784717    0.99958204398       -0.0148643784717    1.46121572786e-05   -0.0125407672225    
300000000.0         -0.000223987891361  -0.0188066773256    0.999337912568      -0.0222921849425    0.999337912568      -0.0222921849425    -0.00022398789136   -0.0188066773256    
400000000.0         -0.000555822176927  -0.0250672395732    0.998999567201      -0.0297147378762    0.998999567201      -0.0297147378762    -0.000555822176928  -0.0250672395732    
500000000.0         -0.000980666701822  -0.0313206621622    0.99856709004       -0.0371302664944    0.99856709004       -0.0371302664944    -0.000980666701822  -0.0313206621622    
600000000.0         -0.00149828648408   -0.0375651487061    0.998040643649      -0.0445369937368    0.998040643649      -0.0445369937368    -0.00149828648408   -0.0375651487061    
700000000.0         -0.00210841534699   -0.0437989023088    0.99742045125       -0.0519331408322    0.99742045125       -0.0519331408322    -0.00210841534699   -0.0437989023088    
800000000.0         -0.00281074857195   -0.0500201286199    0.996706789514      -0.0593169306412    0.996706789514      -0.0593169306412    -0.00281074857195   -0.0500201286199    
900000000.0         -0.00360493972099   -0.0562270383656    0.995899985268      -0.0666865903711    0.995899985268      -0.0666865903711    -0.00360493972099   -0.0562270383656    
1000000000.0        -0.00449059916292   -0.0624178495736    0.995000413693      -0.074040353928     0.995000413693      -0.074040353928     -0.00449059916292   -0.0624178495736    
1100000000.0        -0.00546729342032   -0.0685907895989    0.994008497166      -0.0813764640356    0.994008497166      -0.0813764640356    -0.00546729342032   -0.0685907895989    
1200000000.0        -0.00653454496788   -0.0747440970115    0.992924704376      -0.088693174193     0.992924704376      -0.088693174193     -0.00653454496788   -0.0747440970115    
1300000000.0        -0.00769183230891   -0.0808760233804    0.991749549571      -0.0959887505133    0.991749549571      -0.0959887505133    -0.00769183230891   -0.0808760233804    
1400000000.0        -0.00893859024055   -0.0869848349749    0.990483591851      -0.103261473469     0.990483591851      -0.103261473469     -0.00893859024055   -0.0869848349749    
1500000000.0        -0.0102742102583    -0.0930688143952    0.989127434456      -0.110509639558     0.989127434456      -0.110509639558     -0.0102742102583    -0.0930688143952    
1600000000.0        -0.0116980410703    -0.0991262621424    0.987681724045      -0.117731562903     0.987681724045      -0.117731562903     -0.0116980410703    -0.0991262621424    
1700000000.0        -0.0132093892033    -0.105155498131     0.986147149936      -0.12492557679      0.986147149936      -0.12492557679      -0.0132093892033    -0.105155498131     
1800000000.0        -0.0148075196867    -0.111154863147     0.984524443307      -0.132090035149     0.984524443307      -0.132090035149     -0.0148075196867    -0.111154863147     
1900000000.0        -0.0164916568073    -0.117122720257     0.982814376365      -0.139223313977     0.982814376365      -0.139223313977     -0.0164916568073    -0.117122720257     
2000000000.0        -0.0182609849263    -0.123057456163     0.981017761458      -0.146323812713     0.981017761458      -0.146323812713     -0.0182609849263    -0.123057456163     
2100000000.0        -0.0201146493554    -0.128957482508     0.979135450153      -0.153389955558     0.979135450153      -0.153389955558     -0.0201146493554    -0.128957482508     
2200000000.0        -0.0220517572843    -0.134821237133     0.977168332272      -0.160420192741     0.977168332272      -0.160420192741     -0.0220517572843    -0.134821237133     
2300000000.0        -0.0240713787594    -0.140647185276     0.975117334878      -0.167413001733     0.975117334878      -0.167413001733     -0.0240713787594    -0.140647185276     
2400000000.0        -0.026172547707     -0.146433820728     0.97298342123       -0.174366888411     0.97298342123       -0.174366888411     -0.026172547707     -0.146433820728     
2500000000.0        -0.0283542629991    -0.152179666931     0.970767589699      -0.181280388166     0.970767589699      -0.181280388166     -0.0283542629991    -0.152179666931     
2600000000.0        -0.0306154895587    -0.157883278023     0.968470872643      -0.188152066954     0.968470872643      -0.188152066954     -0.0306154895587    -0.157883278023     
2700000000.0        -0.0329551595011    -0.163543239834     0.966094335256      -0.194980522302     0.966094335256      -0.194980522302     -0.0329551595011    -0.163543239834     
2800000000.0        -0.0353721733077    -0.169158170818     0.96363907438       -0.201764384248     0.96363907438       -0.201764384248     -0.0353721733077    -0.169158170818     
2900000000.0        -0.0378654010314    -0.174726722944     0.961106217293      -0.208502316236     0.961106217293      -0.208502316236     -0.0378654010314    -0.174726722944     
3000000000.0        -0.0404336835276    -0.180247582517     0.95849692047       -0.215193015942     0.95849692047       -0.215193015942     -0.0404336835276    -0.180247582517     
3100000000.0        -0.0430758337108    -0.185719470956     0.955812368318      -0.221835216058     0.955812368318      -0.221835216058     -0.0430758337108    -0.185719470956     
3200000000.0        -0.0457906378324    -0.191141145503     0.953053771894      -0.22842768501      0.953053771894      -0.22842768501      -0.0457906378324    -0.191141145503     
3300000000.0        -0.0485768567775    -0.196511399887     0.950222367604      -0.234969227623     0.950222367604      -0.234969227623     -0.0485768567775    -0.196511399887     
3400000000.0        -0.0514332273775    -0.201829064926     0.947319415886      -0.241458685725     0.947319415886      -0.241458685725     -0.0514332273775    -0.201829064926     
3500000000.0        -0.0543584637358    -0.207093009073     0.944346199879      -0.247894938702     0.944346199879      -0.247894938702     -0.0543584637358    -0.207093009073     
3600000000.0        -0.0573512585653    -0.212302138902     0.941304024087      -0.254276903988     0.941304024087      -0.254276903988     -0.0573512585653    -0.212302138902     
3700000000.0        -0.0604102845321    -0.217455399549     0.938194213026      -0.260603537503     0.938194213026      -0.260603537503     -0.0604102845321    -0.217455399549     
3800000000.0        -0.0635341956063    -0.222551775083     0.935018109879      -0.266873834035     0.935018109879      -0.266873834035     -0.0635341956063    -0.222551775083     
3900000000.0        -0.0667216284145    -0.227590288828     0.931777075134      -0.273086827564     0.931777075134      -0.273086827564     -0.0667216284145    -0.227590288828     
4000000000.0        -0.069971203593     -0.232570003637     0.928472485234      -0.279241591533     0.928472485234      -0.279241591533     -0.069971203593     -0.232570003637     
4100000000.0        -0.0732815271391    -0.237490022098     0.92510573122       -0.285337239063     0.92510573122       -0.285337239063     -0.0732815271391    -0.237490022098     
4200000000.0        -0.0766511917577    -0.242349486695     0.921678217389      -0.291372923116     0.921678217389      -0.291372923116     -0.0766511917577    -0.242349486695     
4300000000.0        -0.0800787782011    -0.247147579919     0.918191359946      -0.297347836606     0.918191359946      -0.297347836606     -0.0800787782011    -0.247147579919     
4400000000.0        -0.0835628566003    -0.251883524317     0.914646585677      -0.303261212453     0.914646585677      -0.303261212453     -0.0835628566003    -0.251883524317     
4500000000.0        -0.0871019877843    -0.256556582501     0.911045330625      -0.309112323595     0.911045330625      -0.309112323595     -0.0871019877843    -0.256556582501     
4600000000.0        -0.0906947245876    -0.261166057104     0.907389038784      -0.31490048294      0.907389038784      -0.31490048294      -0.0906947245876    -0.261166057104     
4700000000.0        -0.0943396131409    -0.265711290681     0.903679160808      -0.32062504328      0.903679160808      -0.32062504328      -0.0943396131409    -0.265711290681     
4800000000.0        -0.0980351941461    -0.270191665576     0.899917152732      -0.32628539715      0.899917152732      -0.32628539715      -0.0980351941461    -0.270191665576     
4900000000.0        -0.101780004132     -0.274606603733     0.896104474718      -0.331880976645     0.896104474718      -0.331880976645     -0.101780004132     -0.274606603733     
5000000000.0        -0.105572576689     -0.278955566465     0.89224258982       -0.337411253194     0.89224258982       -0.337411253194     -0.105572576689     -0.278955566465     
5100000000.0        -0.109411443682     -0.283238054186     0.888332962767      -0.342875737287     0.888332962767      -0.342875737287     -0.109411443682     -0.283238054186     
5200000000.0        -0.113295136442     -0.287453606091     0.884377058779      -0.348273978164     0.884377058779      -0.348273978164     -0.113295136442     -0.287453606091     
5300000000.0        -0.117222186927     -0.291601799811     0.880376342395      -0.353605563466     0.880376342395      -0.353605563466     -0.117222186927     -0.291601799811     
5400000000.0        -0.121191128862     -0.295682251012     0.87633227634       -0.358870118839     0.87633227634       -0.358870118839     -0.121191128862     -0.295682251012     
5500000000.0        -0.12520049885      -0.299694612977     0.872246320412      -0.364067307516     0.872246320412      -0.364067307516     -0.12520049885      -0.299694612977     
5600000000.0        -0.129248837451     -0.303638576138     0.868119930399      -0.369196829851     0.868119930399      -0.369196829851     -0.129248837451     -0.303638576138     
5700000000.0        -0.133334690236     -0.307513867583     0.86395455703       -0.374258422828     0.86395455703       -0.374258422828     -0.133334690236     -0.307513867583     
5800000000.0        -0.13745660881      -0.311320250529     0.859751644948      -0.379251859536     0.859751644948      -0.379251859536     -0.13745660881      -0.311320250529     
5900000000.0        -0.141613151798     -0.31505752377      0.855512631726      -0.384176948613     0.855512631726      -0.384176948613     -0.141613151798     -0.31505752377      
6000000000.0        -0.145802885803     -0.318725521087     0.851238946905      -0.389033533668     0.851238946905      -0.389033533668     -0.145802885803     -0.318725521087     
6100000000.0        -0.150024386336     -0.322324110644     0.846932011068      -0.393821492667     0.846932011068      -0.393821492667     -0.150024386336     -0.322324110644     
6200000000.0        -0.1542762387       -0.325853194355     0.842593234952      -0.398540737308     0.842593234952      -0.398540737308     -0.1542762387       -0.325853194355     
6300000000.0        -0.158557038854     -0.329312707223     0.838224018588      -0.403191212361     0.838224018588      -0.403191212361     -0.158557038854     -0.329312707223     
6400000000.0        -0.162865394231     -0.332702616669     0.833825750475      -0.407772894992     0.833825750475      -0.407772894992     -0.162865394231     -0.332702616669     
6500000000.0        -0.167199924533     -0.336022921833     0.829399806797      -0.412285794074     0.829399806797      -0.412285794074     -0.167199924533     -0.336022921833     
6600000000.0        -0.171559262479     -0.339273652862     0.824947550659      -0.416729949471     0.824947550659      -0.416729949471     -0.171559262479     -0.339273652862     
6700000000.0        -0.175942054528     -0.34245487018      0.820470331379      -0.421105431308     0.820470331379      -0.421105431308     -0.175942054528     -0.34245487018      
6800000000.0        -0.180346961565     -0.345566663748     0.815969483792      -0.425412339236     0.815969483792      -0.425412339236     -0.180346961565     -0.345566663748     
6900000000.0        -0.184772659547     -0.348609152306     0.811446327605      -0.429650801673     0.811446327605      -0.429650801673     -0.184772659547     -0.348609152306     
7000000000.0        -0.189217840121     -0.351582482608     0.806902166783      -0.433820975039     0.806902166783      -0.433820975039     -0.189217840121     -0.351582482608     
7100000000.0        -0.193681211204     -0.354486828647     0.802338288965      -0.437923042982     0.802338288965      -0.437923042982     -0.193681211204     -0.354486828647     
7200000000.0        -0.198161497528     -0.357322390873     0.797755964917      -0.4419572156       0.797755964917      -0.4419572156       -0.198161497528     -0.357322390873     
7300000000.0        -0.202657441156     -0.3600893954       0.793156448022      -0.445923728644     0.793156448022      -0.445923728644     -0.202657441156     -0.3600893954       
7400000000.0        -0.207167801956     -0.362788093215     0.788540973798      -0.449822842733     0.788540973798      -0.449822842733     -0.207167801956     -0.362788093215     
7500000000.0        -0.211691358053     -0.365418759376     0.783910759455      -0.453654842552     0.783910759455      -0.453654842552     -0.211691358053     -0.365418759376     
7600000000.0        -0.216226906236     -0.367981692218     0.779267003479      -0.457420036053     0.779267003479      -0.457420036053     -0.216226906236     -0.367981692218     
7700000000.0        -0.22077326234      -0.370477212546     0.774610885251      -0.461118753654     0.774610885251      -0.461118753654     -0.22077326234      -0.370477212546     
7800000000.0        -0.225329261599     -0.372905662836     0.769943564701      -0.464751347444     0.769943564701      -0.464751347444     -0.225329261599     -0.372905662836     
7900000000.0        -0.229893758958     -0.375267406436     0.765266181984      -0.468318190375     0.765266181984      -0.468318190375     -0.229893758958     -0.375267406436     
8000000000.0        -0.234465629366     -0.377562826769     0.760579857199      -0.471819675477     0.760579857199      -0.471819675477     -0.234465629366     -0.377562826769     
8100000000.0        -0.239043768031     -0.379792326538     0.755885690125      -0.475256215054     0.755885690125      -0.475256215054     -0.239043768031     -0.379792326538     
8200000000.0        -0.243627090648     -0.381956326941     0.751184759996      -0.478628239905     0.751184759996      -0.478628239905     -0.243627090648     -0.381956326941     
8300000000.0        -0.248214533601     -0.384055266884     0.746478125298      -0.481936198538     0.746478125298      -0.481936198538     -0.248214533601     -0.384055266884     
8400000000.0        -0.252805054136     -0.386089602206     0.741766823596      -0.485180556394     0.741766823596      -0.485180556394     -0.252805054136     -0.386089602206     
8500000000.0        -0.257397630505     -0.388059804913     0.737051871389      -0.48836179508      0.737051871389      -0.48836179508      -0.257397630505     -0.388059804913     
8600000000.0        -0.261991262087     -0.389966362412     0.732334263989      -0.491480411608     0.732334263989      -0.491480411608     -0.261991262087     -0.389966362412     
8700000000.0        -0.266584969484     -0.391809776763     0.727614975428      -0.494536917644     0.727614975428      -0.494536917644     -0.266584969484     -0.391809776763     
8800000000.0        -0.271177794587     -0.393590563938     0.722894958382      -0.49753183877      0.722894958382      -0.49753183877      -0.271177794587     -0.393590563938     
8900000000.0        -0.275768800629     -0.395309253085     0.718175144132      -0.500465713747     0.718175144132      -0.500465713747     -0.275768800629     -0.395309253085     
9000000000.0        -0.280357072203     -0.396966385813     0.713456442531      -0.5033390938       0.713456442531      -0.5033390938       -0.280357072203     -0.396966385813     
9100000000.0        -0.284941715267     -0.398562515479     0.708739742011      -0.506152541908     0.708739742011      -0.506152541908     -0.284941715267     -0.398562515479     
9200000000.0        -0.289521857123     -0.400098206493     0.704025909593      -0.508906632109     0.704025909593      -0.508906632109     -0.289521857123     -0.400098206493     
9300000000.0        -0.29409664638      -0.401574033634     0.699315790931      -0.511601948814     0.699315790931      -0.511601948814     -0.29409664638      -0.401574033634     
9400000000.0        -0.298665252895     -0.402990581381     0.694610210371      -0.514239086142     0.694610210371      -0.514239086142     -0.298665252895     -0.402990581381     
9500000000.0        -0.303226867693     -0.404348443249     0.689909971023      -0.516818647255     0.689909971023      -0.516818647255     -0.303226867693     -0.404348443249     
9600000000.0        -0.307780702875     -0.405648221155     0.685215854863      -0.519341243722     0.685215854863      -0.519341243722     -0.307780702875     -0.405648221155     
9700000000.0        -0.312325991504     -0.406890524779     0.680528622835      -0.521807494888     0.680528622835      -0.521807494888     -0.312325991504     -0.406890524779     
9800000000.0        -0.31686198748      -0.408075970955     0.675849014988      -0.524218027255     0.675849014988      -0.524218027255     -0.31686198748      -0.408075970955     
9900000000.0        -0.321387965394     -0.409205183069     0.671177750612      -0.52657347389      0.671177750612      -0.52657347389      -0.321387965394     -0.409205183069     
10000000000.0       -0.325903220372     -0.410278790472     0.666515528397      -0.528874473832     0.666515528397      -0.528874473832     -0.325903220372     -0.410278790472     
