# Hz S RI R 50.00 
100000000.0         0.0554258580352     0.00332937657944    0.944571759323      -0.00430908486012   0.944571759323      -0.00430908486012   0.0554258580352     0.00332937657944    
200000000.0         0.0558157653325     0.00665281221658    0.944179490511      -0.00861223484291   0.944179490511      -0.00861223484291   0.0558157653325     0.00665281221658    
300000000.0         0.0561421247945     0.00997223524777    0.943849790391      -0.0129113836117    0.943849790391      -0.0129113836117    0.0561421247945     0.00997223524777    
400000000.0         0.0564506866567     0.0132880880483     0.943536908508      -0.0172069782627    0.943536908508      -0.0172069782627    0.0564506866567     0.0132880880483     
500000000.0         0.0567590891164     0.0166004677299     0.943223206455      -0.0214991203251    0.943223206455      -0.0214991203251    0.0567590891164     0.0166004677299     
600000000.0         0.0570763269691     0.0199093188643     0.94289968923       -0.0257877585905    0.94289968923       -0.0257877585905    0.0570763269691     0.0199093188643     
700000000.0         0.0574077055723     0.0232145027406     0.942561051263      -0.0300727584237    0.942561051263      -0.0300727584237    0.0574077055723     0.0232145027406     
800000000.0         0.0577566504403     0.0265158295209     0.942203866818      -0.0343539339516    0.942203866818      -0.0343539339516    0.0577566504403     0.0265158295209     
900000000.0         0.0581255136122     0.0298130755448     0.941825783625      -0.0386310653878    0.941825783625      -0.0386310653878    0.0581255136122     0.0298130755448     
1000000000.0        0.0585159826954     0.0331059936047     0.941425113835      -0.0429039093238    0.941425113835      -0.0429039093238    0.0585159826954     0.0331059936047     
1100000000.0        0.0589293084164     0.0363943195008     0.941000606464      -0.0471722052944    0.941000606464      -0.0471722052944    0.0589293084164     0.0363943195008     
1200000000.0        0.059366440313      0.0396777764582     0.940551311708      -0.0514356802031    0.940551311708      -0.0514356802031    0.059366440313      0.0396777764582     
1300000000.0        0.0598281121697     0.0429560782356     0.940076495498      -0.055694051438     0.940076495498      -0.055694051438     0.0598281121697     0.0429560782356     
1400000000.0        0.0603148982182     0.0462289313949     0.939575583308      -0.0599470291459    0.939575583308      -0.0599470291459    0.0603148982182     0.0462289313949     
1500000000.0        0.0608272514677     0.0494960370079     0.939048121818      -0.0641943179439    0.939048121818      -0.0641943179439    0.0608272514677     0.0494960370079     
1600000000.0        0.0613655306508     0.0527570919744     0.93849375197       -0.0684356182411    0.93849375197       -0.0684356182411    0.0613655306508     0.0527570919744     
1700000000.0        0.0619300196641     0.056011790064      0.937912189528      -0.0726706272831    0.937912189528      -0.0726706272831    0.0619300196641     0.056011790064      
1800000000.0        0.06252094191       0.0592598227557     0.937303210736      -0.0768990399945    0.937303210736      -0.0768990399945    0.06252094191       0.0592598227557     
1900000000.0        0.0631384710876     0.0625008799269     0.936666641524      -0.0811205496701    0.936666641524      -0.0811205496701    0.0631384710876     0.0625008799269     
2000000000.0        0.0637827394518     0.0657346504292     0.936002349255      -0.0853348485525    0.936002349255      -0.0853348485525    0.0637827394518     0.0657346504292     
2100000000.0        0.0644538442339     0.0689608225752     0.935310236298      -0.0895416283208    0.935310236298      -0.0895416283208    0.0644538442339     0.0689608225752     
2200000000.0        0.0651518527033     0.0721790845565     0.934590234968      -0.0937405805103    0.934590234968      -0.0937405805103    0.0651518527033     0.0721790845565     
2300000000.0        0.0658768062068     0.0753891248074     0.93384230349       -0.0979313968769    0.93384230349       -0.0979313968769    0.0658768062068     0.0753891248074     
2400000000.0        0.0666287234316     0.0785906323234     0.933066422732      -0.102113769718     0.933066422732      -0.102113769718     0.0666287234316     0.0785906323234     
2500000000.0        0.0674076030677     0.0817832969446     0.932262593544      -0.106287392155     0.932262593544      -0.106287392155     0.0674076030677     0.0817832969446     
2600000000.0        0.0682134260026     0.084966809609      0.931430834565      -0.11045195839      0.931430834565      -0.11045195839      0.0682134260026     0.084966809609      
2700000000.0        0.0690461571478     0.0881408625812     0.930571180392      -0.114607163934     0.930571180392      -0.114607163934     0.0690461571478     0.0881408625812     
2800000000.0        0.0699057469706     0.0913051496605     0.929683680053      -0.118752705817     0.929683680053      -0.118752705817     0.0699057469706     0.0913051496605     
2900000000.0        0.0707921327913     0.094459366371      0.928768395707      -0.122888282775     0.928768395707      -0.122888282775     0.0707921327913     0.094459366371      
3000000000.0        0.071705239889      0.0976032101371     0.92782540154       -0.127013595433     0.92782540154       -0.127013595433     0.071705239889      0.0976032101371     
3100000000.0        0.0726449824524     0.100736380445      0.926854782812      -0.131128346461     0.926854782812      -0.131128346461     0.0726449824524     0.100736380445      
3200000000.0        0.073611264402      0.103858578995      0.925856635037      -0.13523224073      0.925856635037      -0.13523224073      0.073611264402      0.103858578995      
3300000000.0        0.0746039801078     0.106969509841      0.924831063263      -0.139324985449     0.924831063263      -0.139324985449     0.0746039801078     0.106969509841      
3400000000.0        0.075623015019      0.110068879521      0.923778181445      -0.143406290301     0.923778181445      -0.143406290301     0.075623015019      0.110068879521      
3500000000.0        0.0766682462198     0.113156397183      0.922698111887      -0.147475867569     0.922698111887      -0.147475867569     0.0766682462198     0.113156397183      
3600000000.0        0.0777395429246     0.116231774702      0.921590984748      -0.151533432244     0.921590984748      -0.151533432244     0.0777395429246     0.116231774702      
3700000000.0        0.0788367669203     0.119294726789      0.920456937599      -0.155578702148     0.920456937599      -0.155578702148     0.0788367669203     0.119294726789      
3800000000.0        0.0799597729653     0.122344971094      0.919296115024      -0.159611398027     0.919296115024      -0.159611398027     0.0799597729653     0.122344971094      
3900000000.0        0.0811084091504     0.125382228306      0.918108668261      -0.163631243659     0.918108668261      -0.163631243659     0.0811084091504     0.125382228306      
4000000000.0        0.082282517228      0.128406222249      0.91689475487       -0.167637965943     0.91689475487       -0.167637965943     0.082282517228      0.128406222249      
4100000000.0        0.0834819329133     0.131416679965      0.915654538432      -0.171631294987     0.915654538432      -0.171631294987     0.0834819329133     0.131416679965      
4200000000.0        0.0847064861622     0.134413331802      0.914388188274      -0.175610964198     0.914388188274      -0.175610964198     0.0847064861622     0.134413331802      
4300000000.0        0.0859560014284     0.137395911497      0.913095879209      -0.179576710359     0.913095879209      -0.179576710359     0.0859560014284     0.137395911497      
4400000000.0        0.0872302979029     0.140364156245      0.911777791299      -0.183528273705     0.911777791299      -0.183528273705     0.0872302979029     0.140364156245      
4500000000.0        0.0885291897374     0.143317806777      0.910434109627      -0.187465397995     0.910434109627      -0.187465397995     0.0885291897374     0.143317806777      
4600000000.0        0.0898524862554     0.146256607426      0.909065024094      -0.191387830585     0.909065024094      -0.191387830585     0.0898524862554     0.146256607426      
4700000000.0        0.0911999921499     0.149180306196      0.907670729211      -0.195295322491     0.907670729211      -0.195295322491     0.0911999921499     0.149180306196      
4800000000.0        0.0925715076719     0.152088654817      0.90625142392       -0.199187628448     0.90625142392       -0.199187628448     0.0925715076719     0.152088654817      
4900000000.0        0.0939668288088     0.15498140881       0.904807311409      -0.203064506975     0.904807311409      -0.203064506975     0.0939668288088     0.15498140881       
5000000000.0        0.0953857474557     0.157858327542      0.903338598944      -0.206925720427     0.903338598944      -0.206925720427     0.0953857474558     0.157858327542      
5100000000.0        0.0968280515784     0.160719174272      0.901845497705      -0.210771035047     0.901845497705      -0.210771035047     0.0968280515784     0.160719174272      
5200000000.0        0.0982935253704     0.16356371621       0.90032822263       -0.21460022102      0.90032822263       -0.21460022102      0.0982935253704     0.16356371621       
5300000000.0        0.0997819494046     0.166391724557      0.898786992261      -0.218413052514     0.898786992261      -0.218413052514     0.0997819494046     0.166391724557      
5400000000.0        0.101293100779      0.169202974551      0.897222028601      -0.222209307728     0.897222028601      -0.222209307728     0.101293100779      0.169202974551      
5500000000.0        0.102826753259      0.171997245508      0.89563355697       -0.225988768933     0.89563355697       -0.225988768933     0.102826753259      0.171997245508      
5600000000.0        0.104382677414      0.174774320859      0.894021805869      -0.22975122251      0.894021805869      -0.22975122251      0.104382677414      0.174774320859      
5700000000.0        0.105960640751      0.177533988189      0.892387006846      -0.233496458985     0.892387006846      -0.233496458985     0.105960640751      0.177533988189      
5800000000.0        0.107560407845      0.180276039267      0.890729394367      -0.237224273063     0.890729394367      -0.237224273063     0.107560407845      0.180276039267      
5900000000.0        0.109181740466      0.183000270078      0.889049205685      -0.240934463658     0.889049205685      -0.240934463658     0.109181740466      0.183000270078      
6000000000.0        0.110824397701      0.18570648085       0.887346680723      -0.244626833924     0.887346680723      -0.244626833924     0.110824397701      0.18570648085       
6100000000.0        0.112488136081      0.188394476084      0.885622061946      -0.248301191279     0.885622061946      -0.248301191279     0.112488136081      0.188394476084      
6200000000.0        0.114172709692      0.191064064569      0.883875594247      -0.251957347425     0.883875594247      -0.251957347425     0.114172709692      0.191064064569      
6300000000.0        0.115877870297      0.193715059411      0.882107524825      -0.255595118377     0.882107524825      -0.255595118377     0.115877870297      0.193715059411      
6400000000.0        0.117603367451      0.196347278047      0.880318103077      -0.259214324474     0.880318103077      -0.259214324474     0.117603367451      0.196347278047      
6500000000.0        0.119348948607      0.198960542262      0.878507580483      -0.262814790399     0.878507580483      -0.262814790399     0.119348948607      0.198960542262      
6600000000.0        0.121114359233      0.201554678206      0.876676210492      -0.266396345193     0.876676210492      -0.266396345193     0.121114359233      0.201554678206      
6700000000.0        0.122899342919      0.204129516402      0.87482424842       -0.269958822266     0.87482424842       -0.269958822266     0.122899342919      0.204129516402      
6800000000.0        0.12470364148       0.206684891755      0.872951951338      -0.273502059409     0.872951951338      -0.273502059409     0.12470364148       0.206684891755      
6900000000.0        0.126526995066      0.209220643565      0.871059577971      -0.277025898797     0.871059577971      -0.277025898797     0.126526995066      0.209220643565      
7000000000.0        0.128369142262      0.211736615527      0.869147388589      -0.280530187001     0.869147388589      -0.280530187001     0.128369142262      0.211736615527      
7100000000.0        0.130229820193      0.214232655736      0.867215644913      -0.284014774984     0.867215644913      -0.284014774984     0.130229820193      0.214232655736      
7200000000.0        0.13210876462       0.21670861669       0.865264610007      -0.28747951811      0.865264610007      -0.28747951811      0.13210876462       0.21670861669       
7300000000.0        0.134005710043      0.219164355288      0.863294548184      -0.290924276137     0.863294548184      -0.290924276137     0.134005710043      0.219164355288      
7400000000.0        0.135920389796      0.221599732825      0.861305724905      -0.294348913219     0.861305724905      -0.294348913219     0.135920389796      0.221599732825      
7500000000.0        0.137852536144      0.224014614993      0.859298406689      -0.2977532979       0.859298406689      -0.2977532979       0.137852536144      0.224014614993      
7600000000.0        0.139801880377      0.226408871869      0.85727286101       -0.301137303106     0.85727286101       -0.301137303106     0.139801880377      0.226408871869      
7700000000.0        0.141768152902      0.228782377911      0.855229356212      -0.30450080614      0.855229356212      -0.30450080614      0.141768152902      0.228782377911      
7800000000.0        0.143751083339      0.231135011944      0.853168161412      -0.307843688669     0.853168161412      -0.307843688669     0.143751083339      0.231135011944      
7900000000.0        0.145750400604      0.233466657153      0.851089546412      -0.311165836715     0.851089546412      -0.311165836715     0.145750400604      0.233466657153      
8000000000.0        0.147765833005      0.235777201066      0.84899378161       -0.31446714064      0.84899378161       -0.31446714064      0.147765833005      0.235777201066      
8100000000.0        0.149797108326      0.238066535537      0.846881137911      -0.317747495132     0.846881137911      -0.317747495132     0.149797108326      0.238066535537      
8200000000.0        0.151843953914      0.240334556737      0.844751886643      -0.321006799186     0.844751886643      -0.321006799186     0.151843953914      0.240334556737      
8300000000.0        0.153906096762      0.242581165126      0.842606299468      -0.324244956088     0.842606299468      -0.324244956088     0.153906096762      0.242581165126      
8400000000.0        0.155983263597      0.244806265439      0.840444648304      -0.327461873395     0.840444648304      -0.327461873395     0.155983263597      0.244806265439      
8500000000.0        0.158075180958      0.247009766664      0.838267205241      -0.330657462911     0.838267205241      -0.330657462911     0.158075180958      0.247009766664      
8600000000.0        0.160181575276      0.249191582017      0.836074242456      -0.333831640669     0.836074242456      -0.333831640669     0.160181575276      0.249191582017      
8700000000.0        0.16230217296       0.251351628917      0.83386603214       -0.3369843269       0.83386603214       -0.3369843269       0.16230217296       0.251351628917      
8800000000.0        0.164436700466      0.253489828965      0.831642846416      -0.340115446013     0.831642846416      -0.340115446013     0.164436700466      0.253489828965      
8900000000.0        0.166584884381      0.255606107911      0.829404957264      -0.343224926565     0.829404957264      -0.343224926565     0.166584884381      0.255606107911      
9000000000.0        0.168746451492      0.257700395629      0.827152636444      -0.346312701234     0.827152636444      -0.346312701234     0.168746451492      0.257700395629      
9100000000.0        0.170921128867      0.259772626085      0.824886155423      -0.349378706788     0.824886155423      -0.349378706788     0.170921128867      0.259772626085      
9200000000.0        0.173108643922      0.261822737309      0.822605785306      -0.352422884054     0.822605785306      -0.352422884054     0.173108643922      0.261822737309      
9300000000.0        0.175308724492      0.263850671358      0.820311796757      -0.355445177887     0.820311796757      -0.355445177887     0.175308724492      0.263850671358      
9400000000.0        0.177521098904      0.265856374289      0.818004459937      -0.358445537136     0.818004459937      -0.358445537136     0.177521098904      0.265856374289      
9500000000.0        0.179745496043      0.267839796119      0.815684044433      -0.361423914609     0.815684044433      -0.361423914609     0.179745496043      0.267839796119      
9600000000.0        0.181981645422      0.26980089079       0.813350819188      -0.36438026704      0.813350819188      -0.36438026704      0.181981645422      0.26980089079       
9700000000.0        0.18422927724       0.271739616137      0.81100505244       -0.367314555047     0.81100505244       -0.367314555047     0.18422927724       0.271739616137      
9800000000.0        0.186488122457      0.273655933843      0.808647011657      -0.3702267431       0.808647011657      -0.3702267431       0.186488122457      0.273655933843      
9900000000.0        0.188757912845      0.275549809409      0.806276963471      -0.373116799481     0.806276963471      -0.373116799481     0.188757912845      0.275549809409      
10000000000.0       0.19103838106       0.277421212106      0.803895173622      -0.375984696242     0.803895173622      -0.375984696242     0.19103838106       0.277421212106      
