# Hz S RI R 50.00 
100000000.0         -4.39558764039e-05  -0.00970779745517   0.999827819392      -0.010071681311     0.999827819392      -0.010071681311     -4.39558764039e-05  -0.00970779745517   
200000000.0         -0.000346507086611  -0.0194095239168    0.999524197638      -0.0201373162535    0.999524197638      -0.0201373162535    -0.000346507086611  -0.0194095239168    
300000000.0         -0.000844272639851  -0.0290994643521    0.999025450425      -0.0301912035823    0.999025450425      -0.0301912035823    -0.000844272639851  -0.0290994643521    
400000000.0         -0.00153662635796   -0.0387719160283    0.998332093506      -0.0402276513464    0.998332093506      -0.0402276513464    -0.00153662635796   -0.0387719160283    
500000000.0         -0.00242275450924   -0.0484212041769    0.997444898219      -0.0502409940803    0.997444898219      -0.0502409940803    -0.00242275450924   -0.0484212041769    
600000000.0         -0.0035016341056    -0.0580416944499    0.996364865981      -0.060225605773     0.996364865981      -0.060225605773     -0.0035016341056    -0.0580416944499    
700000000.0         -0.00477202953846   -0.0676278043891    0.995093219666      -0.0701759115962    0.995093219666      -0.0701759115962    -0.00477202953846   -0.0676278043891    
800000000.0         -0.00623249368476   -0.0771740143466    0.993631398143      -0.0800863989779    0.993631398143      -0.0800863989779    -0.00623249368476   -0.0771740143466    
900000000.0         -0.00788137085036   -0.0866748779792    0.991981051389      -0.0899516281987    0.991981051389      -0.0899516281987    -0.00788137085036   -0.0866748779792    
1000000000.0        -0.0097168007861    -0.0961250323568    0.990144035495      -0.0997662425706    0.990144035495      -0.0997662425706    -0.0097168007861    -0.0961250323568    
1100000000.0        -0.0117367234862    -0.105519207683     0.98812240732       -0.109524978211     0.98812240732       -0.109524978211     -0.0117367234862    -0.105519207683     
1200000000.0        -0.0139388846302    -0.114852236616     0.985918418733      -0.1192226734       0.985918418733      -0.1192226734       -0.0139388846302    -0.114852236616     
1300000000.0        -0.0163208415867    -0.124119063163     0.983534510399      -0.128854277514     0.983534510399      -0.128854277514     -0.0163208415867    -0.124119063163     
1400000000.0        -0.0188799699215    -0.13331475114      0.98097330514       -0.138414859504     0.98097330514       -0.138414859504     -0.0188799699215    -0.13331475114      
1500000000.0        -0.0216134703607    -0.142434492159     0.978237600884      -0.147899615905     0.978237600884      -0.147899615905     -0.0216134703607    -0.142434492159     
1600000000.0        -0.024518376167     -0.151473613134     0.975330363223      -0.157303878364     0.975330363223      -0.157303878364     -0.024518376167     -0.151473613134     
1700000000.0        -0.0275915608856    -0.16042758328      0.97225471762       -0.166623120647     0.97225471762       -0.166623120647     -0.0275915608856    -0.16042758328      
1800000000.0        -0.0308297464212    -0.169292020592     0.969013941302      -0.17585296514      0.969013941302      -0.17585296514      -0.0308297464212    -0.169292020592     
1900000000.0        -0.0342295114039    -0.178062697788     0.96561145487       -0.184989188795     0.96561145487       -0.184989188795     -0.0342295114039    -0.178062697788     
2000000000.0        -0.0377872998042    -0.186735547711     0.962050813659      -0.194027728546     0.962050813659      -0.194027728546     -0.0377872998042    -0.186735547711     
2100000000.0        -0.0414994297575    -0.195306668171     0.958335698905      -0.202964686158     0.958335698905      -0.202964686158     -0.0414994297575    -0.195306668171     
2200000000.0        -0.0453621025572    -0.203772326231     0.954469908736      -0.211796332524     0.954469908736      -0.211796332524     -0.0453621025572    -0.203772326231     
2300000000.0        -0.0493714117778    -0.21212896193      0.950457349044      -0.220519111392     0.950457349044      -0.220519111392     -0.0493714117778    -0.21212896193      
2400000000.0        -0.0535233524884    -0.220373191448     0.946302024259      -0.229129642538     0.946302024259      -0.229129642538     -0.0535233524884    -0.220373191448     
2500000000.0        -0.0578138305198    -0.228501809711     0.942008028083      -0.237624724377     0.942008028083      -0.237624724377     -0.0578138305198    -0.228501809711     
2600000000.0        -0.0622386717457    -0.236511792447     0.937579534196      -0.24600133602      0.937579534196      -0.24600133602      -0.0622386717457    -0.236511792447     
2700000000.0        -0.0667936313452    -0.244400297693     0.933020786995      -0.254256638794     0.933020786995      -0.254256638794     -0.0667936313452    -0.244400297693     
2800000000.0        -0.07147440301      -0.252164666778     0.928336092384      -0.262387977223     0.928336092384      -0.262387977223     -0.07147440301      -0.252164666778     
2900000000.0        -0.0762766280637    -0.259802424779     0.923529808646      -0.270392879492     0.923529808646      -0.270392879492     -0.0762766280637    -0.259802424779     
3000000000.0        -0.0811959044624    -0.267311280483     0.918606337448      -0.278269057411     0.918606337448      -0.278269057411     -0.0811959044624    -0.267311280483     
3100000000.0        -0.0862277956467    -0.274689125853     0.913570114981      -0.286014405883     0.913570114981      -0.286014405883     -0.0862277956467    -0.274689125853     
3200000000.0        -0.0913678392177    -0.28193403503      0.908425603285      -0.293627001917     0.908425603285      -0.293627001917     -0.0913678392177    -0.28193403503      
3300000000.0        -0.0966115554107    -0.289044262893     0.903177281775      -0.301105103179     0.903177281775      -0.301105103179     -0.0966115554107    -0.289044262893     
3400000000.0        -0.101954455344     -0.296018243183     0.897829638988      -0.308447146133     0.897829638988      -0.308447146133     -0.101954455344     -0.296018243183     
3500000000.0        -0.107392049022     -0.302854586239     0.892387164583      -0.315651743766     0.892387164583      -0.315651743766     -0.107392049022     -0.302854586239     
3600000000.0        -0.112919853067     -0.309552076336     0.8868543416        -0.322717682942     0.8868543416        -0.322717682942     -0.112919853067     -0.309552076336     
3700000000.0        -0.118533398177     -0.316109668691     0.881235639015      -0.329643921399     0.881235639015      -0.329643921399     -0.118533398177     -0.316109668691     
3800000000.0        -0.124228236273     -0.32252648612      0.875535504579      -0.336429584418     0.875535504579      -0.336429584418     -0.124228236273     -0.32252648612      
3900000000.0        -0.129999947346     -0.328801815407     0.869758357977      -0.343073961186     0.869758357977      -0.343073961186     -0.129999947346     -0.328801815407     
4000000000.0        -0.135844145973     -0.334935103382     0.86390858431       -0.349576500886     0.86390858431       -0.349576500886     -0.135844145973     -0.334935103382     
4100000000.0        -0.14175648751      -0.340925952761     0.857990527905      -0.355936808526     0.857990527905      -0.355936808526     -0.14175648751      -0.340925952761     
4200000000.0        -0.147732673936     -0.346774117746     0.852008486462      -0.362154640554     0.852008486462      -0.362154640554     -0.147732673936     -0.346774117746     
4300000000.0        -0.153768459366     -0.352479499429     0.845966705552      -0.368229900259     0.845966705552      -0.368229900259     -0.153768459366     -0.352479499429     
4400000000.0        -0.159859655209     -0.358042141028     0.839869373448      -0.374162633002     0.839869373448      -0.374162633002     -0.159859655209     -0.358042141028     
4500000000.0        -0.166002134981     -0.363462222954     0.833720616319      -0.379953021299     0.833720616319      -0.379953021299     -0.166002134981     -0.363462222954     
4600000000.0        -0.172191838774     -0.368740057767     0.827524493758      -0.385601379766     0.827524493758      -0.385601379766     -0.172191838774     -0.368740057767     
4700000000.0        -0.178424777373     -0.373876085016     0.821284994665      -0.391108149966     0.821284994665      -0.391108149966     -0.178424777373     -0.373876085016     
4800000000.0        -0.184697036038     -0.378870866003     0.815006033466      -0.396473895176     0.815006033466      -0.396473895176     -0.184697036038     -0.378870866003     
4900000000.0        -0.191004777939     -0.383725078479     0.808691446674      -0.401699295082     0.808691446674      -0.401699295082     -0.191004777939     -0.383725078479     
5000000000.0        -0.197344247269     -0.388439511309     0.802344989782      -0.406785140444     0.802344989782      -0.406785140444     -0.197344247269     -0.388439511309     
5100000000.0        -0.203711772025     -0.393015059102     0.795970334476      -0.411732327734     0.795970334476      -0.411732327734     -0.203711772025     -0.393015059102     
5200000000.0        -0.210103766474     -0.397452716855     0.789571066175      -0.41654185377      0.789571066175      -0.41654185377      -0.210103766474     -0.397452716855     
5300000000.0        -0.216516733307     -0.401753574594     0.783150681868      -0.421214810373     0.783150681868      -0.421214810373     -0.216516733307     -0.401753574594     
5400000000.0        -0.222947265503     -0.405918812058     0.776712588261      -0.425752379039     0.776712588261      -0.425752379039     -0.222947265503     -0.405918812058     
5500000000.0        -0.229392047889     -0.409949693424     0.770260100205      -0.430155825673     0.770260100205      -0.430155825673     -0.229392047889     -0.409949693424     
5600000000.0        -0.235847858441     -0.413847562089     0.763796439407      -0.434426495372     0.763796439407      -0.434426495372     -0.235847858441     -0.413847562089     
5700000000.0        -0.242311569298     -0.417613835533     0.757324733407      -0.438565807281     0.757324733407      -0.438565807281     -0.242311569298     -0.417613835533     
5800000000.0        -0.248780147538     -0.421250000253     0.750848014806      -0.442575249541     0.750848014806      -0.442575249541     -0.248780147538     -0.421250000253     
5900000000.0        -0.255250655699     -0.424757606806     0.744369220742      -0.446456374321     0.744369220742      -0.446456374321     -0.255250655699     -0.424757606806     
6000000000.0        -0.261720252073     -0.428138264946     0.7378911926        -0.450210792965     0.7378911926        -0.450210792965     -0.261720252073     -0.428138264946     
6100000000.0        -0.268186190785     -0.43139363888      0.73141667593       -0.453840171243     0.73141667593       -0.453840171243     -0.268186190785     -0.43139363888      
6200000000.0        -0.274645821657     -0.434525442641     0.724948320583      -0.457346224729     0.724948320583      -0.457346224729     -0.274645821657     -0.434525442641     
6300000000.0        -0.281096589886     -0.43753543559      0.718488681037      -0.460730714301     0.718488681037      -0.460730714301     -0.281096589886     -0.43753543559      
6400000000.0        -0.287536035533     -0.440425418052     0.712040216899      -0.463995441781     0.712040216899      -0.463995441781     -0.287536035533     -0.440425418052     
6500000000.0        -0.293961792852     -0.443197227089     0.705605293588      -0.467142245704     0.705605293588      -0.467142245704     -0.293961792852     -0.443197227089     
6600000000.0        -0.300371589446     -0.445852732411     0.699186183167      -0.470172997234     0.699186183167      -0.470172997234     -0.300371589446     -0.445852732411     
6700000000.0        -0.306763245297     -0.448393832436     0.692785065322      -0.473089596226     0.692785065322      -0.473089596226     -0.306763245297     -0.448393832436     
6800000000.0        -0.313134671641     -0.450822450499     0.686404028483      -0.475893967431     0.686404028483      -0.475893967431     -0.313134671641     -0.450822450499     
6900000000.0        -0.319483869738     -0.4531405312       0.680045071055      -0.478588056849     0.680045071055      -0.478588056849     -0.319483869738     -0.4531405312       
7000000000.0        -0.325808929515     -0.455350036915     0.673710102772      -0.481173828238     0.673710102772      -0.481173828238     -0.325808929515     -0.455350036915     
7100000000.0        -0.332108028117     -0.457452944447     0.667400946152      -0.483653259767     0.667400946152      -0.483653259767     -0.332108028117     -0.457452944447     
7200000000.0        -0.338379428363     -0.459451241831     0.661119338034      -0.486028340822     0.661119338034      -0.486028340822     -0.338379428363     -0.459451241831     
7300000000.0        -0.344621477121     -0.46134692529      0.65486693121       -0.488301068961     0.65486693121       -0.488301068961     -0.344621477121     -0.46134692529      
7400000000.0        -0.350832603608     -0.463141996333     0.648645296119      -0.490473447015     0.648645296119      -0.490473447015     -0.350832603608     -0.463141996333     
7500000000.0        -0.357011317632     -0.464838459004     0.642455922608      -0.492547480337     0.642455922608      -0.492547480337     -0.357011317632     -0.464838459004     
7600000000.0        -0.363156207774     -0.46643831728      0.63630022175       -0.4945251742       0.63630022175       -0.4945251742       -0.363156207774     -0.46643831728      
7700000000.0        -0.369265939527     -0.4679435726       0.630179527703      -0.496408531323     0.630179527703      -0.496408531323     -0.369265939527     -0.4679435726       
7800000000.0        -0.375339253395     -0.469356221539     0.624095099615      -0.498199549557     0.624095099615      -0.498199549557     -0.375339253395     -0.469356221539     
7900000000.0        -0.381374962957     -0.470678253624     0.618048123554      -0.499900219687     0.618048123554      -0.499900219687     -0.381374962957     -0.470678253624     
8000000000.0        -0.387371952914     -0.471911649272     0.612039714466      -0.501512523382     0.612039714466      -0.501512523382     -0.387371952914     -0.471911649272     
8100000000.0        -0.393329177113     -0.47305837787      0.606070918151      -0.503038431266     0.606070918151      -0.503038431266     -0.393329177113     -0.47305837787      
8200000000.0        -0.399245656553     -0.474120395968     0.600142713251      -0.504479901122     0.600142713251      -0.504479901122     -0.399245656553     -0.474120395968     
8300000000.0        -0.4051204774       -0.475099645605     0.594256013245      -0.505838876211     0.594256013245      -0.505838876211     -0.4051204774       -0.475099645605     
8400000000.0        -0.410952788983     -0.47599805275      0.588411668442      -0.507117283715     0.588411668442      -0.507117283715     -0.410952788983     -0.47599805275      
8500000000.0        -0.416741801804     -0.476817525859     0.582610467979      -0.508317033294     0.582610467979      -0.508317033294     -0.416741801804     -0.476817525859     
8600000000.0        -0.422486785558     -0.477559954536     0.576853141798      -0.509440015753     0.576853141798      -0.509440015753     -0.422486785558     -0.477559954536     
8700000000.0        -0.428187067154     -0.478227208313     0.571140362624      -0.510488101812     0.571140362624      -0.510488101812     -0.428187067154     -0.478227208313     
8800000000.0        -0.433842028765     -0.478821135518     0.565472747919      -0.511463140986     0.565472747919      -0.511463140986     -0.433842028765     -0.478821135518     
8900000000.0        -0.439451105888     -0.479343562256     0.559850861816      -0.512366960556     0.559850861816      -0.512366960556     -0.439451105888     -0.479343562256     
9000000000.0        -0.445013785429     -0.479796291471     0.554275217039      -0.513201364639     0.554275217039      -0.513201364639     -0.445013785429     -0.479796291471     
9100000000.0        -0.450529603817     -0.480181102106     0.548746276786      -0.513968133346     0.548746276786      -0.513968133346     -0.450529603817     -0.480181102106     
9200000000.0        -0.455998145143     -0.480499748348     0.543264456593      -0.514669022026     0.543264456593      -0.514669022026     -0.455998145143     -0.480499748348     
9300000000.0        -0.461419039327     -0.480753958954     0.537830126163      -0.515305760594     0.537830126163      -0.515305760594     -0.461419039327     -0.480753958954     
9400000000.0        -0.466791960323     -0.480945436655     0.532443611165      -0.515880052933     0.532443611165      -0.515880052933     -0.466791960323     -0.480945436655     
9500000000.0        -0.472116624352     -0.481075857634     0.527105194998      -0.516393576377     0.527105194998      -0.516393576377     -0.472116624352     -0.481075857634     
9600000000.0        -0.477392788174     -0.481146871077     0.521815120519      -0.516847981258     0.521815120519      -0.516847981258     -0.477392788174     -0.481146871077     
9700000000.0        -0.4826202474       -0.481160098787     0.516573591736      -0.517244890522     0.516573591736      -0.517244890522     -0.4826202474       -0.481160098787     
9800000000.0        -0.487798834831     -0.481117134865     0.511380775459      -0.517585899411     0.511380775459      -0.517585899411     -0.487798834831     -0.481117134865     
9900000000.0        -0.492928418852     -0.48101954545      0.50623680292       -0.517872575199     0.50623680292       -0.517872575199     -0.492928418852     -0.48101954545      
10000000000.0       -0.498008901849     -0.48086886851      0.50114177134       -0.518106456991     0.50114177134       -0.518106456991     -0.498008901849     -0.48086886851      
