# Hz S RI R 50.00 
100000000.0         3.44193920963e-05   -1.82186884103e-05  0.999964417185      -0.000139765532636  0.999964417185      -0.000139765532636  3.44193920963e-05   -1.82186884103e-05  
200000000.0         3.45713372492e-05   -3.64392816568e-05  0.999964076848      -0.00027953526974   0.999964076848      -0.00027953526974   3.45713372494e-05   -3.64392816568e-05  
300000000.0         3.46567865395e-05   -5.46626953896e-05  0.999963778031      -0.000419311423151  0.999963778031      -0.000419311423151  3.46567865397e-05   -5.46626953895e-05  
400000000.0         3.47060458086e-05   -7.28896169562e-05  0.999963490419      -0.000559095672638  0.999963490419      -0.000559095672638  3.47060458084e-05   -7.28896169562e-05  
500000000.0         3.47307665125e-05   -9.11206172971e-05  0.999963202351      -0.000698889440146  0.999963202351      -0.000698889440146  3.47307665125e-05   -9.11206172972e-05  
600000000.0         3.47368793536e-05   -0.000109356179597  0.999962907886      -0.00083869397104   0.999962907886      -0.00083869397104   3.47368793534e-05   -0.000109356179597  
700000000.0         3.47278809403e-05   -0.000127596728395  0.999962603517      -0.000978510389318  0.999962603517      -0.000978510389318  3.47278809403e-05   -0.000127596728395  
800000000.0         3.47060312285e-05   -0.000145842636325  0.999962286973      -0.0011183397197    0.999962286973      -0.0011183397197    3.47060312285e-05   -0.000145842636325  
900000000.0         3.46728870648e-05   -0.00016409423313   0.999961956684      -0.00125818290662   0.999961956684      -0.00125818290662   3.46728870644e-05   -0.00016409423313   
1000000000.0        3.4629572101e-05    -0.000182351813005  0.999961611515      -0.0013980408285    0.999961611515      -0.0013980408285    3.46295721012e-05   -0.000182351813005  
1100000000.0        3.45769269894e-05   -0.00020061563857   0.999961250612      -0.00153791430674   0.999961250612      -0.00153791430674   3.45769269894e-05   -0.00020061563857   
1200000000.0        3.45155985408e-05   -0.00021888594446   0.999960873314      -0.00167780411322   0.999960873314      -0.00167780411322   3.45155985408e-05   -0.00021888594446   
1300000000.0        3.44460959867e-05   -0.000237162939091  0.999960479099      -0.00181771097493   0.999960479099      -0.00181771097493   3.44460959869e-05   -0.000237162939091  
1400000000.0        3.43688278579e-05   -0.00025544680834   0.999960067544      -0.00195763558012   0.999960067544      -0.00195763558012   3.43688278579e-05   -0.00025544680834   
1500000000.0        3.42841271284e-05   -0.000273737717007  0.9999596383        -0.00209757858161   0.9999596383        -0.00209757858161   3.42841271281e-05   -0.000273737717007  
1600000000.0        3.41922688427e-05   -0.000292035810185  0.999959191079      -0.0022375405998    0.999959191079      -0.0022375405998    3.41922688425e-05   -0.000292035810185  
1700000000.0        3.40934827996e-05   -0.000310341214861  0.999958725634      -0.00237752222558   0.999958725634      -0.00237752222558   3.40934827994e-05   -0.000310341214861  
1800000000.0        3.39879629112e-05   -0.000328654040754  0.999958241757      -0.00251752402229   0.999958241757      -0.00251752402229   3.3987962911e-05    -0.000328654040754  
1900000000.0        3.38758742739e-05   -0.000346974382623  0.999957739267      -0.00265754652903   0.999957739267      -0.00265754652903   3.38758742739e-05   -0.000346974382623  
2000000000.0        3.37573584657e-05   -0.000365302319247  0.999957218005      -0.0027975902604    0.999957218005      -0.0027975902604    3.37573584659e-05   -0.000365302319247  
2100000000.0        3.36325377364e-05   -0.00038363791633   0.999956677834      -0.00293765571018   0.999956677834      -0.00293765571018   3.36325377361e-05   -0.00038363791633   
2200000000.0        3.35015182895e-05   -0.000401981225991  0.999956118631      -0.00307774335146   0.999956118631      -0.00307774335146   3.35015182893e-05   -0.000401981225991  
2300000000.0        3.33643928434e-05   -0.000420332287607  0.999955540286      -0.00321785363801   0.999955540286      -0.00321785363801   3.33643928432e-05   -0.000420332287607  
2400000000.0        3.32212427563e-05   -0.00043869112903   0.999954942701      -0.003357987006     0.999954942701      -0.003357987006     3.32212427565e-05   -0.00043869112903   
2500000000.0        3.3072139707e-05    -0.000457057766705  0.999954325787      -0.0034981438746    0.999954325787      -0.0034981438746    3.30721397066e-05   -0.000457057766705  
2600000000.0        3.29171470796e-05   -0.000475432205953  0.999953689465      -0.00363832464658   0.999953689465      -0.00363832464658   3.29171470796e-05   -0.000475432205953  
2700000000.0        3.27563211289e-05   -0.000493814442301  0.99995303366       -0.00377852971008   0.99995303366       -0.00377852971008   3.27563211293e-05   -0.000493814442301  
2800000000.0        3.25897119258e-05   -0.000512204461177  0.999952358305      -0.00391875943858   0.999952358305      -0.00391875943858   3.2589711926e-05    -0.000512204461177  
2900000000.0        3.24173641708e-05   -0.000530602238661  0.999951663337      -0.00405901419196   0.999951663337      -0.00405901419196   3.24173641708e-05   -0.000530602238661  
3000000000.0        3.22393178533e-05   -0.000549007741973  0.9999509487        -0.00419929431724   0.9999509487        -0.00419929431724   3.22393178536e-05   -0.000549007741973  
3100000000.0        3.20556088496e-05   -0.000567420929385  0.99995021434       -0.00433960014875   0.99995021434       -0.00433960014875   3.20556088496e-05   -0.000567420929385  
3200000000.0        3.18662693926e-05   -0.000585841751331  0.999949460206      -0.00447993200945   0.999949460206      -0.00447993200945   3.18662693923e-05   -0.000585841751331  
3300000000.0        3.16713285105e-05   -0.000604270149897  0.999948686252      -0.00462029021064   0.999948686252      -0.00462029021064   3.16713285105e-05   -0.000604270149897  
3400000000.0        3.14708123808e-05   -0.000622706059884  0.999947892434      -0.0047606750532    0.999947892434      -0.0047606750532    3.14708123808e-05   -0.000622706059884  
3500000000.0        3.12647446554e-05   -0.00064114940859   0.999947078711      -0.00490108682754   0.999947078711      -0.00490108682754   3.12647446554e-05   -0.00064114940859   
3600000000.0        3.10531467214e-05   -0.000659600116138  0.999946245042      -0.0050415258141    0.999946245042      -0.0050415258141    3.10531467214e-05   -0.000659600116138  
3700000000.0        3.083603795e-05     -0.00067805809617   0.999945391392      -0.00518199228419   0.999945391392      -0.00518199228419   3.083603795e-05     -0.00067805809617   
3800000000.0        3.06134359085e-05   -0.000696523255331  0.999944517724      -0.00532248649961   0.999944517724      -0.00532248649961   3.06134359083e-05   -0.000696523255331  
3900000000.0        3.03853565413e-05   -0.000714995494428  0.999943624005      -0.00546300871394   0.999943624005      -0.00546300871394   3.03853565413e-05   -0.000714995494428  
4000000000.0        3.01518143373e-05   -0.000733474707736  0.999942710202      -0.00560355917198   0.999942710202      -0.00560355917198   3.01518143371e-05   -0.000733474707736  
4100000000.0        2.99128224732e-05   -0.000751960783937  0.999941776283      -0.00574413811075   0.999941776283      -0.00574413811075   2.99128224734e-05   -0.000751960783937  
4200000000.0        2.96683929435e-05   -0.000770453605995  0.99994082222       -0.00588474575954   0.99994082222       -0.00588474575954   2.96683929435e-05   -0.000770453605995  
4300000000.0        2.94185366736e-05   -0.000788953051243  0.999939847984      -0.00602538234005   0.999939847984      -0.00602538234005   2.94185366738e-05   -0.000788953051243  
4400000000.0        2.91632636291e-05   -0.000807458991863  0.999938853546      -0.00616604806696   0.999938853546      -0.00616604806696   2.91632636291e-05   -0.000807458991863  
4500000000.0        2.89025828997e-05   -0.000825971294753  0.999937838879      -0.00630674314792   0.999937838879      -0.00630674314792   2.89025828997e-05   -0.000825971294753  
4600000000.0        2.86365027922e-05   -0.000844489822034  0.999936803959      -0.00644746778409   0.999936803959      -0.00644746778409   2.86365027919e-05   -0.000844489822034  
4700000000.0        2.83650308956e-05   -0.000863014430923  0.999935748758      -0.00658822217015   0.999935748758      -0.00658822217015   2.83650308956e-05   -0.000863014430923  
4800000000.0        2.80881741594e-05   -0.000881544974048  0.999934673254      -0.00672900649461   0.999934673254      -0.00672900649461   2.80881741594e-05   -0.000881544974048  
4900000000.0        2.78059389442e-05   -0.000900081299499  0.999933577421      -0.00686982094      0.999933577421      -0.00686982094      2.78059389445e-05   -0.000900081299499  
5000000000.0        2.75183310874e-05   -0.000918623251021  0.999932461237      -0.0070106656831    0.999932461237      -0.0070106656831    2.75183310874e-05   -0.000918623251021  
5100000000.0        2.72253559459e-05   -0.000937170668232  0.999931324678      -0.0071515408952    0.999931324678      -0.0071515408952    2.72253559459e-05   -0.000937170668232  
5200000000.0        2.69270184463e-05   -0.000955723386541  0.999930167723      -0.00729244674211   0.999930167723      -0.00729244674211   2.69270184461e-05   -0.000955723386541  
5300000000.0        2.66233231265e-05   -0.00097428123746   0.99992899035       -0.0074333833845    0.99992899035       -0.0074333833845    2.66233231265e-05   -0.00097428123746   
5400000000.0        2.63142741759e-05   -0.000992844048725  0.999927792536      -0.00757435097809   0.999927792536      -0.00757435097809   2.63142741759e-05   -0.000992844048725  
5500000000.0        2.5999875469e-05    -0.00101141164429   0.999926574262      -0.00771534967368   0.999926574262      -0.00771534967368   2.59998754688e-05   -0.00101141164429   
5600000000.0        2.56801305942e-05   -0.00102998384452   0.999925335506      -0.00785637961742   0.999925335506      -0.00785637961742   2.5680130594e-05    -0.00102998384452   
5700000000.0        2.53550428924e-05   -0.00104856046622   0.999924076249      -0.00799744095082   0.999924076249      -0.00799744095082   2.53550428924e-05   -0.00104856046622   
5800000000.0        2.50246154754e-05   -0.00106714132292   0.99992279647       -0.00813853381116   0.99992279647       -0.00813853381116   2.50246154754e-05   -0.00106714132292   
5900000000.0        2.46888512581e-05   -0.00108572622485   0.99992149615       -0.00827965833145   0.99992149615       -0.00827965833145   2.46888512581e-05   -0.00108572622485   
6000000000.0        2.4347752978e-05    -0.00110431497897   0.999920175269      -0.00842081464048   0.999920175269      -0.00842081464048   2.43477529782e-05   -0.00110431497897   
6100000000.0        2.40013232178e-05   -0.00112290738919   0.999918833808      -0.00856200286316   0.999918833808      -0.00856200286316   2.4001323218e-05    -0.00112290738919   
6200000000.0        2.36495644257e-05   -0.0011415032564    0.999917471749      -0.00870322312051   0.999917471749      -0.00870322312051   2.36495644257e-05   -0.0011415032564    
6300000000.0        2.32924789338e-05   -0.00116010237855   0.999916089073      -0.00884447552978   0.999916089073      -0.00884447552978   2.32924789336e-05   -0.00116010237855   
6400000000.0        2.29300689751e-05   -0.00117870455085   0.999914685761      -0.00898576020472   0.999914685761      -0.00898576020472   2.29300689756e-05   -0.00117870455085   
6500000000.0        2.25623366996e-05   -0.00119730956562   0.999913261796      -0.00912707725546   0.999913261796      -0.00912707725546   2.25623366996e-05   -0.00119730956562   
6600000000.0        2.21892841918e-05   -0.0012159172126    0.999911817159      -0.00926842678877   0.999911817159      -0.00926842678877   2.21892841918e-05   -0.0012159172126    
6700000000.0        2.18109134786e-05   -0.00123452727885   0.999910351832      -0.00940980890811   0.999910351832      -0.00940980890811   2.18109134789e-05   -0.00123452727885   
6800000000.0        2.14272265484e-05   -0.00125313954899   0.999908865799      -0.00955122371379   0.999908865799      -0.00955122371379   2.14272265484e-05   -0.00125313954899   
6900000000.0        2.10382253589e-05   -0.00127175380517   0.99990735904       -0.00969267130303   0.99990735904       -0.00969267130303   2.10382253585e-05   -0.00127175380517   
7000000000.0        2.06439118515e-05   -0.00129036982702   0.99990583154       -0.0098341517699    0.99990583154       -0.0098341517699    2.06439118515e-05   -0.00129036982702   
7100000000.0        2.02442879598e-05   -0.00130898739212   0.999904283282      -0.00997566520585   0.999904283282      -0.00997566520585   2.02442879598e-05   -0.00130898739212   
7200000000.0        1.98393556217e-05   -0.00132760627554   0.999902714247      -0.0101172116992    0.999902714247      -0.0101172116992    1.98393556219e-05   -0.00132760627554   
7300000000.0        1.9429116787e-05    -0.00134622625024   0.999901124419      -0.0102587913357    0.999901124419      -0.0102587913357    1.94291167868e-05   -0.00134622625024   
7400000000.0        1.90135734237e-05   -0.00136484708711   0.999899513781      -0.0104004041984    0.999899513781      -0.0104004041984    1.90135734237e-05   -0.00136484708711   
7500000000.0        1.85927275322e-05   -0.00138346855488   0.999897882317      -0.0105420503678    0.999897882317      -0.0105420503678    1.85927275325e-05   -0.00138346855488   
7600000000.0        1.81665811503e-05   -0.00140209042028   0.999896230011      -0.0106837299218    0.999896230011      -0.0106837299218    1.81665811503e-05   -0.00140209042028   
7700000000.0        1.77351363551e-05   -0.00142071244815   0.999894556845      -0.0108254429359    0.999894556845      -0.0108254429359    1.77351363551e-05   -0.00142071244815   
7800000000.0        1.729839528e-05     -0.0014393344014    0.999892862804      -0.0109671894834    0.999892862804      -0.0109671894834    1.72983952798e-05   -0.0014393344014    
7900000000.0        1.68563601131e-05   -0.00145795604092   0.99989114787       -0.011108969635     0.99989114787       -0.011108969635     1.68563601131e-05   -0.00145795604092   
8000000000.0        1.64090331052e-05   -0.00147657712605   0.999889412029      -0.0112507834594    0.999889412029      -0.0112507834594    1.64090331054e-05   -0.00147657712605   
8100000000.0        1.59564165794e-05   -0.00149519741421   0.999887655265      -0.0113926310232    0.999887655265      -0.0113926310232    1.59564165789e-05   -0.00149519741421   
8200000000.0        1.54985129299e-05   -0.00151381666111   0.99988587756       -0.0115345123906    0.99988587756       -0.0115345123906    1.54985129299e-05   -0.00151381666111   
8300000000.0        1.50353246329e-05   -0.00153243462088   0.999884078899      -0.011676427624     0.999884078899      -0.011676427624     1.50353246324e-05   -0.00153243462088   
8400000000.0        1.45668542482e-05   -0.00155105104593   0.999882259267      -0.0118183767838    0.999882259267      -0.0118183767838    1.45668542482e-05   -0.00155105104593   
8500000000.0        1.40931044237e-05   -0.00156966568715   0.999880418648      -0.0119603599283    0.999880418648      -0.0119603599283    1.40931044237e-05   -0.00156966568715   
8600000000.0        1.36140779043e-05   -0.0015882782939    0.999878557027      -0.0121023771142    0.999878557027      -0.0121023771142    1.36140779046e-05   -0.0015882782939    
8700000000.0        1.31297775283e-05   -0.00160688861402   0.999876674386      -0.012244428396     0.999876674386      -0.012244428396     1.31297775285e-05   -0.00160688861402   
8800000000.0        1.26402062377e-05   -0.00162549639389   0.999874770712      -0.0123865138269    0.999874770712      -0.0123865138269    1.26402062377e-05   -0.00162549639389   
8900000000.0        1.21453670801e-05   -0.00164410137845   0.999872845989      -0.012528633458     0.999872845989      -0.012528633458     1.21453670803e-05   -0.00164410137845   
9000000000.0        1.16452632088e-05   -0.00166270331135   0.999870900201      -0.0126707873388    0.999870900201      -0.0126707873388    1.16452632088e-05   -0.00166270331135   
9100000000.0        1.11398978926e-05   -0.00168130193477   0.999868933333      -0.0128129755173    0.999868933333      -0.0128129755173    1.11398978928e-05   -0.00168130193477   
9200000000.0        1.06292745148e-05   -0.00169989698967   0.99986694537       -0.0129551980399    0.99986694537       -0.0129551980399    1.06292745148e-05   -0.00169989698967   
9300000000.0        1.01133965738e-05   -0.00171848821571   0.999864936297      -0.0130974549514    0.999864936297      -0.0130974549514    1.01133965738e-05   -0.00171848821571   
9400000000.0        9.5922676937e-06    -0.00173707535128   0.999862906098      -0.0132397462949    0.999862906098      -0.0132397462949    9.59226769393e-06   -0.00173707535128   
9500000000.0        9.06589161986e-06   -0.00175565813359   0.999860854759      -0.0133820721125    0.999860854759      -0.0133820721125    9.06589161986e-06   -0.00175565813359   
9600000000.0        8.53427222403e-06   -0.00177423629864   0.999858782264      -0.0135244324445    0.999858782264      -0.0135244324445    8.53427222403e-06   -0.00177423629864   
9700000000.0        7.99741350677e-06   -0.00179280958129   0.999856688599      -0.01366682733      0.999856688599      -0.01366682733      7.99741350699e-06   -0.00179280958129   
9800000000.0        7.45531960167e-06   -0.00181137771531   0.999854573749      -0.0138092568068    0.999854573749      -0.0138092568068    7.45531960145e-06   -0.00181137771531   
9900000000.0        6.90799477332e-06   -0.00182994043333   0.999852437698      -0.0139517209111    0.999852437698      -0.0139517209111    6.9079947731e-06    -0.00182994043333   
10000000000.0       6.35544342398e-06   -0.00184849746695   0.999850280433      -0.0140942196781    0.999850280433      -0.0140942196781    6.35544342376e-06   -0.00184849746695   
