# Hz S RI R 50.00 
100000000.0         0.0256428043625     0.00403514928712    0.974350509127      -0.00659330927035   0.974350509127      -0.00659330927035   0.0256428043625     0.00403514928712    
200000000.0         0.0258894262903     0.00806581051076    0.974091598119      -0.0131821474795    0.974091598119      -0.0131821474795    0.0258894262903     0.00806581051076    
300000000.0         0.0261463758937     0.0120925630142     0.973815755592      -0.0197671144241    0.973815755592      -0.0197671144241    0.0261463758937     0.0120925630142     
400000000.0         0.0264353323382     0.01611503536       0.973501300999      -0.0263478569822    0.973501300999      -0.0263478569822    0.0264353323382     0.01611503536       
500000000.0         0.0267645973308     0.0201326368609     0.973139931042      -0.032923801705     0.973139931042      -0.032923801705     0.0267645973308     0.0201326368609     
600000000.0         0.027138353847      0.0241446812539     0.972727460914      -0.0394942788638    0.972727460914      -0.0394942788638    0.027138353847      0.0241446812539     
700000000.0         0.0275590203099     0.0281504313077     0.972261470104      -0.0460585672468    0.972261470104      -0.0460585672468    0.0275590203099     0.0281504313077     
800000000.0         0.0280281099224     0.0321491196951     0.971740443061      -0.0526159151439    0.971740443061      -0.0526159151439    0.0280281099224     0.0321491196951     
900000000.0         0.0285466133465     0.03613996037       0.971163386511      -0.0591655517993    0.971163386511      -0.0591655517993    0.0285466133465     0.03613996037       
1000000000.0        0.0291151927195     0.0401221554561     0.970529635434      -0.0657066943508    0.970529635434      -0.0657066943508    0.0291151927195     0.0401221554561     
1100000000.0        0.0297342895499     0.0440948997591     0.969838745173      -0.0722385523806    0.969838745173      -0.0722385523806    0.0297342895499     0.0440948997591     
1200000000.0        0.030404189056      0.0480573839121     0.969090427089      -0.0787603310904    0.969090427089      -0.0787603310904    0.030404189056      0.0480573839121     
1300000000.0        0.0311250606924     0.0520087966869     0.968284508039      -0.0852712336341    0.968284508039      -0.0852712336341    0.0311250606924     0.0520087966869     
1400000000.0        0.0318969848397     0.0559483267651     0.967420903684      -0.0917704629076    0.967420903684      -0.0917704629076    0.0318969848397     0.0559483267651     
1500000000.0        0.0327199710436     0.0598751641483     0.966499600248      -0.0982572229741    0.966499600248      -0.0982572229741    0.0327199710436     0.0598751641483     
1600000000.0        0.0335939708794     0.0637885013173     0.965520641656      -0.104730720234     0.965520641656      -0.104730720234     0.0335939708794     0.0637885013173     
1700000000.0        0.0345188872777     0.0676875342091     0.964484120209      -0.111190164415     0.964484120209      -0.111190164415     0.0345188872777     0.0676875342091     
1800000000.0        0.0354945814513     0.0715714630618     0.963390169654      -0.117634769421     0.963390169654      -0.117634769421     0.0354945814513     0.0715714630618     
1900000000.0        0.0365208781545     0.0754394931577     0.962238959927      -0.124063754085     0.962238959927      -0.124063754085     0.0365208781545     0.0754394931577     
2000000000.0        0.0375975697588     0.079290835488      0.961030693079      -0.130476342844     0.961030693079      -0.130476342844     0.0375975697588     0.079290835488      
2100000000.0        0.0387244194695     0.0831247073556     0.959765600055      -0.136871766338     0.959765600055      -0.136871766338     0.0387244194695     0.0831247073556     
2200000000.0        0.0399011639114     0.086940332927      0.958443938113      -0.143249261975     0.958443938113      -0.143249261975     0.0399011639114     0.086940332927      
2300000000.0        0.0411275152424     0.0907369437426     0.957065988706      -0.149608074442     0.957065988706      -0.149608074442     0.0411275152424     0.0907369437426     
2400000000.0        0.0424031629092     0.0945137791917     0.955632055732      -0.155947456182     0.955632055732      -0.155947456182     0.0424031629092     0.0945137791917     
2500000000.0        0.0437277751293     0.098270086957      0.954142464046      -0.162266667847     0.954142464046      -0.162266667847     0.0437277751293     0.098270086957      
2600000000.0        0.0451010001607     0.102005123433      0.952597558195      -0.168564978711     0.952597558195      -0.168564978711     0.0451010001607     0.102005123433      
2700000000.0        0.0465224674062     0.105718154119      0.95099770131       -0.174841667074     0.95099770131       -0.174841667074     0.0465224674062     0.105718154119      
2800000000.0        0.0479917883864     0.109408453993      0.949343274136      -0.181096020634     0.949343274136      -0.181096020634     0.0479917883864     0.109408453993      
2900000000.0        0.0495085576094     0.113075307866      0.94763467416       -0.18732733684      0.94763467416       -0.18732733684      0.0495085576094     0.113075307866      
3000000000.0        0.0510723533573     0.116718010713      0.945872314827      -0.193534923232     0.945872314827      -0.193534923232     0.0510723533573     0.116718010713      
3100000000.0        0.052682738406      0.120335867995      0.944056624817      -0.199718097758     0.944056624817      -0.199718097758     0.052682738406      0.120335867995      
3200000000.0        0.0543392606905     0.123928195957      0.94218804738       -0.205876189079     0.94218804738       -0.205876189079     0.0543392606905     0.123928195957      
3300000000.0        0.0560414539266     0.127494321916      0.940267039717      -0.212008536851     0.940267039717      -0.212008536851     0.0560414539266     0.127494321916      
3400000000.0        0.0577888381965     0.131033584531      0.938294072391      -0.218114492004     0.938294072391      -0.218114492004     0.0577888381965     0.131033584531      
3500000000.0        0.0595809205041     0.134545334059      0.936269628774      -0.224193416994     0.936269628774      -0.224193416994     0.0595809205041     0.134545334059      
3600000000.0        0.0614171953067     0.138028932598      0.934194204512      -0.230244686046     0.934194204512      -0.230244686046     0.0614171953067     0.138028932598      
3700000000.0        0.0632971450252     0.141483754315      0.932068307017      -0.236267685388     0.932068307017      -0.236267685388     0.0632971450252     0.141483754315      
3800000000.0        0.0652202405385     0.144909185663      0.929892454971      -0.242261813462     0.929892454971      -0.242261813462     0.0652202405385     0.144909185663      
3900000000.0        0.0671859416616     0.148304625578      0.92766717785       -0.248226481127     0.92766717785       -0.248226481127     0.0671859416616     0.148304625578      
4000000000.0        0.0691936976137     0.151669485675      0.925393015451      -0.254161111851     0.925393015451      -0.254161111851     0.0691936976137     0.151669485675      
4100000000.0        0.0712429474737     0.155003190419      0.923070517439      -0.260065141885     0.923070517439      -0.260065141885     0.0712429474737     0.155003190419      
4200000000.0        0.0733331206278     0.158305177288      0.920700242902      -0.265938020426     0.920700242902      -0.265938020426     0.0733331206278     0.158305177288      
4300000000.0        0.0754636372093     0.161574896928      0.918282759903      -0.271779209773     0.918282759903      -0.271779209773     0.0754636372093     0.161574896928      
4400000000.0        0.0776339085302     0.164811813288      0.915818645055      -0.27758818546      0.915818645055      -0.27758818546      0.0776339085302     0.164811813288      
4500000000.0        0.0798433375076     0.16801540375       0.91330848309       -0.283364436385     0.91330848309       -0.283364436385     0.0798433375076     0.16801540375       
4600000000.0        0.0820913190839     0.171185159241      0.910752866442      -0.289107464926     0.910752866442      -0.289107464926     0.0820913190839     0.171185159241      
4700000000.0        0.0843772406417     0.174320584336      0.908152394827      -0.294816787043     0.908152394827      -0.294816787043     0.0843772406417     0.174320584336      
4800000000.0        0.0867004824133     0.177421197351      0.905507674836      -0.300491932368     0.905507674836      -0.300491932368     0.0867004824133     0.177421197351      
4900000000.0        0.0890604178863     0.180486530422      0.902819319529      -0.306132444286     0.902819319529      -0.306132444286     0.0890604178863     0.180486530422      
5000000000.0        0.0914564142037     0.18351612957       0.900087948032      -0.311737880001     0.900087948032      -0.311737880001     0.0914564142037     0.18351612957       
5100000000.0        0.0938878325604     0.186509554765      0.897314185142      -0.317307810597     0.897314185142      -0.317307810597     0.0938878325604     0.186509554765      
5200000000.0        0.0963540285941     0.189466379967      0.894498660934      -0.322841821078     0.894498660934      -0.322841821078     0.0963540285941     0.189466379967      
5300000000.0        0.0988543527729     0.19238619316       0.891642010375      -0.328339510409     0.891642010375      -0.328339510409     0.0988543527729     0.19238619316       
5400000000.0        0.101388150778      0.195268596383      0.888744872938      -0.333800491537     0.888744872938      -0.333800491537     0.101388150778      0.195268596383      
5500000000.0        0.103954763881      0.198113205738      0.885807892223      -0.339224391407     0.885807892223      -0.339224391407     0.103954763881      0.198113205738      
5600000000.0        0.10655352932       0.200919651399      0.882831715587      -0.344610850961     0.882831715587      -0.344610850961     0.10655352932       0.200919651399      
5700000000.0        0.109183780664      0.203687577603      0.87981699377       -0.349959525137     0.87981699377       -0.349959525137     0.109183780664      0.203687577603      
5800000000.0        0.111844848183      0.206416642632      0.876764380529      -0.355270082852     0.876764380529      -0.355270082852     0.111844848183      0.206416642632      
5900000000.0        0.1145360592        0.209106518794      0.873674532283      -0.360542206971     0.873674532283      -0.360542206971     0.1145360592        0.209106518794      
6000000000.0        0.117256738454      0.211756892384      0.870548107755      -0.365775594279     0.870548107755      -0.365775594279     0.117256738454      0.211756892384      
6100000000.0        0.12000620844       0.214367463639      0.867385767621      -0.370969955428     0.867385767621      -0.370969955428     0.12000620844       0.214367463639      
6200000000.0        0.12278378976       0.216937946688      0.864188174168      -0.376125014894     0.864188174168      -0.376125014894     0.12278378976       0.216937946688      
6300000000.0        0.125588801457      0.219468069487      0.860955990952      -0.381240510902     0.860955990952      -0.381240510902     0.125588801457      0.219468069487      
6400000000.0        0.128420561351      0.221957573754      0.857689882465      -0.386316195368     0.857689882465      -0.386316195368     0.128420561351      0.221957573754      
6500000000.0        0.131278386364      0.224406214885      0.854390513809      -0.39135183381      0.854390513809      -0.39135183381      0.131278386364      0.224406214885      
6600000000.0        0.134161592841      0.22681376187       0.85105855037       -0.396347205266     0.85105855037       -0.396347205266     0.134161592841      0.22681376187       
6700000000.0        0.137069496868      0.229179997202      0.847694657506      -0.401302102199     0.847694657507      -0.401302102199     0.137069496868      0.229179997202      
6800000000.0        0.140001414579      0.231504716769      0.844299500233      -0.406216330392     0.844299500233      -0.406216330392     0.140001414579      0.231504716769      
6900000000.0        0.14295666246       0.233787729752      0.84087374292       -0.411089708843     0.84087374292       -0.411089708843     0.14295666246       0.233787729752      
7000000000.0        0.145934557647      0.236028858506      0.837418048995      -0.415922069644     0.837418048995      -0.415922069644     0.145934557647      0.236028858506      
7100000000.0        0.148934418215      0.238227938435      0.833933080651      -0.42071325786      0.833933080651      -0.42071325786      0.148934418215      0.238227938435      
7200000000.0        0.151955563462      0.240384817871      0.830419498561      -0.425463131399     0.830419498561      -0.425463131399     0.151955563462      0.240384817871      
7300000000.0        0.154997314188      0.242499357932      0.8268779616        -0.430171560878     0.8268779616        -0.430171560878     0.154997314188      0.242499357932      
7400000000.0        0.158058992965      0.244571432383      0.823309126571      -0.434838429476     0.823309126571      -0.434838429476     0.158058992965      0.244571432383      
7500000000.0        0.161139924401      0.246600927493      0.819713647942      -0.439463632796     0.819713647942      -0.439463632796     0.161139924401      0.246600927493      
7600000000.0        0.164239435396      0.248587741878      0.816092177589      -0.4440470787       0.816092177589      -0.4440470787       0.164239435396      0.248587741878      
7700000000.0        0.167356855396      0.250531786348      0.812445364538      -0.448588687162     0.812445364538      -0.448588687162     0.167356855396      0.250531786348      
7800000000.0        0.170491516632      0.252432983744      0.808773854729      -0.453088390101     0.808773854729      -0.453088390101     0.170491516632      0.252432983744      
7900000000.0        0.17364275436       0.254291268771      0.805078290772      -0.45754613121      0.805078290772      -0.45754613121      0.17364275436       0.254291268771      
8000000000.0        0.17680990709       0.256106587828      0.801359311716      -0.46196186579      0.801359311716      -0.46196186579      0.17680990709       0.256106587828      
8100000000.0        0.179992316805      0.257878898836      0.797617552831      -0.466335560574     0.797617552831      -0.466335560574     0.179992316805      0.257878898836      
8200000000.0        0.183189329183      0.259608171054      0.793853645384      -0.470667193542     0.793853645384      -0.470667193542     0.183189329183      0.259608171054      
8300000000.0        0.186400293798      0.261294384901      0.790068216436      -0.474956753743     0.790068216436      -0.474956753743     0.186400293798      0.261294384901      
8400000000.0        0.189624564329      0.262937531769      0.786261888632      -0.479204241106     0.786261888632      -0.479204241106     0.189624564329      0.262937531769      
8500000000.0        0.192861498745      0.264537613839      0.782435280014      -0.483409666251     0.782435280014      -0.483409666251     0.192861498745      0.264537613839      
8600000000.0        0.196110459503      0.266094643881      0.778589003824      -0.4875730503       0.778589003824      -0.4875730503       0.196110459503      0.266094643881      
8700000000.0        0.199370813719      0.267608645068      0.774723668328      -0.491694424673     0.774723668328      -0.491694424673     0.199370813719      0.267608645068      
8800000000.0        0.202641933346      0.269079650779      0.770839876639      -0.4957738309       0.770839876639      -0.4957738309       0.202641933346      0.269079650779      
8900000000.0        0.205923195339      0.270507704396      0.766938226552      -0.499811320418     0.766938226552      -0.499811320418     0.205923195339      0.270507704396      
9000000000.0        0.209213981814      0.27189285911       0.763019310378      -0.503806954368     0.763019310378      -0.503806954368     0.209213981814      0.27189285911       
9100000000.0        0.212513680201      0.273235177714      0.759083714795      -0.507760803393     0.759083714795      -0.507760803393     0.212513680201      0.273235177714      
9200000000.0        0.21582168339       0.274534732404      0.755132020701      -0.511672947435     0.755132020701      -0.511672947435     0.21582168339       0.274534732404      
9300000000.0        0.219137389866      0.275791604573      0.751164803069      -0.515543475528     0.751164803069      -0.515543475528     0.219137389866      0.275791604573      
9400000000.0        0.222460203846      0.277005884606      0.747182630819      -0.519372485591     0.747182630819      -0.519372485591     0.222460203846      0.277005884606      
9500000000.0        0.225789535403      0.278177671672      0.743186066688      -0.523160084218     0.743186066688      -0.523160084218     0.225789535403      0.278177671672      
9600000000.0        0.229124800582      0.27930707352       0.73917566711       -0.526906386476     0.73917566711       -0.526906386476     0.229124800582      0.27930707352       
9700000000.0        0.232465421514      0.28039420627       0.735151982103      -0.53061151569      0.735151982103      -0.53061151569      0.232465421514      0.28039420627       
9800000000.0        0.235810826523      0.281439194208      0.731115555162      -0.534275603237     0.731115555162      -0.534275603237     0.235810826523      0.281439194208      
9900000000.0        0.239160450223      0.282442169575      0.727066923156      -0.537898788336     0.727066923156      -0.537898788336     0.239160450223      0.282442169575      
10000000000.0       0.242513733615      0.283403272362      0.723006616234      -0.541481217841     0.723006616234      -0.541481217841     0.242513733615      0.283403272362      
