# Hz S RI R 50.00 
100000000.0         0.00723551179816    0.000175304766013   0.992763428625      -0.000237341728477  0.992763428625      -0.000237341728477  0.00723551179816    0.000175304766013   
200000000.0         0.00728265747887    0.000350570528053   0.992716219509      -0.000474644599078  0.992716219509      -0.000474644599078  0.00728265747887    0.000350570528053   
300000000.0         0.00731692965861    0.000525813487953   0.992681880035      -0.00071192489322   0.992681880035      -0.00071192489322   0.00731692965861    0.000525813487953   
400000000.0         0.00734462112905    0.000701039361489   0.992654117412      -0.000949188388683  0.992654117412      -0.000949188388683  0.00734462112905    0.000701039361489   
500000000.0         0.0073681653096     0.000876251412609   0.99263049822       -0.00118643840269   0.99263049822       -0.00118643840269   0.0073681653096     0.000876251412609   
600000000.0         0.00738880817389    0.00105145181464    0.992609776485      -0.0014236771562    0.992609776485      -0.0014236771562    0.00738880817389    0.00105145181464    
700000000.0         0.00740728867221    0.00122664214031    0.992591213257      -0.0016609062655    0.992591213257      -0.0016609062655    0.00740728867221    0.00122664214031    
800000000.0         0.00742408746761    0.00140182358946    0.992574327872      -0.00189812697082   0.992574327872      -0.00189812697082   0.00742408746761    0.00140182358946    
900000000.0         0.00743953786109    0.0015769971116     0.99255878703       -0.00213534025958   0.99255878703       -0.00213534025958   0.00743953786109    0.0015769971116     
1000000000.0        0.00745388210449    0.00175216347856    0.992544348478      -0.00237254693937   0.992544348478      -0.00237254693937   0.00745388210449    0.00175216347856    
1100000000.0        0.00746730275271    0.00192732333077    0.992530829661      -0.00260974768463   0.992530829661      -0.00260974768463   0.00746730275271    0.00192732333077    
1200000000.0        0.00747994137435    0.0021024772082     0.99251808901       -0.00284694306778   0.99251808901       -0.00284694306778   0.00747994137435    0.0021024772082     
1300000000.0        0.00749191034143    0.00227762557209    0.992506014154      -0.00308413358117   0.992506014154      -0.00308413358117   0.00749191034143    0.00227762557209    
1400000000.0        0.00750330059107    0.00245276882061    0.992494514154      -0.00332131965285   0.992494514154      -0.00332131965285   0.00750330059107    0.00245276882061    
1500000000.0        0.00751418692209    0.0026279073005     0.992483514213      -0.00355850165839   0.992483514213      -0.00355850165839   0.00751418692209    0.0026279073005     
1600000000.0        0.00752463172111    0.00280304131597    0.992472951942      -0.00379567992982   0.992472951942      -0.00379567992982   0.00752463172111    0.00280304131597    
1700000000.0        0.00753468765172    0.00297817113552    0.992462774678      -0.00403285476261   0.992462774678      -0.00403285476261   0.00753468765172    0.00297817113552    
1800000000.0        0.00754439963893    0.00315329699747    0.992452937497      -0.00427002642118   0.992452937497      -0.00427002642118   0.00754439963893    0.00315329699747    
1900000000.0        0.0075538063623     0.00332841911423    0.992443401717      -0.00450719514332   0.992443401717      -0.00450719514332   0.0075538063623     0.00332841911423    
2000000000.0        0.0075629413983     0.0035035376759     0.992434133764      -0.00474436114376   0.992434133764      -0.00474436114376   0.0075629413983     0.0035035376759     
2100000000.0        0.00757183410795    0.00367865285311    0.992425104274      -0.00498152461719   0.992425104274      -0.00498152461719   0.00757183410795    0.00367865285311    
2200000000.0        0.00758051033562    0.00385376479951    0.992416287404      -0.00521868574062   0.992416287404      -0.00521868574062   0.00758051033562    0.00385376479951    
2300000000.0        0.00758899296585    0.00402887365372    0.992407660269      -0.00545584467553   0.992407660269      -0.00545584467553   0.00758899296585    0.00402887365372    
2400000000.0        0.00759730237204    0.00420397954111    0.992399202495      -0.00569300156952   0.992399202495      -0.00569300156952   0.00759730237204    0.00420397954111    
2500000000.0        0.00760545678151    0.00437908257518    0.992390895855      -0.00593015655789   0.992390895855      -0.00593015655789   0.00760545678151    0.00437908257518    
2600000000.0        0.00761347257519    0.00455418285885    0.992382723967      -0.00616730976485   0.992382723967      -0.00616730976485   0.00761347257519    0.00455418285885    
2700000000.0        0.00762136453567    0.00472928048555    0.992374672049      -0.00640446130465   0.992374672049      -0.00640446130465   0.00762136453567    0.00472928048555    
2800000000.0        0.00762914605416    0.00490437554013    0.992366726709      -0.00664161128249   0.992366726709      -0.00664161128249   0.00762914605416    0.00490437554013    
2900000000.0        0.0076368293044     0.00507946809965    0.992358875773      -0.00687875979545   0.992358875773      -0.00687875979545   0.0076368293044     0.00507946809965    
3000000000.0        0.00764442538954    0.00525455823415    0.992351108139      -0.00711590693312   0.992351108139      -0.00711590693312   0.00764442538954    0.00525455823415    
3100000000.0        0.00765194446717    0.00542964600725    0.992343413647      -0.0073530527783    0.992343413647      -0.0073530527783    0.00765194446717    0.00542964600725    
3200000000.0        0.00765939585619    0.0056047314767     0.992335782978      -0.00759019740758   0.992335782978      -0.00759019740758   0.00765939585619    0.0056047314767     
3300000000.0        0.00766678812879    0.00577981469491    0.992328207561      -0.00782734089182   0.992328207561      -0.00782734089182   0.00766678812879    0.00577981469491    
3400000000.0        0.00767412918982    0.00595489570935    0.992320679491      -0.00806448329661   0.992320679491      -0.00806448329661   0.00767412918982    0.00595489570935    
3500000000.0        0.00768142634572    0.00612997456296    0.992313191459      -0.00830162468273   0.992313191459      -0.00830162468273   0.00768142634572    0.00612997456296    
3600000000.0        0.00768868636461    0.00630505129451    0.992305736699      -0.00853876510642   0.992305736699      -0.00853876510642   0.00768868636461    0.00630505129451    
3700000000.0        0.00769591552884    0.00648012593894    0.992298308927      -0.00877590461981   0.992298308927      -0.00877590461981   0.00769591552884    0.00648012593894    
3800000000.0        0.00770311968119    0.0066551985276     0.992290902301      -0.00901304327114   0.992290902301      -0.00901304327114   0.00770311968119    0.0066551985276     
3900000000.0        0.00771030426562    0.00683026908857    0.992283511375      -0.00925018110506   0.992283511375      -0.00925018110506   0.00771030426562    0.00683026908857    
4000000000.0        0.00771747436328    0.00700533764679    0.992276131069      -0.00948731816294   0.992276131069      -0.00948731816294   0.00771747436328    0.00700533764679    
4100000000.0        0.00772463472446    0.00718040422444    0.992268756632      -0.00972445448297   0.992268756632      -0.00972445448297   0.00772463472446    0.00718040422444    
4200000000.0        0.00773178979707    0.00735546884102    0.992261383617      -0.00996159010045   0.992261383617      -0.00996159010045   0.00773178979707    0.00735546884102    
4300000000.0        0.00773894375204    0.00753053151354    0.99225400785       -0.010198725048     0.99225400785       -0.010198725048     0.00773894375204    0.00753053151354    
4400000000.0        0.0077461005061     0.0077055922567     0.992246625417      -0.0104358593555    0.992246625417      -0.0104358593555    0.0077461005061     0.0077055922567     
4500000000.0        0.00775326374218    0.00788065108308    0.992239232632      -0.0106729930508    0.992239232632      -0.0106729930508    0.00775326374218    0.00788065108308    
4600000000.0        0.00776043692776    0.00805570800323    0.992231826029      -0.0109101261592    0.992231826029      -0.0109101261592    0.00776043692776    0.00805570800323    
4700000000.0        0.00776762333148    0.00823076302579    0.992224402339      -0.011147258704     0.992224402339      -0.011147258704     0.00776762333148    0.00823076302579    
4800000000.0        0.00777482603812    0.00840581615766    0.992216958476      -0.0113843907064    0.992216958476      -0.0113843907064    0.00777482603812    0.00840581615766    
4900000000.0        0.00778204796213    0.0085808674041     0.992209491526      -0.0116215221859    0.992209491526      -0.0116215221859    0.00778204796213    0.0085808674041     
5000000000.0        0.00778929186003    0.00875591676873    0.992201998732      -0.0118586531602    0.992201998732      -0.0118586531602    0.00778929186003    0.00875591676873    
5100000000.0        0.00779656034154    0.00893096425383    0.992194477484      -0.0120957836452    0.992194477484      -0.0120957836452    0.00779656034154    0.00893096425383    
5200000000.0        0.00780385587987    0.0091060098602     0.992186925308      -0.0123329136554    0.992186925308      -0.0123329136554    0.00780385587987    0.0091060098602     
5300000000.0        0.00781118082101    0.0092810535874     0.992179339858      -0.0125700432037    0.992179339858      -0.0125700432037    0.00781118082101    0.00928105358739    
5400000000.0        0.00781853739226    0.00945609543377    0.992171718906      -0.0128071723015    0.992171718906      -0.0128071723015    0.00781853739226    0.00945609543377    
5500000000.0        0.00782592771009    0.00963113539648    0.992164060336      -0.0130443009592    0.992164060336      -0.0130443009592    0.00782592771009    0.00963113539648    
5600000000.0        0.00783335378728    0.00980617347162    0.992156362134      -0.0132814291857    0.992156362134      -0.0132814291857    0.00783335378728    0.00980617347162    
5700000000.0        0.00784081753955    0.00998120965432    0.992148622384      -0.0135185569885    0.992148622384      -0.0135185569885    0.00784081753955    0.00998120965432    
5800000000.0        0.0078483207916     0.0101562439387     0.992140839262      -0.0137556843745    0.992140839262      -0.0137556843745    0.0078483207916     0.0101562439387     
5900000000.0        0.00785586528274    0.0103312763179     0.992133011028      -0.013992811349     0.992133011028      -0.013992811349     0.00785586528274    0.0103312763179     
6000000000.0        0.00786345267205    0.0105063067843     0.992125136022      -0.0142299379165    0.992125136022      -0.0142299379165    0.00786345267205    0.0105063067843     
6100000000.0        0.00787108454317    0.0106813353296     0.99211721266       -0.0144670640806    0.99211721266       -0.0144670640806    0.00787108454317    0.0106813353296     
6200000000.0        0.00787876240871    0.0108563619444     0.992109239429      -0.0147041898439    0.992109239429      -0.0147041898439    0.00787876240871    0.0108563619444     
6300000000.0        0.00788648771436    0.0110313866188     0.992101214883      -0.014941315208     0.992101214883      -0.014941315208     0.00788648771436    0.0110313866188     
6400000000.0        0.00789426184268    0.0112064093422     0.99209313764       -0.0151784401739    0.99209313764       -0.0151784401739    0.00789426184268    0.0112064093422     
6500000000.0        0.00790208611669    0.0113814301034     0.992085006376      -0.0154155647415    0.992085006376      -0.0154155647415    0.00790208611669    0.0113814301034     
6600000000.0        0.00790996180313    0.0115564488905     0.992076819824      -0.0156526889103    0.992076819824      -0.0156526889103    0.00790996180313    0.0115564488905     
6700000000.0        0.00791789011547    0.0117314656909     0.992068576769      -0.0158898126787    0.992068576769      -0.0158898126787    0.00791789011547    0.0117314656909     
6800000000.0        0.00792587221686    0.0119064804918     0.992060276049      -0.0161269360446    0.992060276049      -0.0161269360446    0.00792587221686    0.0119064804918     
6900000000.0        0.00793390922273    0.0120814932796     0.992051916548      -0.0163640590054    0.992051916548      -0.0163640590054    0.00793390922273    0.0120814932796     
7000000000.0        0.00794200220332    0.0122565040403     0.992043497195      -0.0166011815576    0.992043497195      -0.0166011815576    0.00794200220332    0.0122565040403     
7100000000.0        0.00795015218599    0.0124315127594     0.992035016962      -0.0168383036971    0.992035016962      -0.0168383036971    0.00795015218599    0.0124315127594     
7200000000.0        0.00795836015741    0.012606519422      0.992026474863      -0.0170754254194    0.992026474863      -0.0170754254194    0.00795836015741    0.012606519422      
7300000000.0        0.00796662706556    0.0127815240128     0.992017869948      -0.0173125467195    0.992017869948      -0.0173125467195    0.00796662706556    0.0127815240128     
7400000000.0        0.00797495382172    0.0129565265161     0.992009201307      -0.0175496675915    0.992009201307      -0.0175496675915    0.00797495382172    0.0129565265161     
7500000000.0        0.00798334130221    0.0131315269158     0.992000468062      -0.0177867880295    0.992000468062      -0.0177867880295    0.00798334130221    0.0131315269158     
7600000000.0        0.0079917903501     0.0133065251955     0.991991669371      -0.0180239080266    0.991991669371      -0.0180239080266    0.0079917903501     0.0133065251955     
7700000000.0        0.00800030177678    0.0134815213385     0.991982804421      -0.018261027576     0.991982804421      -0.018261027576     0.00800030177678    0.0134815213385     
7800000000.0        0.00800887636349    0.0136565153275     0.99197387243       -0.01849814667      0.99197387243       -0.01849814667      0.00800887636349    0.0136565153275     
7900000000.0        0.00801751486267    0.0138315071454     0.991964872647      -0.0187352653007    0.991964872647      -0.0187352653007    0.00801751486267    0.0138315071454     
8000000000.0        0.00802621799935    0.0140064967744     0.991955804345      -0.0189723834597    0.991955804345      -0.0189723834597    0.00802621799935    0.0140064967744     
8100000000.0        0.00803498647233    0.0141814841966     0.991946666825      -0.0192095011383    0.991946666825      -0.0192095011383    0.00803498647233    0.0141814841966     
8200000000.0        0.00804382095544    0.0143564693939     0.991937459414      -0.0194466183275    0.991937459414      -0.0194466183275    0.00804382095544    0.0143564693939     
8300000000.0        0.00805272209857    0.0145314523479     0.99192818146       -0.0196837350178    0.99192818146       -0.0196837350178    0.00805272209857    0.0145314523479     
8400000000.0        0.00806169052877    0.0147064330399     0.991918832337      -0.0199208511994    0.991918832337      -0.0199208511994    0.00806169052877    0.0147064330399     
8500000000.0        0.00807072685125    0.0148814114512     0.991909411438      -0.0201579668622    0.991909411438      -0.0201579668622    0.00807072685125    0.0148814114512     
8600000000.0        0.00807983165029    0.0150563875628     0.99189991818       -0.0203950819958    0.99189991818       -0.0203950819958    0.00807983165029    0.0150563875628     
8700000000.0        0.00808900549016    0.0152313613554     0.991890351997      -0.0206321965896    0.991890351997      -0.0206321965896    0.00808900549016    0.0152313613554     
8800000000.0        0.00809824891594    0.0154063328097     0.991880712344      -0.0208693106324    0.991880712344      -0.0208693106324    0.00809824891594    0.0154063328097     
8900000000.0        0.00810756245434    0.0155813019062     0.991870998693      -0.0211064241132    0.991870998693      -0.0211064241132    0.00810756245434    0.0155813019062     
9000000000.0        0.00811694661448    0.0157562686251     0.991861210536      -0.0213435370203    0.991861210536      -0.0213435370203    0.00811694661448    0.0157562686251     
9100000000.0        0.00812640188854    0.0159312329467     0.99185134738       -0.021580649342     0.99185134738       -0.021580649342     0.00812640188854    0.0159312329467     
9200000000.0        0.00813592875251    0.016106194851      0.991841408748      -0.0218177610663    0.991841408748      -0.0218177610663    0.00813592875251    0.016106194851      
9300000000.0        0.00814552766683    0.016281154318      0.99183139418       -0.022054872181     0.99183139418       -0.022054872181     0.00814552766683    0.016281154318      
9400000000.0        0.00815519907697    0.0164561113274     0.991821303229      -0.0222919826737    0.991821303229      -0.0222919826737    0.00815519907697    0.0164561113274     
9500000000.0        0.00816494341408    0.016631065859      0.991811135464      -0.0225290925318    0.991811135464      -0.0225290925318    0.00816494341408    0.016631065859      
9600000000.0        0.0081747610955     0.0168060178924     0.991800890468      -0.0227662017423    0.991800890468      -0.0227662017423    0.0081747610955     0.0168060178924     
9700000000.0        0.00818465252531    0.016980967407      0.991790567835      -0.0230033102922    0.991790567835      -0.0230033102922    0.00818465252531    0.016980967407      
9800000000.0        0.00819461809483    0.0171559143824     0.991780167174      -0.0232404181684    0.991780167174      -0.0232404181684    0.00819461809483    0.0171559143824     
9900000000.0        0.00820465818312    0.0173308587978     0.991769688106      -0.0234775253574    0.991769688106      -0.0234775253574    0.00820465818312    0.0173308587978     
10000000000.0       0.00821477315744    0.0175058006326     0.991759130263      -0.0237146318458    0.991759130263      -0.0237146318458    0.00821477315744    0.0175058006326     
