# Hz S RI R 50.00 
100000000.0         0.0121907507912     0.00135265681461    0.987806668657      -0.00242384975659   0.987806668657      -0.00242384975659   0.0121907507912     0.00135265681461    
200000000.0         0.0122799870306     0.00270466786137    0.987714699611      -0.0048470561568    0.987714699611      -0.0048470561568    0.0122799870306     0.00270466786137    
300000000.0         0.0123544214494     0.00405624250622    0.987636380045      -0.00726983110208   0.987636380045      -0.00726983110208   0.0123544214494     0.00405624250622    
400000000.0         0.0124245472632     0.00540742925811    0.987561216663      -0.00969222514927   0.987561216663      -0.00969222514927   0.0124245472632     0.00540742925811    
500000000.0         0.012494410543      0.00675823925858    0.987485163309      -0.0121142512442    0.987485163309      -0.0121142512442    0.012494410543      0.00675823925858    
600000000.0         0.0125660767101     0.00810866712251    0.987406154471      -0.0145359056481    0.987406154471      -0.0145359056481    0.0125660767101     0.00810866712251    
700000000.0         0.0126407666286     0.00945869841816    0.98732296919       -0.0169571754608    0.98732296919       -0.0169571754608    0.0126407666286     0.00945869841816    
800000000.0         0.0127192714625     0.0108083131343     0.987234816196      -0.019378042114     0.987234816196      -0.019378042114     0.0127192714625     0.0108083131343     
900000000.0         0.0128021374827     0.0121574875408     0.987141149106      -0.0217984832493    0.987141149106      -0.0217984832493    0.0128021374827     0.0121574875408     
1000000000.0        0.0128897597872     0.0135061952904     0.987041572704      -0.024218473831     0.987041572704      -0.024218473831     0.0128897597872     0.0135061952904     
1100000000.0        0.012982434424      0.0148544081172     0.986935790813      -0.0266379868543    0.986935790813      -0.0266379868543    0.012982434424      0.0148544081172     
1200000000.0        0.013080389463      0.0162020963052     0.986823575229      -0.02905699382      0.986823575229      -0.02905699382      0.013080389463      0.0162020963052     
1300000000.0        0.0131838045546     0.0175492290151     0.986704746157      -0.0314754650668    0.986704746157      -0.0314754650668    0.0131838045546     0.0175492290151     
1400000000.0        0.0132928237907     0.0188957745206     0.986579159355      -0.0338933700116    0.986579159355      -0.0338933700116    0.0132928237907     0.0188957745206     
1500000000.0        0.0134075644728     0.0202417003839     0.986446697362      -0.0363106773288    0.986446697362      -0.0363106773288    0.0134075644728     0.0202417003839     
1600000000.0        0.0135281232722     0.0215869735895     0.986307263339      -0.0387273550865    0.986307263339      -0.0387273550865    0.0135281232722     0.0215869735895     
1700000000.0        0.0136545806721     0.0229315606482     0.986160776629      -0.0411433708532    0.986160776629      -0.0411433708532    0.0136545806721     0.0229315606482     
1800000000.0        0.0137870042411     0.024275427679      0.986007169481      -0.043558691782     0.986007169481      -0.043558691782     0.0137870042411     0.024275427679      
1900000000.0        0.013925451094      0.0256185404758     0.98584638459       -0.0459732846782    0.98584638459       -0.0459732846782    0.013925451094      0.0256185404758     
2000000000.0        0.0140699697725     0.0269608645607     0.985678373216      -0.0483871160552    0.985678373216      -0.0483871160552    0.0140699697725     0.0269608645607     
2100000000.0        0.0142206017045     0.0283023652288     0.985503093726      -0.05080015218      0.985503093726      -0.05080015218      0.0142206017045     0.0283023652288     
2200000000.0        0.0143773823523     0.0296430075853     0.985320510445      -0.0532123591116    0.985320510445      -0.0532123591116    0.0143773823523     0.0296430075853     
2300000000.0        0.0145403421261     0.0309827565771     0.985130592741      -0.0556237027337    0.985130592741      -0.0556237027337    0.0145403421261     0.0309827565771     
2400000000.0        0.0147095071194     0.0323215770192     0.984933314293      -0.058034148782     0.984933314293      -0.058034148782     0.0147095071194     0.0323215770192     
2500000000.0        0.0148848997068     0.0336594336179     0.984728652491      -0.0604436628684    0.984728652491      -0.0604436628684    0.0148848997068     0.0336594336179     
2600000000.0        0.0150665390347     0.0349962909907     0.984516587945      -0.0628522105015    0.984516587945      -0.0628522105015    0.0150665390347     0.0349962909907     
2700000000.0        0.0152544414258     0.0363321136838     0.984297104082      -0.0652597571047    0.984297104082      -0.0652597571047    0.0152544414258     0.0363321136838     
2800000000.0        0.0154486207181     0.0376668661874     0.984070186806      -0.0676662680323    0.984070186806      -0.0676662680323    0.0154486207181     0.0376668661874     
2900000000.0        0.0156490885478     0.0390005129493     0.983835824217      -0.0700717085839    0.983835824217      -0.0700717085839    0.0156490885478     0.0390005129493     
3000000000.0        0.0158558545891     0.040333018387      0.983594006366      -0.0724760440163    0.983594006366      -0.0724760440163    0.0158558545891     0.040333018387      
3100000000.0        0.0160689267582     0.0416643468986     0.983344725058      -0.0748792395559    0.983344725058      -0.0748792395559    0.0160689267582     0.0416643468986     
3200000000.0        0.0162883113865     0.0429944628729     0.983087973676      -0.0772812604082    0.983087973676      -0.0772812604082    0.0162883113865     0.0429944628729     
3300000000.0        0.0165140133712     0.044323330698      0.982823747026      -0.0796820717674    0.982823747026      -0.0796820717674    0.0165140133712     0.044323330698      
3400000000.0        0.0167460363037     0.0456509147694     0.982552041218      -0.082081638825     0.982552041218      -0.082081638825     0.0167460363037     0.0456509147694     
3500000000.0        0.0169843825822     0.0469771794979     0.982272853543      -0.0844799267777    0.982272853543      -0.0844799267777    0.0169843825822     0.0469771794979     
3600000000.0        0.017229053509      0.0483020893161     0.981986182385      -0.0868769008344    0.981986182385      -0.0868769008344    0.017229053509      0.0483020893161     
3700000000.0        0.0174800493763     0.0496256086851     0.981692027128      -0.0892725262229    0.981692027128      -0.0892725262229    0.0174800493763     0.0496256086851     
3800000000.0        0.0177373695412     0.0509477020999     0.981390388085      -0.0916667681963    0.981390388085      -0.0916667681963    0.0177373695412     0.0509477020999     
3900000000.0        0.018001012492      0.0522683340956     0.981081266432      -0.0940595920388    0.981081266432      -0.0940595920388    0.018001012492      0.0522683340956     
4000000000.0        0.0182709759067     0.0535874692521     0.980764664146      -0.0964509630708    0.980764664146      -0.0964509630708    0.0182709759067     0.0535874692521     
4100000000.0        0.0185472567056     0.0549050721991     0.980440583958      -0.0988408466544    0.980440583958      -0.0988408466544    0.0185472567056     0.0549050721991     
4200000000.0        0.018829851097      0.0562211076207     0.9801090293        -0.101229208198     0.9801090293        -0.101229208198     0.018829851097      0.0562211076207     
4300000000.0        0.0191187546193     0.0575355402598     0.97977000427       -0.103616013161     0.97977000427       -0.103616013161     0.0191187546193     0.0575355402598     
4400000000.0        0.0194139621779     0.0588483349221     0.97942351359       -0.106001227058     0.97942351359       -0.106001227058     0.0194139621779     0.0588483349221     
4500000000.0        0.0197154680791     0.0601594564802     0.979069562577      -0.108384815462     0.979069562577      -0.108384815462     0.0197154680791     0.0601594564802     
4600000000.0        0.0200232660598     0.0614688698772     0.978708157108      -0.110766744012     0.978708157108      -0.110766744012     0.0200232660598     0.0614688698772     
4700000000.0        0.020337349315      0.0627765401302     0.978339303596      -0.11314697841      0.978339303596      -0.11314697841      0.020337349315      0.0627765401302     
4800000000.0        0.0206577105227     0.0640824323338     0.977963008964      -0.115525484432     0.977963008964      -0.115525484432     0.0206577105227     0.0640824323338     
4900000000.0        0.0209843418665     0.0653865116635     0.977579280624      -0.117902227926     0.977579280624      -0.117902227926     0.0209843418665     0.0653865116635     
5000000000.0        0.0213172350558     0.0666887433789     0.977188126452      -0.120277174818     0.977188126452      -0.120277174818     0.0213172350558     0.0666887433789     
5100000000.0        0.0216563813449     0.0679890928265     0.976789554776      -0.122650291115     0.976789554776      -0.122650291115     0.0216563813449     0.0679890928265     
5200000000.0        0.0220017715498     0.0692875254427     0.976383574354      -0.125021542907     0.976383574354      -0.125021542907     0.0220017715498     0.0692875254427     
5300000000.0        0.0223533960646     0.0705840067568     0.97597019436       -0.12739089637      0.97597019436       -0.12739089637      0.0223533960646     0.0705840067568     
5400000000.0        0.0227112448754     0.071878502394      0.975549424366      -0.129758317772     0.975549424366      -0.129758317772     0.0227112448754     0.071878502394      
5500000000.0        0.0230753075742     0.0731709780772     0.975121274337      -0.132123773469     0.975121274337      -0.132123773469     0.0230753075742     0.0731709780772     
5600000000.0        0.0234455733709     0.0744613996308     0.974685754609      -0.134487229917     0.974685754609      -0.134487229917     0.0234455733709     0.0744613996308     
5700000000.0        0.0238220311052     0.0757497329821     0.974242875883      -0.136848653665     0.974242875883      -0.136848653665     0.0238220311052     0.0757497329821     
5800000000.0        0.0242046692568     0.0770359441647     0.973792649213      -0.139208011365     0.973792649213      -0.139208011365     0.0242046692568     0.0770359441647     
5900000000.0        0.0245934759558     0.0783199993203     0.973335085998      -0.141565269771     0.973335085998      -0.141565269771     0.0245934759558     0.0783199993203     
6000000000.0        0.0249884389917     0.0796018647011     0.972870197968      -0.143920395742     0.972870197968      -0.143920395742     0.0249884389917     0.0796018647011     
6100000000.0        0.025389545822      0.0808815066726     0.972397997179      -0.146273356244     0.972397997179      -0.146273356244     0.025389545822      0.0808815066726     
6200000000.0        0.0257967835807     0.0821588917151     0.971918496007      -0.148624118354     0.971918496007      -0.148624118354     0.0257967835807     0.0821588917151     
6300000000.0        0.0262101390853     0.0834339864265     0.971431707134      -0.15097264926      0.971431707134      -0.15097264926      0.0262101390853     0.0834339864265     
6400000000.0        0.0266295988447     0.0847067575239     0.970937643547      -0.153318916264     0.970937643547      -0.153318916264     0.0266295988447     0.0847067575239     
6500000000.0        0.0270551490653     0.0859771718464     0.970436318526      -0.155662886787     0.970436318526      -0.155662886787     0.0270551490653     0.0859771718464     
6600000000.0        0.0274867756578     0.0872451963563     0.969927745644      -0.158004528364     0.969927745644      -0.158004528364     0.0274867756578     0.0872451963563     
6700000000.0        0.0279244642431     0.0885107981418     0.969411938753      -0.160343808656     0.969411938753      -0.160343808656     0.0279244642431     0.0885107981418     
6800000000.0        0.0283682001578     0.0897739444188     0.968888911987      -0.162680695443     0.968888911987      -0.162680695443     0.0283682001578     0.0897739444188     
6900000000.0        0.0288179684603     0.0910346025324     0.968358679748      -0.165015156631     0.968358679748      -0.165015156631     0.0288179684603     0.0910346025324     
7000000000.0        0.0292737539351     0.0922927399596     0.967821256708      -0.167347160252     0.967821256708      -0.167347160252     0.0292737539351     0.0922927399596     
7100000000.0        0.0297355410985     0.0935483243103     0.9672766578        -0.169676674467     0.9672766578        -0.169676674467     0.0297355410985     0.0935483243103     
7200000000.0        0.0302033142028     0.0948013233298     0.966724898215      -0.172003667569     0.966724898215      -0.172003667569     0.0302033142028     0.0948013233298     
7300000000.0        0.030677057241      0.0960517049003     0.966165993396      -0.174328107981     0.966165993396      -0.174328107981     0.030677057241      0.0960517049003     
7400000000.0        0.0311567539513     0.0972994370427     0.965599959034      -0.17664996426      0.965599959034      -0.17664996426      0.0311567539513     0.0972994370427     
7500000000.0        0.031642387821      0.0985444879183     0.965026811065      -0.178969205102     0.965026811065      -0.178969205102     0.031642387821      0.0985444879183     
7600000000.0        0.0321339420907     0.0997868258304     0.964446565668      -0.181285799337     0.964446565668      -0.181285799337     0.0321339420907     0.0997868258304     
7700000000.0        0.0326313997578     0.101026419227      0.963859239253      -0.183599715936     0.963859239253      -0.183599715936     0.0326313997578     0.101026419227      
7800000000.0        0.0331347435808     0.102263236699      0.963264848469      -0.185910924013     0.963264848469      -0.185910924013     0.0331347435808     0.102263236699      
7900000000.0        0.0336439560823     0.103497246988      0.962663410189      -0.188219392821     0.962663410189      -0.188219392821     0.0336439560823     0.103497246988      
8000000000.0        0.034159019553      0.104728418983      0.962054941515      -0.190525091761     0.962054941515      -0.190525091761     0.034159019553      0.104728418983      
8100000000.0        0.0346799160546     0.105956721721      0.961439459771      -0.192827990377     0.961439459771      -0.192827990377     0.0346799160546     0.105956721721      
8200000000.0        0.0352066274236     0.107182124393      0.960816982498      -0.195128058362     0.960816982498      -0.195128058362     0.0352066274236     0.107182124393      
8300000000.0        0.035739135274      0.108404596343      0.960187527457      -0.197425265559     0.960187527457      -0.197425265559     0.035739135274      0.108404596343      
8400000000.0        0.0362774210007     0.10962410707       0.959551112617      -0.199719581961     0.959551112617      -0.199719581961     0.0362774210007     0.10962410707       
8500000000.0        0.0368214657823     0.110840626228      0.958907756161      -0.202010977712     0.958907756161      -0.202010977712     0.0368214657823     0.110840626228      
8600000000.0        0.0373712505844     0.112054123631      0.958257476476      -0.204299423111     0.958257476476      -0.204299423111     0.0373712505844     0.112054123631      
8700000000.0        0.0379267561622     0.113264569249      0.957600292155      -0.206584888611     0.957600292155      -0.206584888611     0.0379267561622     0.113264569249      
8800000000.0        0.0384879630636     0.114471933214      0.95693622199       -0.208867344823     0.95693622199       -0.208867344823     0.0384879630636     0.114471933214      
8900000000.0        0.0390548516315     0.115676185822      0.956265284975      -0.211146762515     0.956265284975      -0.211146762515     0.0390548516315     0.115676185822      
9000000000.0        0.039627402007      0.116877297528      0.955587500295      -0.213423112613     0.955587500295      -0.213423112613     0.039627402007      0.116877297528      
9100000000.0        0.0402055941318     0.118075238954      0.954902887332      -0.215696366208     0.954902887332      -0.215696366208     0.0402055941318     0.118075238954      
9200000000.0        0.040789407751      0.119269980888      0.954211465657      -0.217966494547     0.954211465657      -0.217966494547     0.040789407751      0.119269980888      
9300000000.0        0.0413788224156     0.120461494284      0.953513255028      -0.220233469044     0.953513255028      -0.220233469044     0.0413788224156     0.120461494284      
9400000000.0        0.0419738174849     0.121649750266      0.952808275389      -0.222497261278     0.952808275389      -0.222497261278     0.0419738174849     0.121649750266      
9500000000.0        0.0425743721292     0.122834720125      0.952096546868      -0.224757842991     0.952096546868      -0.224757842991     0.0425743721292     0.122834720125      
9600000000.0        0.0431804653321     0.124016375324      0.951378089771      -0.227015186095     0.951378089771      -0.227015186095     0.0431804653321     0.124016375324      
9700000000.0        0.0437920758933     0.125194687499      0.950652924584      -0.229269262667     0.950652924584      -0.229269262667     0.0437920758933     0.125194687499      
9800000000.0        0.0444091824304     0.126369628458      0.949921071968      -0.231520044957     0.949921071968      -0.231520044957     0.0444091824304     0.126369628458      
9900000000.0        0.0450317633817     0.127541170184      0.949182552756      -0.233767505383     0.949182552756      -0.233767505383     0.0450317633817     0.127541170184      
10000000000.0       0.0456597970086     0.128709284833      0.948437387953      -0.236011616535     0.948437387953      -0.236011616535     0.0456597970086     0.128709284833      
